Time [s],Packet ID,Address,Data,Read/Write,ACK/NAK
3.010872187500000,0,0x5D,0x2F,Read,ACK
3.010900781250000,0,0x5D,0x00,Read,ACK
3.010922250000000,0,0x5D,0x04,Read,ACK
3.010943718750000,0,0x5D,0x03,Read,ACK
3.010966562500000,0,0x5D,0xF8,Read,ACK
3.010988031250000,0,0x5D,0x07,Read,ACK
3.011009718750000,0,0x5D,0x40,Read,ACK
3.011031343750000,0,0x5D,0x04,Read,ACK
3.011052843750000,0,0x5D,0x03,Read,ACK
3.011074312500000,0,0x5D,0x03,Read,ACK
3.011095812500000,0,0x5D,0x20,Read,ACK
3.011117250000000,0,0x5D,0x00,Read,ACK
3.011138906250000,0,0x5D,0x00,Read,ACK
3.011160500000000,0,0x5D,0x00,Read,ACK
3.011182000000000,0,0x5D,0x00,Read,ACK
3.011203468750000,0,0x5D,0x00,Read,ACK
3.011224937500000,0,0x5D,0x00,Read,ACK
3.011246406250000,0,0x5D,0x00,Read,ACK
3.011268312500000,0,0x5D,0x00,Read,ACK
3.011289812500000,0,0x5D,0x00,Read,ACK
3.011311312500000,0,0x5D,0x00,Read,ACK
3.011332781250000,0,0x5D,0x00,Read,ACK
3.011354312500000,0,0x5D,0x00,Read,ACK
3.011375781250000,0,0x5D,0x00,Read,ACK
3.011397250000000,0,0x5D,0x00,Read,ACK
3.011418750000000,0,0x5D,0x00,Read,ACK
3.011440187500000,0,0x5D,0x00,Read,ACK
3.011461656250000,0,0x5D,0x00,Read,ACK
3.011483156250000,0,0x5D,0x00,Read,ACK
3.011504656250000,0,0x5D,0x00,Read,ACK
3.011526093750000,0,0x5D,0x00,Read,ACK
3.011547562500000,0,0x5D,0x00,Read,ACK
3.011569125000000,0,0x5D,0x00,Read,ACK
3.011590562500000,0,0x5D,0x00,Read,ACK
3.011612062500000,0,0x5D,0x00,Read,ACK
3.011633906250000,0,0x5D,0x00,Read,ACK
3.011655375000000,0,0x5D,0x00,Read,ACK
3.011676843750000,0,0x5D,0x00,Read,ACK
3.011698312500000,0,0x5D,0x00,Read,ACK
3.011719843750000,0,0x5D,0x00,Read,ACK
3.011741343750000,0,0x5D,0x00,Read,ACK
3.011762812500000,0,0x5D,0x00,Read,ACK
3.011784281250000,0,0x5D,0x00,Read,ACK
3.011806062500000,0,0x5D,0x70,Read,ACK
3.011827562500000,0,0x5D,0x65,Read,ACK
3.011850531250000,0,0x5D,0x01,Read,ACK
3.011874343750000,0,0x5D,0x00,Read,ACK
3.011895781250000,0,0x5D,0x00,Read,ACK
3.011917281250000,0,0x5D,0x00,Read,ACK
3.011938937500000,0,0x5D,0x00,Read,ACK
3.011961125000000,0,0x5D,0x00,Read,ACK
3.011982562500000,0,0x5D,0x00,Read,ACK
3.012004031250000,0,0x5D,0x00,Read,ACK
3.012025531250000,0,0x5D,0x00,Read,ACK
3.012047781250000,0,0x5D,0x00,Read,ACK
3.012070218750000,0,0x5D,0x00,Read,ACK
3.012092906250000,0,0x5D,0x00,Read,ACK
3.012114406250000,0,0x5D,0x00,Read,ACK
3.012135875000000,0,0x5D,0x00,Read,ACK
3.012157750000000,0,0x5D,0x00,Read,ACK
3.012179218750000,0,0x5D,0x00,Read,ACK
3.012200812500000,0,0x5D,0x00,Read,ACK
3.012223000000000,0,0x5D,0x00,Read,ACK
3.012244750000000,0,0x5D,0x00,Read,NAK
3.017935812500000,0,0x5D,0x2F,Read,ACK
3.017960343750000,0,0x5D,0x00,Read,ACK
3.017981812500000,0,0x5D,0x04,Read,ACK
3.018003281250000,0,0x5D,0x03,Read,ACK
3.018024750000000,0,0x5D,0xF8,Read,ACK
3.018047187500000,0,0x5D,0x07,Read,ACK
3.018069875000000,0,0x5D,0x40,Read,ACK
3.018091375000000,0,0x5D,0x04,Read,ACK
3.018114062500000,0,0x5D,0x02,Read,ACK
3.018135531250000,0,0x5D,0x03,Read,ACK
3.018158000000000,0,0x5D,0x20,Read,ACK
3.018179437500000,0,0x5D,0x00,Read,ACK
3.018201343750000,0,0x5D,0x00,Read,ACK
3.018222843750000,0,0x5D,0x00,Read,ACK
3.018244312500000,0,0x5D,0x00,Read,ACK
3.018265781250000,0,0x5D,0x00,Read,ACK
3.018287250000000,0,0x5D,0x00,Read,ACK
3.018310406250000,0,0x5D,0x00,Read,ACK
3.018331906250000,0,0x5D,0x00,Read,ACK
3.018353375000000,0,0x5D,0x00,Read,ACK
3.018374843750000,0,0x5D,0x00,Read,ACK
3.018396343750000,0,0x5D,0x00,Read,ACK
3.018417812500000,0,0x5D,0x00,Read,ACK
3.018439281250000,0,0x5D,0x00,Read,ACK
3.018460843750000,0,0x5D,0x00,Read,ACK
3.018482343750000,0,0x5D,0x00,Read,ACK
3.018503812500000,0,0x5D,0x00,Read,ACK
3.018525281250000,0,0x5D,0x00,Read,ACK
3.018546781250000,0,0x5D,0x00,Read,ACK
3.018568250000000,0,0x5D,0x00,Read,ACK
3.018589718750000,0,0x5D,0x00,Read,ACK
3.018611625000000,0,0x5D,0x00,Read,ACK
3.018633125000000,0,0x5D,0x00,Read,ACK
3.018654593750000,0,0x5D,0x00,Read,ACK
3.018676062500000,0,0x5D,0x00,Read,ACK
3.018697531250000,0,0x5D,0x00,Read,ACK
3.018719000000000,0,0x5D,0x00,Read,ACK
3.018740468750000,0,0x5D,0x00,Read,ACK
3.018761968750000,0,0x5D,0x00,Read,ACK
3.018783437500000,0,0x5D,0x00,Read,ACK
3.018804906250000,0,0x5D,0x00,Read,ACK
3.018826375000000,0,0x5D,0x00,Read,ACK
3.018847875000000,0,0x5D,0x00,Read,ACK
3.018869343750000,0,0x5D,0xB6,Read,ACK
3.018890812500000,0,0x5D,0x65,Read,ACK
3.018912281250000,0,0x5D,0x01,Read,ACK
3.018933781250000,0,0x5D,0x00,Read,ACK
3.018955250000000,0,0x5D,0x00,Read,ACK
3.018976906250000,0,0x5D,0x00,Read,ACK
3.018999937500000,0,0x5D,0x00,Read,ACK
3.019021843750000,0,0x5D,0x00,Read,ACK
3.019043718750000,0,0x5D,0x00,Read,ACK
3.019065187500000,0,0x5D,0x00,Read,ACK
3.019086656250000,0,0x5D,0x00,Read,ACK
3.019108125000000,0,0x5D,0x00,Read,ACK
3.019130562500000,0,0x5D,0x00,Read,ACK
3.019152031250000,0,0x5D,0x00,Read,ACK
3.019173500000000,0,0x5D,0x00,Read,ACK
3.019195656250000,0,0x5D,0x00,Read,ACK
3.019217625000000,0,0x5D,0x00,Read,ACK
3.019239125000000,0,0x5D,0x00,Read,ACK
3.019260593750000,0,0x5D,0x00,Read,ACK
3.019282718750000,0,0x5D,0x00,Read,ACK
3.019304437500000,0,0x5D,0x00,Read,NAK
3.025131812500000,0,0x5D,0x2F,Read,ACK
3.025156406250000,0,0x5D,0x00,Read,ACK
3.025177843750000,0,0x5D,0x04,Read,ACK
3.025200312500000,0,0x5D,0x03,Read,ACK
3.025221812500000,0,0x5D,0xF8,Read,ACK
3.025243312500000,0,0x5D,0x07,Read,ACK
3.025264781250000,0,0x5D,0x40,Read,ACK
3.025286312500000,0,0x5D,0x04,Read,ACK
3.025307781250000,0,0x5D,0x02,Read,ACK
3.025329250000000,0,0x5D,0x03,Read,ACK
3.025350718750000,0,0x5D,0x20,Read,ACK
3.025372218750000,0,0x5D,0x00,Read,ACK
3.025393656250000,0,0x5D,0x00,Read,ACK
3.025415156250000,0,0x5D,0x00,Read,ACK
3.025436656250000,0,0x5D,0x00,Read,ACK
3.025458281250000,0,0x5D,0x00,Read,ACK
3.025479781250000,0,0x5D,0x00,Read,ACK
3.025501281250000,0,0x5D,0x00,Read,ACK
3.025522875000000,0,0x5D,0x00,Read,ACK
3.025544375000000,0,0x5D,0x00,Read,ACK
3.025565875000000,0,0x5D,0x00,Read,ACK
3.025587343750000,0,0x5D,0x00,Read,ACK
3.025608812500000,0,0x5D,0x00,Read,ACK
3.025630343750000,0,0x5D,0x00,Read,ACK
3.025652468750000,0,0x5D,0x00,Read,ACK
3.025673937500000,0,0x5D,0x00,Read,ACK
3.025695406250000,0,0x5D,0x00,Read,ACK
3.025717093750000,0,0x5D,0x00,Read,ACK
3.025738593750000,0,0x5D,0x00,Read,ACK
3.025760093750000,0,0x5D,0x00,Read,ACK
3.025781562500000,0,0x5D,0x00,Read,ACK
3.025803031250000,0,0x5D,0x00,Read,ACK
3.025824500000000,0,0x5D,0x00,Read,ACK
3.025846031250000,0,0x5D,0x00,Read,ACK
3.025867468750000,0,0x5D,0x00,Read,ACK
3.025889656250000,0,0x5D,0x00,Read,ACK
3.025911093750000,0,0x5D,0x00,Read,ACK
3.025932593750000,0,0x5D,0x00,Read,ACK
3.025954062500000,0,0x5D,0x00,Read,ACK
3.025975531250000,0,0x5D,0x00,Read,ACK
3.025997000000000,0,0x5D,0x00,Read,ACK
3.026018500000000,0,0x5D,0x00,Read,ACK
3.026040000000000,0,0x5D,0x00,Read,ACK
3.026061437500000,0,0x5D,0xFC,Read,ACK
3.026082906250000,0,0x5D,0x65,Read,ACK
3.026104406250000,0,0x5D,0x01,Read,ACK
3.026127281250000,0,0x5D,0x00,Read,ACK
3.026151031250000,0,0x5D,0x00,Read,ACK
3.026172531250000,0,0x5D,0x00,Read,ACK
3.026194437500000,0,0x5D,0x00,Read,ACK
3.026215906250000,0,0x5D,0x00,Read,ACK
3.026237375000000,0,0x5D,0x00,Read,ACK
3.026259281250000,0,0x5D,0x00,Read,ACK
3.026281062500000,0,0x5D,0x00,Read,ACK
3.026302562500000,0,0x5D,0x00,Read,ACK
3.026324437500000,0,0x5D,0x00,Read,ACK
3.026346750000000,0,0x5D,0x00,Read,ACK
3.026369375000000,0,0x5D,0x00,Read,ACK
3.026392625000000,0,0x5D,0x00,Read,ACK
3.026414125000000,0,0x5D,0x00,Read,ACK
3.026435593750000,0,0x5D,0x00,Read,ACK
3.026457312500000,0,0x5D,0x00,Read,ACK
3.026478875000000,0,0x5D,0x00,Read,ACK
3.026502125000000,0,0x5D,0x00,Read,NAK
3.032226125000000,0,0x5D,0x2F,Read,ACK
3.032250781250000,0,0x5D,0x00,Read,ACK
3.032272281250000,0,0x5D,0x04,Read,ACK
3.032293750000000,0,0x5D,0x03,Read,ACK
3.032315250000000,0,0x5D,0xF7,Read,ACK
3.032337468750000,0,0x5D,0x07,Read,ACK
3.032358937500000,0,0x5D,0x42,Read,ACK
3.032380406250000,0,0x5D,0x04,Read,ACK
3.032401906250000,0,0x5D,0x02,Read,ACK
3.032423375000000,0,0x5D,0x03,Read,ACK
3.032445093750000,0,0x5D,0x20,Read,ACK
3.032466593750000,0,0x5D,0x00,Read,ACK
3.032488125000000,0,0x5D,0x00,Read,ACK
3.032509593750000,0,0x5D,0x00,Read,ACK
3.032531218750000,0,0x5D,0x00,Read,ACK
3.032552656250000,0,0x5D,0x00,Read,ACK
3.032574343750000,0,0x5D,0x00,Read,ACK
3.032595875000000,0,0x5D,0x00,Read,ACK
3.032617375000000,0,0x5D,0x00,Read,ACK
3.032639281250000,0,0x5D,0x00,Read,ACK
3.032660812500000,0,0x5D,0x00,Read,ACK
3.032682250000000,0,0x5D,0x00,Read,ACK
3.032703750000000,0,0x5D,0x00,Read,ACK
3.032725218750000,0,0x5D,0x00,Read,ACK
3.032746718750000,0,0x5D,0x00,Read,ACK
3.032768218750000,0,0x5D,0x00,Read,ACK
3.032789687500000,0,0x5D,0x00,Read,ACK
3.032811187500000,0,0x5D,0x00,Read,ACK
3.032832656250000,0,0x5D,0x00,Read,ACK
3.032854156250000,0,0x5D,0x00,Read,ACK
3.032875656250000,0,0x5D,0x00,Read,ACK
3.032897125000000,0,0x5D,0x00,Read,ACK
3.032918625000000,0,0x5D,0x00,Read,ACK
3.032940125000000,0,0x5D,0x00,Read,ACK
3.032961562500000,0,0x5D,0x00,Read,ACK
3.032983062500000,0,0x5D,0x00,Read,ACK
3.033004531250000,0,0x5D,0x00,Read,ACK
3.033026000000000,0,0x5D,0x00,Read,ACK
3.033047468750000,0,0x5D,0x00,Read,ACK
3.033068937500000,0,0x5D,0x00,Read,ACK
3.033090437500000,0,0x5D,0x00,Read,ACK
3.033111906250000,0,0x5D,0x00,Read,ACK
3.033133375000000,0,0x5D,0x00,Read,ACK
3.033154843750000,0,0x5D,0x42,Read,ACK
3.033176343750000,0,0x5D,0x66,Read,ACK
3.033197812500000,0,0x5D,0x01,Read,ACK
3.033219312500000,0,0x5D,0x00,Read,ACK
3.033240750000000,0,0x5D,0x00,Read,ACK
3.033262375000000,0,0x5D,0x00,Read,ACK
3.033285625000000,0,0x5D,0x00,Read,ACK
3.033308875000000,0,0x5D,0x00,Read,ACK
3.033331375000000,0,0x5D,0x00,Read,ACK
3.033352937500000,0,0x5D,0x00,Read,ACK
3.033374437500000,0,0x5D,0x00,Read,ACK
3.033395906250000,0,0x5D,0x00,Read,ACK
3.033418875000000,0,0x5D,0x00,Read,ACK
3.033440687500000,0,0x5D,0x00,Read,ACK
3.033462187500000,0,0x5D,0x00,Read,ACK
3.033483687500000,0,0x5D,0x00,Read,ACK
3.033505656250000,0,0x5D,0x00,Read,ACK
3.033528281250000,0,0x5D,0x00,Read,ACK
3.033550468750000,0,0x5D,0x00,Read,ACK
3.033571937500000,0,0x5D,0x00,Read,ACK
3.033593437500000,0,0x5D,0x00,Read,NAK
3.039325406250000,0,0x5D,0x2F,Read,ACK
3.039349968750000,0,0x5D,0x00,Read,ACK
3.039371468750000,0,0x5D,0x04,Read,ACK
3.039392968750000,0,0x5D,0x03,Read,ACK
3.039414437500000,0,0x5D,0xF5,Read,ACK
3.039435906250000,0,0x5D,0x07,Read,ACK
3.039457593750000,0,0x5D,0x44,Read,ACK
3.039479812500000,0,0x5D,0x04,Read,ACK
3.039501281250000,0,0x5D,0x02,Read,ACK
3.039523000000000,0,0x5D,0x03,Read,ACK
3.039544468750000,0,0x5D,0x20,Read,ACK
3.039566031250000,0,0x5D,0x00,Read,ACK
3.039589437500000,0,0x5D,0x00,Read,ACK
3.039611687500000,0,0x5D,0x00,Read,ACK
3.039633312500000,0,0x5D,0x00,Read,ACK
3.039654781250000,0,0x5D,0x00,Read,ACK
3.039676250000000,0,0x5D,0x00,Read,ACK
3.039701437500000,0,0x5D,0x00,Read,ACK
3.039726468750000,0,0x5D,0x00,Read,ACK
3.039747937500000,0,0x5D,0x00,Read,ACK
3.039769406250000,0,0x5D,0x00,Read,ACK
3.039790875000000,0,0x5D,0x00,Read,ACK
3.039812343750000,0,0x5D,0x00,Read,ACK
3.039833843750000,0,0x5D,0x00,Read,ACK
3.039855312500000,0,0x5D,0x00,Read,ACK
3.039876781250000,0,0x5D,0x00,Read,ACK
3.039898250000000,0,0x5D,0x00,Read,ACK
3.039919750000000,0,0x5D,0x00,Read,ACK
3.039941406250000,0,0x5D,0x00,Read,ACK
3.039962843750000,0,0x5D,0x00,Read,ACK
3.039984375000000,0,0x5D,0x00,Read,ACK
3.040005812500000,0,0x5D,0x00,Read,ACK
3.040027281250000,0,0x5D,0x00,Read,ACK
3.040048781250000,0,0x5D,0x00,Read,ACK
3.040070250000000,0,0x5D,0x00,Read,ACK
3.040091687500000,0,0x5D,0x00,Read,ACK
3.040113187500000,0,0x5D,0x00,Read,ACK
3.040134656250000,0,0x5D,0x00,Read,ACK
3.040161031250000,0,0x5D,0x00,Read,ACK
3.040184156250000,0,0x5D,0x00,Read,ACK
3.040205625000000,0,0x5D,0x00,Read,ACK
3.040227250000000,0,0x5D,0x00,Read,ACK
3.040249656250000,0,0x5D,0x00,Read,ACK
3.040271125000000,0,0x5D,0x88,Read,ACK
3.040292593750000,0,0x5D,0x66,Read,ACK
3.040314656250000,0,0x5D,0x01,Read,ACK
3.040336093750000,0,0x5D,0x00,Read,ACK
3.040358062500000,0,0x5D,0x00,Read,ACK
3.040380125000000,0,0x5D,0x00,Read,ACK
3.040401593750000,0,0x5D,0x00,Read,ACK
3.040423468750000,0,0x5D,0x00,Read,ACK
3.040445125000000,0,0x5D,0x00,Read,ACK
3.040466562500000,0,0x5D,0x00,Read,ACK
3.040489781250000,0,0x5D,0x00,Read,ACK
3.040511281250000,0,0x5D,0x00,Read,ACK
3.040532750000000,0,0x5D,0x00,Read,ACK
3.040554218750000,0,0x5D,0x00,Read,ACK
3.040575718750000,0,0x5D,0x00,Read,ACK
3.040599218750000,0,0x5D,0x00,Read,ACK
3.040620687500000,0,0x5D,0x00,Read,ACK
3.040643062500000,0,0x5D,0x00,Read,ACK
3.040664562500000,0,0x5D,0x00,Read,ACK
3.040686000000000,0,0x5D,0x00,Read,ACK
3.040709062500000,0,0x5D,0x00,Read,NAK
3.046495500000000,0,0x5D,0x2F,Read,ACK
3.046523250000000,0,0x5D,0x00,Read,ACK
3.046544687500000,0,0x5D,0x04,Read,ACK
3.046566156250000,0,0x5D,0x03,Read,ACK
3.046587656250000,0,0x5D,0xF2,Read,ACK
3.046611093750000,0,0x5D,0x07,Read,ACK
3.046635375000000,0,0x5D,0x48,Read,ACK
3.046656812500000,0,0x5D,0x04,Read,ACK
3.046678375000000,0,0x5D,0x02,Read,ACK
3.046699843750000,0,0x5D,0x03,Read,ACK
3.046721281250000,0,0x5D,0x20,Read,ACK
3.046742875000000,0,0x5D,0x00,Read,ACK
3.046764687500000,0,0x5D,0x00,Read,ACK
3.046786156250000,0,0x5D,0x00,Read,ACK
3.046807625000000,0,0x5D,0x00,Read,ACK
3.046829125000000,0,0x5D,0x00,Read,ACK
3.046851281250000,0,0x5D,0x00,Read,ACK
3.046875531250000,0,0x5D,0x00,Read,ACK
3.046897031250000,0,0x5D,0x00,Read,ACK
3.046918500000000,0,0x5D,0x00,Read,ACK
3.046939968750000,0,0x5D,0x00,Read,ACK
3.046961468750000,0,0x5D,0x00,Read,ACK
3.046982906250000,0,0x5D,0x00,Read,ACK
3.047004406250000,0,0x5D,0x00,Read,ACK
3.047025875000000,0,0x5D,0x00,Read,ACK
3.047047343750000,0,0x5D,0x00,Read,ACK
3.047068812500000,0,0x5D,0x00,Read,ACK
3.047090312500000,0,0x5D,0x00,Read,ACK
3.047111781250000,0,0x5D,0x00,Read,ACK
3.047133250000000,0,0x5D,0x00,Read,ACK
3.047154750000000,0,0x5D,0x00,Read,ACK
3.047176187500000,0,0x5D,0x00,Read,ACK
3.047197687500000,0,0x5D,0x00,Read,ACK
3.047219187500000,0,0x5D,0x00,Read,ACK
3.047240687500000,0,0x5D,0x00,Read,ACK
3.047262156250000,0,0x5D,0x00,Read,ACK
3.047283625000000,0,0x5D,0x00,Read,ACK
3.047306250000000,0,0x5D,0x00,Read,ACK
3.047327687500000,0,0x5D,0x00,Read,ACK
3.047351718750000,0,0x5D,0x00,Read,ACK
3.047373500000000,0,0x5D,0x00,Read,ACK
3.047395781250000,0,0x5D,0x00,Read,ACK
3.047417281250000,0,0x5D,0x00,Read,ACK
3.047438812500000,0,0x5D,0xCE,Read,ACK
3.047460500000000,0,0x5D,0x66,Read,ACK
3.047482000000000,0,0x5D,0x01,Read,ACK
3.047504062500000,0,0x5D,0x00,Read,ACK
3.047526625000000,0,0x5D,0x00,Read,ACK
3.047549093750000,0,0x5D,0x00,Read,ACK
3.047570531250000,0,0x5D,0x00,Read,ACK
3.047592093750000,0,0x5D,0x00,Read,ACK
3.047613562500000,0,0x5D,0x00,Read,ACK
3.047635093750000,0,0x5D,0x00,Read,ACK
3.047658093750000,0,0x5D,0x00,Read,ACK
3.047680812500000,0,0x5D,0x00,Read,ACK
3.047702500000000,0,0x5D,0x00,Read,ACK
3.047724031250000,0,0x5D,0x00,Read,ACK
3.047746281250000,0,0x5D,0x00,Read,ACK
3.047767750000000,0,0x5D,0x00,Read,ACK
3.047789500000000,0,0x5D,0x00,Read,ACK
3.047810937500000,0,0x5D,0x00,Read,ACK
3.047832843750000,0,0x5D,0x00,Read,ACK
3.047855625000000,0,0x5D,0x00,Read,ACK
3.047878031250000,0,0x5D,0x00,Read,NAK
3.053719906250000,0,0x5D,0x2F,Read,ACK
3.053744968750000,0,0x5D,0x00,Read,ACK
3.053767562500000,0,0x5D,0x04,Read,ACK
3.053790687500000,0,0x5D,0x03,Read,ACK
3.053812156250000,0,0x5D,0xEF,Read,ACK
3.053833656250000,0,0x5D,0x07,Read,ACK
3.053855125000000,0,0x5D,0x4B,Read,ACK
3.053878125000000,0,0x5D,0x04,Read,ACK
3.053900875000000,0,0x5D,0x02,Read,ACK
3.053922375000000,0,0x5D,0x03,Read,ACK
3.053943843750000,0,0x5D,0x20,Read,ACK
3.053965312500000,0,0x5D,0x00,Read,ACK
3.053986781250000,0,0x5D,0x00,Read,ACK
3.054008281250000,0,0x5D,0x00,Read,ACK
3.054029750000000,0,0x5D,0x00,Read,ACK
3.054051218750000,0,0x5D,0x00,Read,ACK
3.054072687500000,0,0x5D,0x00,Read,ACK
3.054094187500000,0,0x5D,0x00,Read,ACK
3.054115625000000,0,0x5D,0x00,Read,ACK
3.054137125000000,0,0x5D,0x00,Read,ACK
3.054158937500000,0,0x5D,0x00,Read,ACK
3.054180375000000,0,0x5D,0x00,Read,ACK
3.054201843750000,0,0x5D,0x00,Read,ACK
3.054223375000000,0,0x5D,0x00,Read,ACK
3.054244875000000,0,0x5D,0x00,Read,ACK
3.054266343750000,0,0x5D,0x00,Read,ACK
3.054287812500000,0,0x5D,0x00,Read,ACK
3.054309281250000,0,0x5D,0x00,Read,ACK
3.054330781250000,0,0x5D,0x00,Read,ACK
3.054352250000000,0,0x5D,0x00,Read,ACK
3.054373718750000,0,0x5D,0x00,Read,ACK
3.054395187500000,0,0x5D,0x00,Read,ACK
3.054416687500000,0,0x5D,0x00,Read,ACK
3.054441500000000,0,0x5D,0x00,Read,ACK
3.054463968750000,0,0x5D,0x00,Read,ACK
3.054485843750000,0,0x5D,0x00,Read,ACK
3.054509406250000,0,0x5D,0x00,Read,ACK
3.054530843750000,0,0x5D,0x00,Read,ACK
3.054552343750000,0,0x5D,0x00,Read,ACK
3.054575531250000,0,0x5D,0x00,Read,ACK
3.054598750000000,0,0x5D,0x00,Read,ACK
3.054621125000000,0,0x5D,0x00,Read,ACK
3.054643843750000,0,0x5D,0x00,Read,ACK
3.054667437500000,0,0x5D,0x14,Read,ACK
3.054690312500000,0,0x5D,0x67,Read,ACK
3.054711812500000,0,0x5D,0x01,Read,ACK
3.054733250000000,0,0x5D,0x00,Read,ACK
3.054754937500000,0,0x5D,0x00,Read,ACK
3.054776406250000,0,0x5D,0x00,Read,ACK
3.054797906250000,0,0x5D,0x00,Read,ACK
3.054819937500000,0,0x5D,0x00,Read,ACK
3.054842343750000,0,0x5D,0x00,Read,ACK
3.054865437500000,0,0x5D,0x00,Read,ACK
3.054888156250000,0,0x5D,0x00,Read,ACK
3.054909625000000,0,0x5D,0x00,Read,ACK
3.054931093750000,0,0x5D,0x00,Read,ACK
3.054952875000000,0,0x5D,0x00,Read,ACK
3.054976156250000,0,0x5D,0x00,Read,ACK
3.054998125000000,0,0x5D,0x00,Read,ACK
3.055019843750000,0,0x5D,0x00,Read,ACK
3.055043437500000,0,0x5D,0x00,Read,ACK
3.055066062500000,0,0x5D,0x00,Read,ACK
3.055089968750000,0,0x5D,0x00,Read,ACK
3.055111468750000,0,0x5D,0x00,Read,NAK
3.060877312500000,0,0x5D,0x2F,Read,ACK
3.060906000000000,0,0x5D,0x00,Read,ACK
3.060927750000000,0,0x5D,0x04,Read,ACK
3.060949218750000,0,0x5D,0x03,Read,ACK
3.060970687500000,0,0x5D,0xEC,Read,ACK
3.060992156250000,0,0x5D,0x07,Read,ACK
3.061013656250000,0,0x5D,0x4F,Read,ACK
3.061035125000000,0,0x5D,0x04,Read,ACK
3.061056593750000,0,0x5D,0x03,Read,ACK
3.061078406250000,0,0x5D,0x03,Read,ACK
3.061099906250000,0,0x5D,0x20,Read,ACK
3.061121375000000,0,0x5D,0x00,Read,ACK
3.061142843750000,0,0x5D,0x00,Read,ACK
3.061164343750000,0,0x5D,0x00,Read,ACK
3.061185812500000,0,0x5D,0x00,Read,ACK
3.061207281250000,0,0x5D,0x00,Read,ACK
3.061228750000000,0,0x5D,0x00,Read,ACK
3.061250218750000,0,0x5D,0x00,Read,ACK
3.061271750000000,0,0x5D,0x00,Read,ACK
3.061293187500000,0,0x5D,0x00,Read,ACK
3.061315187500000,0,0x5D,0x00,Read,ACK
3.061336625000000,0,0x5D,0x00,Read,ACK
3.061358093750000,0,0x5D,0x00,Read,ACK
3.061379562500000,0,0x5D,0x00,Read,ACK
3.061401031250000,0,0x5D,0x00,Read,ACK
3.061422531250000,0,0x5D,0x00,Read,ACK
3.061444000000000,0,0x5D,0x00,Read,ACK
3.061465468750000,0,0x5D,0x00,Read,ACK
3.061486968750000,0,0x5D,0x00,Read,ACK
3.061508437500000,0,0x5D,0x00,Read,ACK
3.061529906250000,0,0x5D,0x00,Read,ACK
3.061555093750000,0,0x5D,0x00,Read,ACK
3.061579031250000,0,0x5D,0x00,Read,ACK
3.061601812500000,0,0x5D,0x00,Read,ACK
3.061624156250000,0,0x5D,0x00,Read,ACK
3.061645812500000,0,0x5D,0x00,Read,ACK
3.061667625000000,0,0x5D,0x00,Read,ACK
3.061689125000000,0,0x5D,0x00,Read,ACK
3.061711500000000,0,0x5D,0x00,Read,ACK
3.061732968750000,0,0x5D,0x00,Read,ACK
3.061754593750000,0,0x5D,0x00,Read,ACK
3.061777593750000,0,0x5D,0x00,Read,ACK
3.061799093750000,0,0x5D,0x00,Read,ACK
3.061820750000000,0,0x5D,0x5A,Read,ACK
3.061842218750000,0,0x5D,0x67,Read,ACK
3.061863687500000,0,0x5D,0x01,Read,ACK
3.061885468750000,0,0x5D,0x00,Read,ACK
3.061908093750000,0,0x5D,0x00,Read,ACK
3.061929531250000,0,0x5D,0x00,Read,ACK
3.061951031250000,0,0x5D,0x00,Read,ACK
3.061974687500000,0,0x5D,0x00,Read,ACK
3.061997500000000,0,0x5D,0x00,Read,ACK
3.062019000000000,0,0x5D,0x00,Read,ACK
3.062042031250000,0,0x5D,0x00,Read,ACK
3.062063531250000,0,0x5D,0x00,Read,ACK
3.062085687500000,0,0x5D,0x00,Read,ACK
3.062109500000000,0,0x5D,0x00,Read,ACK
3.062130937500000,0,0x5D,0x00,Read,ACK
3.062153531250000,0,0x5D,0x00,Read,ACK
3.062175906250000,0,0x5D,0x00,Read,ACK
3.062197718750000,0,0x5D,0x00,Read,ACK
3.062222843750000,0,0x5D,0x00,Read,ACK
3.062244312500000,0,0x5D,0x00,Read,ACK
3.062265781250000,0,0x5D,0x00,Read,NAK
3.067963375000000,0,0x5D,0x2F,Read,ACK
3.067991062500000,0,0x5D,0x00,Read,ACK
3.068012531250000,0,0x5D,0x04,Read,ACK
3.068034812500000,0,0x5D,0x03,Read,ACK
3.068057406250000,0,0x5D,0xE7,Read,ACK
3.068078906250000,0,0x5D,0x07,Read,ACK
3.068100375000000,0,0x5D,0x54,Read,ACK
3.068121843750000,0,0x5D,0x04,Read,ACK
3.068143531250000,0,0x5D,0x03,Read,ACK
3.068166343750000,0,0x5D,0x03,Read,ACK
3.068188312500000,0,0x5D,0x20,Read,ACK
3.068209750000000,0,0x5D,0x00,Read,ACK
3.068231218750000,0,0x5D,0x00,Read,ACK
3.068253156250000,0,0x5D,0x00,Read,ACK
3.068274625000000,0,0x5D,0x00,Read,ACK
3.068296093750000,0,0x5D,0x00,Read,ACK
3.068317562500000,0,0x5D,0x00,Read,ACK
3.068339062500000,0,0x5D,0x00,Read,ACK
3.068360531250000,0,0x5D,0x00,Read,ACK
3.068382000000000,0,0x5D,0x00,Read,ACK
3.068403500000000,0,0x5D,0x00,Read,ACK
3.068424937500000,0,0x5D,0x00,Read,ACK
3.068446406250000,0,0x5D,0x00,Read,ACK
3.068467906250000,0,0x5D,0x00,Read,ACK
3.068489375000000,0,0x5D,0x00,Read,ACK
3.068510843750000,0,0x5D,0x00,Read,ACK
3.068532312500000,0,0x5D,0x00,Read,ACK
3.068553843750000,0,0x5D,0x00,Read,ACK
3.068575312500000,0,0x5D,0x00,Read,ACK
3.068596812500000,0,0x5D,0x00,Read,ACK
3.068618281250000,0,0x5D,0x00,Read,ACK
3.068639750000000,0,0x5D,0x00,Read,ACK
3.068663625000000,0,0x5D,0x00,Read,ACK
3.068690718750000,0,0x5D,0x00,Read,ACK
3.068714718750000,0,0x5D,0x00,Read,ACK
3.068737593750000,0,0x5D,0x00,Read,ACK
3.068759031250000,0,0x5D,0x00,Read,ACK
3.068781937500000,0,0x5D,0x00,Read,ACK
3.068803375000000,0,0x5D,0x00,Read,ACK
3.068824843750000,0,0x5D,0x00,Read,ACK
3.068847281250000,0,0x5D,0x00,Read,ACK
3.068869937500000,0,0x5D,0x00,Read,ACK
3.068892968750000,0,0x5D,0x00,Read,ACK
3.068915750000000,0,0x5D,0xA0,Read,ACK
3.068937218750000,0,0x5D,0x67,Read,ACK
3.068958687500000,0,0x5D,0x01,Read,ACK
3.068980156250000,0,0x5D,0x00,Read,ACK
3.069001625000000,0,0x5D,0x00,Read,ACK
3.069023468750000,0,0x5D,0x00,Read,ACK
3.069046375000000,0,0x5D,0x00,Read,ACK
3.069070500000000,0,0x5D,0x00,Read,ACK
3.069094343750000,0,0x5D,0x00,Read,ACK
3.069115843750000,0,0x5D,0x00,Read,ACK
3.069137312500000,0,0x5D,0x00,Read,ACK
3.069160343750000,0,0x5D,0x00,Read,ACK
3.069181843750000,0,0x5D,0x00,Read,ACK
3.069203843750000,0,0x5D,0x00,Read,ACK
3.069226562500000,0,0x5D,0x00,Read,ACK
3.069248062500000,0,0x5D,0x00,Read,ACK
3.069269718750000,0,0x5D,0x00,Read,ACK
3.069292468750000,0,0x5D,0x00,Read,ACK
3.069314906250000,0,0x5D,0x00,Read,ACK
3.069338156250000,0,0x5D,0x00,Read,ACK
3.069366281250000,0,0x5D,0x00,Read,NAK
3.075168500000000,0,0x5D,0x2F,Read,ACK
3.075194968750000,0,0x5D,0x00,Read,ACK
3.075216437500000,0,0x5D,0x04,Read,ACK
3.075237906250000,0,0x5D,0x03,Read,ACK
3.075259375000000,0,0x5D,0xE1,Read,ACK
3.075280875000000,0,0x5D,0x07,Read,ACK
3.075302531250000,0,0x5D,0x5A,Read,ACK
3.075324000000000,0,0x5D,0x04,Read,ACK
3.075345468750000,0,0x5D,0x03,Read,ACK
3.075366968750000,0,0x5D,0x03,Read,ACK
3.075388437500000,0,0x5D,0x20,Read,ACK
3.075409906250000,0,0x5D,0x00,Read,ACK
3.075431375000000,0,0x5D,0x00,Read,ACK
3.075452875000000,0,0x5D,0x00,Read,ACK
3.075474593750000,0,0x5D,0x00,Read,ACK
3.075496125000000,0,0x5D,0x00,Read,ACK
3.075517593750000,0,0x5D,0x00,Read,ACK
3.075539062500000,0,0x5D,0x00,Read,ACK
3.075560531250000,0,0x5D,0x00,Read,ACK
3.075582062500000,0,0x5D,0x00,Read,ACK
3.075603500000000,0,0x5D,0x00,Read,ACK
3.075624968750000,0,0x5D,0x00,Read,ACK
3.075646875000000,0,0x5D,0x00,Read,ACK
3.075668375000000,0,0x5D,0x00,Read,ACK
3.075689843750000,0,0x5D,0x00,Read,ACK
3.075711312500000,0,0x5D,0x00,Read,ACK
3.075732781250000,0,0x5D,0x00,Read,ACK
3.075754687500000,0,0x5D,0x00,Read,ACK
3.075776187500000,0,0x5D,0x00,Read,ACK
3.075797687500000,0,0x5D,0x00,Read,ACK
3.075819156250000,0,0x5D,0x00,Read,ACK
3.075840593750000,0,0x5D,0x00,Read,ACK
3.075862062500000,0,0x5D,0x00,Read,ACK
3.075885000000000,0,0x5D,0x00,Read,ACK
3.075906468750000,0,0x5D,0x00,Read,ACK
3.075927937500000,0,0x5D,0x00,Read,ACK
3.075949843750000,0,0x5D,0x00,Read,ACK
3.075971531250000,0,0x5D,0x00,Read,ACK
3.075993000000000,0,0x5D,0x00,Read,ACK
3.076014468750000,0,0x5D,0x00,Read,ACK
3.076036468750000,0,0x5D,0x00,Read,ACK
3.076060468750000,0,0x5D,0x00,Read,ACK
3.076082562500000,0,0x5D,0x00,Read,ACK
3.076106875000000,0,0x5D,0xE6,Read,ACK
3.076129312500000,0,0x5D,0x67,Read,ACK
3.076152062500000,0,0x5D,0x01,Read,ACK
3.076173531250000,0,0x5D,0x00,Read,ACK
3.076195062500000,0,0x5D,0x00,Read,ACK
3.076217218750000,0,0x5D,0x00,Read,ACK
3.076238687500000,0,0x5D,0x00,Read,ACK
3.076260187500000,0,0x5D,0x00,Read,ACK
3.076281718750000,0,0x5D,0x00,Read,ACK
3.076303937500000,0,0x5D,0x00,Read,ACK
3.076325906250000,0,0x5D,0x00,Read,ACK
3.076347843750000,0,0x5D,0x00,Read,ACK
3.076369468750000,0,0x5D,0x00,Read,ACK
3.076391593750000,0,0x5D,0x00,Read,ACK
3.076413093750000,0,0x5D,0x00,Read,ACK
3.076435000000000,0,0x5D,0x00,Read,ACK
3.076456531250000,0,0x5D,0x00,Read,ACK
3.076480875000000,0,0x5D,0x00,Read,ACK
3.076503218750000,0,0x5D,0x00,Read,ACK
3.076528625000000,0,0x5D,0x00,Read,ACK
3.076550093750000,0,0x5D,0x00,Read,NAK
3.082188125000000,0,0x5D,0x2F,Read,ACK
3.082214343750000,0,0x5D,0x00,Read,ACK
3.082235781250000,0,0x5D,0x04,Read,ACK
3.082257250000000,0,0x5D,0x03,Read,ACK
3.082278750000000,0,0x5D,0xDA,Read,ACK
3.082300218750000,0,0x5D,0x07,Read,ACK
3.082321937500000,0,0x5D,0x61,Read,ACK
3.082343468750000,0,0x5D,0x04,Read,ACK
3.082364937500000,0,0x5D,0x03,Read,ACK
3.082386468750000,0,0x5D,0x03,Read,ACK
3.082407906250000,0,0x5D,0x20,Read,ACK
3.082429406250000,0,0x5D,0x00,Read,ACK
3.082452093750000,0,0x5D,0x00,Read,ACK
3.082473562500000,0,0x5D,0x00,Read,ACK
3.082495062500000,0,0x5D,0x00,Read,ACK
3.082516531250000,0,0x5D,0x00,Read,ACK
3.082538031250000,0,0x5D,0x00,Read,ACK
3.082561062500000,0,0x5D,0x00,Read,ACK
3.082582531250000,0,0x5D,0x00,Read,ACK
3.082604000000000,0,0x5D,0x00,Read,ACK
3.082625687500000,0,0x5D,0x00,Read,ACK
3.082647187500000,0,0x5D,0x00,Read,ACK
3.082668656250000,0,0x5D,0x00,Read,ACK
3.082690156250000,0,0x5D,0x00,Read,ACK
3.082711625000000,0,0x5D,0x00,Read,ACK
3.082733093750000,0,0x5D,0x00,Read,ACK
3.082754593750000,0,0x5D,0x00,Read,ACK
3.082776062500000,0,0x5D,0x00,Read,ACK
3.082797718750000,0,0x5D,0x00,Read,ACK
3.082819187500000,0,0x5D,0x00,Read,ACK
3.082840656250000,0,0x5D,0x00,Read,ACK
3.082862156250000,0,0x5D,0x00,Read,ACK
3.082883625000000,0,0x5D,0x00,Read,ACK
3.082905125000000,0,0x5D,0x00,Read,ACK
3.082926593750000,0,0x5D,0x00,Read,ACK
3.082948281250000,0,0x5D,0x00,Read,ACK
3.082969906250000,0,0x5D,0x00,Read,ACK
3.082991406250000,0,0x5D,0x00,Read,ACK
3.083014218750000,0,0x5D,0x00,Read,ACK
3.083037250000000,0,0x5D,0x00,Read,ACK
3.083058750000000,0,0x5D,0x00,Read,ACK
3.083082406250000,0,0x5D,0x00,Read,ACK
3.083104187500000,0,0x5D,0x00,Read,ACK
3.083127000000000,0,0x5D,0x2C,Read,ACK
3.083149687500000,0,0x5D,0x68,Read,ACK
3.083171125000000,0,0x5D,0x01,Read,ACK
3.083192593750000,0,0x5D,0x00,Read,ACK
3.083214093750000,0,0x5D,0x00,Read,ACK
3.083235750000000,0,0x5D,0x00,Read,ACK
3.083257218750000,0,0x5D,0x00,Read,ACK
3.083279750000000,0,0x5D,0x00,Read,ACK
3.083301218750000,0,0x5D,0x00,Read,ACK
3.083322718750000,0,0x5D,0x00,Read,ACK
3.083344218750000,0,0x5D,0x00,Read,ACK
3.083365656250000,0,0x5D,0x00,Read,ACK
3.083388375000000,0,0x5D,0x00,Read,ACK
3.083409875000000,0,0x5D,0x00,Read,ACK
3.083431656250000,0,0x5D,0x00,Read,ACK
3.083453125000000,0,0x5D,0x00,Read,ACK
3.083477468750000,0,0x5D,0x00,Read,ACK
3.083499000000000,0,0x5D,0x00,Read,ACK
3.083521625000000,0,0x5D,0x00,Read,ACK
3.083543843750000,0,0x5D,0x00,Read,ACK
3.083565312500000,0,0x5D,0x00,Read,NAK
3.089306625000000,0,0x5D,0x2F,Read,ACK
3.089331187500000,0,0x5D,0x00,Read,ACK
3.089352625000000,0,0x5D,0x04,Read,ACK
3.089374093750000,0,0x5D,0x03,Read,ACK
3.089395593750000,0,0x5D,0xD2,Read,ACK
3.089417062500000,0,0x5D,0x07,Read,ACK
3.089438531250000,0,0x5D,0x68,Read,ACK
3.089460000000000,0,0x5D,0x04,Read,ACK
3.089481718750000,0,0x5D,0x03,Read,ACK
3.089508843750000,0,0x5D,0x03,Read,ACK
3.089530312500000,0,0x5D,0x20,Read,ACK
3.089551781250000,0,0x5D,0x00,Read,ACK
3.089573281250000,0,0x5D,0x00,Read,ACK
3.089594781250000,0,0x5D,0x00,Read,ACK
3.089617125000000,0,0x5D,0x00,Read,ACK
3.089638625000000,0,0x5D,0x00,Read,ACK
3.089660343750000,0,0x5D,0x00,Read,ACK
3.089681843750000,0,0x5D,0x00,Read,ACK
3.089703312500000,0,0x5D,0x00,Read,ACK
3.089724781250000,0,0x5D,0x00,Read,ACK
3.089746250000000,0,0x5D,0x00,Read,ACK
3.089768000000000,0,0x5D,0x00,Read,ACK
3.089789468750000,0,0x5D,0x00,Read,ACK
3.089810937500000,0,0x5D,0x00,Read,ACK
3.089832406250000,0,0x5D,0x00,Read,ACK
3.089854093750000,0,0x5D,0x00,Read,ACK
3.089875562500000,0,0x5D,0x00,Read,ACK
3.089897031250000,0,0x5D,0x00,Read,ACK
3.089918500000000,0,0x5D,0x00,Read,ACK
3.089939968750000,0,0x5D,0x00,Read,ACK
3.089961468750000,0,0x5D,0x00,Read,ACK
3.089982937500000,0,0x5D,0x00,Read,ACK
3.090004406250000,0,0x5D,0x00,Read,ACK
3.090025906250000,0,0x5D,0x00,Read,ACK
3.090047406250000,0,0x5D,0x00,Read,ACK
3.090068843750000,0,0x5D,0x00,Read,ACK
3.090090343750000,0,0x5D,0x00,Read,ACK
3.090111812500000,0,0x5D,0x00,Read,ACK
3.090133437500000,0,0x5D,0x00,Read,ACK
3.090155031250000,0,0x5D,0x00,Read,ACK
3.090177406250000,0,0x5D,0x00,Read,ACK
3.090202500000000,0,0x5D,0x00,Read,ACK
3.090224125000000,0,0x5D,0x00,Read,ACK
3.090245875000000,0,0x5D,0x72,Read,ACK
3.090268218750000,0,0x5D,0x68,Read,ACK
3.090289968750000,0,0x5D,0x01,Read,ACK
3.090311468750000,0,0x5D,0x00,Read,ACK
3.090333281250000,0,0x5D,0x00,Read,ACK
3.090355781250000,0,0x5D,0x00,Read,ACK
3.090377250000000,0,0x5D,0x00,Read,ACK
3.090398718750000,0,0x5D,0x00,Read,ACK
3.090421281250000,0,0x5D,0x00,Read,ACK
3.090442718750000,0,0x5D,0x00,Read,ACK
3.090464312500000,0,0x5D,0x00,Read,ACK
3.090485750000000,0,0x5D,0x00,Read,ACK
3.090507218750000,0,0x5D,0x00,Read,ACK
3.090529781250000,0,0x5D,0x00,Read,ACK
3.090554125000000,0,0x5D,0x00,Read,ACK
3.090575593750000,0,0x5D,0x00,Read,ACK
3.090598781250000,0,0x5D,0x00,Read,ACK
3.090620250000000,0,0x5D,0x00,Read,ACK
3.090641843750000,0,0x5D,0x00,Read,ACK
3.090664187500000,0,0x5D,0x00,Read,ACK
3.090685687500000,0,0x5D,0x00,Read,NAK
3.096480437500000,0,0x5D,0x2F,Read,ACK
3.096507593750000,0,0x5D,0x00,Read,ACK
3.096529062500000,0,0x5D,0x04,Read,ACK
3.096550531250000,0,0x5D,0x03,Read,ACK
3.096571968750000,0,0x5D,0xC9,Read,ACK
3.096593937500000,0,0x5D,0x07,Read,ACK
3.096615375000000,0,0x5D,0x6F,Read,ACK
3.096638843750000,0,0x5D,0x04,Read,ACK
3.096660343750000,0,0x5D,0x03,Read,ACK
3.096681812500000,0,0x5D,0x03,Read,ACK
3.096703312500000,0,0x5D,0x20,Read,ACK
3.096724937500000,0,0x5D,0x00,Read,ACK
3.096746406250000,0,0x5D,0x00,Read,ACK
3.096767875000000,0,0x5D,0x00,Read,ACK
3.096789375000000,0,0x5D,0x00,Read,ACK
3.096810843750000,0,0x5D,0x00,Read,ACK
3.096832343750000,0,0x5D,0x00,Read,ACK
3.096856687500000,0,0x5D,0x00,Read,ACK
3.096878187500000,0,0x5D,0x00,Read,ACK
3.096899687500000,0,0x5D,0x00,Read,ACK
3.096921156250000,0,0x5D,0x00,Read,ACK
3.096942656250000,0,0x5D,0x00,Read,ACK
3.096964125000000,0,0x5D,0x00,Read,ACK
3.096985625000000,0,0x5D,0x00,Read,ACK
3.097007062500000,0,0x5D,0x00,Read,ACK
3.097028562500000,0,0x5D,0x00,Read,ACK
3.097050062500000,0,0x5D,0x00,Read,ACK
3.097071593750000,0,0x5D,0x00,Read,ACK
3.097093031250000,0,0x5D,0x00,Read,ACK
3.097114531250000,0,0x5D,0x00,Read,ACK
3.097136000000000,0,0x5D,0x00,Read,ACK
3.097157468750000,0,0x5D,0x00,Read,ACK
3.097178937500000,0,0x5D,0x00,Read,ACK
3.097200437500000,0,0x5D,0x00,Read,ACK
3.097221906250000,0,0x5D,0x00,Read,ACK
3.097243406250000,0,0x5D,0x00,Read,ACK
3.097267343750000,0,0x5D,0x00,Read,ACK
3.097289906250000,0,0x5D,0x00,Read,ACK
3.097312968750000,0,0x5D,0x00,Read,ACK
3.097334406250000,0,0x5D,0x00,Read,ACK
3.097356312500000,0,0x5D,0x00,Read,ACK
3.097378093750000,0,0x5D,0x00,Read,ACK
3.097399593750000,0,0x5D,0x00,Read,ACK
3.097421062500000,0,0x5D,0xB8,Read,ACK
3.097443437500000,0,0x5D,0x68,Read,ACK
3.097466062500000,0,0x5D,0x01,Read,ACK
3.097488125000000,0,0x5D,0x00,Read,ACK
3.097509968750000,0,0x5D,0x00,Read,ACK
3.097531781250000,0,0x5D,0x00,Read,ACK
3.097554937500000,0,0x5D,0x00,Read,ACK
3.097577187500000,0,0x5D,0x00,Read,ACK
3.097598656250000,0,0x5D,0x00,Read,ACK
3.097620562500000,0,0x5D,0x00,Read,ACK
3.097642031250000,0,0x5D,0x00,Read,ACK
3.097663906250000,0,0x5D,0x00,Read,ACK
3.097686750000000,0,0x5D,0x00,Read,ACK
3.097708281250000,0,0x5D,0x00,Read,ACK
3.097730218750000,0,0x5D,0x00,Read,ACK
3.097751687500000,0,0x5D,0x00,Read,ACK
3.097774625000000,0,0x5D,0x00,Read,ACK
3.097796062500000,0,0x5D,0x00,Read,ACK
3.097818750000000,0,0x5D,0x00,Read,ACK
3.097840281250000,0,0x5D,0x00,Read,ACK
3.097861750000000,0,0x5D,0x00,Read,NAK
3.103647375000000,0,0x5D,0x2F,Read,ACK
3.103672531250000,0,0x5D,0x00,Read,ACK
3.103694031250000,0,0x5D,0x04,Read,ACK
3.103715500000000,0,0x5D,0x03,Read,ACK
3.103737000000000,0,0x5D,0xBF,Read,ACK
3.103758468750000,0,0x5D,0x07,Read,ACK
3.103780156250000,0,0x5D,0x77,Read,ACK
3.103801656250000,0,0x5D,0x04,Read,ACK
3.103823156250000,0,0x5D,0x03,Read,ACK
3.103844656250000,0,0x5D,0x03,Read,ACK
3.103866562500000,0,0x5D,0x20,Read,ACK
3.103888000000000,0,0x5D,0x00,Read,ACK
3.103909500000000,0,0x5D,0x00,Read,ACK
3.103930968750000,0,0x5D,0x00,Read,ACK
3.103952437500000,0,0x5D,0x00,Read,ACK
3.103973906250000,0,0x5D,0x00,Read,ACK
3.103995375000000,0,0x5D,0x00,Read,ACK
3.104016875000000,0,0x5D,0x00,Read,ACK
3.104038343750000,0,0x5D,0x00,Read,ACK
3.104059812500000,0,0x5D,0x00,Read,ACK
3.104081281250000,0,0x5D,0x00,Read,ACK
3.104102781250000,0,0x5D,0x00,Read,ACK
3.104124250000000,0,0x5D,0x00,Read,ACK
3.104145718750000,0,0x5D,0x00,Read,ACK
3.104167187500000,0,0x5D,0x00,Read,ACK
3.104188687500000,0,0x5D,0x00,Read,ACK
3.104210218750000,0,0x5D,0x00,Read,ACK
3.104231687500000,0,0x5D,0x00,Read,ACK
3.104253156250000,0,0x5D,0x00,Read,ACK
3.104274656250000,0,0x5D,0x00,Read,ACK
3.104296125000000,0,0x5D,0x00,Read,ACK
3.104317593750000,0,0x5D,0x00,Read,ACK
3.104339062500000,0,0x5D,0x00,Read,ACK
3.104360531250000,0,0x5D,0x00,Read,ACK
3.104382031250000,0,0x5D,0x00,Read,ACK
3.104404781250000,0,0x5D,0x00,Read,ACK
3.104428937500000,0,0x5D,0x00,Read,ACK
3.104451500000000,0,0x5D,0x00,Read,ACK
3.104472968750000,0,0x5D,0x00,Read,ACK
3.104495906250000,0,0x5D,0x00,Read,ACK
3.104517375000000,0,0x5D,0x00,Read,ACK
3.104538843750000,0,0x5D,0x00,Read,ACK
3.104560343750000,0,0x5D,0x00,Read,ACK
3.104582593750000,0,0x5D,0xFE,Read,ACK
3.104605093750000,0,0x5D,0x68,Read,ACK
3.104626562500000,0,0x5D,0x01,Read,ACK
3.104648031250000,0,0x5D,0x00,Read,ACK
3.104669531250000,0,0x5D,0x00,Read,ACK
3.104691031250000,0,0x5D,0x00,Read,ACK
3.104713000000000,0,0x5D,0x00,Read,ACK
3.104734500000000,0,0x5D,0x00,Read,ACK
3.104755968750000,0,0x5D,0x00,Read,ACK
3.104777468750000,0,0x5D,0x00,Read,ACK
3.104799062500000,0,0x5D,0x00,Read,ACK
3.104820531250000,0,0x5D,0x00,Read,ACK
3.104843375000000,0,0x5D,0x00,Read,ACK
3.104864875000000,0,0x5D,0x00,Read,ACK
3.104887312500000,0,0x5D,0x00,Read,ACK
3.104911031250000,0,0x5D,0x00,Read,ACK
3.104934656250000,0,0x5D,0x00,Read,ACK
3.104956343750000,0,0x5D,0x00,Read,ACK
3.104977812500000,0,0x5D,0x00,Read,ACK
3.105000812500000,0,0x5D,0x00,Read,ACK
3.105023718750000,0,0x5D,0x00,Read,NAK
3.111202406250000,0,0x5D,0x2F,Read,ACK
3.111231500000000,0,0x5D,0x00,Read,ACK
3.111253000000000,0,0x5D,0x04,Read,ACK
3.111274468750000,0,0x5D,0x03,Read,ACK
3.111295937500000,0,0x5D,0xB4,Read,ACK
3.111317437500000,0,0x5D,0x07,Read,ACK
3.111338906250000,0,0x5D,0x80,Read,ACK
3.111360375000000,0,0x5D,0x04,Read,ACK
3.111381843750000,0,0x5D,0x03,Read,ACK
3.111403312500000,0,0x5D,0x02,Read,ACK
3.111424781250000,0,0x5D,0x20,Read,ACK
3.111446281250000,0,0x5D,0x00,Read,ACK
3.111467750000000,0,0x5D,0x00,Read,ACK
3.111490250000000,0,0x5D,0x00,Read,ACK
3.111513781250000,0,0x5D,0x00,Read,ACK
3.111535281250000,0,0x5D,0x00,Read,ACK
3.111557031250000,0,0x5D,0x00,Read,ACK
3.111579875000000,0,0x5D,0x00,Read,ACK
3.111601500000000,0,0x5D,0x00,Read,ACK
3.111622968750000,0,0x5D,0x00,Read,ACK
3.111644406250000,0,0x5D,0x00,Read,ACK
3.111666281250000,0,0x5D,0x00,Read,ACK
3.111688406250000,0,0x5D,0x00,Read,ACK
3.111711062500000,0,0x5D,0x00,Read,ACK
3.111733937500000,0,0x5D,0x00,Read,ACK
3.111755406250000,0,0x5D,0x00,Read,ACK
3.111776875000000,0,0x5D,0x00,Read,ACK
3.111798343750000,0,0x5D,0x00,Read,ACK
3.111819843750000,0,0x5D,0x00,Read,ACK
3.111841687500000,0,0x5D,0x00,Read,ACK
3.111863156250000,0,0x5D,0x00,Read,ACK
3.111884843750000,0,0x5D,0x00,Read,ACK
3.111906437500000,0,0x5D,0x00,Read,ACK
3.111927906250000,0,0x5D,0x00,Read,ACK
3.111949375000000,0,0x5D,0x00,Read,ACK
3.111971000000000,0,0x5D,0x00,Read,ACK
3.111993093750000,0,0x5D,0x00,Read,ACK
3.112014687500000,0,0x5D,0x00,Read,ACK
3.112036281250000,0,0x5D,0x00,Read,ACK
3.112058093750000,0,0x5D,0x00,Read,ACK
3.112081031250000,0,0x5D,0x00,Read,ACK
3.112102656250000,0,0x5D,0x00,Read,ACK
3.112124125000000,0,0x5D,0x00,Read,ACK
3.112145593750000,0,0x5D,0x44,Read,ACK
3.112167062500000,0,0x5D,0x69,Read,ACK
3.112190437500000,0,0x5D,0x01,Read,ACK
3.112213468750000,0,0x5D,0x00,Read,ACK
3.112235187500000,0,0x5D,0x00,Read,ACK
3.112256656250000,0,0x5D,0x00,Read,ACK
3.112278156250000,0,0x5D,0x00,Read,ACK
3.112300687500000,0,0x5D,0x00,Read,ACK
3.112323343750000,0,0x5D,0x00,Read,ACK
3.112344812500000,0,0x5D,0x00,Read,ACK
3.112366281250000,0,0x5D,0x00,Read,ACK
3.112387750000000,0,0x5D,0x00,Read,ACK
3.112409875000000,0,0x5D,0x00,Read,ACK
3.112431687500000,0,0x5D,0x00,Read,ACK
3.112454000000000,0,0x5D,0x00,Read,ACK
3.112475531250000,0,0x5D,0x00,Read,ACK
3.112497031250000,0,0x5D,0x00,Read,ACK
3.112518500000000,0,0x5D,0x00,Read,ACK
3.112539968750000,0,0x5D,0x00,Read,ACK
3.112562125000000,0,0x5D,0x00,Read,ACK
3.112583593750000,0,0x5D,0x00,Read,NAK
3.118031593750000,0,0x5D,0x2F,Read,ACK
3.118056843750000,0,0x5D,0x00,Read,ACK
3.118079656250000,0,0x5D,0x04,Read,ACK
3.118101093750000,0,0x5D,0x03,Read,ACK
3.118122593750000,0,0x5D,0xA8,Read,ACK
3.118144062500000,0,0x5D,0x07,Read,ACK
3.118165562500000,0,0x5D,0x89,Read,ACK
3.118187031250000,0,0x5D,0x04,Read,ACK
3.118208500000000,0,0x5D,0x03,Read,ACK
3.118229968750000,0,0x5D,0x02,Read,ACK
3.118251437500000,0,0x5D,0x20,Read,ACK
3.118272906250000,0,0x5D,0x00,Read,ACK
3.118294968750000,0,0x5D,0x00,Read,ACK
3.118317781250000,0,0x5D,0x00,Read,ACK
3.118339218750000,0,0x5D,0x00,Read,ACK
3.118360843750000,0,0x5D,0x00,Read,ACK
3.118382312500000,0,0x5D,0x00,Read,ACK
3.118403781250000,0,0x5D,0x00,Read,ACK
3.118425250000000,0,0x5D,0x00,Read,ACK
3.118446718750000,0,0x5D,0x00,Read,ACK
3.118468218750000,0,0x5D,0x00,Read,ACK
3.118489687500000,0,0x5D,0x00,Read,ACK
3.118511156250000,0,0x5D,0x00,Read,ACK
3.118532781250000,0,0x5D,0x00,Read,ACK
3.118554218750000,0,0x5D,0x00,Read,ACK
3.118575718750000,0,0x5D,0x00,Read,ACK
3.118597500000000,0,0x5D,0x00,Read,ACK
3.118619125000000,0,0x5D,0x00,Read,ACK
3.118640593750000,0,0x5D,0x00,Read,ACK
3.118663000000000,0,0x5D,0x00,Read,ACK
3.118684468750000,0,0x5D,0x00,Read,ACK
3.118705937500000,0,0x5D,0x00,Read,ACK
3.118727781250000,0,0x5D,0x00,Read,ACK
3.118749750000000,0,0x5D,0x00,Read,ACK
3.118771250000000,0,0x5D,0x00,Read,ACK
3.118792718750000,0,0x5D,0x00,Read,ACK
3.118814218750000,0,0x5D,0x00,Read,ACK
3.118835687500000,0,0x5D,0x00,Read,ACK
3.118857656250000,0,0x5D,0x00,Read,ACK
3.118882093750000,0,0x5D,0x00,Read,ACK
3.118903625000000,0,0x5D,0x00,Read,ACK
3.118925250000000,0,0x5D,0x00,Read,ACK
3.118946781250000,0,0x5D,0x00,Read,ACK
3.118968281250000,0,0x5D,0x8A,Read,ACK
3.118990000000000,0,0x5D,0x69,Read,ACK
3.119011687500000,0,0x5D,0x01,Read,ACK
3.119033156250000,0,0x5D,0x00,Read,ACK
3.119056437500000,0,0x5D,0x00,Read,ACK
3.119077906250000,0,0x5D,0x00,Read,ACK
3.119099437500000,0,0x5D,0x00,Read,ACK
3.119121187500000,0,0x5D,0x00,Read,ACK
3.119142656250000,0,0x5D,0x00,Read,ACK
3.119164468750000,0,0x5D,0x00,Read,ACK
3.119186625000000,0,0x5D,0x00,Read,ACK
3.119208062500000,0,0x5D,0x00,Read,ACK
3.119229625000000,0,0x5D,0x00,Read,ACK
3.119252875000000,0,0x5D,0x00,Read,ACK
3.119274375000000,0,0x5D,0x00,Read,ACK
3.119295875000000,0,0x5D,0x00,Read,ACK
3.119317593750000,0,0x5D,0x00,Read,ACK
3.119341750000000,0,0x5D,0x00,Read,ACK
3.119365343750000,0,0x5D,0x00,Read,ACK
3.119387406250000,0,0x5D,0x00,Read,ACK
3.119408875000000,0,0x5D,0x00,Read,NAK
3.125205656250000,0,0x5D,0x2F,Read,ACK
3.125234000000000,0,0x5D,0x00,Read,ACK
3.125255468750000,0,0x5D,0x04,Read,ACK
3.125276968750000,0,0x5D,0x03,Read,ACK
3.125298625000000,0,0x5D,0x9B,Read,ACK
3.125321468750000,0,0x5D,0x07,Read,ACK
3.125342937500000,0,0x5D,0x92,Read,ACK
3.125364406250000,0,0x5D,0x04,Read,ACK
3.125386875000000,0,0x5D,0x02,Read,ACK
3.125408406250000,0,0x5D,0x02,Read,ACK
3.125429843750000,0,0x5D,0x20,Read,ACK
3.125451312500000,0,0x5D,0x00,Read,ACK
3.125472812500000,0,0x5D,0x00,Read,ACK
3.125494281250000,0,0x5D,0x00,Read,ACK
3.125515750000000,0,0x5D,0x00,Read,ACK
3.125537218750000,0,0x5D,0x00,Read,ACK
3.125558687500000,0,0x5D,0x00,Read,ACK
3.125580156250000,0,0x5D,0x00,Read,ACK
3.125601656250000,0,0x5D,0x00,Read,ACK
3.125623125000000,0,0x5D,0x00,Read,ACK
3.125644625000000,0,0x5D,0x00,Read,ACK
3.125666093750000,0,0x5D,0x00,Read,ACK
3.125687562500000,0,0x5D,0x00,Read,ACK
3.125709031250000,0,0x5D,0x00,Read,ACK
3.125730531250000,0,0x5D,0x00,Read,ACK
3.125751968750000,0,0x5D,0x00,Read,ACK
3.125773468750000,0,0x5D,0x00,Read,ACK
3.125798312500000,0,0x5D,0x00,Read,ACK
3.125821625000000,0,0x5D,0x00,Read,ACK
3.125845625000000,0,0x5D,0x00,Read,ACK
3.125869562500000,0,0x5D,0x00,Read,ACK
3.125891500000000,0,0x5D,0x00,Read,ACK
3.125914312500000,0,0x5D,0x00,Read,ACK
3.125935781250000,0,0x5D,0x00,Read,ACK
3.125957250000000,0,0x5D,0x00,Read,ACK
3.125978718750000,0,0x5D,0x00,Read,ACK
3.126000218750000,0,0x5D,0x00,Read,ACK
3.126021687500000,0,0x5D,0x00,Read,ACK
3.126044406250000,0,0x5D,0x00,Read,ACK
3.126066125000000,0,0x5D,0x00,Read,ACK
3.126088562500000,0,0x5D,0x00,Read,ACK
3.126110031250000,0,0x5D,0x00,Read,ACK
3.126133062500000,0,0x5D,0x00,Read,ACK
3.126154937500000,0,0x5D,0xD0,Read,ACK
3.126176406250000,0,0x5D,0x69,Read,ACK
3.126197875000000,0,0x5D,0x01,Read,ACK
3.126220250000000,0,0x5D,0x00,Read,ACK
3.126241781250000,0,0x5D,0x00,Read,ACK
3.126264312500000,0,0x5D,0x00,Read,ACK
3.126286125000000,0,0x5D,0x00,Read,ACK
3.126308218750000,0,0x5D,0x00,Read,ACK
3.126329656250000,0,0x5D,0x00,Read,ACK
3.126352531250000,0,0x5D,0x00,Read,ACK
3.126374000000000,0,0x5D,0x00,Read,ACK
3.126396343750000,0,0x5D,0x00,Read,ACK
3.126417812500000,0,0x5D,0x00,Read,ACK
3.126440531250000,0,0x5D,0x00,Read,ACK
3.126462781250000,0,0x5D,0x00,Read,ACK
3.126486093750000,0,0x5D,0x00,Read,ACK
3.126511343750000,0,0x5D,0x00,Read,ACK
3.126532781250000,0,0x5D,0x00,Read,ACK
3.126554312500000,0,0x5D,0x00,Read,ACK
3.126575750000000,0,0x5D,0x00,Read,ACK
3.126597250000000,0,0x5D,0x00,Read,NAK
3.132294125000000,0,0x5D,0x2F,Read,ACK
3.132322500000000,0,0x5D,0x00,Read,ACK
3.132344593750000,0,0x5D,0x04,Read,ACK
3.132366125000000,0,0x5D,0x03,Read,ACK
3.132387593750000,0,0x5D,0x8D,Read,ACK
3.132409218750000,0,0x5D,0x07,Read,ACK
3.132430656250000,0,0x5D,0x9B,Read,ACK
3.132452312500000,0,0x5D,0x04,Read,ACK
3.132473812500000,0,0x5D,0x02,Read,ACK
3.132495281250000,0,0x5D,0x02,Read,ACK
3.132517000000000,0,0x5D,0x20,Read,ACK
3.132538468750000,0,0x5D,0x00,Read,ACK
3.132559968750000,0,0x5D,0x00,Read,ACK
3.132581437500000,0,0x5D,0x00,Read,ACK
3.132603281250000,0,0x5D,0x00,Read,ACK
3.132625000000000,0,0x5D,0x00,Read,ACK
3.132646500000000,0,0x5D,0x00,Read,ACK
3.132667968750000,0,0x5D,0x00,Read,ACK
3.132689437500000,0,0x5D,0x00,Read,ACK
3.132710906250000,0,0x5D,0x00,Read,ACK
3.132732812500000,0,0x5D,0x00,Read,ACK
3.132754250000000,0,0x5D,0x00,Read,ACK
3.132775718750000,0,0x5D,0x00,Read,ACK
3.132797218750000,0,0x5D,0x00,Read,ACK
3.132818875000000,0,0x5D,0x00,Read,ACK
3.132840343750000,0,0x5D,0x00,Read,ACK
3.132861843750000,0,0x5D,0x00,Read,ACK
3.132883375000000,0,0x5D,0x00,Read,ACK
3.132904843750000,0,0x5D,0x00,Read,ACK
3.132926312500000,0,0x5D,0x00,Read,ACK
3.132947812500000,0,0x5D,0x00,Read,ACK
3.132969250000000,0,0x5D,0x00,Read,ACK
3.132992000000000,0,0x5D,0x00,Read,ACK
3.133017406250000,0,0x5D,0x00,Read,ACK
3.133041093750000,0,0x5D,0x00,Read,ACK
3.133062593750000,0,0x5D,0x00,Read,ACK
3.133084062500000,0,0x5D,0x00,Read,ACK
3.133107031250000,0,0x5D,0x00,Read,ACK
3.133128500000000,0,0x5D,0x00,Read,ACK
3.133150000000000,0,0x5D,0x00,Read,ACK
3.133171468750000,0,0x5D,0x00,Read,ACK
3.133192937500000,0,0x5D,0x00,Read,ACK
3.133214906250000,0,0x5D,0x00,Read,ACK
3.133236562500000,0,0x5D,0x16,Read,ACK
3.133258000000000,0,0x5D,0x6A,Read,ACK
3.133280718750000,0,0x5D,0x01,Read,ACK
3.133302187500000,0,0x5D,0x00,Read,ACK
3.133323687500000,0,0x5D,0x00,Read,ACK
3.133345156250000,0,0x5D,0x00,Read,ACK
3.133366656250000,0,0x5D,0x00,Read,ACK
3.133389531250000,0,0x5D,0x00,Read,ACK
3.133412000000000,0,0x5D,0x00,Read,ACK
3.133433437500000,0,0x5D,0x00,Read,ACK
3.133455718750000,0,0x5D,0x00,Read,ACK
3.133478593750000,0,0x5D,0x00,Read,ACK
3.133501875000000,0,0x5D,0x00,Read,ACK
3.133523468750000,0,0x5D,0x00,Read,ACK
3.133545250000000,0,0x5D,0x00,Read,ACK
3.133567593750000,0,0x5D,0x00,Read,ACK
3.133592312500000,0,0x5D,0x00,Read,ACK
3.133614781250000,0,0x5D,0x00,Read,ACK
3.133636312500000,0,0x5D,0x00,Read,ACK
3.133661625000000,0,0x5D,0x00,Read,ACK
3.133685968750000,0,0x5D,0x00,Read,NAK
3.139359968750000,0,0x5D,0x2F,Read,ACK
3.139384656250000,0,0x5D,0x00,Read,ACK
3.139406093750000,0,0x5D,0x04,Read,ACK
3.139427593750000,0,0x5D,0x03,Read,ACK
3.139449062500000,0,0x5D,0x7F,Read,ACK
3.139470718750000,0,0x5D,0x07,Read,ACK
3.139492687500000,0,0x5D,0xA3,Read,ACK
3.139514687500000,0,0x5D,0x04,Read,ACK
3.139536156250000,0,0x5D,0x03,Read,ACK
3.139557625000000,0,0x5D,0x02,Read,ACK
3.139579125000000,0,0x5D,0x20,Read,ACK
3.139602031250000,0,0x5D,0x00,Read,ACK
3.139624875000000,0,0x5D,0x00,Read,ACK
3.139646375000000,0,0x5D,0x00,Read,ACK
3.139667812500000,0,0x5D,0x00,Read,ACK
3.139689281250000,0,0x5D,0x00,Read,ACK
3.139710781250000,0,0x5D,0x00,Read,ACK
3.139732250000000,0,0x5D,0x00,Read,ACK
3.139753718750000,0,0x5D,0x00,Read,ACK
3.139775218750000,0,0x5D,0x00,Read,ACK
3.139796687500000,0,0x5D,0x00,Read,ACK
3.139818156250000,0,0x5D,0x00,Read,ACK
3.139839625000000,0,0x5D,0x00,Read,ACK
3.139861125000000,0,0x5D,0x00,Read,ACK
3.139882593750000,0,0x5D,0x00,Read,ACK
3.139904062500000,0,0x5D,0x00,Read,ACK
3.139927156250000,0,0x5D,0x00,Read,ACK
3.139948906250000,0,0x5D,0x00,Read,ACK
3.139970375000000,0,0x5D,0x00,Read,ACK
3.139991875000000,0,0x5D,0x00,Read,ACK
3.140013343750000,0,0x5D,0x00,Read,ACK
3.140034812500000,0,0x5D,0x00,Read,ACK
3.140056281250000,0,0x5D,0x00,Read,ACK
3.140077781250000,0,0x5D,0x00,Read,ACK
3.140099218750000,0,0x5D,0x00,Read,ACK
3.140120718750000,0,0x5D,0x00,Read,ACK
3.140142218750000,0,0x5D,0x00,Read,ACK
3.140163687500000,0,0x5D,0x00,Read,ACK
3.140187906250000,0,0x5D,0x00,Read,ACK
3.140209375000000,0,0x5D,0x00,Read,ACK
3.140232093750000,0,0x5D,0x00,Read,ACK
3.140253625000000,0,0x5D,0x00,Read,ACK
3.140275375000000,0,0x5D,0x00,Read,ACK
3.140296968750000,0,0x5D,0x5C,Read,ACK
3.140319593750000,0,0x5D,0x6A,Read,ACK
3.140341500000000,0,0x5D,0x01,Read,ACK
3.140363593750000,0,0x5D,0x00,Read,ACK
3.140386406250000,0,0x5D,0x00,Read,ACK
3.140409937500000,0,0x5D,0x00,Read,ACK
3.140431562500000,0,0x5D,0x00,Read,ACK
3.140453062500000,0,0x5D,0x00,Read,ACK
3.140474531250000,0,0x5D,0x00,Read,ACK
3.140496031250000,0,0x5D,0x00,Read,ACK
3.140519406250000,0,0x5D,0x00,Read,ACK
3.140540875000000,0,0x5D,0x00,Read,ACK
3.140562375000000,0,0x5D,0x00,Read,ACK
3.140583843750000,0,0x5D,0x00,Read,ACK
3.140605343750000,0,0x5D,0x00,Read,ACK
3.140627968750000,0,0x5D,0x00,Read,ACK
3.140649406250000,0,0x5D,0x00,Read,ACK
3.140670875000000,0,0x5D,0x00,Read,ACK
3.140693093750000,0,0x5D,0x00,Read,ACK
3.140717406250000,0,0x5D,0x00,Read,ACK
3.140740375000000,0,0x5D,0x00,Read,NAK
3.146488843750000,0,0x5D,0x2F,Read,ACK
3.146513906250000,0,0x5D,0x00,Read,ACK
3.146535406250000,0,0x5D,0x04,Read,ACK
3.146556875000000,0,0x5D,0x03,Read,ACK
3.146578375000000,0,0x5D,0x70,Read,ACK
3.146599812500000,0,0x5D,0x07,Read,ACK
3.146622031250000,0,0x5D,0xAA,Read,ACK
3.146644593750000,0,0x5D,0x04,Read,ACK
3.146666062500000,0,0x5D,0x03,Read,ACK
3.146687562500000,0,0x5D,0x03,Read,ACK
3.146709000000000,0,0x5D,0x20,Read,ACK
3.146730500000000,0,0x5D,0x00,Read,ACK
3.146752343750000,0,0x5D,0x00,Read,ACK
3.146773812500000,0,0x5D,0x00,Read,ACK
3.146795312500000,0,0x5D,0x00,Read,ACK
3.146816781250000,0,0x5D,0x00,Read,ACK
3.146838250000000,0,0x5D,0x00,Read,ACK
3.146862343750000,0,0x5D,0x00,Read,ACK
3.146883843750000,0,0x5D,0x00,Read,ACK
3.146905281250000,0,0x5D,0x00,Read,ACK
3.146926750000000,0,0x5D,0x00,Read,ACK
3.146948250000000,0,0x5D,0x00,Read,ACK
3.146969718750000,0,0x5D,0x00,Read,ACK
3.146991187500000,0,0x5D,0x00,Read,ACK
3.147012656250000,0,0x5D,0x00,Read,ACK
3.147034187500000,0,0x5D,0x00,Read,ACK
3.147055625000000,0,0x5D,0x00,Read,ACK
3.147077093750000,0,0x5D,0x00,Read,ACK
3.147098593750000,0,0x5D,0x00,Read,ACK
3.147120062500000,0,0x5D,0x00,Read,ACK
3.147141531250000,0,0x5D,0x00,Read,ACK
3.147163000000000,0,0x5D,0x00,Read,ACK
3.147184468750000,0,0x5D,0x00,Read,ACK
3.147205968750000,0,0x5D,0x00,Read,ACK
3.147227437500000,0,0x5D,0x00,Read,ACK
3.147249187500000,0,0x5D,0x00,Read,ACK
3.147270625000000,0,0x5D,0x00,Read,ACK
3.147292125000000,0,0x5D,0x00,Read,ACK
3.147318250000000,0,0x5D,0x00,Read,ACK
3.147339687500000,0,0x5D,0x00,Read,ACK
3.147363250000000,0,0x5D,0x00,Read,ACK
3.147385156250000,0,0x5D,0x00,Read,ACK
3.147406843750000,0,0x5D,0x00,Read,ACK
3.147428468750000,0,0x5D,0xA2,Read,ACK
3.147449937500000,0,0x5D,0x6A,Read,ACK
3.147471406250000,0,0x5D,0x01,Read,ACK
3.147493125000000,0,0x5D,0x00,Read,ACK
3.147514843750000,0,0x5D,0x00,Read,ACK
3.147536656250000,0,0x5D,0x00,Read,ACK
3.147560187500000,0,0x5D,0x00,Read,ACK
3.147581656250000,0,0x5D,0x00,Read,ACK
3.147603125000000,0,0x5D,0x00,Read,ACK
3.147624625000000,0,0x5D,0x00,Read,ACK
3.147647875000000,0,0x5D,0x00,Read,ACK
3.147669468750000,0,0x5D,0x00,Read,ACK
3.147690937500000,0,0x5D,0x00,Read,ACK
3.147712875000000,0,0x5D,0x00,Read,ACK
3.147734375000000,0,0x5D,0x00,Read,ACK
3.147758875000000,0,0x5D,0x00,Read,ACK
3.147780375000000,0,0x5D,0x00,Read,ACK
3.147802031250000,0,0x5D,0x00,Read,ACK
3.147824375000000,0,0x5D,0x00,Read,ACK
3.147846906250000,0,0x5D,0x00,Read,ACK
3.147869687500000,0,0x5D,0x00,Read,NAK
3.151236062500000,0,0x5D,0x05,Write,ACK
3.151258843750000,0,0x5D,0x00,Write,ACK
3.151286375000000,0,0x5D,0x00,Write,ACK
3.151311125000000,0,0x5D,0x08,Write,ACK
3.151788375000000,0,0x5D,0x05,Write,ACK
3.151809781250000,0,0x5D,0x00,Write,ACK
3.151834250000000,0,0x5D,0x37,Write,ACK
3.151855656250000,0,0x5D,0x03,Write,ACK
3.151879000000000,0,0x5D,0x06,Write,ACK
3.151901687500000,0,0x5D,0x00,Write,ACK
3.151927375000000,0,0x5D,0x05,Write,ACK
3.151948875000000,0,0x5D,0x00,Write,ACK
3.151970343750000,0,0x5D,0x07,Write,ACK
3.151991781250000,0,0x5D,0x00,Write,ACK
3.152013281250000,0,0x5D,0x00,Write,ACK
3.153157500000000,0,0x5D,0x05,Write,ACK
3.153178843750000,0,0x5D,0x00,Write,ACK
3.153201062500000,0,0x5D,0x33,Write,ACK
3.153222593750000,0,0x5D,0x03,Write,ACK
3.153244250000000,0,0x5D,0x06,Write,ACK
3.153315750000000,0,0x5D,0x00,Write,ACK
3.153339781250000,0,0x5D,0x05,Write,ACK
3.153362718750000,0,0x5D,0x00,Write,ACK
3.153384218750000,0,0x5D,0x03,Write,ACK
3.153405718750000,0,0x5D,0x03,Write,ACK
3.153427187500000,0,0x5D,0x00,Write,ACK
3.153988875000000,0,0x5D,0x05,Write,ACK
3.154011687500000,0,0x5D,0x00,Write,ACK
3.154036687500000,0,0x5D,0x35,Write,ACK
3.154058156250000,0,0x5D,0x03,Write,ACK
3.154079781250000,0,0x5D,0x06,Write,ACK
3.154102468750000,0,0x5D,0x00,Write,ACK
3.154124406250000,0,0x5D,0x05,Write,ACK
3.154145906250000,0,0x5D,0x00,Write,ACK
3.154167375000000,0,0x5D,0x05,Write,ACK
3.154188843750000,0,0x5D,0x03,Write,ACK
3.154210343750000,0,0x5D,0x00,Write,ACK
3.214108562500000,0,0x5D,0x2F,Read,ACK
3.214139468750000,0,0x5D,0x00,Read,ACK
3.214161031250000,0,0x5D,0x04,Read,ACK
3.214183875000000,0,0x5D,0x03,Read,ACK
3.214205375000000,0,0x5D,0x16,Read,ACK
3.214227093750000,0,0x5D,0x07,Read,ACK
3.214248562500000,0,0x5D,0xBC,Read,ACK
3.214270062500000,0,0x5D,0x04,Read,ACK
3.214291531250000,0,0x5D,0x02,Read,ACK
3.214313531250000,0,0x5D,0x02,Read,ACK
3.214335031250000,0,0x5D,0x20,Read,ACK
3.214356937500000,0,0x5D,0x00,Read,ACK
3.214378406250000,0,0x5D,0x00,Read,ACK
3.214399875000000,0,0x5D,0x00,Read,ACK
3.214421343750000,0,0x5D,0x00,Read,ACK
3.214442843750000,0,0x5D,0x00,Read,ACK
3.214464312500000,0,0x5D,0x00,Read,ACK
3.214485781250000,0,0x5D,0x00,Read,ACK
3.214507281250000,0,0x5D,0x00,Read,ACK
3.214529718750000,0,0x5D,0x00,Read,ACK
3.214552625000000,0,0x5D,0x00,Read,ACK
3.214576531250000,0,0x5D,0x00,Read,ACK
3.214598000000000,0,0x5D,0x00,Read,ACK
3.214619437500000,0,0x5D,0x00,Read,ACK
3.214640906250000,0,0x5D,0x00,Read,ACK
3.214662406250000,0,0x5D,0x00,Read,ACK
3.214683875000000,0,0x5D,0x00,Read,ACK
3.214705343750000,0,0x5D,0x00,Read,ACK
3.214726812500000,0,0x5D,0x00,Read,ACK
3.214748312500000,0,0x5D,0x00,Read,ACK
3.214769781250000,0,0x5D,0x00,Read,ACK
3.214791250000000,0,0x5D,0x00,Read,ACK
3.214812718750000,0,0x5D,0x00,Read,ACK
3.214834218750000,0,0x5D,0x00,Read,ACK
3.214855656250000,0,0x5D,0x00,Read,ACK
3.214877156250000,0,0x5D,0x00,Read,ACK
3.214898625000000,0,0x5D,0x00,Read,ACK
3.214920125000000,0,0x5D,0x00,Read,ACK
3.214941593750000,0,0x5D,0x00,Read,ACK
3.214963062500000,0,0x5D,0x00,Read,ACK
3.214984531250000,0,0x5D,0x00,Read,ACK
3.215006000000000,0,0x5D,0x00,Read,ACK
3.215027468750000,0,0x5D,0x00,Read,ACK
3.215048937500000,0,0x5D,0x46,Read,ACK
3.215070406250000,0,0x5D,0x6C,Read,ACK
3.215091906250000,0,0x5D,0x01,Read,ACK
3.215113625000000,0,0x5D,0x00,Read,ACK
3.215136062500000,0,0x5D,0x00,Read,ACK
3.215157531250000,0,0x5D,0x00,Read,ACK
3.215178968750000,0,0x5D,0x00,Read,ACK
3.215201718750000,0,0x5D,0x00,Read,ACK
3.215223718750000,0,0x5D,0x00,Read,ACK
3.215245218750000,0,0x5D,0x00,Read,ACK
3.215266687500000,0,0x5D,0x00,Read,ACK
3.215288156250000,0,0x5D,0x00,Read,ACK
3.215310125000000,0,0x5D,0x00,Read,ACK
3.215331781250000,0,0x5D,0x00,Read,ACK
3.215353343750000,0,0x5D,0x00,Read,ACK
3.215375312500000,0,0x5D,0x00,Read,ACK
3.215397687500000,0,0x5D,0x00,Read,ACK
3.215419250000000,0,0x5D,0x00,Read,ACK
3.215440718750000,0,0x5D,0x00,Read,ACK
3.215462218750000,0,0x5D,0x00,Read,ACK
3.215483937500000,0,0x5D,0x00,Read,NAK
3.215674187500000,0,0x5D,0x2F,Read,ACK
3.215696875000000,0,0x5D,0x00,Read,ACK
3.215718343750000,0,0x5D,0x04,Read,ACK
3.215741343750000,0,0x5D,0x03,Read,ACK
3.215762843750000,0,0x5D,0x16,Read,ACK
3.215784437500000,0,0x5D,0x07,Read,ACK
3.215805968750000,0,0x5D,0xBC,Read,ACK
3.215828812500000,0,0x5D,0x04,Read,ACK
3.215851531250000,0,0x5D,0x02,Read,ACK
3.215875218750000,0,0x5D,0x02,Read,ACK
3.215896687500000,0,0x5D,0x20,Read,ACK
3.215918781250000,0,0x5D,0x00,Read,ACK
3.215942531250000,0,0x5D,0x00,Read,ACK
3.215964687500000,0,0x5D,0x00,Read,ACK
3.215986281250000,0,0x5D,0x00,Read,ACK
3.216007750000000,0,0x5D,0x00,Read,ACK
3.216029437500000,0,0x5D,0x00,Read,ACK
3.216050968750000,0,0x5D,0x00,Read,ACK
3.216073937500000,0,0x5D,0x00,Read,ACK
3.216095437500000,0,0x5D,0x00,Read,ACK
3.216117937500000,0,0x5D,0x00,Read,ACK
3.216140437500000,0,0x5D,0x00,Read,ACK
3.216162156250000,0,0x5D,0x00,Read,ACK
3.216185593750000,0,0x5D,0x00,Read,ACK
3.216208031250000,0,0x5D,0x00,Read,ACK
3.216233468750000,0,0x5D,0x00,Read,ACK
3.216256343750000,0,0x5D,0x00,Read,ACK
3.216277875000000,0,0x5D,0x00,Read,ACK
3.216299343750000,0,0x5D,0x00,Read,ACK
3.216320906250000,0,0x5D,0x00,Read,ACK
3.216342406250000,0,0x5D,0x00,Read,ACK
3.216363906250000,0,0x5D,0x00,Read,ACK
3.216387031250000,0,0x5D,0x00,Read,ACK
3.216408687500000,0,0x5D,0x00,Read,ACK
3.216431687500000,0,0x5D,0x00,Read,ACK
3.216453156250000,0,0x5D,0x00,Read,ACK
3.216477656250000,0,0x5D,0x00,Read,ACK
3.216499250000000,0,0x5D,0x00,Read,ACK
3.216521656250000,0,0x5D,0x00,Read,ACK
3.216543593750000,0,0x5D,0x00,Read,ACK
3.216565718750000,0,0x5D,0x00,Read,ACK
3.216587187500000,0,0x5D,0x00,Read,ACK
3.216610375000000,0,0x5D,0x00,Read,ACK
3.216632187500000,0,0x5D,0x46,Read,ACK
3.216653656250000,0,0x5D,0x6C,Read,ACK
3.216675812500000,0,0x5D,0x01,Read,ACK
3.216698562500000,0,0x5D,0x00,Read,ACK
3.216720000000000,0,0x5D,0x00,Read,ACK
3.216741500000000,0,0x5D,0x00,Read,ACK
3.216763093750000,0,0x5D,0x00,Read,ACK
3.216786281250000,0,0x5D,0x00,Read,ACK
3.216809250000000,0,0x5D,0x00,Read,ACK
3.216831187500000,0,0x5D,0x00,Read,ACK
3.216853843750000,0,0x5D,0x00,Read,ACK
3.216876156250000,0,0x5D,0x00,Read,ACK
3.216898687500000,0,0x5D,0x00,Read,ACK
3.216920187500000,0,0x5D,0x00,Read,ACK
3.216941656250000,0,0x5D,0x00,Read,ACK
3.216963312500000,0,0x5D,0x00,Read,ACK
3.216984781250000,0,0x5D,0x00,Read,ACK
3.217006250000000,0,0x5D,0x00,Read,ACK
3.217027718750000,0,0x5D,0x00,Read,ACK
3.217049718750000,0,0x5D,0x00,Read,ACK
3.217071156250000,0,0x5D,0x00,Read,NAK
3.217434625000000,0,0x5D,0x2F,Read,ACK
3.217458750000000,0,0x5D,0x00,Read,ACK
3.217480250000000,0,0x5D,0x04,Read,ACK
3.217501718750000,0,0x5D,0x03,Read,ACK
3.217523218750000,0,0x5D,0x06,Read,ACK
3.217544656250000,0,0x5D,0x07,Read,ACK
3.217566125000000,0,0x5D,0xB9,Read,ACK
3.217587625000000,0,0x5D,0x04,Read,ACK
3.217609125000000,0,0x5D,0x02,Read,ACK
3.217631000000000,0,0x5D,0x02,Read,ACK
3.217652937500000,0,0x5D,0x20,Read,ACK
3.217674468750000,0,0x5D,0x00,Read,ACK
3.217695937500000,0,0x5D,0x00,Read,ACK
3.217717406250000,0,0x5D,0x00,Read,ACK
3.217739312500000,0,0x5D,0x00,Read,ACK
3.217761656250000,0,0x5D,0x00,Read,ACK
3.217783500000000,0,0x5D,0x00,Read,ACK
3.217806250000000,0,0x5D,0x00,Read,ACK
3.217827718750000,0,0x5D,0x00,Read,ACK
3.217849187500000,0,0x5D,0x00,Read,ACK
3.217870687500000,0,0x5D,0x00,Read,ACK
3.217893437500000,0,0x5D,0x00,Read,ACK
3.217915125000000,0,0x5D,0x00,Read,ACK
3.217936593750000,0,0x5D,0x00,Read,ACK
3.217958062500000,0,0x5D,0x00,Read,ACK
3.217979562500000,0,0x5D,0x00,Read,ACK
3.218001031250000,0,0x5D,0x00,Read,ACK
3.218022500000000,0,0x5D,0x00,Read,ACK
3.218043968750000,0,0x5D,0x00,Read,ACK
3.218065437500000,0,0x5D,0x00,Read,ACK
3.218086906250000,0,0x5D,0x00,Read,ACK
3.218108406250000,0,0x5D,0x00,Read,ACK
3.218129875000000,0,0x5D,0x00,Read,ACK
3.218151375000000,0,0x5D,0x00,Read,ACK
3.218172843750000,0,0x5D,0x00,Read,ACK
3.218194312500000,0,0x5D,0x00,Read,ACK
3.218215812500000,0,0x5D,0x00,Read,ACK
3.218237250000000,0,0x5D,0x00,Read,ACK
3.218258750000000,0,0x5D,0x00,Read,ACK
3.218280250000000,0,0x5D,0x00,Read,ACK
3.218301687500000,0,0x5D,0x00,Read,ACK
3.218323187500000,0,0x5D,0x00,Read,ACK
3.218344656250000,0,0x5D,0x00,Read,ACK
3.218368093750000,0,0x5D,0x8C,Read,ACK
3.218391531250000,0,0x5D,0x6C,Read,ACK
3.218413343750000,0,0x5D,0x01,Read,ACK
3.218438781250000,0,0x5D,0x00,Read,ACK
3.218461281250000,0,0x5D,0x00,Read,ACK
3.218483437500000,0,0x5D,0x00,Read,ACK
3.218504906250000,0,0x5D,0x00,Read,ACK
3.218526375000000,0,0x5D,0x00,Read,ACK
3.218547843750000,0,0x5D,0x00,Read,ACK
3.218569687500000,0,0x5D,0x00,Read,ACK
3.218591156250000,0,0x5D,0x00,Read,ACK
3.218613593750000,0,0x5D,0x00,Read,ACK
3.218635062500000,0,0x5D,0x00,Read,ACK
3.218658062500000,0,0x5D,0x00,Read,ACK
3.218679500000000,0,0x5D,0x00,Read,ACK
3.218701437500000,0,0x5D,0x00,Read,ACK
3.218722906250000,0,0x5D,0x00,Read,ACK
3.218744375000000,0,0x5D,0x00,Read,ACK
3.218765843750000,0,0x5D,0x00,Read,ACK
3.218787562500000,0,0x5D,0x00,Read,ACK
3.218809906250000,0,0x5D,0x00,Read,NAK
3.219000062500000,0,0x5D,0x2F,Read,ACK
3.219022031250000,0,0x5D,0x00,Read,ACK
3.219045500000000,0,0x5D,0x04,Read,ACK
3.219067406250000,0,0x5D,0x03,Read,ACK
3.219088875000000,0,0x5D,0x06,Read,ACK
3.219111593750000,0,0x5D,0x07,Read,ACK
3.219133062500000,0,0x5D,0xB9,Read,ACK
3.219154562500000,0,0x5D,0x04,Read,ACK
3.219176031250000,0,0x5D,0x02,Read,ACK
3.219197968750000,0,0x5D,0x02,Read,ACK
3.219219406250000,0,0x5D,0x20,Read,ACK
3.219240906250000,0,0x5D,0x00,Read,ACK
3.219262375000000,0,0x5D,0x00,Read,ACK
3.219283843750000,0,0x5D,0x00,Read,ACK
3.219306687500000,0,0x5D,0x00,Read,ACK
3.219328187500000,0,0x5D,0x00,Read,ACK
3.219349687500000,0,0x5D,0x00,Read,ACK
3.219371156250000,0,0x5D,0x00,Read,ACK
3.219392625000000,0,0x5D,0x00,Read,ACK
3.219414093750000,0,0x5D,0x00,Read,ACK
3.219435562500000,0,0x5D,0x00,Read,ACK
3.219457062500000,0,0x5D,0x00,Read,ACK
3.219478781250000,0,0x5D,0x00,Read,ACK
3.219500250000000,0,0x5D,0x00,Read,ACK
3.219521781250000,0,0x5D,0x00,Read,ACK
3.219543250000000,0,0x5D,0x00,Read,ACK
3.219564750000000,0,0x5D,0x00,Read,ACK
3.219586187500000,0,0x5D,0x00,Read,ACK
3.219608187500000,0,0x5D,0x00,Read,ACK
3.219631156250000,0,0x5D,0x00,Read,ACK
3.219652625000000,0,0x5D,0x00,Read,ACK
3.219674906250000,0,0x5D,0x00,Read,ACK
3.219696906250000,0,0x5D,0x00,Read,ACK
3.219718781250000,0,0x5D,0x00,Read,ACK
3.219740281250000,0,0x5D,0x00,Read,ACK
3.219762750000000,0,0x5D,0x00,Read,ACK
3.219784562500000,0,0x5D,0x00,Read,ACK
3.219806031250000,0,0x5D,0x00,Read,ACK
3.219827500000000,0,0x5D,0x00,Read,ACK
3.219853218750000,0,0x5D,0x00,Read,ACK
3.219875218750000,0,0x5D,0x00,Read,ACK
3.219898500000000,0,0x5D,0x00,Read,ACK
3.219919968750000,0,0x5D,0x00,Read,ACK
3.219942343750000,0,0x5D,0x8C,Read,ACK
3.219964531250000,0,0x5D,0x6C,Read,ACK
3.219986031250000,0,0x5D,0x01,Read,ACK
3.220008937500000,0,0x5D,0x00,Read,ACK
3.220031250000000,0,0x5D,0x00,Read,ACK
3.220053218750000,0,0x5D,0x00,Read,ACK
3.220075656250000,0,0x5D,0x00,Read,ACK
3.220099531250000,0,0x5D,0x00,Read,ACK
3.220121000000000,0,0x5D,0x00,Read,ACK
3.220143718750000,0,0x5D,0x00,Read,ACK
3.220165406250000,0,0x5D,0x00,Read,ACK
3.220186937500000,0,0x5D,0x00,Read,ACK
3.220209437500000,0,0x5D,0x00,Read,ACK
3.220232281250000,0,0x5D,0x00,Read,ACK
3.220254125000000,0,0x5D,0x00,Read,ACK
3.220276000000000,0,0x5D,0x00,Read,ACK
3.220297562500000,0,0x5D,0x00,Read,ACK
3.220321406250000,0,0x5D,0x00,Read,ACK
3.220344531250000,0,0x5D,0x00,Read,ACK
3.220366031250000,0,0x5D,0x00,Read,ACK
3.220389125000000,0,0x5D,0x00,Read,NAK
3.220569093750000,0,0x5D,0x2F,Read,ACK
3.220590531250000,0,0x5D,0x00,Read,ACK
3.220612000000000,0,0x5D,0x04,Read,ACK
3.220633468750000,0,0x5D,0x03,Read,ACK
3.220655218750000,0,0x5D,0x06,Read,ACK
3.220676718750000,0,0x5D,0x07,Read,ACK
3.220698468750000,0,0x5D,0xB9,Read,ACK
3.220720093750000,0,0x5D,0x04,Read,ACK
3.220742406250000,0,0x5D,0x02,Read,ACK
3.220763906250000,0,0x5D,0x02,Read,ACK
3.220785375000000,0,0x5D,0x20,Read,ACK
3.220806843750000,0,0x5D,0x00,Read,ACK
3.220829875000000,0,0x5D,0x00,Read,ACK
3.220851468750000,0,0x5D,0x00,Read,ACK
3.220872968750000,0,0x5D,0x00,Read,ACK
3.220894437500000,0,0x5D,0x00,Read,ACK
3.220915937500000,0,0x5D,0x00,Read,ACK
3.220937406250000,0,0x5D,0x00,Read,ACK
3.220960218750000,0,0x5D,0x00,Read,ACK
3.220981781250000,0,0x5D,0x00,Read,ACK
3.221003250000000,0,0x5D,0x00,Read,ACK
3.221024718750000,0,0x5D,0x00,Read,ACK
3.221046187500000,0,0x5D,0x00,Read,ACK
3.221068468750000,0,0x5D,0x00,Read,ACK
3.221090031250000,0,0x5D,0x00,Read,ACK
3.221111531250000,0,0x5D,0x00,Read,ACK
3.221133000000000,0,0x5D,0x00,Read,ACK
3.221154500000000,0,0x5D,0x00,Read,ACK
3.221176000000000,0,0x5D,0x00,Read,ACK
3.221197468750000,0,0x5D,0x00,Read,ACK
3.221218968750000,0,0x5D,0x00,Read,ACK
3.221240437500000,0,0x5D,0x00,Read,ACK
3.221261906250000,0,0x5D,0x00,Read,ACK
3.221283406250000,0,0x5D,0x00,Read,ACK
3.221304875000000,0,0x5D,0x00,Read,ACK
3.221326375000000,0,0x5D,0x00,Read,ACK
3.221347843750000,0,0x5D,0x00,Read,ACK
3.221369437500000,0,0x5D,0x00,Read,ACK
3.221391843750000,0,0x5D,0x00,Read,ACK
3.221413312500000,0,0x5D,0x00,Read,ACK
3.221434781250000,0,0x5D,0x00,Read,ACK
3.221456718750000,0,0x5D,0x00,Read,ACK
3.221478156250000,0,0x5D,0x00,Read,ACK
3.221499656250000,0,0x5D,0x8C,Read,ACK
3.221521156250000,0,0x5D,0x6C,Read,ACK
3.221542593750000,0,0x5D,0x01,Read,ACK
3.221564062500000,0,0x5D,0x00,Read,ACK
3.221585687500000,0,0x5D,0x00,Read,ACK
3.221607156250000,0,0x5D,0x00,Read,ACK
3.221628625000000,0,0x5D,0x00,Read,ACK
3.221650281250000,0,0x5D,0x00,Read,ACK
3.221671781250000,0,0x5D,0x00,Read,ACK
3.221693281250000,0,0x5D,0x00,Read,ACK
3.221714937500000,0,0x5D,0x00,Read,ACK
3.221736406250000,0,0x5D,0x00,Read,ACK
3.221757968750000,0,0x5D,0x00,Read,ACK
3.221779468750000,0,0x5D,0x00,Read,ACK
3.221800937500000,0,0x5D,0x00,Read,ACK
3.221822406250000,0,0x5D,0x00,Read,ACK
3.221843875000000,0,0x5D,0x00,Read,ACK
3.221865375000000,0,0x5D,0x00,Read,ACK
3.221886843750000,0,0x5D,0x00,Read,ACK
3.221908343750000,0,0x5D,0x00,Read,ACK
3.221929812500000,0,0x5D,0x00,Read,NAK
3.225027625000000,0,0x5D,0x2F,Read,ACK
3.225050312500000,0,0x5D,0x00,Read,ACK
3.225072093750000,0,0x5D,0x04,Read,ACK
3.225093562500000,0,0x5D,0x03,Read,ACK
3.225115062500000,0,0x5D,0xF8,Read,ACK
3.225136531250000,0,0x5D,0x06,Read,ACK
3.225157968750000,0,0x5D,0xB5,Read,ACK
3.225179468750000,0,0x5D,0x04,Read,ACK
3.225200968750000,0,0x5D,0x03,Read,ACK
3.225222406250000,0,0x5D,0x02,Read,ACK
3.225243875000000,0,0x5D,0x20,Read,ACK
3.225265375000000,0,0x5D,0x00,Read,ACK
3.225286875000000,0,0x5D,0x00,Read,ACK
3.225308500000000,0,0x5D,0x00,Read,ACK
3.225331468750000,0,0x5D,0x00,Read,ACK
3.225352968750000,0,0x5D,0x00,Read,ACK
3.225374531250000,0,0x5D,0x00,Read,ACK
3.225397031250000,0,0x5D,0x00,Read,ACK
3.225419406250000,0,0x5D,0x00,Read,ACK
3.225440875000000,0,0x5D,0x00,Read,ACK
3.225462375000000,0,0x5D,0x00,Read,ACK
3.225484187500000,0,0x5D,0x00,Read,ACK
3.225506093750000,0,0x5D,0x00,Read,ACK
3.225528375000000,0,0x5D,0x00,Read,ACK
3.225550093750000,0,0x5D,0x00,Read,ACK
3.225571593750000,0,0x5D,0x00,Read,ACK
3.225593062500000,0,0x5D,0x00,Read,ACK
3.225614625000000,0,0x5D,0x00,Read,ACK
3.225636156250000,0,0x5D,0x00,Read,ACK
3.225659750000000,0,0x5D,0x00,Read,ACK
3.225681250000000,0,0x5D,0x00,Read,ACK
3.225702750000000,0,0x5D,0x00,Read,ACK
3.225724437500000,0,0x5D,0x00,Read,ACK
3.225745968750000,0,0x5D,0x00,Read,ACK
3.225767406250000,0,0x5D,0x00,Read,ACK
3.225788906250000,0,0x5D,0x00,Read,ACK
3.225810375000000,0,0x5D,0x00,Read,ACK
3.225831875000000,0,0x5D,0x00,Read,ACK
3.225853375000000,0,0x5D,0x00,Read,ACK
3.225874843750000,0,0x5D,0x00,Read,ACK
3.225896343750000,0,0x5D,0x00,Read,ACK
3.225919250000000,0,0x5D,0x00,Read,ACK
3.225940718750000,0,0x5D,0x00,Read,ACK
3.225962625000000,0,0x5D,0xD2,Read,ACK
3.225986031250000,0,0x5D,0x6C,Read,ACK
3.226009875000000,0,0x5D,0x01,Read,ACK
3.226031781250000,0,0x5D,0x00,Read,ACK
3.226053500000000,0,0x5D,0x00,Read,ACK
3.226075000000000,0,0x5D,0x00,Read,ACK
3.226096468750000,0,0x5D,0x00,Read,ACK
3.226117968750000,0,0x5D,0x00,Read,ACK
3.226139843750000,0,0x5D,0x00,Read,ACK
3.226161437500000,0,0x5D,0x00,Read,ACK
3.226183906250000,0,0x5D,0x00,Read,ACK
3.226205343750000,0,0x5D,0x00,Read,ACK
3.226226812500000,0,0x5D,0x00,Read,ACK
3.226248531250000,0,0x5D,0x00,Read,ACK
3.226270281250000,0,0x5D,0x00,Read,ACK
3.226291781250000,0,0x5D,0x00,Read,ACK
3.226313218750000,0,0x5D,0x00,Read,ACK
3.226334718750000,0,0x5D,0x00,Read,ACK
3.226356187500000,0,0x5D,0x00,Read,ACK
3.226377937500000,0,0x5D,0x00,Read,ACK
3.226400781250000,0,0x5D,0x00,Read,NAK
3.231884531250000,0,0x5D,0x2F,Read,ACK
3.231911062500000,0,0x5D,0x00,Read,ACK
3.231932531250000,0,0x5D,0x04,Read,ACK
3.231954000000000,0,0x5D,0x03,Read,ACK
3.231975718750000,0,0x5D,0xEC,Read,ACK
3.231997187500000,0,0x5D,0x06,Read,ACK
3.232018656250000,0,0x5D,0xAF,Read,ACK
3.232041093750000,0,0x5D,0x04,Read,ACK
3.232062562500000,0,0x5D,0x03,Read,ACK
3.232084031250000,0,0x5D,0x02,Read,ACK
3.232105531250000,0,0x5D,0x20,Read,ACK
3.232127000000000,0,0x5D,0x00,Read,ACK
3.232150125000000,0,0x5D,0x00,Read,ACK
3.232171625000000,0,0x5D,0x00,Read,ACK
3.232193093750000,0,0x5D,0x00,Read,ACK
3.232214562500000,0,0x5D,0x00,Read,ACK
3.232236062500000,0,0x5D,0x00,Read,ACK
3.232258656250000,0,0x5D,0x00,Read,ACK
3.232280156250000,0,0x5D,0x00,Read,ACK
3.232301656250000,0,0x5D,0x00,Read,ACK
3.232323156250000,0,0x5D,0x00,Read,ACK
3.232344750000000,0,0x5D,0x00,Read,ACK
3.232366218750000,0,0x5D,0x00,Read,ACK
3.232387687500000,0,0x5D,0x00,Read,ACK
3.232409187500000,0,0x5D,0x00,Read,ACK
3.232430656250000,0,0x5D,0x00,Read,ACK
3.232452187500000,0,0x5D,0x00,Read,ACK
3.232473656250000,0,0x5D,0x00,Read,ACK
3.232498500000000,0,0x5D,0x00,Read,ACK
3.232521187500000,0,0x5D,0x00,Read,ACK
3.232545937500000,0,0x5D,0x00,Read,ACK
3.232567968750000,0,0x5D,0x00,Read,ACK
3.232590531250000,0,0x5D,0x00,Read,ACK
3.232612000000000,0,0x5D,0x00,Read,ACK
3.232633500000000,0,0x5D,0x00,Read,ACK
3.232655156250000,0,0x5D,0x00,Read,ACK
3.232678187500000,0,0x5D,0x00,Read,ACK
3.232701781250000,0,0x5D,0x00,Read,ACK
3.232723375000000,0,0x5D,0x00,Read,ACK
3.232744843750000,0,0x5D,0x00,Read,ACK
3.232767625000000,0,0x5D,0x00,Read,ACK
3.232789125000000,0,0x5D,0x00,Read,ACK
3.232811093750000,0,0x5D,0x00,Read,ACK
3.232833031250000,0,0x5D,0x18,Read,ACK
3.232855781250000,0,0x5D,0x6D,Read,ACK
3.232877281250000,0,0x5D,0x01,Read,ACK
3.232898750000000,0,0x5D,0x00,Read,ACK
3.232920218750000,0,0x5D,0x00,Read,ACK
3.232942656250000,0,0x5D,0x00,Read,ACK
3.232964375000000,0,0x5D,0x00,Read,ACK
3.232985843750000,0,0x5D,0x00,Read,ACK
3.233007781250000,0,0x5D,0x00,Read,ACK
3.233030468750000,0,0x5D,0x00,Read,ACK
3.233051968750000,0,0x5D,0x00,Read,ACK
3.233073406250000,0,0x5D,0x00,Read,ACK
3.233096281250000,0,0x5D,0x00,Read,ACK
3.233118656250000,0,0x5D,0x00,Read,ACK
3.233140375000000,0,0x5D,0x00,Read,ACK
3.233167562500000,0,0x5D,0x00,Read,ACK
3.233189000000000,0,0x5D,0x00,Read,ACK
3.233210750000000,0,0x5D,0x00,Read,ACK
3.233232218750000,0,0x5D,0x00,Read,ACK
3.233253687500000,0,0x5D,0x00,Read,ACK
3.233275843750000,0,0x5D,0x00,Read,NAK
3.239000093750000,0,0x5D,0x2F,Read,ACK
3.239029562500000,0,0x5D,0x00,Read,ACK
3.239052375000000,0,0x5D,0x04,Read,ACK
3.239074375000000,0,0x5D,0x03,Read,ACK
3.239095906250000,0,0x5D,0xE3,Read,ACK
3.239117343750000,0,0x5D,0x06,Read,ACK
3.239139187500000,0,0x5D,0xA9,Read,ACK
3.239160781250000,0,0x5D,0x04,Read,ACK
3.239182281250000,0,0x5D,0x03,Read,ACK
3.239203750000000,0,0x5D,0x02,Read,ACK
3.239225250000000,0,0x5D,0x20,Read,ACK
3.239246718750000,0,0x5D,0x00,Read,ACK
3.239268187500000,0,0x5D,0x00,Read,ACK
3.239289687500000,0,0x5D,0x00,Read,ACK
3.239311125000000,0,0x5D,0x00,Read,ACK
3.239332625000000,0,0x5D,0x00,Read,ACK
3.239354093750000,0,0x5D,0x00,Read,ACK
3.239375562500000,0,0x5D,0x00,Read,ACK
3.239397031250000,0,0x5D,0x00,Read,ACK
3.239418531250000,0,0x5D,0x00,Read,ACK
3.239440000000000,0,0x5D,0x00,Read,ACK
3.239461468750000,0,0x5D,0x00,Read,ACK
3.239482937500000,0,0x5D,0x00,Read,ACK
3.239504437500000,0,0x5D,0x00,Read,ACK
3.239525968750000,0,0x5D,0x00,Read,ACK
3.239547437500000,0,0x5D,0x00,Read,ACK
3.239569156250000,0,0x5D,0x00,Read,ACK
3.239590625000000,0,0x5D,0x00,Read,ACK
3.239612125000000,0,0x5D,0x00,Read,ACK
3.239633562500000,0,0x5D,0x00,Read,ACK
3.239655062500000,0,0x5D,0x00,Read,ACK
3.239676531250000,0,0x5D,0x00,Read,ACK
3.239698468750000,0,0x5D,0x00,Read,ACK
3.239720875000000,0,0x5D,0x00,Read,ACK
3.239744500000000,0,0x5D,0x00,Read,ACK
3.239765937500000,0,0x5D,0x00,Read,ACK
3.239788656250000,0,0x5D,0x00,Read,ACK
3.239810125000000,0,0x5D,0x00,Read,ACK
3.239831625000000,0,0x5D,0x00,Read,ACK
3.239853093750000,0,0x5D,0x00,Read,ACK
3.239877687500000,0,0x5D,0x00,Read,ACK
3.239900375000000,0,0x5D,0x00,Read,ACK
3.239922312500000,0,0x5D,0x00,Read,ACK
3.239945500000000,0,0x5D,0x5E,Read,ACK
3.239966968750000,0,0x5D,0x6D,Read,ACK
3.239988437500000,0,0x5D,0x01,Read,ACK
3.240009906250000,0,0x5D,0x00,Read,ACK
3.240031562500000,0,0x5D,0x00,Read,ACK
3.240053062500000,0,0x5D,0x00,Read,ACK
3.240075375000000,0,0x5D,0x00,Read,ACK
3.240096875000000,0,0x5D,0x00,Read,ACK
3.240118343750000,0,0x5D,0x00,Read,ACK
3.240141687500000,0,0x5D,0x00,Read,ACK
3.240163156250000,0,0x5D,0x00,Read,ACK
3.240185000000000,0,0x5D,0x00,Read,ACK
3.240208062500000,0,0x5D,0x00,Read,ACK
3.240230937500000,0,0x5D,0x00,Read,ACK
3.240252625000000,0,0x5D,0x00,Read,ACK
3.240275062500000,0,0x5D,0x00,Read,ACK
3.240297406250000,0,0x5D,0x00,Read,ACK
3.240319125000000,0,0x5D,0x00,Read,ACK
3.240341375000000,0,0x5D,0x00,Read,ACK
3.240366656250000,0,0x5D,0x00,Read,ACK
3.240388968750000,0,0x5D,0x00,Read,NAK
3.246145343750000,0,0x5D,0x2F,Read,ACK
3.246171468750000,0,0x5D,0x00,Read,ACK
3.246193125000000,0,0x5D,0x04,Read,ACK
3.246214937500000,0,0x5D,0x03,Read,ACK
3.246236406250000,0,0x5D,0xDC,Read,ACK
3.246257906250000,0,0x5D,0x06,Read,ACK
3.246279625000000,0,0x5D,0xA2,Read,ACK
3.246301093750000,0,0x5D,0x04,Read,ACK
3.246322593750000,0,0x5D,0x03,Read,ACK
3.246344031250000,0,0x5D,0x02,Read,ACK
3.246365531250000,0,0x5D,0x20,Read,ACK
3.246387000000000,0,0x5D,0x00,Read,ACK
3.246408468750000,0,0x5D,0x00,Read,ACK
3.246429968750000,0,0x5D,0x00,Read,ACK
3.246451437500000,0,0x5D,0x00,Read,ACK
3.246472906250000,0,0x5D,0x00,Read,ACK
3.246494375000000,0,0x5D,0x00,Read,ACK
3.246515843750000,0,0x5D,0x00,Read,ACK
3.246537312500000,0,0x5D,0x00,Read,ACK
3.246558812500000,0,0x5D,0x00,Read,ACK
3.246580687500000,0,0x5D,0x00,Read,ACK
3.246602125000000,0,0x5D,0x00,Read,ACK
3.246623625000000,0,0x5D,0x00,Read,ACK
3.246645093750000,0,0x5D,0x00,Read,ACK
3.246666562500000,0,0x5D,0x00,Read,ACK
3.246688031250000,0,0x5D,0x00,Read,ACK
3.246709500000000,0,0x5D,0x00,Read,ACK
3.246731000000000,0,0x5D,0x00,Read,ACK
3.246752468750000,0,0x5D,0x00,Read,ACK
3.246773937500000,0,0x5D,0x00,Read,ACK
3.246795406250000,0,0x5D,0x00,Read,ACK
3.246817281250000,0,0x5D,0x00,Read,ACK
3.246838750000000,0,0x5D,0x00,Read,ACK
3.246865656250000,0,0x5D,0x00,Read,ACK
3.246891406250000,0,0x5D,0x00,Read,ACK
3.246912843750000,0,0x5D,0x00,Read,ACK
3.246937062500000,0,0x5D,0x00,Read,ACK
3.246960687500000,0,0x5D,0x00,Read,ACK
3.246982531250000,0,0x5D,0x00,Read,ACK
3.247004000000000,0,0x5D,0x00,Read,ACK
3.247025500000000,0,0x5D,0x00,Read,ACK
3.247047843750000,0,0x5D,0x00,Read,ACK
3.247070687500000,0,0x5D,0x00,Read,ACK
3.247095562500000,0,0x5D,0xA4,Read,ACK
3.247118437500000,0,0x5D,0x6D,Read,ACK
3.247141343750000,0,0x5D,0x01,Read,ACK
3.247163156250000,0,0x5D,0x00,Read,ACK
3.247184625000000,0,0x5D,0x00,Read,ACK
3.247206093750000,0,0x5D,0x00,Read,ACK
3.247228531250000,0,0x5D,0x00,Read,ACK
3.247249968750000,0,0x5D,0x00,Read,ACK
3.247272656250000,0,0x5D,0x00,Read,ACK
3.247294875000000,0,0x5D,0x00,Read,ACK
3.247317968750000,0,0x5D,0x00,Read,ACK
3.247339468750000,0,0x5D,0x00,Read,ACK
3.247361125000000,0,0x5D,0x00,Read,ACK
3.247383625000000,0,0x5D,0x00,Read,ACK
3.247406062500000,0,0x5D,0x00,Read,ACK
3.247427843750000,0,0x5D,0x00,Read,ACK
3.247449312500000,0,0x5D,0x00,Read,ACK
3.247470812500000,0,0x5D,0x00,Read,ACK
3.247493593750000,0,0x5D,0x00,Read,ACK
3.247517468750000,0,0x5D,0x00,Read,ACK
3.247540312500000,0,0x5D,0x00,Read,NAK
3.253192593750000,0,0x5D,0x2F,Read,ACK
3.253217218750000,0,0x5D,0x00,Read,ACK
3.253238718750000,0,0x5D,0x04,Read,ACK
3.253260187500000,0,0x5D,0x03,Read,ACK
3.253281656250000,0,0x5D,0xD8,Read,ACK
3.253303125000000,0,0x5D,0x06,Read,ACK
3.253324718750000,0,0x5D,0x9B,Read,ACK
3.253346218750000,0,0x5D,0x04,Read,ACK
3.253367718750000,0,0x5D,0x03,Read,ACK
3.253389187500000,0,0x5D,0x03,Read,ACK
3.253410656250000,0,0x5D,0x20,Read,ACK
3.253432125000000,0,0x5D,0x00,Read,ACK
3.253453625000000,0,0x5D,0x00,Read,ACK
3.253476500000000,0,0x5D,0x00,Read,ACK
3.253498125000000,0,0x5D,0x00,Read,ACK
3.253519593750000,0,0x5D,0x00,Read,ACK
3.253541062500000,0,0x5D,0x00,Read,ACK
3.253564093750000,0,0x5D,0x00,Read,ACK
3.253585593750000,0,0x5D,0x00,Read,ACK
3.253607062500000,0,0x5D,0x00,Read,ACK
3.253628531250000,0,0x5D,0x00,Read,ACK
3.253650000000000,0,0x5D,0x00,Read,ACK
3.253671531250000,0,0x5D,0x00,Read,ACK
3.253693031250000,0,0x5D,0x00,Read,ACK
3.253714500000000,0,0x5D,0x00,Read,ACK
3.253735968750000,0,0x5D,0x00,Read,ACK
3.253757781250000,0,0x5D,0x00,Read,ACK
3.253779437500000,0,0x5D,0x00,Read,ACK
3.253800906250000,0,0x5D,0x00,Read,ACK
3.253822406250000,0,0x5D,0x00,Read,ACK
3.253843843750000,0,0x5D,0x00,Read,ACK
3.253865312500000,0,0x5D,0x00,Read,ACK
3.253886812500000,0,0x5D,0x00,Read,ACK
3.253908281250000,0,0x5D,0x00,Read,ACK
3.253929750000000,0,0x5D,0x00,Read,ACK
3.253951218750000,0,0x5D,0x00,Read,ACK
3.253972718750000,0,0x5D,0x00,Read,ACK
3.253999531250000,0,0x5D,0x00,Read,ACK
3.254022468750000,0,0x5D,0x00,Read,ACK
3.254045250000000,0,0x5D,0x00,Read,ACK
3.254068593750000,0,0x5D,0x00,Read,ACK
3.254090375000000,0,0x5D,0x00,Read,ACK
3.254111875000000,0,0x5D,0x00,Read,ACK
3.254133343750000,0,0x5D,0xEA,Read,ACK
3.254154812500000,0,0x5D,0x6D,Read,ACK
3.254176281250000,0,0x5D,0x01,Read,ACK
3.254198968750000,0,0x5D,0x00,Read,ACK
3.254220656250000,0,0x5D,0x00,Read,ACK
3.254242593750000,0,0x5D,0x00,Read,ACK
3.254267031250000,0,0x5D,0x00,Read,ACK
3.254290531250000,0,0x5D,0x00,Read,ACK
3.254312031250000,0,0x5D,0x00,Read,ACK
3.254334593750000,0,0x5D,0x00,Read,ACK
3.254356031250000,0,0x5D,0x00,Read,ACK
3.254378468750000,0,0x5D,0x00,Read,ACK
3.254399906250000,0,0x5D,0x00,Read,ACK
3.254421531250000,0,0x5D,0x00,Read,ACK
3.254443000000000,0,0x5D,0x00,Read,ACK
3.254465843750000,0,0x5D,0x00,Read,ACK
3.254487312500000,0,0x5D,0x00,Read,ACK
3.254509718750000,0,0x5D,0x00,Read,ACK
3.254532375000000,0,0x5D,0x00,Read,ACK
3.254554812500000,0,0x5D,0x00,Read,ACK
3.254577156250000,0,0x5D,0x00,Read,NAK
3.260365843750000,0,0x5D,0x2F,Read,ACK
3.260389500000000,0,0x5D,0x00,Read,ACK
3.260410968750000,0,0x5D,0x04,Read,ACK
3.260432437500000,0,0x5D,0x03,Read,ACK
3.260454406250000,0,0x5D,0xD4,Read,ACK
3.260475875000000,0,0x5D,0x06,Read,ACK
3.260497375000000,0,0x5D,0x93,Read,ACK
3.260518812500000,0,0x5D,0x04,Read,ACK
3.260540312500000,0,0x5D,0x03,Read,ACK
3.260561812500000,0,0x5D,0x03,Read,ACK
3.260584656250000,0,0x5D,0x20,Read,ACK
3.260606156250000,0,0x5D,0x00,Read,ACK
3.260627625000000,0,0x5D,0x00,Read,ACK
3.260649125000000,0,0x5D,0x00,Read,ACK
3.260670593750000,0,0x5D,0x00,Read,ACK
3.260692062500000,0,0x5D,0x00,Read,ACK
3.260713750000000,0,0x5D,0x00,Read,ACK
3.260735218750000,0,0x5D,0x00,Read,ACK
3.260756687500000,0,0x5D,0x00,Read,ACK
3.260778156250000,0,0x5D,0x00,Read,ACK
3.260799625000000,0,0x5D,0x00,Read,ACK
3.260821125000000,0,0x5D,0x00,Read,ACK
3.260842593750000,0,0x5D,0x00,Read,ACK
3.260865250000000,0,0x5D,0x00,Read,ACK
3.260886750000000,0,0x5D,0x00,Read,ACK
3.260908468750000,0,0x5D,0x00,Read,ACK
3.260929937500000,0,0x5D,0x00,Read,ACK
3.260951406250000,0,0x5D,0x00,Read,ACK
3.260972906250000,0,0x5D,0x00,Read,ACK
3.260994406250000,0,0x5D,0x00,Read,ACK
3.261015906250000,0,0x5D,0x00,Read,ACK
3.261037375000000,0,0x5D,0x00,Read,ACK
3.261058843750000,0,0x5D,0x00,Read,ACK
3.261080343750000,0,0x5D,0x00,Read,ACK
3.261101812500000,0,0x5D,0x00,Read,ACK
3.261126343750000,0,0x5D,0x00,Read,ACK
3.261151062500000,0,0x5D,0x00,Read,ACK
3.261172562500000,0,0x5D,0x00,Read,ACK
3.261198125000000,0,0x5D,0x00,Read,ACK
3.261222375000000,0,0x5D,0x00,Read,ACK
3.261243812500000,0,0x5D,0x00,Read,ACK
3.261265312500000,0,0x5D,0x00,Read,ACK
3.261286781250000,0,0x5D,0x00,Read,ACK
3.261308250000000,0,0x5D,0x30,Read,ACK
3.261329718750000,0,0x5D,0x6E,Read,ACK
3.261351187500000,0,0x5D,0x01,Read,ACK
3.261373468750000,0,0x5D,0x00,Read,ACK
3.261395656250000,0,0x5D,0x00,Read,ACK
3.261417156250000,0,0x5D,0x00,Read,ACK
3.261438593750000,0,0x5D,0x00,Read,ACK
3.261463218750000,0,0x5D,0x00,Read,ACK
3.261484656250000,0,0x5D,0x00,Read,ACK
3.261507093750000,0,0x5D,0x00,Read,ACK
3.261528562500000,0,0x5D,0x00,Read,ACK
3.261550281250000,0,0x5D,0x00,Read,ACK
3.261571781250000,0,0x5D,0x00,Read,ACK
3.261595468750000,0,0x5D,0x00,Read,ACK
3.261616968750000,0,0x5D,0x00,Read,ACK
3.261638437500000,0,0x5D,0x00,Read,ACK
3.261659906250000,0,0x5D,0x00,Read,ACK
3.261682093750000,0,0x5D,0x00,Read,ACK
3.261703562500000,0,0x5D,0x00,Read,ACK
3.261725031250000,0,0x5D,0x00,Read,ACK
3.261746687500000,0,0x5D,0x00,Read,NAK
3.267488343750000,0,0x5D,0x2F,Read,ACK
3.267516218750000,0,0x5D,0x00,Read,ACK
3.267537718750000,0,0x5D,0x04,Read,ACK
3.267559187500000,0,0x5D,0x03,Read,ACK
3.267580687500000,0,0x5D,0xD2,Read,ACK
3.267602625000000,0,0x5D,0x06,Read,ACK
3.267624156250000,0,0x5D,0x89,Read,ACK
3.267645625000000,0,0x5D,0x04,Read,ACK
3.267667125000000,0,0x5D,0x03,Read,ACK
3.267688593750000,0,0x5D,0x03,Read,ACK
3.267711531250000,0,0x5D,0x20,Read,ACK
3.267734593750000,0,0x5D,0x00,Read,ACK
3.267756062500000,0,0x5D,0x00,Read,ACK
3.267777718750000,0,0x5D,0x00,Read,ACK
3.267799156250000,0,0x5D,0x00,Read,ACK
3.267820656250000,0,0x5D,0x00,Read,ACK
3.267843187500000,0,0x5D,0x00,Read,ACK
3.267864625000000,0,0x5D,0x00,Read,ACK
3.267886125000000,0,0x5D,0x00,Read,ACK
3.267907750000000,0,0x5D,0x00,Read,ACK
3.267929281250000,0,0x5D,0x00,Read,ACK
3.267950750000000,0,0x5D,0x00,Read,ACK
3.267972218750000,0,0x5D,0x00,Read,ACK
3.267993718750000,0,0x5D,0x00,Read,ACK
3.268015156250000,0,0x5D,0x00,Read,ACK
3.268036656250000,0,0x5D,0x00,Read,ACK
3.268061000000000,0,0x5D,0x00,Read,ACK
3.268082468750000,0,0x5D,0x00,Read,ACK
3.268103937500000,0,0x5D,0x00,Read,ACK
3.268125437500000,0,0x5D,0x00,Read,ACK
3.268146906250000,0,0x5D,0x00,Read,ACK
3.268168375000000,0,0x5D,0x00,Read,ACK
3.268189843750000,0,0x5D,0x00,Read,ACK
3.268211343750000,0,0x5D,0x00,Read,ACK
3.268232812500000,0,0x5D,0x00,Read,ACK
3.268254281250000,0,0x5D,0x00,Read,ACK
3.268276843750000,0,0x5D,0x00,Read,ACK
3.268298687500000,0,0x5D,0x00,Read,ACK
3.268322062500000,0,0x5D,0x00,Read,ACK
3.268344437500000,0,0x5D,0x00,Read,ACK
3.268367500000000,0,0x5D,0x00,Read,ACK
3.268390468750000,0,0x5D,0x00,Read,ACK
3.268411968750000,0,0x5D,0x00,Read,ACK
3.268433437500000,0,0x5D,0x76,Read,ACK
3.268454937500000,0,0x5D,0x6E,Read,ACK
3.268476656250000,0,0x5D,0x01,Read,ACK
3.268498125000000,0,0x5D,0x00,Read,ACK
3.268519781250000,0,0x5D,0x00,Read,ACK
3.268541281250000,0,0x5D,0x00,Read,ACK
3.268563656250000,0,0x5D,0x00,Read,ACK
3.268585156250000,0,0x5D,0x00,Read,ACK
3.268606625000000,0,0x5D,0x00,Read,ACK
3.268629531250000,0,0x5D,0x00,Read,ACK
3.268651125000000,0,0x5D,0x00,Read,ACK
3.268674000000000,0,0x5D,0x00,Read,ACK
3.268695812500000,0,0x5D,0x00,Read,ACK
3.268717281250000,0,0x5D,0x00,Read,ACK
3.268739906250000,0,0x5D,0x00,Read,ACK
3.268761812500000,0,0x5D,0x00,Read,ACK
3.268783437500000,0,0x5D,0x00,Read,ACK
3.268806500000000,0,0x5D,0x00,Read,ACK
3.268828312500000,0,0x5D,0x00,Read,ACK
3.268850031250000,0,0x5D,0x00,Read,ACK
3.268871531250000,0,0x5D,0x00,Read,NAK
3.274662531250000,0,0x5D,0x2F,Read,ACK
3.274685156250000,0,0x5D,0x00,Read,ACK
3.274706625000000,0,0x5D,0x04,Read,ACK
3.274728093750000,0,0x5D,0x03,Read,ACK
3.274750187500000,0,0x5D,0xD2,Read,ACK
3.274772781250000,0,0x5D,0x06,Read,ACK
3.274794562500000,0,0x5D,0x7F,Read,ACK
3.274816062500000,0,0x5D,0x04,Read,ACK
3.274837531250000,0,0x5D,0x03,Read,ACK
3.274860281250000,0,0x5D,0x03,Read,ACK
3.274882906250000,0,0x5D,0x20,Read,ACK
3.274904406250000,0,0x5D,0x00,Read,ACK
3.274925906250000,0,0x5D,0x00,Read,ACK
3.274947375000000,0,0x5D,0x00,Read,ACK
3.274968843750000,0,0x5D,0x00,Read,ACK
3.274990343750000,0,0x5D,0x00,Read,ACK
3.275011812500000,0,0x5D,0x00,Read,ACK
3.275033343750000,0,0x5D,0x00,Read,ACK
3.275054812500000,0,0x5D,0x00,Read,ACK
3.275076312500000,0,0x5D,0x00,Read,ACK
3.275097750000000,0,0x5D,0x00,Read,ACK
3.275119250000000,0,0x5D,0x00,Read,ACK
3.275140718750000,0,0x5D,0x00,Read,ACK
3.275162187500000,0,0x5D,0x00,Read,ACK
3.275183687500000,0,0x5D,0x00,Read,ACK
3.275205375000000,0,0x5D,0x00,Read,ACK
3.275226843750000,0,0x5D,0x00,Read,ACK
3.275248312500000,0,0x5D,0x00,Read,ACK
3.275269812500000,0,0x5D,0x00,Read,ACK
3.275291312500000,0,0x5D,0x00,Read,ACK
3.275312781250000,0,0x5D,0x00,Read,ACK
3.275334281250000,0,0x5D,0x00,Read,ACK
3.275355750000000,0,0x5D,0x00,Read,ACK
3.275377218750000,0,0x5D,0x00,Read,ACK
3.275398687500000,0,0x5D,0x00,Read,ACK
3.275423093750000,0,0x5D,0x00,Read,ACK
3.275445968750000,0,0x5D,0x00,Read,ACK
3.275468500000000,0,0x5D,0x00,Read,ACK
3.275489968750000,0,0x5D,0x00,Read,ACK
3.275511562500000,0,0x5D,0x00,Read,ACK
3.275533000000000,0,0x5D,0x00,Read,ACK
3.275554593750000,0,0x5D,0x00,Read,ACK
3.275576062500000,0,0x5D,0x00,Read,ACK
3.275597593750000,0,0x5D,0xBC,Read,ACK
3.275619093750000,0,0x5D,0x6E,Read,ACK
3.275642187500000,0,0x5D,0x01,Read,ACK
3.275665718750000,0,0x5D,0x00,Read,ACK
3.275688468750000,0,0x5D,0x00,Read,ACK
3.275710531250000,0,0x5D,0x00,Read,ACK
3.275732312500000,0,0x5D,0x00,Read,ACK
3.275753812500000,0,0x5D,0x00,Read,ACK
3.275775687500000,0,0x5D,0x00,Read,ACK
3.275797125000000,0,0x5D,0x00,Read,ACK
3.275818625000000,0,0x5D,0x00,Read,ACK
3.275840093750000,0,0x5D,0x00,Read,ACK
3.275862562500000,0,0x5D,0x00,Read,ACK
3.275884031250000,0,0x5D,0x00,Read,ACK
3.275906718750000,0,0x5D,0x00,Read,ACK
3.275928156250000,0,0x5D,0x00,Read,ACK
3.275950625000000,0,0x5D,0x00,Read,ACK
3.275972093750000,0,0x5D,0x00,Read,ACK
3.275994812500000,0,0x5D,0x00,Read,ACK
3.276017093750000,0,0x5D,0x00,Read,ACK
3.276038562500000,0,0x5D,0x00,Read,NAK
3.281768156250000,0,0x5D,0x2F,Read,ACK
3.281791687500000,0,0x5D,0x00,Read,ACK
3.281813187500000,0,0x5D,0x04,Read,ACK
3.281834656250000,0,0x5D,0x03,Read,ACK
3.281856125000000,0,0x5D,0xD2,Read,ACK
3.281877593750000,0,0x5D,0x06,Read,ACK
3.281900187500000,0,0x5D,0x74,Read,ACK
3.281921687500000,0,0x5D,0x04,Read,ACK
3.281943656250000,0,0x5D,0x03,Read,ACK
3.281965125000000,0,0x5D,0x03,Read,ACK
3.281986593750000,0,0x5D,0x20,Read,ACK
3.282008093750000,0,0x5D,0x00,Read,ACK
3.282029531250000,0,0x5D,0x00,Read,ACK
3.282051031250000,0,0x5D,0x00,Read,ACK
3.282072718750000,0,0x5D,0x00,Read,ACK
3.282094218750000,0,0x5D,0x00,Read,ACK
3.282115687500000,0,0x5D,0x00,Read,ACK
3.282137343750000,0,0x5D,0x00,Read,ACK
3.282158843750000,0,0x5D,0x00,Read,ACK
3.282180375000000,0,0x5D,0x00,Read,ACK
3.282201875000000,0,0x5D,0x00,Read,ACK
3.282223375000000,0,0x5D,0x00,Read,ACK
3.282244843750000,0,0x5D,0x00,Read,ACK
3.282266343750000,0,0x5D,0x00,Read,ACK
3.282287812500000,0,0x5D,0x00,Read,ACK
3.282309500000000,0,0x5D,0x00,Read,ACK
3.282330968750000,0,0x5D,0x00,Read,ACK
3.282352406250000,0,0x5D,0x00,Read,ACK
3.282373906250000,0,0x5D,0x00,Read,ACK
3.282395375000000,0,0x5D,0x00,Read,ACK
3.282416843750000,0,0x5D,0x00,Read,ACK
3.282438312500000,0,0x5D,0x00,Read,ACK
3.282459812500000,0,0x5D,0x00,Read,ACK
3.282481281250000,0,0x5D,0x00,Read,ACK
3.282502875000000,0,0x5D,0x00,Read,ACK
3.282524625000000,0,0x5D,0x00,Read,ACK
3.282546062500000,0,0x5D,0x00,Read,ACK
3.282567906250000,0,0x5D,0x00,Read,ACK
3.282589687500000,0,0x5D,0x00,Read,ACK
3.282612843750000,0,0x5D,0x00,Read,ACK
3.282634343750000,0,0x5D,0x00,Read,ACK
3.282658000000000,0,0x5D,0x00,Read,ACK
3.282680406250000,0,0x5D,0x00,Read,ACK
3.282702687500000,0,0x5D,0x02,Read,ACK
3.282724187500000,0,0x5D,0x6F,Read,ACK
3.282745656250000,0,0x5D,0x01,Read,ACK
3.282767250000000,0,0x5D,0x00,Read,ACK
3.282788718750000,0,0x5D,0x00,Read,ACK
3.282810218750000,0,0x5D,0x00,Read,ACK
3.282833531250000,0,0x5D,0x00,Read,ACK
3.282857625000000,0,0x5D,0x00,Read,ACK
3.282879062500000,0,0x5D,0x00,Read,ACK
3.282900562500000,0,0x5D,0x00,Read,ACK
3.282922000000000,0,0x5D,0x00,Read,ACK
3.282943468750000,0,0x5D,0x00,Read,ACK
3.282964968750000,0,0x5D,0x00,Read,ACK
3.282986437500000,0,0x5D,0x00,Read,ACK
3.283007906250000,0,0x5D,0x00,Read,ACK
3.283029437500000,0,0x5D,0x00,Read,ACK
3.283050906250000,0,0x5D,0x00,Read,ACK
3.283074062500000,0,0x5D,0x00,Read,ACK
3.283096125000000,0,0x5D,0x00,Read,ACK
3.283117593750000,0,0x5D,0x00,Read,ACK
3.283140250000000,0,0x5D,0x00,Read,NAK
3.288937312500000,0,0x5D,0x2F,Read,ACK
3.288962375000000,0,0x5D,0x00,Read,ACK
3.288983875000000,0,0x5D,0x04,Read,ACK
3.289005375000000,0,0x5D,0x03,Read,ACK
3.289026843750000,0,0x5D,0xD4,Read,ACK
3.289048312500000,0,0x5D,0x06,Read,ACK
3.289071250000000,0,0x5D,0x69,Read,ACK
3.289092750000000,0,0x5D,0x04,Read,ACK
3.289114343750000,0,0x5D,0x03,Read,ACK
3.289135875000000,0,0x5D,0x03,Read,ACK
3.289157593750000,0,0x5D,0x20,Read,ACK
3.289180875000000,0,0x5D,0x00,Read,ACK
3.289202343750000,0,0x5D,0x00,Read,ACK
3.289223812500000,0,0x5D,0x00,Read,ACK
3.289245281250000,0,0x5D,0x00,Read,ACK
3.289267750000000,0,0x5D,0x00,Read,ACK
3.289289718750000,0,0x5D,0x00,Read,ACK
3.289311218750000,0,0x5D,0x00,Read,ACK
3.289332687500000,0,0x5D,0x00,Read,ACK
3.289354156250000,0,0x5D,0x00,Read,ACK
3.289375625000000,0,0x5D,0x00,Read,ACK
3.289397125000000,0,0x5D,0x00,Read,ACK
3.289418593750000,0,0x5D,0x00,Read,ACK
3.289440062500000,0,0x5D,0x00,Read,ACK
3.289461531250000,0,0x5D,0x00,Read,ACK
3.289483031250000,0,0x5D,0x00,Read,ACK
3.289504468750000,0,0x5D,0x00,Read,ACK
3.289525968750000,0,0x5D,0x00,Read,ACK
3.289547437500000,0,0x5D,0x00,Read,ACK
3.289569062500000,0,0x5D,0x00,Read,ACK
3.289590500000000,0,0x5D,0x00,Read,ACK
3.289612000000000,0,0x5D,0x00,Read,ACK
3.289633468750000,0,0x5D,0x00,Read,ACK
3.289654937500000,0,0x5D,0x00,Read,ACK
3.289676437500000,0,0x5D,0x00,Read,ACK
3.289697906250000,0,0x5D,0x00,Read,ACK
3.289719906250000,0,0x5D,0x00,Read,ACK
3.289743468750000,0,0x5D,0x00,Read,ACK
3.289765281250000,0,0x5D,0x00,Read,ACK
3.289786781250000,0,0x5D,0x00,Read,ACK
3.289810062500000,0,0x5D,0x00,Read,ACK
3.289831562500000,0,0x5D,0x00,Read,ACK
3.289853062500000,0,0x5D,0x00,Read,ACK
3.289874531250000,0,0x5D,0x48,Read,ACK
3.289899218750000,0,0x5D,0x6F,Read,ACK
3.289922875000000,0,0x5D,0x01,Read,ACK
3.289944875000000,0,0x5D,0x00,Read,ACK
3.289966593750000,0,0x5D,0x00,Read,ACK
3.289988406250000,0,0x5D,0x00,Read,ACK
3.290009968750000,0,0x5D,0x00,Read,ACK
3.290031500000000,0,0x5D,0x00,Read,ACK
3.290054406250000,0,0x5D,0x00,Read,ACK
3.290075906250000,0,0x5D,0x00,Read,ACK
3.290097406250000,0,0x5D,0x00,Read,ACK
3.290118875000000,0,0x5D,0x00,Read,ACK
3.290140687500000,0,0x5D,0x00,Read,ACK
3.290163187500000,0,0x5D,0x00,Read,ACK
3.290184906250000,0,0x5D,0x00,Read,ACK
3.290206406250000,0,0x5D,0x00,Read,ACK
3.290227875000000,0,0x5D,0x00,Read,ACK
3.290250625000000,0,0x5D,0x00,Read,ACK
3.290272343750000,0,0x5D,0x00,Read,ACK
3.290294562500000,0,0x5D,0x00,Read,ACK
3.290317156250000,0,0x5D,0x00,Read,NAK
3.296073281250000,0,0x5D,0x2F,Read,ACK
3.296097812500000,0,0x5D,0x00,Read,ACK
3.296119281250000,0,0x5D,0x04,Read,ACK
3.296140750000000,0,0x5D,0x03,Read,ACK
3.296162218750000,0,0x5D,0xD7,Read,ACK
3.296183718750000,0,0x5D,0x06,Read,ACK
3.296205968750000,0,0x5D,0x5F,Read,ACK
3.296227500000000,0,0x5D,0x04,Read,ACK
3.296249625000000,0,0x5D,0x04,Read,ACK
3.296271125000000,0,0x5D,0x03,Read,ACK
3.296292593750000,0,0x5D,0x20,Read,ACK
3.296314062500000,0,0x5D,0x00,Read,ACK
3.296336781250000,0,0x5D,0x00,Read,ACK
3.296358281250000,0,0x5D,0x00,Read,ACK
3.296379750000000,0,0x5D,0x00,Read,ACK
3.296401250000000,0,0x5D,0x00,Read,ACK
3.296422687500000,0,0x5D,0x00,Read,ACK
3.296446281250000,0,0x5D,0x00,Read,ACK
3.296467781250000,0,0x5D,0x00,Read,ACK
3.296489281250000,0,0x5D,0x00,Read,ACK
3.296510750000000,0,0x5D,0x00,Read,ACK
3.296532218750000,0,0x5D,0x00,Read,ACK
3.296553687500000,0,0x5D,0x00,Read,ACK
3.296575156250000,0,0x5D,0x00,Read,ACK
3.296596656250000,0,0x5D,0x00,Read,ACK
3.296618343750000,0,0x5D,0x00,Read,ACK
3.296639875000000,0,0x5D,0x00,Read,ACK
3.296661343750000,0,0x5D,0x00,Read,ACK
3.296682812500000,0,0x5D,0x00,Read,ACK
3.296704312500000,0,0x5D,0x00,Read,ACK
3.296725750000000,0,0x5D,0x00,Read,ACK
3.296747218750000,0,0x5D,0x00,Read,ACK
3.296768718750000,0,0x5D,0x00,Read,ACK
3.296790187500000,0,0x5D,0x00,Read,ACK
3.296811656250000,0,0x5D,0x00,Read,ACK
3.296833125000000,0,0x5D,0x00,Read,ACK
3.296854625000000,0,0x5D,0x00,Read,ACK
3.296880406250000,0,0x5D,0x00,Read,ACK
3.296904531250000,0,0x5D,0x00,Read,ACK
3.296926718750000,0,0x5D,0x00,Read,ACK
3.296949500000000,0,0x5D,0x00,Read,ACK
3.296971281250000,0,0x5D,0x00,Read,ACK
3.296994218750000,0,0x5D,0x00,Read,ACK
3.297015687500000,0,0x5D,0x8E,Read,ACK
3.297037156250000,0,0x5D,0x6F,Read,ACK
3.297059125000000,0,0x5D,0x01,Read,ACK
3.297081531250000,0,0x5D,0x00,Read,ACK
3.297103562500000,0,0x5D,0x00,Read,ACK
3.297125000000000,0,0x5D,0x00,Read,ACK
3.297146843750000,0,0x5D,0x00,Read,ACK
3.297168375000000,0,0x5D,0x00,Read,ACK
3.297189812500000,0,0x5D,0x00,Read,ACK
3.297211281250000,0,0x5D,0x00,Read,ACK
3.297232750000000,0,0x5D,0x00,Read,ACK
3.297254250000000,0,0x5D,0x00,Read,ACK
3.297275718750000,0,0x5D,0x00,Read,ACK
3.297298250000000,0,0x5D,0x00,Read,ACK
3.297320875000000,0,0x5D,0x00,Read,ACK
3.297342375000000,0,0x5D,0x00,Read,ACK
3.297364625000000,0,0x5D,0x00,Read,ACK
3.297386687500000,0,0x5D,0x00,Read,ACK
3.297408468750000,0,0x5D,0x00,Read,ACK
3.297430281250000,0,0x5D,0x00,Read,ACK
3.297451781250000,0,0x5D,0x00,Read,NAK
3.303226218750000,0,0x5D,0x2F,Read,ACK
3.303249656250000,0,0x5D,0x00,Read,ACK
3.303271156250000,0,0x5D,0x04,Read,ACK
3.303292625000000,0,0x5D,0x03,Read,ACK
3.303314093750000,0,0x5D,0xDC,Read,ACK
3.303335906250000,0,0x5D,0x06,Read,ACK
3.303357437500000,0,0x5D,0x54,Read,ACK
3.303378906250000,0,0x5D,0x04,Read,ACK
3.303400375000000,0,0x5D,0x04,Read,ACK
3.303421875000000,0,0x5D,0x03,Read,ACK
3.303443375000000,0,0x5D,0x20,Read,ACK
3.303466625000000,0,0x5D,0x00,Read,ACK
3.303488093750000,0,0x5D,0x00,Read,ACK
3.303509593750000,0,0x5D,0x00,Read,ACK
3.303531093750000,0,0x5D,0x00,Read,ACK
3.303552531250000,0,0x5D,0x00,Read,ACK
3.303574000000000,0,0x5D,0x00,Read,ACK
3.303595500000000,0,0x5D,0x00,Read,ACK
3.303616968750000,0,0x5D,0x00,Read,ACK
3.303638437500000,0,0x5D,0x00,Read,ACK
3.303659937500000,0,0x5D,0x00,Read,ACK
3.303681406250000,0,0x5D,0x00,Read,ACK
3.303703250000000,0,0x5D,0x00,Read,ACK
3.303724750000000,0,0x5D,0x00,Read,ACK
3.303746187500000,0,0x5D,0x00,Read,ACK
3.303767687500000,0,0x5D,0x00,Read,ACK
3.303789156250000,0,0x5D,0x00,Read,ACK
3.303810625000000,0,0x5D,0x00,Read,ACK
3.303832093750000,0,0x5D,0x00,Read,ACK
3.303853562500000,0,0x5D,0x00,Read,ACK
3.303875062500000,0,0x5D,0x00,Read,ACK
3.303896562500000,0,0x5D,0x00,Read,ACK
3.303918000000000,0,0x5D,0x00,Read,ACK
3.303939500000000,0,0x5D,0x00,Read,ACK
3.303960968750000,0,0x5D,0x00,Read,ACK
3.303982437500000,0,0x5D,0x00,Read,ACK
3.304005937500000,0,0x5D,0x00,Read,ACK
3.304029468750000,0,0x5D,0x00,Read,ACK
3.304051468750000,0,0x5D,0x00,Read,ACK
3.304072968750000,0,0x5D,0x00,Read,ACK
3.304095375000000,0,0x5D,0x00,Read,ACK
3.304117718750000,0,0x5D,0x00,Read,ACK
3.304139187500000,0,0x5D,0x00,Read,ACK
3.304160843750000,0,0x5D,0xD4,Read,ACK
3.304182593750000,0,0x5D,0x6F,Read,ACK
3.304204062500000,0,0x5D,0x01,Read,ACK
3.304225531250000,0,0x5D,0x00,Read,ACK
3.304247031250000,0,0x5D,0x00,Read,ACK
3.304268500000000,0,0x5D,0x00,Read,ACK
3.304290343750000,0,0x5D,0x00,Read,ACK
3.304311843750000,0,0x5D,0x00,Read,ACK
3.304333875000000,0,0x5D,0x00,Read,ACK
3.304355656250000,0,0x5D,0x00,Read,ACK
3.304377750000000,0,0x5D,0x00,Read,ACK
3.304399406250000,0,0x5D,0x00,Read,ACK
3.304421031250000,0,0x5D,0x00,Read,ACK
3.304442750000000,0,0x5D,0x00,Read,ACK
3.304465281250000,0,0x5D,0x00,Read,ACK
3.304487250000000,0,0x5D,0x00,Read,ACK
3.304508718750000,0,0x5D,0x00,Read,ACK
3.304530468750000,0,0x5D,0x00,Read,ACK
3.304552000000000,0,0x5D,0x00,Read,ACK
3.304573687500000,0,0x5D,0x00,Read,ACK
3.304595937500000,0,0x5D,0x00,Read,NAK
3.310769875000000,0,0x5D,0x2F,Read,ACK
3.310799531250000,0,0x5D,0x00,Read,ACK
3.310821000000000,0,0x5D,0x04,Read,ACK
3.310842468750000,0,0x5D,0x03,Read,ACK
3.310863968750000,0,0x5D,0xE2,Read,ACK
3.310885437500000,0,0x5D,0x06,Read,ACK
3.310906906250000,0,0x5D,0x4A,Read,ACK
3.310928375000000,0,0x5D,0x04,Read,ACK
3.310949843750000,0,0x5D,0x03,Read,ACK
3.310971312500000,0,0x5D,0x03,Read,ACK
3.310992812500000,0,0x5D,0x20,Read,ACK
3.311014250000000,0,0x5D,0x00,Read,ACK
3.311037437500000,0,0x5D,0x00,Read,ACK
3.311062093750000,0,0x5D,0x00,Read,ACK
3.311085062500000,0,0x5D,0x00,Read,ACK
3.311110843750000,0,0x5D,0x00,Read,ACK
3.311132656250000,0,0x5D,0x00,Read,ACK
3.311155375000000,0,0x5D,0x00,Read,ACK
3.311176968750000,0,0x5D,0x00,Read,ACK
3.311198437500000,0,0x5D,0x00,Read,ACK
3.311221500000000,0,0x5D,0x00,Read,ACK
3.311242937500000,0,0x5D,0x00,Read,ACK
3.311264437500000,0,0x5D,0x00,Read,ACK
3.311285968750000,0,0x5D,0x00,Read,ACK
3.311309937500000,0,0x5D,0x00,Read,ACK
3.311331406250000,0,0x5D,0x00,Read,ACK
3.311353156250000,0,0x5D,0x00,Read,ACK
3.311375687500000,0,0x5D,0x00,Read,ACK
3.311397468750000,0,0x5D,0x00,Read,ACK
3.311418937500000,0,0x5D,0x00,Read,ACK
3.311440406250000,0,0x5D,0x00,Read,ACK
3.311461906250000,0,0x5D,0x00,Read,ACK
3.311483500000000,0,0x5D,0x00,Read,ACK
3.311505062500000,0,0x5D,0x00,Read,ACK
3.311526593750000,0,0x5D,0x00,Read,ACK
3.311549281250000,0,0x5D,0x00,Read,ACK
3.311570750000000,0,0x5D,0x00,Read,ACK
3.311592468750000,0,0x5D,0x00,Read,ACK
3.311615718750000,0,0x5D,0x00,Read,ACK
3.311637968750000,0,0x5D,0x00,Read,ACK
3.311660312500000,0,0x5D,0x00,Read,ACK
3.311681781250000,0,0x5D,0x00,Read,ACK
3.311705062500000,0,0x5D,0x00,Read,ACK
3.311726656250000,0,0x5D,0x1A,Read,ACK
3.311749843750000,0,0x5D,0x70,Read,ACK
3.311771343750000,0,0x5D,0x01,Read,ACK
3.311792812500000,0,0x5D,0x00,Read,ACK
3.311814312500000,0,0x5D,0x00,Read,ACK
3.311835812500000,0,0x5D,0x00,Read,ACK
3.311858468750000,0,0x5D,0x00,Read,ACK
3.311880437500000,0,0x5D,0x00,Read,ACK
3.311903125000000,0,0x5D,0x00,Read,ACK
3.311926625000000,0,0x5D,0x00,Read,ACK
3.311948250000000,0,0x5D,0x00,Read,ACK
3.311969718750000,0,0x5D,0x00,Read,ACK
3.311991406250000,0,0x5D,0x00,Read,ACK
3.312012875000000,0,0x5D,0x00,Read,ACK
3.312035406250000,0,0x5D,0x00,Read,ACK
3.312057031250000,0,0x5D,0x00,Read,ACK
3.312078500000000,0,0x5D,0x00,Read,ACK
3.312099968750000,0,0x5D,0x00,Read,ACK
3.312122312500000,0,0x5D,0x00,Read,ACK
3.312143781250000,0,0x5D,0x00,Read,ACK
3.312165250000000,0,0x5D,0x00,Read,NAK
3.317580593750000,0,0x5D,0x2F,Read,ACK
3.317603500000000,0,0x5D,0x00,Read,ACK
3.317625718750000,0,0x5D,0x04,Read,ACK
3.317647718750000,0,0x5D,0x03,Read,ACK
3.317669156250000,0,0x5D,0xEB,Read,ACK
3.317690625000000,0,0x5D,0x06,Read,ACK
3.317712125000000,0,0x5D,0x40,Read,ACK
3.317734937500000,0,0x5D,0x04,Read,ACK
3.317756437500000,0,0x5D,0x03,Read,ACK
3.317778218750000,0,0x5D,0x02,Read,ACK
3.317799718750000,0,0x5D,0x20,Read,ACK
3.317821187500000,0,0x5D,0x00,Read,ACK
3.317842656250000,0,0x5D,0x00,Read,ACK
3.317864125000000,0,0x5D,0x00,Read,ACK
3.317885937500000,0,0x5D,0x00,Read,ACK
3.317907406250000,0,0x5D,0x00,Read,ACK
3.317928875000000,0,0x5D,0x00,Read,ACK
3.317950343750000,0,0x5D,0x00,Read,ACK
3.317971812500000,0,0x5D,0x00,Read,ACK
3.317993312500000,0,0x5D,0x00,Read,ACK
3.318014812500000,0,0x5D,0x00,Read,ACK
3.318036281250000,0,0x5D,0x00,Read,ACK
3.318057718750000,0,0x5D,0x00,Read,ACK
3.318079218750000,0,0x5D,0x00,Read,ACK
3.318100812500000,0,0x5D,0x00,Read,ACK
3.318122281250000,0,0x5D,0x00,Read,ACK
3.318143781250000,0,0x5D,0x00,Read,ACK
3.318165218750000,0,0x5D,0x00,Read,ACK
3.318186718750000,0,0x5D,0x00,Read,ACK
3.318208187500000,0,0x5D,0x00,Read,ACK
3.318231843750000,0,0x5D,0x00,Read,ACK
3.318254562500000,0,0x5D,0x00,Read,ACK
3.318276062500000,0,0x5D,0x00,Read,ACK
3.318298000000000,0,0x5D,0x00,Read,ACK
3.318319500000000,0,0x5D,0x00,Read,ACK
3.318341000000000,0,0x5D,0x00,Read,ACK
3.318362718750000,0,0x5D,0x00,Read,ACK
3.318384156250000,0,0x5D,0x00,Read,ACK
3.318405656250000,0,0x5D,0x00,Read,ACK
3.318427937500000,0,0x5D,0x00,Read,ACK
3.318449937500000,0,0x5D,0x00,Read,ACK
3.318472562500000,0,0x5D,0x00,Read,ACK
3.318494187500000,0,0x5D,0x00,Read,ACK
3.318516093750000,0,0x5D,0x60,Read,ACK
3.318537937500000,0,0x5D,0x70,Read,ACK
3.318559468750000,0,0x5D,0x01,Read,ACK
3.318581250000000,0,0x5D,0x00,Read,ACK
3.318602750000000,0,0x5D,0x00,Read,ACK
3.318624781250000,0,0x5D,0x00,Read,ACK
3.318647562500000,0,0x5D,0x00,Read,ACK
3.318669062500000,0,0x5D,0x00,Read,ACK
3.318691000000000,0,0x5D,0x00,Read,ACK
3.318712500000000,0,0x5D,0x00,Read,ACK
3.318735281250000,0,0x5D,0x00,Read,ACK
3.318756937500000,0,0x5D,0x00,Read,ACK
3.318778437500000,0,0x5D,0x00,Read,ACK
3.318801000000000,0,0x5D,0x00,Read,ACK
3.318822437500000,0,0x5D,0x00,Read,ACK
3.318844093750000,0,0x5D,0x00,Read,ACK
3.318866781250000,0,0x5D,0x00,Read,ACK
3.318889437500000,0,0x5D,0x00,Read,ACK
3.318911875000000,0,0x5D,0x00,Read,ACK
3.318934812500000,0,0x5D,0x00,Read,ACK
3.318956531250000,0,0x5D,0x00,Read,NAK
3.324677062500000,0,0x5D,0x2F,Read,ACK
3.324701656250000,0,0x5D,0x00,Read,ACK
3.324723187500000,0,0x5D,0x04,Read,ACK
3.324746093750000,0,0x5D,0x03,Read,ACK
3.324767656250000,0,0x5D,0xF6,Read,ACK
3.324789093750000,0,0x5D,0x06,Read,ACK
3.324810593750000,0,0x5D,0x36,Read,ACK
3.324832062500000,0,0x5D,0x04,Read,ACK
3.324853562500000,0,0x5D,0x03,Read,ACK
3.324875343750000,0,0x5D,0x02,Read,ACK
3.324898125000000,0,0x5D,0x20,Read,ACK
3.324919593750000,0,0x5D,0x00,Read,ACK
3.324941062500000,0,0x5D,0x00,Read,ACK
3.324962531250000,0,0x5D,0x00,Read,ACK
3.324984000000000,0,0x5D,0x00,Read,ACK
3.325005500000000,0,0x5D,0x00,Read,ACK
3.325027062500000,0,0x5D,0x00,Read,ACK
3.325048593750000,0,0x5D,0x00,Read,ACK
3.325070062500000,0,0x5D,0x00,Read,ACK
3.325091531250000,0,0x5D,0x00,Read,ACK
3.325113000000000,0,0x5D,0x00,Read,ACK
3.325134500000000,0,0x5D,0x00,Read,ACK
3.325155937500000,0,0x5D,0x00,Read,ACK
3.325177437500000,0,0x5D,0x00,Read,ACK
3.325198906250000,0,0x5D,0x00,Read,ACK
3.325220375000000,0,0x5D,0x00,Read,ACK
3.325241843750000,0,0x5D,0x00,Read,ACK
3.325263312500000,0,0x5D,0x00,Read,ACK
3.325284812500000,0,0x5D,0x00,Read,ACK
3.325306281250000,0,0x5D,0x00,Read,ACK
3.325327781250000,0,0x5D,0x00,Read,ACK
3.325349250000000,0,0x5D,0x00,Read,ACK
3.325370718750000,0,0x5D,0x00,Read,ACK
3.325392187500000,0,0x5D,0x00,Read,ACK
3.325414468750000,0,0x5D,0x00,Read,ACK
3.325436375000000,0,0x5D,0x00,Read,ACK
3.325457906250000,0,0x5D,0x00,Read,ACK
3.325479406250000,0,0x5D,0x00,Read,ACK
3.325502875000000,0,0x5D,0x00,Read,ACK
3.325524343750000,0,0x5D,0x00,Read,ACK
3.325545843750000,0,0x5D,0x00,Read,ACK
3.325567312500000,0,0x5D,0x00,Read,ACK
3.325588875000000,0,0x5D,0x00,Read,ACK
3.325610875000000,0,0x5D,0xA6,Read,ACK
3.325632468750000,0,0x5D,0x70,Read,ACK
3.325655031250000,0,0x5D,0x01,Read,ACK
3.325676500000000,0,0x5D,0x00,Read,ACK
3.325697968750000,0,0x5D,0x00,Read,ACK
3.325719906250000,0,0x5D,0x00,Read,ACK
3.325741375000000,0,0x5D,0x00,Read,ACK
3.325762843750000,0,0x5D,0x00,Read,ACK
3.325784312500000,0,0x5D,0x00,Read,ACK
3.325806218750000,0,0x5D,0x00,Read,ACK
3.325827937500000,0,0x5D,0x00,Read,ACK
3.325849906250000,0,0x5D,0x00,Read,ACK
3.325871406250000,0,0x5D,0x00,Read,ACK
3.325893375000000,0,0x5D,0x00,Read,ACK
3.325915156250000,0,0x5D,0x00,Read,ACK
3.325937562500000,0,0x5D,0x00,Read,ACK
3.325959812500000,0,0x5D,0x00,Read,ACK
3.325981281250000,0,0x5D,0x00,Read,ACK
3.326004312500000,0,0x5D,0x00,Read,ACK
3.326026312500000,0,0x5D,0x00,Read,ACK
3.326049968750000,0,0x5D,0x00,Read,NAK
3.331758812500000,0,0x5D,0x2F,Read,ACK
3.331783968750000,0,0x5D,0x00,Read,ACK
3.331805406250000,0,0x5D,0x04,Read,ACK
3.331826875000000,0,0x5D,0x03,Read,ACK
3.331848375000000,0,0x5D,0x03,Read,ACK
3.331869843750000,0,0x5D,0x07,Read,ACK
3.331891718750000,0,0x5D,0x2D,Read,ACK
3.331914343750000,0,0x5D,0x04,Read,ACK
3.331935843750000,0,0x5D,0x03,Read,ACK
3.331957312500000,0,0x5D,0x02,Read,ACK
3.331978781250000,0,0x5D,0x20,Read,ACK
3.332000812500000,0,0x5D,0x00,Read,ACK
3.332022312500000,0,0x5D,0x00,Read,ACK
3.332043781250000,0,0x5D,0x00,Read,ACK
3.332066000000000,0,0x5D,0x00,Read,ACK
3.332087531250000,0,0x5D,0x00,Read,ACK
3.332109031250000,0,0x5D,0x00,Read,ACK
3.332130500000000,0,0x5D,0x00,Read,ACK
3.332153093750000,0,0x5D,0x00,Read,ACK
3.332174562500000,0,0x5D,0x00,Read,ACK
3.332196062500000,0,0x5D,0x00,Read,ACK
3.332217531250000,0,0x5D,0x00,Read,ACK
3.332239000000000,0,0x5D,0x00,Read,ACK
3.332260656250000,0,0x5D,0x00,Read,ACK
3.332282125000000,0,0x5D,0x00,Read,ACK
3.332303593750000,0,0x5D,0x00,Read,ACK
3.332325125000000,0,0x5D,0x00,Read,ACK
3.332346625000000,0,0x5D,0x00,Read,ACK
3.332368093750000,0,0x5D,0x00,Read,ACK
3.332389562500000,0,0x5D,0x00,Read,ACK
3.332411062500000,0,0x5D,0x00,Read,ACK
3.332432531250000,0,0x5D,0x00,Read,ACK
3.332454000000000,0,0x5D,0x00,Read,ACK
3.332475468750000,0,0x5D,0x00,Read,ACK
3.332496968750000,0,0x5D,0x00,Read,ACK
3.332518437500000,0,0x5D,0x00,Read,ACK
3.332539906250000,0,0x5D,0x00,Read,ACK
3.332561968750000,0,0x5D,0x00,Read,ACK
3.332583781250000,0,0x5D,0x00,Read,ACK
3.332606843750000,0,0x5D,0x00,Read,ACK
3.332628500000000,0,0x5D,0x00,Read,ACK
3.332651437500000,0,0x5D,0x00,Read,ACK
3.332672875000000,0,0x5D,0x00,Read,ACK
3.332694375000000,0,0x5D,0xEC,Read,ACK
3.332716593750000,0,0x5D,0x70,Read,ACK
3.332738062500000,0,0x5D,0x01,Read,ACK
3.332760343750000,0,0x5D,0x00,Read,ACK
3.332781875000000,0,0x5D,0x00,Read,ACK
3.332803375000000,0,0x5D,0x00,Read,ACK
3.332826562500000,0,0x5D,0x00,Read,ACK
3.332848125000000,0,0x5D,0x00,Read,ACK
3.332870000000000,0,0x5D,0x00,Read,ACK
3.332891500000000,0,0x5D,0x00,Read,ACK
3.332913000000000,0,0x5D,0x00,Read,ACK
3.332935375000000,0,0x5D,0x00,Read,ACK
3.332956875000000,0,0x5D,0x00,Read,ACK
3.332978343750000,0,0x5D,0x00,Read,ACK
3.333000250000000,0,0x5D,0x00,Read,ACK
3.333021750000000,0,0x5D,0x00,Read,ACK
3.333044812500000,0,0x5D,0x00,Read,ACK
3.333067406250000,0,0x5D,0x00,Read,ACK
3.333090437500000,0,0x5D,0x00,Read,ACK
3.333112062500000,0,0x5D,0x00,Read,ACK
3.333133781250000,0,0x5D,0x00,Read,NAK
3.338918000000000,0,0x5D,0x2F,Read,ACK
3.338941250000000,0,0x5D,0x00,Read,ACK
3.338962718750000,0,0x5D,0x04,Read,ACK
3.338984218750000,0,0x5D,0x03,Read,ACK
3.339005687500000,0,0x5D,0x12,Read,ACK
3.339027156250000,0,0x5D,0x07,Read,ACK
3.339048937500000,0,0x5D,0x25,Read,ACK
3.339071000000000,0,0x5D,0x04,Read,ACK
3.339092531250000,0,0x5D,0x03,Read,ACK
3.339113968750000,0,0x5D,0x02,Read,ACK
3.339135437500000,0,0x5D,0x20,Read,ACK
3.339156906250000,0,0x5D,0x00,Read,ACK
3.339179343750000,0,0x5D,0x00,Read,ACK
3.339200812500000,0,0x5D,0x00,Read,ACK
3.339222312500000,0,0x5D,0x00,Read,ACK
3.339243750000000,0,0x5D,0x00,Read,ACK
3.339265218750000,0,0x5D,0x00,Read,ACK
3.339286718750000,0,0x5D,0x00,Read,ACK
3.339308312500000,0,0x5D,0x00,Read,ACK
3.339329781250000,0,0x5D,0x00,Read,ACK
3.339351250000000,0,0x5D,0x00,Read,ACK
3.339372750000000,0,0x5D,0x00,Read,ACK
3.339394218750000,0,0x5D,0x00,Read,ACK
3.339415750000000,0,0x5D,0x00,Read,ACK
3.339437218750000,0,0x5D,0x00,Read,ACK
3.339458687500000,0,0x5D,0x00,Read,ACK
3.339480156250000,0,0x5D,0x00,Read,ACK
3.339501718750000,0,0x5D,0x00,Read,ACK
3.339523250000000,0,0x5D,0x00,Read,ACK
3.339544718750000,0,0x5D,0x00,Read,ACK
3.339566187500000,0,0x5D,0x00,Read,ACK
3.339587687500000,0,0x5D,0x00,Read,ACK
3.339609156250000,0,0x5D,0x00,Read,ACK
3.339630625000000,0,0x5D,0x00,Read,ACK
3.339652093750000,0,0x5D,0x00,Read,ACK
3.339673562500000,0,0x5D,0x00,Read,ACK
3.339695031250000,0,0x5D,0x00,Read,ACK
3.339716531250000,0,0x5D,0x00,Read,ACK
3.339738000000000,0,0x5D,0x00,Read,ACK
3.339761718750000,0,0x5D,0x00,Read,ACK
3.339783218750000,0,0x5D,0x00,Read,ACK
3.339806343750000,0,0x5D,0x00,Read,ACK
3.339829875000000,0,0x5D,0x00,Read,ACK
3.339852781250000,0,0x5D,0x32,Read,ACK
3.339874250000000,0,0x5D,0x71,Read,ACK
3.339895750000000,0,0x5D,0x01,Read,ACK
3.339917687500000,0,0x5D,0x00,Read,ACK
3.339939781250000,0,0x5D,0x00,Read,ACK
3.339961281250000,0,0x5D,0x00,Read,ACK
3.339983718750000,0,0x5D,0x00,Read,ACK
3.340005781250000,0,0x5D,0x00,Read,ACK
3.340027281250000,0,0x5D,0x00,Read,ACK
3.340050093750000,0,0x5D,0x00,Read,ACK
3.340073218750000,0,0x5D,0x00,Read,ACK
3.340096062500000,0,0x5D,0x00,Read,ACK
3.340119343750000,0,0x5D,0x00,Read,ACK
3.340140875000000,0,0x5D,0x00,Read,ACK
3.340163281250000,0,0x5D,0x00,Read,ACK
3.340186093750000,0,0x5D,0x00,Read,ACK
3.340207656250000,0,0x5D,0x00,Read,ACK
3.340229781250000,0,0x5D,0x00,Read,ACK
3.340251437500000,0,0x5D,0x00,Read,ACK
3.340273312500000,0,0x5D,0x00,Read,ACK
3.340296093750000,0,0x5D,0x00,Read,NAK
3.346035531250000,0,0x5D,0x2F,Read,ACK
3.346061906250000,0,0x5D,0x00,Read,ACK
3.346083437500000,0,0x5D,0x04,Read,ACK
3.346104875000000,0,0x5D,0x03,Read,ACK
3.346126375000000,0,0x5D,0x24,Read,ACK
3.346147875000000,0,0x5D,0x07,Read,ACK
3.346169843750000,0,0x5D,0x1D,Read,ACK
3.346191812500000,0,0x5D,0x04,Read,ACK
3.346213281250000,0,0x5D,0x03,Read,ACK
3.346234750000000,0,0x5D,0x02,Read,ACK
3.346256250000000,0,0x5D,0x20,Read,ACK
3.346277718750000,0,0x5D,0x00,Read,ACK
3.346300250000000,0,0x5D,0x00,Read,ACK
3.346321718750000,0,0x5D,0x00,Read,ACK
3.346343218750000,0,0x5D,0x00,Read,ACK
3.346364687500000,0,0x5D,0x00,Read,ACK
3.346386156250000,0,0x5D,0x00,Read,ACK
3.346407656250000,0,0x5D,0x00,Read,ACK
3.346431156250000,0,0x5D,0x00,Read,ACK
3.346452593750000,0,0x5D,0x00,Read,ACK
3.346474093750000,0,0x5D,0x00,Read,ACK
3.346495562500000,0,0x5D,0x00,Read,ACK
3.346517031250000,0,0x5D,0x00,Read,ACK
3.346538562500000,0,0x5D,0x00,Read,ACK
3.346560062500000,0,0x5D,0x00,Read,ACK
3.346581531250000,0,0x5D,0x00,Read,ACK
3.346603125000000,0,0x5D,0x00,Read,ACK
3.346624593750000,0,0x5D,0x00,Read,ACK
3.346646375000000,0,0x5D,0x00,Read,ACK
3.346667812500000,0,0x5D,0x00,Read,ACK
3.346689312500000,0,0x5D,0x00,Read,ACK
3.346710750000000,0,0x5D,0x00,Read,ACK
3.346732218750000,0,0x5D,0x00,Read,ACK
3.346753718750000,0,0x5D,0x00,Read,ACK
3.346775187500000,0,0x5D,0x00,Read,ACK
3.346796687500000,0,0x5D,0x00,Read,ACK
3.346818156250000,0,0x5D,0x00,Read,ACK
3.346839625000000,0,0x5D,0x00,Read,ACK
3.346863437500000,0,0x5D,0x00,Read,ACK
3.346890687500000,0,0x5D,0x00,Read,ACK
3.346912187500000,0,0x5D,0x00,Read,ACK
3.346937906250000,0,0x5D,0x00,Read,ACK
3.346959875000000,0,0x5D,0x00,Read,ACK
3.346981781250000,0,0x5D,0x78,Read,ACK
3.347003250000000,0,0x5D,0x71,Read,ACK
3.347024750000000,0,0x5D,0x01,Read,ACK
3.347046218750000,0,0x5D,0x00,Read,ACK
3.347068156250000,0,0x5D,0x00,Read,ACK
3.347090687500000,0,0x5D,0x00,Read,ACK
3.347112218750000,0,0x5D,0x00,Read,ACK
3.347134562500000,0,0x5D,0x00,Read,ACK
3.347156687500000,0,0x5D,0x00,Read,ACK
3.347178593750000,0,0x5D,0x00,Read,ACK
3.347201312500000,0,0x5D,0x00,Read,ACK
3.347222781250000,0,0x5D,0x00,Read,ACK
3.347244500000000,0,0x5D,0x00,Read,ACK
3.347265968750000,0,0x5D,0x00,Read,ACK
3.347287468750000,0,0x5D,0x00,Read,ACK
3.347310906250000,0,0x5D,0x00,Read,ACK
3.347333812500000,0,0x5D,0x00,Read,ACK
3.347355906250000,0,0x5D,0x00,Read,ACK
3.347377437500000,0,0x5D,0x00,Read,ACK
3.347398968750000,0,0x5D,0x00,Read,ACK
3.347421093750000,0,0x5D,0x00,Read,NAK
3.353227968750000,0,0x5D,0x2F,Read,ACK
3.353252062500000,0,0x5D,0x00,Read,ACK
3.353273531250000,0,0x5D,0x04,Read,ACK
3.353295031250000,0,0x5D,0x03,Read,ACK
3.353317468750000,0,0x5D,0x37,Read,ACK
3.353340062500000,0,0x5D,0x07,Read,ACK
3.353361562500000,0,0x5D,0x17,Read,ACK
3.353383031250000,0,0x5D,0x04,Read,ACK
3.353404531250000,0,0x5D,0x03,Read,ACK
3.353426031250000,0,0x5D,0x03,Read,ACK
3.353447500000000,0,0x5D,0x20,Read,ACK
3.353470187500000,0,0x5D,0x00,Read,ACK
3.353491656250000,0,0x5D,0x00,Read,ACK
3.353513125000000,0,0x5D,0x00,Read,ACK
3.353534625000000,0,0x5D,0x00,Read,ACK
3.353557375000000,0,0x5D,0x00,Read,ACK
3.353580468750000,0,0x5D,0x00,Read,ACK
3.353601906250000,0,0x5D,0x00,Read,ACK
3.353623406250000,0,0x5D,0x00,Read,ACK
3.353644875000000,0,0x5D,0x00,Read,ACK
3.353666343750000,0,0x5D,0x00,Read,ACK
3.353687812500000,0,0x5D,0x00,Read,ACK
3.353709312500000,0,0x5D,0x00,Read,ACK
3.353730750000000,0,0x5D,0x00,Read,ACK
3.353752250000000,0,0x5D,0x00,Read,ACK
3.353773750000000,0,0x5D,0x00,Read,ACK
3.353795250000000,0,0x5D,0x00,Read,ACK
3.353816718750000,0,0x5D,0x00,Read,ACK
3.353838187500000,0,0x5D,0x00,Read,ACK
3.353859687500000,0,0x5D,0x00,Read,ACK
3.353881156250000,0,0x5D,0x00,Read,ACK
3.353902625000000,0,0x5D,0x00,Read,ACK
3.353924125000000,0,0x5D,0x00,Read,ACK
3.353945562500000,0,0x5D,0x00,Read,ACK
3.353967062500000,0,0x5D,0x00,Read,ACK
3.353988531250000,0,0x5D,0x00,Read,ACK
3.354013468750000,0,0x5D,0x00,Read,ACK
3.354034906250000,0,0x5D,0x00,Read,ACK
3.354056406250000,0,0x5D,0x00,Read,ACK
3.354078281250000,0,0x5D,0x00,Read,ACK
3.354100187500000,0,0x5D,0x00,Read,ACK
3.354121656250000,0,0x5D,0x00,Read,ACK
3.354143125000000,0,0x5D,0x00,Read,ACK
3.354164593750000,0,0x5D,0xBE,Read,ACK
3.354186656250000,0,0x5D,0x71,Read,ACK
3.354208687500000,0,0x5D,0x01,Read,ACK
3.354231750000000,0,0x5D,0x00,Read,ACK
3.354253250000000,0,0x5D,0x00,Read,ACK
3.354274718750000,0,0x5D,0x00,Read,ACK
3.354296218750000,0,0x5D,0x00,Read,ACK
3.354318062500000,0,0x5D,0x00,Read,ACK
3.354339500000000,0,0x5D,0x00,Read,ACK
3.354361031250000,0,0x5D,0x00,Read,ACK
3.354383062500000,0,0x5D,0x00,Read,ACK
3.354404531250000,0,0x5D,0x00,Read,ACK
3.354427406250000,0,0x5D,0x00,Read,ACK
3.354449468750000,0,0x5D,0x00,Read,ACK
3.354471375000000,0,0x5D,0x00,Read,ACK
3.354492875000000,0,0x5D,0x00,Read,ACK
3.354514375000000,0,0x5D,0x00,Read,ACK
3.354535906250000,0,0x5D,0x00,Read,ACK
3.354558406250000,0,0x5D,0x00,Read,ACK
3.354579875000000,0,0x5D,0x00,Read,ACK
3.354601343750000,0,0x5D,0x00,Read,NAK
3.360438312500000,0,0x5D,0x2F,Read,ACK
3.360462375000000,0,0x5D,0x00,Read,ACK
3.360484562500000,0,0x5D,0x04,Read,ACK
3.360506500000000,0,0x5D,0x03,Read,ACK
3.360528468750000,0,0x5D,0x4D,Read,ACK
3.360549906250000,0,0x5D,0x07,Read,ACK
3.360571406250000,0,0x5D,0x12,Read,ACK
3.360592875000000,0,0x5D,0x04,Read,ACK
3.360614843750000,0,0x5D,0x03,Read,ACK
3.360636312500000,0,0x5D,0x02,Read,ACK
3.360658093750000,0,0x5D,0x20,Read,ACK
3.360679593750000,0,0x5D,0x00,Read,ACK
3.360701062500000,0,0x5D,0x00,Read,ACK
3.360726312500000,0,0x5D,0x00,Read,ACK
3.360747781250000,0,0x5D,0x00,Read,ACK
3.360769250000000,0,0x5D,0x00,Read,ACK
3.360790718750000,0,0x5D,0x00,Read,ACK
3.360812187500000,0,0x5D,0x00,Read,ACK
3.360833687500000,0,0x5D,0x00,Read,ACK
3.360855156250000,0,0x5D,0x00,Read,ACK
3.360876625000000,0,0x5D,0x00,Read,ACK
3.360898125000000,0,0x5D,0x00,Read,ACK
3.360919593750000,0,0x5D,0x00,Read,ACK
3.360941062500000,0,0x5D,0x00,Read,ACK
3.360962531250000,0,0x5D,0x00,Read,ACK
3.360984031250000,0,0x5D,0x00,Read,ACK
3.361005500000000,0,0x5D,0x00,Read,ACK
3.361026968750000,0,0x5D,0x00,Read,ACK
3.361048468750000,0,0x5D,0x00,Read,ACK
3.361069937500000,0,0x5D,0x00,Read,ACK
3.361091406250000,0,0x5D,0x00,Read,ACK
3.361112875000000,0,0x5D,0x00,Read,ACK
3.361134468750000,0,0x5D,0x00,Read,ACK
3.361155968750000,0,0x5D,0x00,Read,ACK
3.361178812500000,0,0x5D,0x00,Read,ACK
3.361202406250000,0,0x5D,0x00,Read,ACK
3.361224031250000,0,0x5D,0x00,Read,ACK
3.361245750000000,0,0x5D,0x00,Read,ACK
3.361268625000000,0,0x5D,0x00,Read,ACK
3.361290062500000,0,0x5D,0x00,Read,ACK
3.361312187500000,0,0x5D,0x00,Read,ACK
3.361333687500000,0,0x5D,0x00,Read,ACK
3.361355187500000,0,0x5D,0x00,Read,ACK
3.361377031250000,0,0x5D,0x04,Read,ACK
3.361398906250000,0,0x5D,0x72,Read,ACK
3.361420500000000,0,0x5D,0x01,Read,ACK
3.361443250000000,0,0x5D,0x00,Read,ACK
3.361464687500000,0,0x5D,0x00,Read,ACK
3.361486593750000,0,0x5D,0x00,Read,ACK
3.361508093750000,0,0x5D,0x00,Read,ACK
3.361529562500000,0,0x5D,0x00,Read,ACK
3.361551031250000,0,0x5D,0x00,Read,ACK
3.361572875000000,0,0x5D,0x00,Read,ACK
3.361594375000000,0,0x5D,0x00,Read,ACK
3.361616687500000,0,0x5D,0x00,Read,ACK
3.361638187500000,0,0x5D,0x00,Read,ACK
3.361660468750000,0,0x5D,0x00,Read,ACK
3.361683312500000,0,0x5D,0x00,Read,ACK
3.361706281250000,0,0x5D,0x00,Read,ACK
3.361727968750000,0,0x5D,0x00,Read,ACK
3.361750406250000,0,0x5D,0x00,Read,ACK
3.361773875000000,0,0x5D,0x00,Read,ACK
3.361795312500000,0,0x5D,0x00,Read,ACK
3.361817937500000,0,0x5D,0x00,Read,NAK
3.367519593750000,0,0x5D,0x2F,Read,ACK
3.367544250000000,0,0x5D,0x00,Read,ACK
3.367565781250000,0,0x5D,0x04,Read,ACK
3.367587250000000,0,0x5D,0x03,Read,ACK
3.367608718750000,0,0x5D,0x63,Read,ACK
3.367630343750000,0,0x5D,0x07,Read,ACK
3.367653468750000,0,0x5D,0x0E,Read,ACK
3.367674937500000,0,0x5D,0x04,Read,ACK
3.367696437500000,0,0x5D,0x03,Read,ACK
3.367717906250000,0,0x5D,0x03,Read,ACK
3.367739625000000,0,0x5D,0x20,Read,ACK
3.367761093750000,0,0x5D,0x00,Read,ACK
3.367782812500000,0,0x5D,0x00,Read,ACK
3.367804312500000,0,0x5D,0x00,Read,ACK
3.367825781250000,0,0x5D,0x00,Read,ACK
3.367847250000000,0,0x5D,0x00,Read,ACK
3.367868843750000,0,0x5D,0x00,Read,ACK
3.367890343750000,0,0x5D,0x00,Read,ACK
3.367911843750000,0,0x5D,0x00,Read,ACK
3.367933468750000,0,0x5D,0x00,Read,ACK
3.367954968750000,0,0x5D,0x00,Read,ACK
3.367976437500000,0,0x5D,0x00,Read,ACK
3.367997906250000,0,0x5D,0x00,Read,ACK
3.368019406250000,0,0x5D,0x00,Read,ACK
3.368040875000000,0,0x5D,0x00,Read,ACK
3.368062375000000,0,0x5D,0x00,Read,ACK
3.368083812500000,0,0x5D,0x00,Read,ACK
3.368105312500000,0,0x5D,0x00,Read,ACK
3.368126781250000,0,0x5D,0x00,Read,ACK
3.368148250000000,0,0x5D,0x00,Read,ACK
3.368169750000000,0,0x5D,0x00,Read,ACK
3.368191218750000,0,0x5D,0x00,Read,ACK
3.368212687500000,0,0x5D,0x00,Read,ACK
3.368234187500000,0,0x5D,0x00,Read,ACK
3.368255687500000,0,0x5D,0x00,Read,ACK
3.368277187500000,0,0x5D,0x00,Read,ACK
3.368298656250000,0,0x5D,0x00,Read,ACK
3.368322750000000,0,0x5D,0x00,Read,ACK
3.368345406250000,0,0x5D,0x00,Read,ACK
3.368366906250000,0,0x5D,0x00,Read,ACK
3.368388812500000,0,0x5D,0x00,Read,ACK
3.368410500000000,0,0x5D,0x00,Read,ACK
3.368432218750000,0,0x5D,0x00,Read,ACK
3.368454468750000,0,0x5D,0x4A,Read,ACK
3.368475937500000,0,0x5D,0x72,Read,ACK
3.368497843750000,0,0x5D,0x01,Read,ACK
3.368519312500000,0,0x5D,0x00,Read,ACK
3.368541312500000,0,0x5D,0x00,Read,ACK
3.368563281250000,0,0x5D,0x00,Read,ACK
3.368586062500000,0,0x5D,0x00,Read,ACK
3.368607562500000,0,0x5D,0x00,Read,ACK
3.368629000000000,0,0x5D,0x00,Read,ACK
3.368650500000000,0,0x5D,0x00,Read,ACK
3.368672906250000,0,0x5D,0x00,Read,ACK
3.368694375000000,0,0x5D,0x00,Read,ACK
3.368716343750000,0,0x5D,0x00,Read,ACK
3.368737812500000,0,0x5D,0x00,Read,ACK
3.368761125000000,0,0x5D,0x00,Read,ACK
3.368782750000000,0,0x5D,0x00,Read,ACK
3.368804250000000,0,0x5D,0x00,Read,ACK
3.368827218750000,0,0x5D,0x00,Read,ACK
3.368850250000000,0,0x5D,0x00,Read,ACK
3.368872000000000,0,0x5D,0x00,Read,ACK
3.368893906250000,0,0x5D,0x00,Read,NAK
3.374761812500000,0,0x5D,0x2F,Read,ACK
3.374788906250000,0,0x5D,0x00,Read,ACK
3.374812312500000,0,0x5D,0x04,Read,ACK
3.374834937500000,0,0x5D,0x03,Read,ACK
3.374856437500000,0,0x5D,0x79,Read,ACK
3.374877937500000,0,0x5D,0x07,Read,ACK
3.374900000000000,0,0x5D,0x0B,Read,ACK
3.374921718750000,0,0x5D,0x04,Read,ACK
3.374943343750000,0,0x5D,0x03,Read,ACK
3.374964812500000,0,0x5D,0x03,Read,ACK
3.374986281250000,0,0x5D,0x20,Read,ACK
3.375007750000000,0,0x5D,0x00,Read,ACK
3.375029437500000,0,0x5D,0x00,Read,ACK
3.375050906250000,0,0x5D,0x00,Read,ACK
3.375072375000000,0,0x5D,0x00,Read,ACK
3.375093875000000,0,0x5D,0x00,Read,ACK
3.375115343750000,0,0x5D,0x00,Read,ACK
3.375137218750000,0,0x5D,0x00,Read,ACK
3.375158718750000,0,0x5D,0x00,Read,ACK
3.375180187500000,0,0x5D,0x00,Read,ACK
3.375201687500000,0,0x5D,0x00,Read,ACK
3.375223187500000,0,0x5D,0x00,Read,ACK
3.375244687500000,0,0x5D,0x00,Read,ACK
3.375266187500000,0,0x5D,0x00,Read,ACK
3.375287656250000,0,0x5D,0x00,Read,ACK
3.375309156250000,0,0x5D,0x00,Read,ACK
3.375330656250000,0,0x5D,0x00,Read,ACK
3.375352406250000,0,0x5D,0x00,Read,ACK
3.375373906250000,0,0x5D,0x00,Read,ACK
3.375395406250000,0,0x5D,0x00,Read,ACK
3.375416875000000,0,0x5D,0x00,Read,ACK
3.375438343750000,0,0x5D,0x00,Read,ACK
3.375463781250000,0,0x5D,0x00,Read,ACK
3.375485250000000,0,0x5D,0x00,Read,ACK
3.375506718750000,0,0x5D,0x00,Read,ACK
3.375528593750000,0,0x5D,0x00,Read,ACK
3.375550468750000,0,0x5D,0x00,Read,ACK
3.375572812500000,0,0x5D,0x00,Read,ACK
3.375594250000000,0,0x5D,0x00,Read,ACK
3.375615718750000,0,0x5D,0x00,Read,ACK
3.375637187500000,0,0x5D,0x00,Read,ACK
3.375658906250000,0,0x5D,0x00,Read,ACK
3.375680875000000,0,0x5D,0x00,Read,ACK
3.375702500000000,0,0x5D,0x90,Read,ACK
3.375724375000000,0,0x5D,0x72,Read,ACK
3.375745812500000,0,0x5D,0x01,Read,ACK
3.375767312500000,0,0x5D,0x00,Read,ACK
3.375788781250000,0,0x5D,0x00,Read,ACK
3.375810250000000,0,0x5D,0x00,Read,ACK
3.375831750000000,0,0x5D,0x00,Read,ACK
3.375853218750000,0,0x5D,0x00,Read,ACK
3.375876031250000,0,0x5D,0x00,Read,ACK
3.375898250000000,0,0x5D,0x00,Read,ACK
3.375921718750000,0,0x5D,0x00,Read,ACK
3.375943656250000,0,0x5D,0x00,Read,ACK
3.375965156250000,0,0x5D,0x00,Read,ACK
3.375986781250000,0,0x5D,0x00,Read,ACK
3.376008500000000,0,0x5D,0x00,Read,ACK
3.376029968750000,0,0x5D,0x00,Read,ACK
3.376052500000000,0,0x5D,0x00,Read,ACK
3.376074406250000,0,0x5D,0x00,Read,ACK
3.376097250000000,0,0x5D,0x00,Read,ACK
3.376123750000000,0,0x5D,0x00,Read,ACK
3.376145218750000,0,0x5D,0x00,Read,NAK
3.381890281250000,0,0x5D,0x2F,Read,ACK
3.381918000000000,0,0x5D,0x00,Read,ACK
3.381939656250000,0,0x5D,0x04,Read,ACK
3.381961125000000,0,0x5D,0x03,Read,ACK
3.381982625000000,0,0x5D,0x8E,Read,ACK
3.382004093750000,0,0x5D,0x07,Read,ACK
3.382025562500000,0,0x5D,0x09,Read,ACK
3.382047031250000,0,0x5D,0x04,Read,ACK
3.382068531250000,0,0x5D,0x03,Read,ACK
3.382090000000000,0,0x5D,0x03,Read,ACK
3.382111468750000,0,0x5D,0x20,Read,ACK
3.382132968750000,0,0x5D,0x00,Read,ACK
3.382155656250000,0,0x5D,0x00,Read,ACK
3.382177156250000,0,0x5D,0x00,Read,ACK
3.382198625000000,0,0x5D,0x00,Read,ACK
3.382220125000000,0,0x5D,0x00,Read,ACK
3.382241593750000,0,0x5D,0x00,Read,ACK
3.382263062500000,0,0x5D,0x00,Read,ACK
3.382284531250000,0,0x5D,0x00,Read,ACK
3.382307250000000,0,0x5D,0x00,Read,ACK
3.382328750000000,0,0x5D,0x00,Read,ACK
3.382350218750000,0,0x5D,0x00,Read,ACK
3.382371687500000,0,0x5D,0x00,Read,ACK
3.382393187500000,0,0x5D,0x00,Read,ACK
3.382414656250000,0,0x5D,0x00,Read,ACK
3.382436125000000,0,0x5D,0x00,Read,ACK
3.382457593750000,0,0x5D,0x00,Read,ACK
3.382479093750000,0,0x5D,0x00,Read,ACK
3.382500562500000,0,0x5D,0x00,Read,ACK
3.382522062500000,0,0x5D,0x00,Read,ACK
3.382543531250000,0,0x5D,0x00,Read,ACK
3.382564968750000,0,0x5D,0x00,Read,ACK
3.382586468750000,0,0x5D,0x00,Read,ACK
3.382613875000000,0,0x5D,0x00,Read,ACK
3.382637750000000,0,0x5D,0x00,Read,ACK
3.382659218750000,0,0x5D,0x00,Read,ACK
3.382681468750000,0,0x5D,0x00,Read,ACK
3.382703375000000,0,0x5D,0x00,Read,ACK
3.382724812500000,0,0x5D,0x00,Read,ACK
3.382746281250000,0,0x5D,0x00,Read,ACK
3.382767781250000,0,0x5D,0x00,Read,ACK
3.382789625000000,0,0x5D,0x00,Read,ACK
3.382811281250000,0,0x5D,0x00,Read,ACK
3.382832750000000,0,0x5D,0xD6,Read,ACK
3.382855437500000,0,0x5D,0x72,Read,ACK
3.382876906250000,0,0x5D,0x01,Read,ACK
3.382898375000000,0,0x5D,0x00,Read,ACK
3.382920843750000,0,0x5D,0x00,Read,ACK
3.382942343750000,0,0x5D,0x00,Read,ACK
3.382964687500000,0,0x5D,0x00,Read,ACK
3.382986562500000,0,0x5D,0x00,Read,ACK
3.383008000000000,0,0x5D,0x00,Read,ACK
3.383030500000000,0,0x5D,0x00,Read,ACK
3.383053312500000,0,0x5D,0x00,Read,ACK
3.383075343750000,0,0x5D,0x00,Read,ACK
3.383097343750000,0,0x5D,0x00,Read,ACK
3.383118843750000,0,0x5D,0x00,Read,ACK
3.383140906250000,0,0x5D,0x00,Read,ACK
3.383162343750000,0,0x5D,0x00,Read,ACK
3.383185125000000,0,0x5D,0x00,Read,ACK
3.383206625000000,0,0x5D,0x00,Read,ACK
3.383229593750000,0,0x5D,0x00,Read,ACK
3.383251312500000,0,0x5D,0x00,Read,ACK
3.383275593750000,0,0x5D,0x00,Read,NAK
3.388926718750000,0,0x5D,0x2F,Read,ACK
3.388950875000000,0,0x5D,0x00,Read,ACK
3.388972375000000,0,0x5D,0x04,Read,ACK
3.388993843750000,0,0x5D,0x03,Read,ACK
3.389015312500000,0,0x5D,0xA2,Read,ACK
3.389036781250000,0,0x5D,0x07,Read,ACK
3.389058250000000,0,0x5D,0x08,Read,ACK
3.389080281250000,0,0x5D,0x04,Read,ACK
3.389101781250000,0,0x5D,0x03,Read,ACK
3.389123281250000,0,0x5D,0x03,Read,ACK
3.389144750000000,0,0x5D,0x20,Read,ACK
3.389166218750000,0,0x5D,0x00,Read,ACK
3.389187906250000,0,0x5D,0x00,Read,ACK
3.389209437500000,0,0x5D,0x00,Read,ACK
3.389230906250000,0,0x5D,0x00,Read,ACK
3.389252375000000,0,0x5D,0x00,Read,ACK
3.389273875000000,0,0x5D,0x00,Read,ACK
3.389295343750000,0,0x5D,0x00,Read,ACK
3.389316843750000,0,0x5D,0x00,Read,ACK
3.389338531250000,0,0x5D,0x00,Read,ACK
3.389360031250000,0,0x5D,0x00,Read,ACK
3.389381500000000,0,0x5D,0x00,Read,ACK
3.389402968750000,0,0x5D,0x00,Read,ACK
3.389424437500000,0,0x5D,0x00,Read,ACK
3.389445937500000,0,0x5D,0x00,Read,ACK
3.389467437500000,0,0x5D,0x00,Read,ACK
3.389488875000000,0,0x5D,0x00,Read,ACK
3.389510531250000,0,0x5D,0x00,Read,ACK
3.389532000000000,0,0x5D,0x00,Read,ACK
3.389553468750000,0,0x5D,0x00,Read,ACK
3.389574968750000,0,0x5D,0x00,Read,ACK
3.389596750000000,0,0x5D,0x00,Read,ACK
3.389618187500000,0,0x5D,0x00,Read,ACK
3.389639687500000,0,0x5D,0x00,Read,ACK
3.389661187500000,0,0x5D,0x00,Read,ACK
3.389682718750000,0,0x5D,0x00,Read,ACK
3.389704187500000,0,0x5D,0x00,Read,ACK
3.389725656250000,0,0x5D,0x00,Read,ACK
3.389748968750000,0,0x5D,0x00,Read,ACK
3.389772531250000,0,0x5D,0x00,Read,ACK
3.389794062500000,0,0x5D,0x00,Read,ACK
3.389815656250000,0,0x5D,0x00,Read,ACK
3.389837375000000,0,0x5D,0x00,Read,ACK
3.389858843750000,0,0x5D,0x1C,Read,ACK
3.389880406250000,0,0x5D,0x73,Read,ACK
3.389901843750000,0,0x5D,0x01,Read,ACK
3.389923312500000,0,0x5D,0x00,Read,ACK
3.389944812500000,0,0x5D,0x00,Read,ACK
3.389966281250000,0,0x5D,0x00,Read,ACK
3.389990343750000,0,0x5D,0x00,Read,ACK
3.390013062500000,0,0x5D,0x00,Read,ACK
3.390035343750000,0,0x5D,0x00,Read,ACK
3.390056843750000,0,0x5D,0x00,Read,ACK
3.390078312500000,0,0x5D,0x00,Read,ACK
3.390099750000000,0,0x5D,0x00,Read,ACK
3.390121250000000,0,0x5D,0x00,Read,ACK
3.390142812500000,0,0x5D,0x00,Read,ACK
3.390164250000000,0,0x5D,0x00,Read,ACK
3.390186718750000,0,0x5D,0x00,Read,ACK
3.390208187500000,0,0x5D,0x00,Read,ACK
3.390229750000000,0,0x5D,0x00,Read,ACK
3.390251312500000,0,0x5D,0x00,Read,ACK
3.390273468750000,0,0x5D,0x00,Read,ACK
3.390296937500000,0,0x5D,0x00,Read,NAK
3.396090375000000,0,0x5D,0x2F,Read,ACK
3.396114375000000,0,0x5D,0x00,Read,ACK
3.396135843750000,0,0x5D,0x04,Read,ACK
3.396157343750000,0,0x5D,0x03,Read,ACK
3.396178812500000,0,0x5D,0xB3,Read,ACK
3.396200343750000,0,0x5D,0x07,Read,ACK
3.396222906250000,0,0x5D,0x07,Read,ACK
3.396244375000000,0,0x5D,0x04,Read,ACK
3.396265906250000,0,0x5D,0x03,Read,ACK
3.396287406250000,0,0x5D,0x03,Read,ACK
3.396309375000000,0,0x5D,0x20,Read,ACK
3.396331625000000,0,0x5D,0x00,Read,ACK
3.396353125000000,0,0x5D,0x00,Read,ACK
3.396374593750000,0,0x5D,0x00,Read,ACK
3.396396062500000,0,0x5D,0x00,Read,ACK
3.396417562500000,0,0x5D,0x00,Read,ACK
3.396439031250000,0,0x5D,0x00,Read,ACK
3.396460500000000,0,0x5D,0x00,Read,ACK
3.396481968750000,0,0x5D,0x00,Read,ACK
3.396503593750000,0,0x5D,0x00,Read,ACK
3.396525062500000,0,0x5D,0x00,Read,ACK
3.396546562500000,0,0x5D,0x00,Read,ACK
3.396568031250000,0,0x5D,0x00,Read,ACK
3.396589500000000,0,0x5D,0x00,Read,ACK
3.396610968750000,0,0x5D,0x00,Read,ACK
3.396632531250000,0,0x5D,0x00,Read,ACK
3.396653968750000,0,0x5D,0x00,Read,ACK
3.396675468750000,0,0x5D,0x00,Read,ACK
3.396696937500000,0,0x5D,0x00,Read,ACK
3.396718500000000,0,0x5D,0x00,Read,ACK
3.396740031250000,0,0x5D,0x00,Read,ACK
3.396761500000000,0,0x5D,0x00,Read,ACK
3.396782968750000,0,0x5D,0x00,Read,ACK
3.396804437500000,0,0x5D,0x00,Read,ACK
3.396825937500000,0,0x5D,0x00,Read,ACK
3.396847406250000,0,0x5D,0x00,Read,ACK
3.396869375000000,0,0x5D,0x00,Read,ACK
3.396892593750000,0,0x5D,0x00,Read,ACK
3.396914062500000,0,0x5D,0x00,Read,ACK
3.396936781250000,0,0x5D,0x00,Read,ACK
3.396958750000000,0,0x5D,0x00,Read,ACK
3.396981187500000,0,0x5D,0x00,Read,ACK
3.397002656250000,0,0x5D,0x00,Read,ACK
3.397024125000000,0,0x5D,0x62,Read,ACK
3.397047687500000,0,0x5D,0x73,Read,ACK
3.397069156250000,0,0x5D,0x01,Read,ACK
3.397091656250000,0,0x5D,0x00,Read,ACK
3.397113156250000,0,0x5D,0x00,Read,ACK
3.397135687500000,0,0x5D,0x00,Read,ACK
3.397158375000000,0,0x5D,0x00,Read,ACK
3.397179875000000,0,0x5D,0x00,Read,ACK
3.397201312500000,0,0x5D,0x00,Read,ACK
3.397223843750000,0,0x5D,0x00,Read,ACK
3.397246000000000,0,0x5D,0x00,Read,ACK
3.397267500000000,0,0x5D,0x00,Read,ACK
3.397288968750000,0,0x5D,0x00,Read,ACK
3.397310593750000,0,0x5D,0x00,Read,ACK
3.397332093750000,0,0x5D,0x00,Read,ACK
3.397354437500000,0,0x5D,0x00,Read,ACK
3.397376000000000,0,0x5D,0x00,Read,ACK
3.397397968750000,0,0x5D,0x00,Read,ACK
3.397419718750000,0,0x5D,0x00,Read,ACK
3.397442562500000,0,0x5D,0x00,Read,ACK
3.397464437500000,0,0x5D,0x00,Read,NAK
3.403213312500000,0,0x5D,0x2F,Read,ACK
3.403238875000000,0,0x5D,0x00,Read,ACK
3.403260375000000,0,0x5D,0x04,Read,ACK
3.403281843750000,0,0x5D,0x03,Read,ACK
3.403303312500000,0,0x5D,0xC3,Read,ACK
3.403324812500000,0,0x5D,0x07,Read,ACK
3.403347625000000,0,0x5D,0x07,Read,ACK
3.403369062500000,0,0x5D,0x04,Read,ACK
3.403391531250000,0,0x5D,0x03,Read,ACK
3.403413562500000,0,0x5D,0x03,Read,ACK
3.403435000000000,0,0x5D,0x20,Read,ACK
3.403457125000000,0,0x5D,0x00,Read,ACK
3.403478562500000,0,0x5D,0x00,Read,ACK
3.403501531250000,0,0x5D,0x00,Read,ACK
3.403523750000000,0,0x5D,0x00,Read,ACK
3.403545281250000,0,0x5D,0x00,Read,ACK
3.403566718750000,0,0x5D,0x00,Read,ACK
3.403588218750000,0,0x5D,0x00,Read,ACK
3.403609687500000,0,0x5D,0x00,Read,ACK
3.403631156250000,0,0x5D,0x00,Read,ACK
3.403652625000000,0,0x5D,0x00,Read,ACK
3.403674093750000,0,0x5D,0x00,Read,ACK
3.403695812500000,0,0x5D,0x00,Read,ACK
3.403717437500000,0,0x5D,0x00,Read,ACK
3.403738937500000,0,0x5D,0x00,Read,ACK
3.403760406250000,0,0x5D,0x00,Read,ACK
3.403781875000000,0,0x5D,0x00,Read,ACK
3.403803343750000,0,0x5D,0x00,Read,ACK
3.403824812500000,0,0x5D,0x00,Read,ACK
3.403846281250000,0,0x5D,0x00,Read,ACK
3.403867750000000,0,0x5D,0x00,Read,ACK
3.403889218750000,0,0x5D,0x00,Read,ACK
3.403910718750000,0,0x5D,0x00,Read,ACK
3.403932218750000,0,0x5D,0x00,Read,ACK
3.403957312500000,0,0x5D,0x00,Read,ACK
3.403980718750000,0,0x5D,0x00,Read,ACK
3.404002218750000,0,0x5D,0x00,Read,ACK
3.404025218750000,0,0x5D,0x00,Read,ACK
3.404047218750000,0,0x5D,0x00,Read,ACK
3.404070031250000,0,0x5D,0x00,Read,ACK
3.404091500000000,0,0x5D,0x00,Read,ACK
3.404112968750000,0,0x5D,0x00,Read,ACK
3.404134437500000,0,0x5D,0x00,Read,ACK
3.404156281250000,0,0x5D,0xA8,Read,ACK
3.404177781250000,0,0x5D,0x73,Read,ACK
3.404199250000000,0,0x5D,0x01,Read,ACK
3.404222062500000,0,0x5D,0x00,Read,ACK
3.404243843750000,0,0x5D,0x00,Read,ACK
3.404265281250000,0,0x5D,0x00,Read,ACK
3.404287250000000,0,0x5D,0x00,Read,ACK
3.404309218750000,0,0x5D,0x00,Read,ACK
3.404330656250000,0,0x5D,0x00,Read,ACK
3.404352125000000,0,0x5D,0x00,Read,ACK
3.404373625000000,0,0x5D,0x00,Read,ACK
3.404395093750000,0,0x5D,0x00,Read,ACK
3.404416562500000,0,0x5D,0x00,Read,ACK
3.404438437500000,0,0x5D,0x00,Read,ACK
3.404460062500000,0,0x5D,0x00,Read,ACK
3.404481562500000,0,0x5D,0x00,Read,ACK
3.404503031250000,0,0x5D,0x00,Read,ACK
3.404524531250000,0,0x5D,0x00,Read,ACK
3.404547625000000,0,0x5D,0x00,Read,ACK
3.404569375000000,0,0x5D,0x00,Read,ACK
3.404591156250000,0,0x5D,0x00,Read,NAK
3.410413750000000,0,0x5D,0x2F,Read,ACK
3.410440406250000,0,0x5D,0x00,Read,ACK
3.410461875000000,0,0x5D,0x04,Read,ACK
3.410483781250000,0,0x5D,0x03,Read,ACK
3.410505281250000,0,0x5D,0xD3,Read,ACK
3.410526750000000,0,0x5D,0x07,Read,ACK
3.410548281250000,0,0x5D,0x07,Read,ACK
3.410569750000000,0,0x5D,0x04,Read,ACK
3.410591312500000,0,0x5D,0x03,Read,ACK
3.410613031250000,0,0x5D,0x03,Read,ACK
3.410634500000000,0,0x5D,0x20,Read,ACK
3.410657187500000,0,0x5D,0x00,Read,ACK
3.410678687500000,0,0x5D,0x00,Read,ACK
3.410700156250000,0,0x5D,0x00,Read,ACK
3.410723093750000,0,0x5D,0x00,Read,ACK
3.410744562500000,0,0x5D,0x00,Read,ACK
3.410766031250000,0,0x5D,0x00,Read,ACK
3.410787500000000,0,0x5D,0x00,Read,ACK
3.410809000000000,0,0x5D,0x00,Read,ACK
3.410830468750000,0,0x5D,0x00,Read,ACK
3.410851937500000,0,0x5D,0x00,Read,ACK
3.410873406250000,0,0x5D,0x00,Read,ACK
3.410894875000000,0,0x5D,0x00,Read,ACK
3.410916718750000,0,0x5D,0x00,Read,ACK
3.410938250000000,0,0x5D,0x00,Read,ACK
3.410959718750000,0,0x5D,0x00,Read,ACK
3.410981156250000,0,0x5D,0x00,Read,ACK
3.411002656250000,0,0x5D,0x00,Read,ACK
3.411024156250000,0,0x5D,0x00,Read,ACK
3.411045593750000,0,0x5D,0x00,Read,ACK
3.411067125000000,0,0x5D,0x00,Read,ACK
3.411088625000000,0,0x5D,0x00,Read,ACK
3.411110093750000,0,0x5D,0x00,Read,ACK
3.411131562500000,0,0x5D,0x00,Read,ACK
3.411153031250000,0,0x5D,0x00,Read,ACK
3.411175437500000,0,0x5D,0x00,Read,ACK
3.411196937500000,0,0x5D,0x00,Read,ACK
3.411218406250000,0,0x5D,0x00,Read,ACK
3.411239937500000,0,0x5D,0x00,Read,ACK
3.411261718750000,0,0x5D,0x00,Read,ACK
3.411283843750000,0,0x5D,0x00,Read,ACK
3.411305281250000,0,0x5D,0x00,Read,ACK
3.411326781250000,0,0x5D,0x00,Read,ACK
3.411348250000000,0,0x5D,0xEE,Read,ACK
3.411369812500000,0,0x5D,0x73,Read,ACK
3.411392437500000,0,0x5D,0x01,Read,ACK
3.411414156250000,0,0x5D,0x00,Read,ACK
3.411436312500000,0,0x5D,0x00,Read,ACK
3.411457812500000,0,0x5D,0x00,Read,ACK
3.411479281250000,0,0x5D,0x00,Read,ACK
3.411500781250000,0,0x5D,0x00,Read,ACK
3.411522250000000,0,0x5D,0x00,Read,ACK
3.411544437500000,0,0x5D,0x00,Read,ACK
3.411565968750000,0,0x5D,0x00,Read,ACK
3.411587718750000,0,0x5D,0x00,Read,ACK
3.411609187500000,0,0x5D,0x00,Read,ACK
3.411631687500000,0,0x5D,0x00,Read,ACK
3.411653156250000,0,0x5D,0x00,Read,ACK
3.411674625000000,0,0x5D,0x00,Read,ACK
3.411696093750000,0,0x5D,0x00,Read,ACK
3.411717750000000,0,0x5D,0x00,Read,ACK
3.411739250000000,0,0x5D,0x00,Read,ACK
3.411762031250000,0,0x5D,0x00,Read,ACK
3.411785218750000,0,0x5D,0x00,Read,NAK
3.417495843750000,0,0x5D,0x2F,Read,ACK
3.417521468750000,0,0x5D,0x00,Read,ACK
3.417543000000000,0,0x5D,0x04,Read,ACK
3.417564437500000,0,0x5D,0x03,Read,ACK
3.417585937500000,0,0x5D,0xE2,Read,ACK
3.417607406250000,0,0x5D,0x07,Read,ACK
3.417629187500000,0,0x5D,0x07,Read,ACK
3.417652218750000,0,0x5D,0x04,Read,ACK
3.417673718750000,0,0x5D,0x03,Read,ACK
3.417695750000000,0,0x5D,0x03,Read,ACK
3.417717906250000,0,0x5D,0x20,Read,ACK
3.417739593750000,0,0x5D,0x00,Read,ACK
3.417761062500000,0,0x5D,0x00,Read,ACK
3.417782750000000,0,0x5D,0x00,Read,ACK
3.417804281250000,0,0x5D,0x00,Read,ACK
3.417825750000000,0,0x5D,0x00,Read,ACK
3.417847250000000,0,0x5D,0x00,Read,ACK
3.417868750000000,0,0x5D,0x00,Read,ACK
3.417890218750000,0,0x5D,0x00,Read,ACK
3.417911687500000,0,0x5D,0x00,Read,ACK
3.417933156250000,0,0x5D,0x00,Read,ACK
3.417954656250000,0,0x5D,0x00,Read,ACK
3.417976125000000,0,0x5D,0x00,Read,ACK
3.417997593750000,0,0x5D,0x00,Read,ACK
3.418019062500000,0,0x5D,0x00,Read,ACK
3.418042187500000,0,0x5D,0x00,Read,ACK
3.418063656250000,0,0x5D,0x00,Read,ACK
3.418085125000000,0,0x5D,0x00,Read,ACK
3.418106593750000,0,0x5D,0x00,Read,ACK
3.418128062500000,0,0x5D,0x00,Read,ACK
3.418149593750000,0,0x5D,0x00,Read,ACK
3.418171062500000,0,0x5D,0x00,Read,ACK
3.418192656250000,0,0x5D,0x00,Read,ACK
3.418214187500000,0,0x5D,0x00,Read,ACK
3.418235656250000,0,0x5D,0x00,Read,ACK
3.418257125000000,0,0x5D,0x00,Read,ACK
3.418278593750000,0,0x5D,0x00,Read,ACK
3.418302500000000,0,0x5D,0x00,Read,ACK
3.418327656250000,0,0x5D,0x00,Read,ACK
3.418349281250000,0,0x5D,0x00,Read,ACK
3.418371875000000,0,0x5D,0x00,Read,ACK
3.418393500000000,0,0x5D,0x00,Read,ACK
3.418414937500000,0,0x5D,0x00,Read,ACK
3.418436500000000,0,0x5D,0x34,Read,ACK
3.418457968750000,0,0x5D,0x74,Read,ACK
3.418479656250000,0,0x5D,0x01,Read,ACK
3.418502156250000,0,0x5D,0x00,Read,ACK
3.418524250000000,0,0x5D,0x00,Read,ACK
3.418545750000000,0,0x5D,0x00,Read,ACK
3.418567250000000,0,0x5D,0x00,Read,ACK
3.418588718750000,0,0x5D,0x00,Read,ACK
3.418610468750000,0,0x5D,0x00,Read,ACK
3.418631906250000,0,0x5D,0x00,Read,ACK
3.418654500000000,0,0x5D,0x00,Read,ACK
3.418676000000000,0,0x5D,0x00,Read,ACK
3.418698406250000,0,0x5D,0x00,Read,ACK
3.418720468750000,0,0x5D,0x00,Read,ACK
3.418742906250000,0,0x5D,0x00,Read,ACK
3.418764875000000,0,0x5D,0x00,Read,ACK
3.418787468750000,0,0x5D,0x00,Read,ACK
3.418808937500000,0,0x5D,0x00,Read,ACK
3.418832531250000,0,0x5D,0x00,Read,ACK
3.418854000000000,0,0x5D,0x00,Read,ACK
3.418875468750000,0,0x5D,0x00,Read,NAK
3.424727500000000,0,0x5D,0x2F,Read,ACK
3.424751500000000,0,0x5D,0x00,Read,ACK
3.424772937500000,0,0x5D,0x04,Read,ACK
3.424795625000000,0,0x5D,0x03,Read,ACK
3.424817093750000,0,0x5D,0xF0,Read,ACK
3.424838593750000,0,0x5D,0x07,Read,ACK
3.424860031250000,0,0x5D,0x08,Read,ACK
3.424881500000000,0,0x5D,0x04,Read,ACK
3.424903031250000,0,0x5D,0x03,Read,ACK
3.424924468750000,0,0x5D,0x03,Read,ACK
3.424946250000000,0,0x5D,0x20,Read,ACK
3.424967750000000,0,0x5D,0x00,Read,ACK
3.424989218750000,0,0x5D,0x00,Read,ACK
3.425011656250000,0,0x5D,0x00,Read,ACK
3.425033468750000,0,0x5D,0x00,Read,ACK
3.425054968750000,0,0x5D,0x00,Read,ACK
3.425076437500000,0,0x5D,0x00,Read,ACK
3.425097906250000,0,0x5D,0x00,Read,ACK
3.425120625000000,0,0x5D,0x00,Read,ACK
3.425142125000000,0,0x5D,0x00,Read,ACK
3.425163593750000,0,0x5D,0x00,Read,ACK
3.425185093750000,0,0x5D,0x00,Read,ACK
3.425206593750000,0,0x5D,0x00,Read,ACK
3.425228093750000,0,0x5D,0x00,Read,ACK
3.425249562500000,0,0x5D,0x00,Read,ACK
3.425271031250000,0,0x5D,0x00,Read,ACK
3.425292500000000,0,0x5D,0x00,Read,ACK
3.425313968750000,0,0x5D,0x00,Read,ACK
3.425335687500000,0,0x5D,0x00,Read,ACK
3.425357218750000,0,0x5D,0x00,Read,ACK
3.425379218750000,0,0x5D,0x00,Read,ACK
3.425400687500000,0,0x5D,0x00,Read,ACK
3.425423906250000,0,0x5D,0x00,Read,ACK
3.425448343750000,0,0x5D,0x00,Read,ACK
3.425471375000000,0,0x5D,0x00,Read,ACK
3.425493531250000,0,0x5D,0x00,Read,ACK
3.425515250000000,0,0x5D,0x00,Read,ACK
3.425536875000000,0,0x5D,0x00,Read,ACK
3.425558343750000,0,0x5D,0x00,Read,ACK
3.425580125000000,0,0x5D,0x00,Read,ACK
3.425601750000000,0,0x5D,0x00,Read,ACK
3.425624531250000,0,0x5D,0x00,Read,ACK
3.425647562500000,0,0x5D,0x00,Read,ACK
3.425669750000000,0,0x5D,0x7A,Read,ACK
3.425691312500000,0,0x5D,0x74,Read,ACK
3.425712812500000,0,0x5D,0x01,Read,ACK
3.425734312500000,0,0x5D,0x00,Read,ACK
3.425756968750000,0,0x5D,0x00,Read,ACK
3.425778468750000,0,0x5D,0x00,Read,ACK
3.425799968750000,0,0x5D,0x00,Read,ACK
3.425821562500000,0,0x5D,0x00,Read,ACK
3.425844500000000,0,0x5D,0x00,Read,ACK
3.425866031250000,0,0x5D,0x00,Read,ACK
3.425888875000000,0,0x5D,0x00,Read,ACK
3.425910593750000,0,0x5D,0x00,Read,ACK
3.425932031250000,0,0x5D,0x00,Read,ACK
3.425953718750000,0,0x5D,0x00,Read,ACK
3.425976656250000,0,0x5D,0x00,Read,ACK
3.425998843750000,0,0x5D,0x00,Read,ACK
3.426020312500000,0,0x5D,0x00,Read,ACK
3.426044437500000,0,0x5D,0x00,Read,ACK
3.426066968750000,0,0x5D,0x00,Read,ACK
3.426090968750000,0,0x5D,0x00,Read,ACK
3.426112468750000,0,0x5D,0x00,Read,NAK
3.431829093750000,0,0x5D,0x2F,Read,ACK
3.431853750000000,0,0x5D,0x00,Read,ACK
3.431875281250000,0,0x5D,0x04,Read,ACK
3.431896750000000,0,0x5D,0x03,Read,ACK
3.431919093750000,0,0x5D,0xFD,Read,ACK
3.431941593750000,0,0x5D,0x07,Read,ACK
3.431963125000000,0,0x5D,0x09,Read,ACK
3.431984593750000,0,0x5D,0x04,Read,ACK
3.432006062500000,0,0x5D,0x03,Read,ACK
3.432027687500000,0,0x5D,0x03,Read,ACK
3.432049156250000,0,0x5D,0x20,Read,ACK
3.432071312500000,0,0x5D,0x00,Read,ACK
3.432092781250000,0,0x5D,0x00,Read,ACK
3.432114375000000,0,0x5D,0x00,Read,ACK
3.432135875000000,0,0x5D,0x00,Read,ACK
3.432157343750000,0,0x5D,0x00,Read,ACK
3.432178843750000,0,0x5D,0x00,Read,ACK
3.432200312500000,0,0x5D,0x00,Read,ACK
3.432221781250000,0,0x5D,0x00,Read,ACK
3.432243250000000,0,0x5D,0x00,Read,ACK
3.432264750000000,0,0x5D,0x00,Read,ACK
3.432286281250000,0,0x5D,0x00,Read,ACK
3.432307781250000,0,0x5D,0x00,Read,ACK
3.432329250000000,0,0x5D,0x00,Read,ACK
3.432350718750000,0,0x5D,0x00,Read,ACK
3.432372187500000,0,0x5D,0x00,Read,ACK
3.432393687500000,0,0x5D,0x00,Read,ACK
3.432415156250000,0,0x5D,0x00,Read,ACK
3.432436656250000,0,0x5D,0x00,Read,ACK
3.432458093750000,0,0x5D,0x00,Read,ACK
3.432479593750000,0,0x5D,0x00,Read,ACK
3.432501062500000,0,0x5D,0x00,Read,ACK
3.432524312500000,0,0x5D,0x00,Read,ACK
3.432545812500000,0,0x5D,0x00,Read,ACK
3.432568968750000,0,0x5D,0x00,Read,ACK
3.432590468750000,0,0x5D,0x00,Read,ACK
3.432613531250000,0,0x5D,0x00,Read,ACK
3.432635000000000,0,0x5D,0x00,Read,ACK
3.432656437500000,0,0x5D,0x00,Read,ACK
3.432677937500000,0,0x5D,0x00,Read,ACK
3.432699406250000,0,0x5D,0x00,Read,ACK
3.432721593750000,0,0x5D,0x00,Read,ACK
3.432743062500000,0,0x5D,0x00,Read,ACK
3.432765781250000,0,0x5D,0xC0,Read,ACK
3.432787937500000,0,0x5D,0x74,Read,ACK
3.432809406250000,0,0x5D,0x01,Read,ACK
3.432830875000000,0,0x5D,0x00,Read,ACK
3.432852375000000,0,0x5D,0x00,Read,ACK
3.432873906250000,0,0x5D,0x00,Read,ACK
3.432895375000000,0,0x5D,0x00,Read,ACK
3.432918812500000,0,0x5D,0x00,Read,ACK
3.432940281250000,0,0x5D,0x00,Read,ACK
3.432961750000000,0,0x5D,0x00,Read,ACK
3.432983218750000,0,0x5D,0x00,Read,ACK
3.433005156250000,0,0x5D,0x00,Read,ACK
3.433026781250000,0,0x5D,0x00,Read,ACK
3.433048312500000,0,0x5D,0x00,Read,ACK
3.433069812500000,0,0x5D,0x00,Read,ACK
3.433092031250000,0,0x5D,0x00,Read,ACK
3.433113750000000,0,0x5D,0x00,Read,ACK
3.433135250000000,0,0x5D,0x00,Read,ACK
3.433157312500000,0,0x5D,0x00,Read,ACK
3.433179656250000,0,0x5D,0x00,Read,ACK
3.433201812500000,0,0x5D,0x00,Read,NAK
3.438981062500000,0,0x5D,0x2F,Read,ACK
3.439004562500000,0,0x5D,0x00,Read,ACK
3.439026031250000,0,0x5D,0x04,Read,ACK
3.439047531250000,0,0x5D,0x03,Read,ACK
3.439069906250000,0,0x5D,0x0A,Read,ACK
3.439091843750000,0,0x5D,0x08,Read,ACK
3.439113312500000,0,0x5D,0x0C,Read,ACK
3.439134812500000,0,0x5D,0x04,Read,ACK
3.439156250000000,0,0x5D,0x03,Read,ACK
3.439178906250000,0,0x5D,0x02,Read,ACK
3.439200343750000,0,0x5D,0x20,Read,ACK
3.439221812500000,0,0x5D,0x00,Read,ACK
3.439243281250000,0,0x5D,0x00,Read,ACK
3.439264781250000,0,0x5D,0x00,Read,ACK
3.439286312500000,0,0x5D,0x00,Read,ACK
3.439307781250000,0,0x5D,0x00,Read,ACK
3.439329718750000,0,0x5D,0x00,Read,ACK
3.439351156250000,0,0x5D,0x00,Read,ACK
3.439372656250000,0,0x5D,0x00,Read,ACK
3.439394125000000,0,0x5D,0x00,Read,ACK
3.439415593750000,0,0x5D,0x00,Read,ACK
3.439437125000000,0,0x5D,0x00,Read,ACK
3.439458562500000,0,0x5D,0x00,Read,ACK
3.439480062500000,0,0x5D,0x00,Read,ACK
3.439501500000000,0,0x5D,0x00,Read,ACK
3.439523000000000,0,0x5D,0x00,Read,ACK
3.439544468750000,0,0x5D,0x00,Read,ACK
3.439565968750000,0,0x5D,0x00,Read,ACK
3.439587437500000,0,0x5D,0x00,Read,ACK
3.439608906250000,0,0x5D,0x00,Read,ACK
3.439630375000000,0,0x5D,0x00,Read,ACK
3.439655156250000,0,0x5D,0x00,Read,ACK
3.439680156250000,0,0x5D,0x00,Read,ACK
3.439701625000000,0,0x5D,0x00,Read,ACK
3.439723812500000,0,0x5D,0x00,Read,ACK
3.439745906250000,0,0x5D,0x00,Read,ACK
3.439767562500000,0,0x5D,0x00,Read,ACK
3.439789218750000,0,0x5D,0x00,Read,ACK
3.439810687500000,0,0x5D,0x00,Read,ACK
3.439832156250000,0,0x5D,0x00,Read,ACK
3.439853906250000,0,0x5D,0x00,Read,ACK
3.439875375000000,0,0x5D,0x00,Read,ACK
3.439898125000000,0,0x5D,0x00,Read,ACK
3.439924343750000,0,0x5D,0x06,Read,ACK
3.439945843750000,0,0x5D,0x75,Read,ACK
3.439967343750000,0,0x5D,0x01,Read,ACK
3.439989218750000,0,0x5D,0x00,Read,ACK
3.440010781250000,0,0x5D,0x00,Read,ACK
3.440032281250000,0,0x5D,0x00,Read,ACK
3.440053750000000,0,0x5D,0x00,Read,ACK
3.440075218750000,0,0x5D,0x00,Read,ACK
3.440096687500000,0,0x5D,0x00,Read,ACK
3.440118250000000,0,0x5D,0x00,Read,ACK
3.440140187500000,0,0x5D,0x00,Read,ACK
3.440161812500000,0,0x5D,0x00,Read,ACK
3.440183312500000,0,0x5D,0x00,Read,ACK
3.440204750000000,0,0x5D,0x00,Read,ACK
3.440226250000000,0,0x5D,0x00,Read,ACK
3.440248781250000,0,0x5D,0x00,Read,ACK
3.440270250000000,0,0x5D,0x00,Read,ACK
3.440294062500000,0,0x5D,0x00,Read,ACK
3.440315656250000,0,0x5D,0x00,Read,ACK
3.440337468750000,0,0x5D,0x00,Read,ACK
3.440358937500000,0,0x5D,0x00,Read,NAK
3.446202968750000,0,0x5D,0x2F,Read,ACK
3.446226875000000,0,0x5D,0x00,Read,ACK
3.446248343750000,0,0x5D,0x04,Read,ACK
3.446269937500000,0,0x5D,0x03,Read,ACK
3.446291406250000,0,0x5D,0x16,Read,ACK
3.446313062500000,0,0x5D,0x08,Read,ACK
3.446335812500000,0,0x5D,0x0F,Read,ACK
3.446357250000000,0,0x5D,0x04,Read,ACK
3.446378937500000,0,0x5D,0x03,Read,ACK
3.446401937500000,0,0x5D,0x02,Read,ACK
3.446423468750000,0,0x5D,0x20,Read,ACK
3.446444937500000,0,0x5D,0x00,Read,ACK
3.446467843750000,0,0x5D,0x00,Read,ACK
3.446489281250000,0,0x5D,0x00,Read,ACK
3.446510750000000,0,0x5D,0x00,Read,ACK
3.446532250000000,0,0x5D,0x00,Read,ACK
3.446553718750000,0,0x5D,0x00,Read,ACK
3.446575187500000,0,0x5D,0x00,Read,ACK
3.446596812500000,0,0x5D,0x00,Read,ACK
3.446618281250000,0,0x5D,0x00,Read,ACK
3.446639750000000,0,0x5D,0x00,Read,ACK
3.446661218750000,0,0x5D,0x00,Read,ACK
3.446682687500000,0,0x5D,0x00,Read,ACK
3.446704156250000,0,0x5D,0x00,Read,ACK
3.446725625000000,0,0x5D,0x00,Read,ACK
3.446747125000000,0,0x5D,0x00,Read,ACK
3.446768593750000,0,0x5D,0x00,Read,ACK
3.446790062500000,0,0x5D,0x00,Read,ACK
3.446815718750000,0,0x5D,0x00,Read,ACK
3.446841437500000,0,0x5D,0x00,Read,ACK
3.446864250000000,0,0x5D,0x00,Read,ACK
3.446886843750000,0,0x5D,0x00,Read,ACK
3.446908718750000,0,0x5D,0x00,Read,ACK
3.446930218750000,0,0x5D,0x00,Read,ACK
3.446951687500000,0,0x5D,0x00,Read,ACK
3.446973437500000,0,0x5D,0x00,Read,ACK
3.446994906250000,0,0x5D,0x00,Read,ACK
3.447018625000000,0,0x5D,0x00,Read,ACK
3.447041093750000,0,0x5D,0x00,Read,ACK
3.447062562500000,0,0x5D,0x00,Read,ACK
3.447084218750000,0,0x5D,0x00,Read,ACK
3.447106093750000,0,0x5D,0x00,Read,ACK
3.447127562500000,0,0x5D,0x00,Read,ACK
3.447150593750000,0,0x5D,0x4C,Read,ACK
3.447172437500000,0,0x5D,0x75,Read,ACK
3.447193937500000,0,0x5D,0x01,Read,ACK
3.447215406250000,0,0x5D,0x00,Read,ACK
3.447238000000000,0,0x5D,0x00,Read,ACK
3.447259500000000,0,0x5D,0x00,Read,ACK
3.447280968750000,0,0x5D,0x00,Read,ACK
3.447302468750000,0,0x5D,0x00,Read,ACK
3.447324250000000,0,0x5D,0x00,Read,ACK
3.447345750000000,0,0x5D,0x00,Read,ACK
3.447367468750000,0,0x5D,0x00,Read,ACK
3.447388968750000,0,0x5D,0x00,Read,ACK
3.447411437500000,0,0x5D,0x00,Read,ACK
3.447435343750000,0,0x5D,0x00,Read,ACK
3.447456812500000,0,0x5D,0x00,Read,ACK
3.447478500000000,0,0x5D,0x00,Read,ACK
3.447501375000000,0,0x5D,0x00,Read,ACK
3.447523156250000,0,0x5D,0x00,Read,ACK
3.447546031250000,0,0x5D,0x00,Read,ACK
3.447567843750000,0,0x5D,0x00,Read,ACK
3.447589281250000,0,0x5D,0x00,Read,NAK
3.453274250000000,0,0x5D,0x2F,Read,ACK
3.453297000000000,0,0x5D,0x00,Read,ACK
3.453318500000000,0,0x5D,0x04,Read,ACK
3.453339968750000,0,0x5D,0x03,Read,ACK
3.453361968750000,0,0x5D,0x22,Read,ACK
3.453383468750000,0,0x5D,0x08,Read,ACK
3.453404906250000,0,0x5D,0x13,Read,ACK
3.453426406250000,0,0x5D,0x04,Read,ACK
3.453448000000000,0,0x5D,0x03,Read,ACK
3.453469500000000,0,0x5D,0x02,Read,ACK
3.453491000000000,0,0x5D,0x20,Read,ACK
3.453512500000000,0,0x5D,0x00,Read,ACK
3.453533937500000,0,0x5D,0x00,Read,ACK
3.453555437500000,0,0x5D,0x00,Read,ACK
3.453576906250000,0,0x5D,0x00,Read,ACK
3.453598500000000,0,0x5D,0x00,Read,ACK
3.453620000000000,0,0x5D,0x00,Read,ACK
3.453641468750000,0,0x5D,0x00,Read,ACK
3.453662968750000,0,0x5D,0x00,Read,ACK
3.453684406250000,0,0x5D,0x00,Read,ACK
3.453706281250000,0,0x5D,0x00,Read,ACK
3.453728156250000,0,0x5D,0x00,Read,ACK
3.453749593750000,0,0x5D,0x00,Read,ACK
3.453771062500000,0,0x5D,0x00,Read,ACK
3.453792531250000,0,0x5D,0x00,Read,ACK
3.453814187500000,0,0x5D,0x00,Read,ACK
3.453835687500000,0,0x5D,0x00,Read,ACK
3.453857156250000,0,0x5D,0x00,Read,ACK
3.453878687500000,0,0x5D,0x00,Read,ACK
3.453900156250000,0,0x5D,0x00,Read,ACK
3.453921656250000,0,0x5D,0x00,Read,ACK
3.453943125000000,0,0x5D,0x00,Read,ACK
3.453964593750000,0,0x5D,0x00,Read,ACK
3.453987343750000,0,0x5D,0x00,Read,ACK
3.454010406250000,0,0x5D,0x00,Read,ACK
3.454032218750000,0,0x5D,0x00,Read,ACK
3.454053687500000,0,0x5D,0x00,Read,ACK
3.454075343750000,0,0x5D,0x00,Read,ACK
3.454097125000000,0,0x5D,0x00,Read,ACK
3.454118625000000,0,0x5D,0x00,Read,ACK
3.454140093750000,0,0x5D,0x00,Read,ACK
3.454161687500000,0,0x5D,0x00,Read,ACK
3.454183968750000,0,0x5D,0x00,Read,ACK
3.454205875000000,0,0x5D,0x92,Read,ACK
3.454227406250000,0,0x5D,0x75,Read,ACK
3.454249093750000,0,0x5D,0x01,Read,ACK
3.454270812500000,0,0x5D,0x00,Read,ACK
3.454292312500000,0,0x5D,0x00,Read,ACK
3.454314187500000,0,0x5D,0x00,Read,ACK
3.454335656250000,0,0x5D,0x00,Read,ACK
3.454357468750000,0,0x5D,0x00,Read,ACK
3.454378937500000,0,0x5D,0x00,Read,ACK
3.454400437500000,0,0x5D,0x00,Read,ACK
3.454423625000000,0,0x5D,0x00,Read,ACK
3.454445718750000,0,0x5D,0x00,Read,ACK
3.454467156250000,0,0x5D,0x00,Read,ACK
3.454489468750000,0,0x5D,0x00,Read,ACK
3.454511187500000,0,0x5D,0x00,Read,ACK
3.454532656250000,0,0x5D,0x00,Read,ACK
3.454554593750000,0,0x5D,0x00,Read,ACK
3.454576125000000,0,0x5D,0x00,Read,ACK
3.454597937500000,0,0x5D,0x00,Read,ACK
3.454619750000000,0,0x5D,0x00,Read,ACK
3.454641906250000,0,0x5D,0x00,Read,NAK
3.460401281250000,0,0x5D,0x2F,Read,ACK
3.460425906250000,0,0x5D,0x00,Read,ACK
3.460447343750000,0,0x5D,0x04,Read,ACK
3.460468812500000,0,0x5D,0x03,Read,ACK
3.460490312500000,0,0x5D,0x2F,Read,ACK
3.460512343750000,0,0x5D,0x08,Read,ACK
3.460533812500000,0,0x5D,0x19,Read,ACK
3.460555281250000,0,0x5D,0x04,Read,ACK
3.460576750000000,0,0x5D,0x03,Read,ACK
3.460598218750000,0,0x5D,0x02,Read,ACK
3.460619718750000,0,0x5D,0x20,Read,ACK
3.460641218750000,0,0x5D,0x00,Read,ACK
3.460662656250000,0,0x5D,0x00,Read,ACK
3.460684156250000,0,0x5D,0x00,Read,ACK
3.460705593750000,0,0x5D,0x00,Read,ACK
3.460727218750000,0,0x5D,0x00,Read,ACK
3.460748687500000,0,0x5D,0x00,Read,ACK
3.460770312500000,0,0x5D,0x00,Read,ACK
3.460791750000000,0,0x5D,0x00,Read,ACK
3.460813218750000,0,0x5D,0x00,Read,ACK
3.460834718750000,0,0x5D,0x00,Read,ACK
3.460856187500000,0,0x5D,0x00,Read,ACK
3.460877656250000,0,0x5D,0x00,Read,ACK
3.460899156250000,0,0x5D,0x00,Read,ACK
3.460920625000000,0,0x5D,0x00,Read,ACK
3.460942093750000,0,0x5D,0x00,Read,ACK
3.460963562500000,0,0x5D,0x00,Read,ACK
3.460985031250000,0,0x5D,0x00,Read,ACK
3.461006531250000,0,0x5D,0x00,Read,ACK
3.461027968750000,0,0x5D,0x00,Read,ACK
3.461049468750000,0,0x5D,0x00,Read,ACK
3.461070937500000,0,0x5D,0x00,Read,ACK
3.461092406250000,0,0x5D,0x00,Read,ACK
3.461113906250000,0,0x5D,0x00,Read,ACK
3.461135593750000,0,0x5D,0x00,Read,ACK
3.461157875000000,0,0x5D,0x00,Read,ACK
3.461181375000000,0,0x5D,0x00,Read,ACK
3.461203000000000,0,0x5D,0x00,Read,ACK
3.461224531250000,0,0x5D,0x00,Read,ACK
3.461246437500000,0,0x5D,0x00,Read,ACK
3.461268343750000,0,0x5D,0x00,Read,ACK
3.461289812500000,0,0x5D,0x00,Read,ACK
3.461311281250000,0,0x5D,0x00,Read,ACK
3.461333312500000,0,0x5D,0xD8,Read,ACK
3.461355750000000,0,0x5D,0x75,Read,ACK
3.461377281250000,0,0x5D,0x01,Read,ACK
3.461398812500000,0,0x5D,0x00,Read,ACK
3.461420718750000,0,0x5D,0x00,Read,ACK
3.461442187500000,0,0x5D,0x00,Read,ACK
3.461463781250000,0,0x5D,0x00,Read,ACK
3.461485250000000,0,0x5D,0x00,Read,ACK
3.461506718750000,0,0x5D,0x00,Read,ACK
3.461528218750000,0,0x5D,0x00,Read,ACK
3.461549687500000,0,0x5D,0x00,Read,ACK
3.461571625000000,0,0x5D,0x00,Read,ACK
3.461594312500000,0,0x5D,0x00,Read,ACK
3.461615875000000,0,0x5D,0x00,Read,ACK
3.461637343750000,0,0x5D,0x00,Read,ACK
3.461659625000000,0,0x5D,0x00,Read,ACK
3.461681093750000,0,0x5D,0x00,Read,ACK
3.461702562500000,0,0x5D,0x00,Read,ACK
3.461724062500000,0,0x5D,0x00,Read,ACK
3.461747031250000,0,0x5D,0x00,Read,ACK
3.461768843750000,0,0x5D,0x00,Read,NAK
3.467478468750000,0,0x5D,0x2F,Read,ACK
3.467506687500000,0,0x5D,0x00,Read,ACK
3.467528218750000,0,0x5D,0x04,Read,ACK
3.467549687500000,0,0x5D,0x03,Read,ACK
3.467571156250000,0,0x5D,0x3D,Read,ACK
3.467592625000000,0,0x5D,0x08,Read,ACK
3.467614125000000,0,0x5D,0x20,Read,ACK
3.467636437500000,0,0x5D,0x04,Read,ACK
3.467658000000000,0,0x5D,0x03,Read,ACK
3.467679468750000,0,0x5D,0x03,Read,ACK
3.467700937500000,0,0x5D,0x20,Read,ACK
3.467722406250000,0,0x5D,0x00,Read,ACK
3.467744375000000,0,0x5D,0x00,Read,ACK
3.467765875000000,0,0x5D,0x00,Read,ACK
3.467787343750000,0,0x5D,0x00,Read,ACK
3.467808875000000,0,0x5D,0x00,Read,ACK
3.467830343750000,0,0x5D,0x00,Read,ACK
3.467851812500000,0,0x5D,0x00,Read,ACK
3.467873312500000,0,0x5D,0x00,Read,ACK
3.467898562500000,0,0x5D,0x00,Read,ACK
3.467920062500000,0,0x5D,0x00,Read,ACK
3.467941531250000,0,0x5D,0x00,Read,ACK
3.467963000000000,0,0x5D,0x00,Read,ACK
3.467984500000000,0,0x5D,0x00,Read,ACK
3.468005968750000,0,0x5D,0x00,Read,ACK
3.468027437500000,0,0x5D,0x00,Read,ACK
3.468048906250000,0,0x5D,0x00,Read,ACK
3.468070406250000,0,0x5D,0x00,Read,ACK
3.468091875000000,0,0x5D,0x00,Read,ACK
3.468113343750000,0,0x5D,0x00,Read,ACK
3.468134843750000,0,0x5D,0x00,Read,ACK
3.468156312500000,0,0x5D,0x00,Read,ACK
3.468177812500000,0,0x5D,0x00,Read,ACK
3.468199250000000,0,0x5D,0x00,Read,ACK
3.468220718750000,0,0x5D,0x00,Read,ACK
3.468242218750000,0,0x5D,0x00,Read,ACK
3.468263687500000,0,0x5D,0x00,Read,ACK
3.468285187500000,0,0x5D,0x00,Read,ACK
3.468306625000000,0,0x5D,0x00,Read,ACK
3.468329718750000,0,0x5D,0x00,Read,ACK
3.468353031250000,0,0x5D,0x00,Read,ACK
3.468374500000000,0,0x5D,0x00,Read,ACK
3.468396281250000,0,0x5D,0x00,Read,ACK
3.468419062500000,0,0x5D,0x1E,Read,ACK
3.468440531250000,0,0x5D,0x76,Read,ACK
3.468462031250000,0,0x5D,0x01,Read,ACK
3.468483500000000,0,0x5D,0x00,Read,ACK
3.468505656250000,0,0x5D,0x00,Read,ACK
3.468527218750000,0,0x5D,0x00,Read,ACK
3.468550312500000,0,0x5D,0x00,Read,ACK
3.468572156250000,0,0x5D,0x00,Read,ACK
3.468593968750000,0,0x5D,0x00,Read,ACK
3.468615468750000,0,0x5D,0x00,Read,ACK
3.468636937500000,0,0x5D,0x00,Read,ACK
3.468659750000000,0,0x5D,0x00,Read,ACK
3.468682781250000,0,0x5D,0x00,Read,ACK
3.468705656250000,0,0x5D,0x00,Read,ACK
3.468728250000000,0,0x5D,0x00,Read,ACK
3.468749906250000,0,0x5D,0x00,Read,ACK
3.468771531250000,0,0x5D,0x00,Read,ACK
3.468793062500000,0,0x5D,0x00,Read,ACK
3.468814562500000,0,0x5D,0x00,Read,ACK
3.468836625000000,0,0x5D,0x00,Read,ACK
3.468858156250000,0,0x5D,0x00,Read,NAK
3.474719906250000,0,0x5D,0x2F,Read,ACK
3.474742437500000,0,0x5D,0x00,Read,ACK
3.474763937500000,0,0x5D,0x04,Read,ACK
3.474787187500000,0,0x5D,0x03,Read,ACK
3.474809375000000,0,0x5D,0x4C,Read,ACK
3.474831468750000,0,0x5D,0x08,Read,ACK
3.474852968750000,0,0x5D,0x2A,Read,ACK
3.474874437500000,0,0x5D,0x04,Read,ACK
3.474895968750000,0,0x5D,0x02,Read,ACK
3.474917468750000,0,0x5D,0x03,Read,ACK
3.474938937500000,0,0x5D,0x20,Read,ACK
3.474960406250000,0,0x5D,0x00,Read,ACK
3.474981906250000,0,0x5D,0x00,Read,ACK
3.475003375000000,0,0x5D,0x00,Read,ACK
3.475024906250000,0,0x5D,0x00,Read,ACK
3.475046375000000,0,0x5D,0x00,Read,ACK
3.475068718750000,0,0x5D,0x00,Read,ACK
3.475090218750000,0,0x5D,0x00,Read,ACK
3.475111687500000,0,0x5D,0x00,Read,ACK
3.475133156250000,0,0x5D,0x00,Read,ACK
3.475154656250000,0,0x5D,0x00,Read,ACK
3.475176125000000,0,0x5D,0x00,Read,ACK
3.475197593750000,0,0x5D,0x00,Read,ACK
3.475219062500000,0,0x5D,0x00,Read,ACK
3.475240562500000,0,0x5D,0x00,Read,ACK
3.475262031250000,0,0x5D,0x00,Read,ACK
3.475283531250000,0,0x5D,0x00,Read,ACK
3.475305000000000,0,0x5D,0x00,Read,ACK
3.475326500000000,0,0x5D,0x00,Read,ACK
3.475348000000000,0,0x5D,0x00,Read,ACK
3.475369468750000,0,0x5D,0x00,Read,ACK
3.475390968750000,0,0x5D,0x00,Read,ACK
3.475412468750000,0,0x5D,0x00,Read,ACK
3.475433906250000,0,0x5D,0x00,Read,ACK
3.475455375000000,0,0x5D,0x00,Read,ACK
3.475478187500000,0,0x5D,0x00,Read,ACK
3.475501625000000,0,0x5D,0x00,Read,ACK
3.475523125000000,0,0x5D,0x00,Read,ACK
3.475544593750000,0,0x5D,0x00,Read,ACK
3.475566562500000,0,0x5D,0x00,Read,ACK
3.475588000000000,0,0x5D,0x00,Read,ACK
3.475609468750000,0,0x5D,0x00,Read,ACK
3.475630968750000,0,0x5D,0x00,Read,ACK
3.475654781250000,0,0x5D,0x64,Read,ACK
3.475677406250000,0,0x5D,0x76,Read,ACK
3.475698875000000,0,0x5D,0x01,Read,ACK
3.475722062500000,0,0x5D,0x00,Read,ACK
3.475743500000000,0,0x5D,0x00,Read,ACK
3.475765000000000,0,0x5D,0x00,Read,ACK
3.475786500000000,0,0x5D,0x00,Read,ACK
3.475807968750000,0,0x5D,0x00,Read,ACK
3.475829437500000,0,0x5D,0x00,Read,ACK
3.475852343750000,0,0x5D,0x00,Read,ACK
3.475873812500000,0,0x5D,0x00,Read,ACK
3.475895531250000,0,0x5D,0x00,Read,ACK
3.475918125000000,0,0x5D,0x00,Read,ACK
3.475940000000000,0,0x5D,0x00,Read,ACK
3.475961875000000,0,0x5D,0x00,Read,ACK
3.475983312500000,0,0x5D,0x00,Read,ACK
3.476004812500000,0,0x5D,0x00,Read,ACK
3.476028031250000,0,0x5D,0x00,Read,ACK
3.476052156250000,0,0x5D,0x00,Read,ACK
3.476074375000000,0,0x5D,0x00,Read,ACK
3.476096656250000,0,0x5D,0x00,Read,NAK
3.481831593750000,0,0x5D,0x2F,Read,ACK
3.481854375000000,0,0x5D,0x00,Read,ACK
3.481875875000000,0,0x5D,0x04,Read,ACK
3.481897343750000,0,0x5D,0x03,Read,ACK
3.481918843750000,0,0x5D,0x5B,Read,ACK
3.481940312500000,0,0x5D,0x08,Read,ACK
3.481963281250000,0,0x5D,0x37,Read,ACK
3.481984781250000,0,0x5D,0x04,Read,ACK
3.482006250000000,0,0x5D,0x03,Read,ACK
3.482028750000000,0,0x5D,0x03,Read,ACK
3.482050250000000,0,0x5D,0x20,Read,ACK
3.482071843750000,0,0x5D,0x00,Read,ACK
3.482093312500000,0,0x5D,0x00,Read,ACK
3.482114812500000,0,0x5D,0x00,Read,ACK
3.482136281250000,0,0x5D,0x00,Read,ACK
3.482157750000000,0,0x5D,0x00,Read,ACK
3.482179531250000,0,0x5D,0x00,Read,ACK
3.482201031250000,0,0x5D,0x00,Read,ACK
3.482222500000000,0,0x5D,0x00,Read,ACK
3.482243968750000,0,0x5D,0x00,Read,ACK
3.482265468750000,0,0x5D,0x00,Read,ACK
3.482286937500000,0,0x5D,0x00,Read,ACK
3.482308406250000,0,0x5D,0x00,Read,ACK
3.482329906250000,0,0x5D,0x00,Read,ACK
3.482351437500000,0,0x5D,0x00,Read,ACK
3.482372906250000,0,0x5D,0x00,Read,ACK
3.482394843750000,0,0x5D,0x00,Read,ACK
3.482416312500000,0,0x5D,0x00,Read,ACK
3.482437781250000,0,0x5D,0x00,Read,ACK
3.482459250000000,0,0x5D,0x00,Read,ACK
3.482480718750000,0,0x5D,0x00,Read,ACK
3.482502218750000,0,0x5D,0x00,Read,ACK
3.482523687500000,0,0x5D,0x00,Read,ACK
3.482545156250000,0,0x5D,0x00,Read,ACK
3.482566625000000,0,0x5D,0x00,Read,ACK
3.482588125000000,0,0x5D,0x00,Read,ACK
3.482609593750000,0,0x5D,0x00,Read,ACK
3.482632343750000,0,0x5D,0x00,Read,ACK
3.482653781250000,0,0x5D,0x00,Read,ACK
3.482677250000000,0,0x5D,0x00,Read,ACK
3.482699468750000,0,0x5D,0x00,Read,ACK
3.482721468750000,0,0x5D,0x00,Read,ACK
3.482743687500000,0,0x5D,0x00,Read,ACK
3.482765656250000,0,0x5D,0xAA,Read,ACK
3.482787125000000,0,0x5D,0x76,Read,ACK
3.482808625000000,0,0x5D,0x01,Read,ACK
3.482830687500000,0,0x5D,0x00,Read,ACK
3.482852625000000,0,0x5D,0x00,Read,ACK
3.482874187500000,0,0x5D,0x00,Read,ACK
3.482895656250000,0,0x5D,0x00,Read,ACK
3.482917125000000,0,0x5D,0x00,Read,ACK
3.482939500000000,0,0x5D,0x00,Read,ACK
3.482961156250000,0,0x5D,0x00,Read,ACK
3.482983718750000,0,0x5D,0x00,Read,ACK
3.483005218750000,0,0x5D,0x00,Read,ACK
3.483027562500000,0,0x5D,0x00,Read,ACK
3.483049062500000,0,0x5D,0x00,Read,ACK
3.483071937500000,0,0x5D,0x00,Read,ACK
3.483093437500000,0,0x5D,0x00,Read,ACK
3.483116281250000,0,0x5D,0x00,Read,ACK
3.483137875000000,0,0x5D,0x00,Read,ACK
3.483161281250000,0,0x5D,0x00,Read,ACK
3.483183500000000,0,0x5D,0x00,Read,ACK
3.483205218750000,0,0x5D,0x00,Read,NAK
3.488935656250000,0,0x5D,0x2F,Read,ACK
3.488961812500000,0,0x5D,0x00,Read,ACK
3.488983281250000,0,0x5D,0x04,Read,ACK
3.489004750000000,0,0x5D,0x03,Read,ACK
3.489026250000000,0,0x5D,0x6C,Read,ACK
3.489047718750000,0,0x5D,0x08,Read,ACK
3.489069750000000,0,0x5D,0x48,Read,ACK
3.489092218750000,0,0x5D,0x04,Read,ACK
3.489113718750000,0,0x5D,0x03,Read,ACK
3.489135218750000,0,0x5D,0x03,Read,ACK
3.489156750000000,0,0x5D,0x20,Read,ACK
3.489178218750000,0,0x5D,0x00,Read,ACK
3.489200250000000,0,0x5D,0x00,Read,ACK
3.489221718750000,0,0x5D,0x00,Read,ACK
3.489243218750000,0,0x5D,0x00,Read,ACK
3.489264687500000,0,0x5D,0x00,Read,ACK
3.489287218750000,0,0x5D,0x00,Read,ACK
3.489308687500000,0,0x5D,0x00,Read,ACK
3.489330187500000,0,0x5D,0x00,Read,ACK
3.489351625000000,0,0x5D,0x00,Read,ACK
3.489373156250000,0,0x5D,0x00,Read,ACK
3.489394593750000,0,0x5D,0x00,Read,ACK
3.489416062500000,0,0x5D,0x00,Read,ACK
3.489437562500000,0,0x5D,0x00,Read,ACK
3.489459062500000,0,0x5D,0x00,Read,ACK
3.489480500000000,0,0x5D,0x00,Read,ACK
3.489502156250000,0,0x5D,0x00,Read,ACK
3.489523656250000,0,0x5D,0x00,Read,ACK
3.489545125000000,0,0x5D,0x00,Read,ACK
3.489566593750000,0,0x5D,0x00,Read,ACK
3.489588062500000,0,0x5D,0x00,Read,ACK
3.489609531250000,0,0x5D,0x00,Read,ACK
3.489631031250000,0,0x5D,0x00,Read,ACK
3.489652500000000,0,0x5D,0x00,Read,ACK
3.489674000000000,0,0x5D,0x00,Read,ACK
3.489695468750000,0,0x5D,0x00,Read,ACK
3.489716968750000,0,0x5D,0x00,Read,ACK
3.489740218750000,0,0x5D,0x00,Read,ACK
3.489761718750000,0,0x5D,0x00,Read,ACK
3.489784812500000,0,0x5D,0x00,Read,ACK
3.489806281250000,0,0x5D,0x00,Read,ACK
3.489827843750000,0,0x5D,0x00,Read,ACK
3.489849531250000,0,0x5D,0x00,Read,ACK
3.489871031250000,0,0x5D,0xF0,Read,ACK
3.489892500000000,0,0x5D,0x76,Read,ACK
3.489914406250000,0,0x5D,0x01,Read,ACK
3.489937968750000,0,0x5D,0x00,Read,ACK
3.489960250000000,0,0x5D,0x00,Read,ACK
3.489981718750000,0,0x5D,0x00,Read,ACK
3.490003187500000,0,0x5D,0x00,Read,ACK
3.490024718750000,0,0x5D,0x00,Read,ACK
3.490046437500000,0,0x5D,0x00,Read,ACK
3.490068093750000,0,0x5D,0x00,Read,ACK
3.490091000000000,0,0x5D,0x00,Read,ACK
3.490112468750000,0,0x5D,0x00,Read,ACK
3.490134187500000,0,0x5D,0x00,Read,ACK
3.490156156250000,0,0x5D,0x00,Read,ACK
3.490178250000000,0,0x5D,0x00,Read,ACK
3.490199875000000,0,0x5D,0x00,Read,ACK
3.490221312500000,0,0x5D,0x00,Read,ACK
3.490245875000000,0,0x5D,0x00,Read,ACK
3.490267343750000,0,0x5D,0x00,Read,ACK
3.490289437500000,0,0x5D,0x00,Read,ACK
3.490311718750000,0,0x5D,0x00,Read,NAK
3.496105343750000,0,0x5D,0x2F,Read,ACK
3.496133625000000,0,0x5D,0x00,Read,ACK
3.496155125000000,0,0x5D,0x04,Read,ACK
3.496176562500000,0,0x5D,0x03,Read,ACK
3.496198062500000,0,0x5D,0x7D,Read,ACK
3.496219531250000,0,0x5D,0x08,Read,ACK
3.496241000000000,0,0x5D,0x5D,Read,ACK
3.496262468750000,0,0x5D,0x04,Read,ACK
3.496283968750000,0,0x5D,0x03,Read,ACK
3.496305437500000,0,0x5D,0x02,Read,ACK
3.496326906250000,0,0x5D,0x20,Read,ACK
3.496348375000000,0,0x5D,0x00,Read,ACK
3.496369875000000,0,0x5D,0x00,Read,ACK
3.496392250000000,0,0x5D,0x00,Read,ACK
3.496413687500000,0,0x5D,0x00,Read,ACK
3.496435156250000,0,0x5D,0x00,Read,ACK
3.496456656250000,0,0x5D,0x00,Read,ACK
3.496478687500000,0,0x5D,0x00,Read,ACK
3.496500156250000,0,0x5D,0x00,Read,ACK
3.496521656250000,0,0x5D,0x00,Read,ACK
3.496543281250000,0,0x5D,0x00,Read,ACK
3.496564781250000,0,0x5D,0x00,Read,ACK
3.496586281250000,0,0x5D,0x00,Read,ACK
3.496607718750000,0,0x5D,0x00,Read,ACK
3.496629218750000,0,0x5D,0x00,Read,ACK
3.496650718750000,0,0x5D,0x00,Read,ACK
3.496672156250000,0,0x5D,0x00,Read,ACK
3.496693625000000,0,0x5D,0x00,Read,ACK
3.496715125000000,0,0x5D,0x00,Read,ACK
3.496736593750000,0,0x5D,0x00,Read,ACK
3.496758062500000,0,0x5D,0x00,Read,ACK
3.496779562500000,0,0x5D,0x00,Read,ACK
3.496801031250000,0,0x5D,0x00,Read,ACK
3.496822500000000,0,0x5D,0x00,Read,ACK
3.496843968750000,0,0x5D,0x00,Read,ACK
3.496865468750000,0,0x5D,0x00,Read,ACK
3.496889593750000,0,0x5D,0x00,Read,ACK
3.496914656250000,0,0x5D,0x00,Read,ACK
3.496936437500000,0,0x5D,0x00,Read,ACK
3.496957937500000,0,0x5D,0x00,Read,ACK
3.496979843750000,0,0x5D,0x00,Read,ACK
3.497001312500000,0,0x5D,0x00,Read,ACK
3.497022812500000,0,0x5D,0x00,Read,ACK
3.497044406250000,0,0x5D,0x36,Read,ACK
3.497065875000000,0,0x5D,0x77,Read,ACK
3.497087468750000,0,0x5D,0x01,Read,ACK
3.497109625000000,0,0x5D,0x00,Read,ACK
3.497131125000000,0,0x5D,0x00,Read,ACK
3.497153656250000,0,0x5D,0x00,Read,ACK
3.497175156250000,0,0x5D,0x00,Read,ACK
3.497197250000000,0,0x5D,0x00,Read,ACK
3.497218750000000,0,0x5D,0x00,Read,ACK
3.497240250000000,0,0x5D,0x00,Read,ACK
3.497263375000000,0,0x5D,0x00,Read,ACK
3.497284968750000,0,0x5D,0x00,Read,ACK
3.497306437500000,0,0x5D,0x00,Read,ACK
3.497328312500000,0,0x5D,0x00,Read,ACK
3.497349812500000,0,0x5D,0x00,Read,ACK
3.497371687500000,0,0x5D,0x00,Read,ACK
3.497394781250000,0,0x5D,0x00,Read,ACK
3.497418281250000,0,0x5D,0x00,Read,ACK
3.497440000000000,0,0x5D,0x00,Read,ACK
3.497461875000000,0,0x5D,0x00,Read,ACK
3.497484375000000,0,0x5D,0x00,Read,NAK
3.503255593750000,0,0x5D,0x2F,Read,ACK
3.503283218750000,0,0x5D,0x00,Read,ACK
3.503304718750000,0,0x5D,0x04,Read,ACK
3.503326187500000,0,0x5D,0x03,Read,ACK
3.503347687500000,0,0x5D,0x8D,Read,ACK
3.503369593750000,0,0x5D,0x08,Read,ACK
3.503391562500000,0,0x5D,0x73,Read,ACK
3.503413031250000,0,0x5D,0x04,Read,ACK
3.503434531250000,0,0x5D,0x03,Read,ACK
3.503455968750000,0,0x5D,0x02,Read,ACK
3.503477625000000,0,0x5D,0x20,Read,ACK
3.503500343750000,0,0x5D,0x00,Read,ACK
3.503523093750000,0,0x5D,0x00,Read,ACK
3.503544687500000,0,0x5D,0x00,Read,ACK
3.503566156250000,0,0x5D,0x00,Read,ACK
3.503587656250000,0,0x5D,0x00,Read,ACK
3.503610343750000,0,0x5D,0x00,Read,ACK
3.503632062500000,0,0x5D,0x00,Read,ACK
3.503653500000000,0,0x5D,0x00,Read,ACK
3.503675406250000,0,0x5D,0x00,Read,ACK
3.503696906250000,0,0x5D,0x00,Read,ACK
3.503718375000000,0,0x5D,0x00,Read,ACK
3.503739906250000,0,0x5D,0x00,Read,ACK
3.503761406250000,0,0x5D,0x00,Read,ACK
3.503783062500000,0,0x5D,0x00,Read,ACK
3.503804531250000,0,0x5D,0x00,Read,ACK
3.503826125000000,0,0x5D,0x00,Read,ACK
3.503847656250000,0,0x5D,0x00,Read,ACK
3.503869156250000,0,0x5D,0x00,Read,ACK
3.503890625000000,0,0x5D,0x00,Read,ACK
3.503912093750000,0,0x5D,0x00,Read,ACK
3.503933593750000,0,0x5D,0x00,Read,ACK
3.503955062500000,0,0x5D,0x00,Read,ACK
3.503976531250000,0,0x5D,0x00,Read,ACK
3.503998000000000,0,0x5D,0x00,Read,ACK
3.504019812500000,0,0x5D,0x00,Read,ACK
3.504041281250000,0,0x5D,0x00,Read,ACK
3.504062750000000,0,0x5D,0x00,Read,ACK
3.504084250000000,0,0x5D,0x00,Read,ACK
3.504106093750000,0,0x5D,0x00,Read,ACK
3.504129031250000,0,0x5D,0x00,Read,ACK
3.504150906250000,0,0x5D,0x00,Read,ACK
3.504172375000000,0,0x5D,0x00,Read,ACK
3.504194093750000,0,0x5D,0x7C,Read,ACK
3.504216031250000,0,0x5D,0x77,Read,ACK
3.504238250000000,0,0x5D,0x01,Read,ACK
3.504260968750000,0,0x5D,0x00,Read,ACK
3.504282437500000,0,0x5D,0x00,Read,ACK
3.504304187500000,0,0x5D,0x00,Read,ACK
3.504325656250000,0,0x5D,0x00,Read,ACK
3.504348062500000,0,0x5D,0x00,Read,ACK
3.504369562500000,0,0x5D,0x00,Read,ACK
3.504391218750000,0,0x5D,0x00,Read,ACK
3.504413093750000,0,0x5D,0x00,Read,ACK
3.504434812500000,0,0x5D,0x00,Read,ACK
3.504456312500000,0,0x5D,0x00,Read,ACK
3.504480093750000,0,0x5D,0x00,Read,ACK
3.504501562500000,0,0x5D,0x00,Read,ACK
3.504523031250000,0,0x5D,0x00,Read,ACK
3.504545000000000,0,0x5D,0x00,Read,ACK
3.504568031250000,0,0x5D,0x00,Read,ACK
3.504590906250000,0,0x5D,0x00,Read,ACK
3.504613750000000,0,0x5D,0x00,Read,ACK
3.504636562500000,0,0x5D,0x00,Read,NAK
3.510826000000000,0,0x5D,0x2F,Read,ACK
3.510854406250000,0,0x5D,0x00,Read,ACK
3.510875875000000,0,0x5D,0x04,Read,ACK
3.510897375000000,0,0x5D,0x03,Read,ACK
3.510918875000000,0,0x5D,0x9C,Read,ACK
3.510940625000000,0,0x5D,0x08,Read,ACK
3.510962125000000,0,0x5D,0x8A,Read,ACK
3.510983562500000,0,0x5D,0x04,Read,ACK
3.511005031250000,0,0x5D,0x03,Read,ACK
3.511026531250000,0,0x5D,0x02,Read,ACK
3.511048000000000,0,0x5D,0x20,Read,ACK
3.511069468750000,0,0x5D,0x00,Read,ACK
3.511090968750000,0,0x5D,0x00,Read,ACK
3.511112437500000,0,0x5D,0x00,Read,ACK
3.511134343750000,0,0x5D,0x00,Read,ACK
3.511155937500000,0,0x5D,0x00,Read,ACK
3.511179375000000,0,0x5D,0x00,Read,ACK
3.511200875000000,0,0x5D,0x00,Read,ACK
3.511222375000000,0,0x5D,0x00,Read,ACK
3.511245031250000,0,0x5D,0x00,Read,ACK
3.511266812500000,0,0x5D,0x00,Read,ACK
3.511288281250000,0,0x5D,0x00,Read,ACK
3.511309781250000,0,0x5D,0x00,Read,ACK
3.511331718750000,0,0x5D,0x00,Read,ACK
3.511354625000000,0,0x5D,0x00,Read,ACK
3.511378500000000,0,0x5D,0x00,Read,ACK
3.511399968750000,0,0x5D,0x00,Read,ACK
3.511422343750000,0,0x5D,0x00,Read,ACK
3.511443781250000,0,0x5D,0x00,Read,ACK
3.511467000000000,0,0x5D,0x00,Read,ACK
3.511488500000000,0,0x5D,0x00,Read,ACK
3.511509968750000,0,0x5D,0x00,Read,ACK
3.511531531250000,0,0x5D,0x00,Read,ACK
3.511553062500000,0,0x5D,0x00,Read,ACK
3.511574875000000,0,0x5D,0x00,Read,ACK
3.511598531250000,0,0x5D,0x00,Read,ACK
3.511620062500000,0,0x5D,0x00,Read,ACK
3.511641718750000,0,0x5D,0x00,Read,ACK
3.511663375000000,0,0x5D,0x00,Read,ACK
3.511685812500000,0,0x5D,0x00,Read,ACK
3.511707593750000,0,0x5D,0x00,Read,ACK
3.511730968750000,0,0x5D,0x00,Read,ACK
3.511753406250000,0,0x5D,0x00,Read,ACK
3.511775937500000,0,0x5D,0xC2,Read,ACK
3.511797718750000,0,0x5D,0x77,Read,ACK
3.511819593750000,0,0x5D,0x01,Read,ACK
3.511841500000000,0,0x5D,0x00,Read,ACK
3.511863000000000,0,0x5D,0x00,Read,ACK
3.511884500000000,0,0x5D,0x00,Read,ACK
3.511906968750000,0,0x5D,0x00,Read,ACK
3.511928687500000,0,0x5D,0x00,Read,ACK
3.511950750000000,0,0x5D,0x00,Read,ACK
3.511972218750000,0,0x5D,0x00,Read,ACK
3.511994218750000,0,0x5D,0x00,Read,ACK
3.512015718750000,0,0x5D,0x00,Read,ACK
3.512038375000000,0,0x5D,0x00,Read,ACK
3.512059875000000,0,0x5D,0x00,Read,ACK
3.512081343750000,0,0x5D,0x00,Read,ACK
3.512102812500000,0,0x5D,0x00,Read,ACK
3.512124312500000,0,0x5D,0x00,Read,ACK
3.512145781250000,0,0x5D,0x00,Read,ACK
3.512167218750000,0,0x5D,0x00,Read,ACK
3.512189218750000,0,0x5D,0x00,Read,ACK
3.512210687500000,0,0x5D,0x00,Read,NAK
3.517609718750000,0,0x5D,0x2F,Read,ACK
3.517632656250000,0,0x5D,0x00,Read,ACK
3.517654437500000,0,0x5D,0x04,Read,ACK
3.517676937500000,0,0x5D,0x03,Read,ACK
3.517698406250000,0,0x5D,0xA7,Read,ACK
3.517719906250000,0,0x5D,0x08,Read,ACK
3.517741375000000,0,0x5D,0x9F,Read,ACK
3.517762843750000,0,0x5D,0x04,Read,ACK
3.517785406250000,0,0x5D,0x03,Read,ACK
3.517806843750000,0,0x5D,0x03,Read,ACK
3.517828343750000,0,0x5D,0x20,Read,ACK
3.517849812500000,0,0x5D,0x00,Read,ACK
3.517871281250000,0,0x5D,0x00,Read,ACK
3.517894843750000,0,0x5D,0x00,Read,ACK
3.517916312500000,0,0x5D,0x00,Read,ACK
3.517938218750000,0,0x5D,0x00,Read,ACK
3.517959687500000,0,0x5D,0x00,Read,ACK
3.517981187500000,0,0x5D,0x00,Read,ACK
3.518002656250000,0,0x5D,0x00,Read,ACK
3.518024125000000,0,0x5D,0x00,Read,ACK
3.518045593750000,0,0x5D,0x00,Read,ACK
3.518067093750000,0,0x5D,0x00,Read,ACK
3.518088562500000,0,0x5D,0x00,Read,ACK
3.518110343750000,0,0x5D,0x00,Read,ACK
3.518131812500000,0,0x5D,0x00,Read,ACK
3.518153281250000,0,0x5D,0x00,Read,ACK
3.518174781250000,0,0x5D,0x00,Read,ACK
3.518196250000000,0,0x5D,0x00,Read,ACK
3.518217718750000,0,0x5D,0x00,Read,ACK
3.518239187500000,0,0x5D,0x00,Read,ACK
3.518260687500000,0,0x5D,0x00,Read,ACK
3.518282156250000,0,0x5D,0x00,Read,ACK
3.518303625000000,0,0x5D,0x00,Read,ACK
3.518325906250000,0,0x5D,0x00,Read,ACK
3.518348843750000,0,0x5D,0x00,Read,ACK
3.518370656250000,0,0x5D,0x00,Read,ACK
3.518392812500000,0,0x5D,0x00,Read,ACK
3.518414500000000,0,0x5D,0x00,Read,ACK
3.518436250000000,0,0x5D,0x00,Read,ACK
3.518457812500000,0,0x5D,0x00,Read,ACK
3.518479968750000,0,0x5D,0x00,Read,ACK
3.518504500000000,0,0x5D,0x00,Read,ACK
3.518526968750000,0,0x5D,0x00,Read,ACK
3.518548437500000,0,0x5D,0x08,Read,ACK
3.518569906250000,0,0x5D,0x78,Read,ACK
3.518591406250000,0,0x5D,0x01,Read,ACK
3.518613625000000,0,0x5D,0x00,Read,ACK
3.518635093750000,0,0x5D,0x00,Read,ACK
3.518656656250000,0,0x5D,0x00,Read,ACK
3.518679031250000,0,0x5D,0x00,Read,ACK
3.518700531250000,0,0x5D,0x00,Read,ACK
3.518722000000000,0,0x5D,0x00,Read,ACK
3.518743468750000,0,0x5D,0x00,Read,ACK
3.518765187500000,0,0x5D,0x00,Read,ACK
3.518786687500000,0,0x5D,0x00,Read,ACK
3.518809250000000,0,0x5D,0x00,Read,ACK
3.518832281250000,0,0x5D,0x00,Read,ACK
3.518854718750000,0,0x5D,0x00,Read,ACK
3.518876437500000,0,0x5D,0x00,Read,ACK
3.518897937500000,0,0x5D,0x00,Read,ACK
3.518919406250000,0,0x5D,0x00,Read,ACK
3.518941343750000,0,0x5D,0x00,Read,ACK
3.518964812500000,0,0x5D,0x00,Read,ACK
3.518987250000000,0,0x5D,0x00,Read,NAK
3.524741812500000,0,0x5D,0x2F,Read,ACK
3.524763937500000,0,0x5D,0x00,Read,ACK
3.524786593750000,0,0x5D,0x04,Read,ACK
3.524808500000000,0,0x5D,0x03,Read,ACK
3.524830468750000,0,0x5D,0xB0,Read,ACK
3.524852250000000,0,0x5D,0x08,Read,ACK
3.524873718750000,0,0x5D,0xB0,Read,ACK
3.524895187500000,0,0x5D,0x04,Read,ACK
3.524917468750000,0,0x5D,0x03,Read,ACK
3.524940562500000,0,0x5D,0x03,Read,ACK
3.524962000000000,0,0x5D,0x20,Read,ACK
3.524983500000000,0,0x5D,0x00,Read,ACK
3.525005781250000,0,0x5D,0x00,Read,ACK
3.525027250000000,0,0x5D,0x00,Read,ACK
3.525049156250000,0,0x5D,0x00,Read,ACK
3.525070625000000,0,0x5D,0x00,Read,ACK
3.525092343750000,0,0x5D,0x00,Read,ACK
3.525113843750000,0,0x5D,0x00,Read,ACK
3.525135500000000,0,0x5D,0x00,Read,ACK
3.525157250000000,0,0x5D,0x00,Read,ACK
3.525178718750000,0,0x5D,0x00,Read,ACK
3.525200187500000,0,0x5D,0x00,Read,ACK
3.525221687500000,0,0x5D,0x00,Read,ACK
3.525243125000000,0,0x5D,0x00,Read,ACK
3.525264593750000,0,0x5D,0x00,Read,ACK
3.525286093750000,0,0x5D,0x00,Read,ACK
3.525307562500000,0,0x5D,0x00,Read,ACK
3.525329062500000,0,0x5D,0x00,Read,ACK
3.525350500000000,0,0x5D,0x00,Read,ACK
3.525372000000000,0,0x5D,0x00,Read,ACK
3.525393468750000,0,0x5D,0x00,Read,ACK
3.525414937500000,0,0x5D,0x00,Read,ACK
3.525436437500000,0,0x5D,0x00,Read,ACK
3.525457906250000,0,0x5D,0x00,Read,ACK
3.525479375000000,0,0x5D,0x00,Read,ACK
3.525502500000000,0,0x5D,0x00,Read,ACK
3.525523937500000,0,0x5D,0x00,Read,ACK
3.525547062500000,0,0x5D,0x00,Read,ACK
3.525568875000000,0,0x5D,0x00,Read,ACK
3.525590375000000,0,0x5D,0x00,Read,ACK
3.525611843750000,0,0x5D,0x00,Read,ACK
3.525633437500000,0,0x5D,0x00,Read,ACK
3.525656468750000,0,0x5D,0x00,Read,ACK
3.525678468750000,0,0x5D,0x4E,Read,ACK
3.525700468750000,0,0x5D,0x78,Read,ACK
3.525722156250000,0,0x5D,0x01,Read,ACK
3.525743593750000,0,0x5D,0x00,Read,ACK
3.525765093750000,0,0x5D,0x00,Read,ACK
3.525786531250000,0,0x5D,0x00,Read,ACK
3.525808031250000,0,0x5D,0x00,Read,ACK
3.525829500000000,0,0x5D,0x00,Read,ACK
3.525851093750000,0,0x5D,0x00,Read,ACK
3.525872968750000,0,0x5D,0x00,Read,ACK
3.525894437500000,0,0x5D,0x00,Read,ACK
3.525917218750000,0,0x5D,0x00,Read,ACK
3.525938687500000,0,0x5D,0x00,Read,ACK
3.525960156250000,0,0x5D,0x00,Read,ACK
3.525981625000000,0,0x5D,0x00,Read,ACK
3.526003093750000,0,0x5D,0x00,Read,ACK
3.526024562500000,0,0x5D,0x00,Read,ACK
3.526047593750000,0,0x5D,0x00,Read,ACK
3.526069312500000,0,0x5D,0x00,Read,ACK
3.526091218750000,0,0x5D,0x00,Read,ACK
3.526114531250000,0,0x5D,0x00,Read,NAK
3.531808781250000,0,0x5D,0x2F,Read,ACK
3.531833906250000,0,0x5D,0x00,Read,ACK
3.531855406250000,0,0x5D,0x04,Read,ACK
3.531876843750000,0,0x5D,0x03,Read,ACK
3.531898343750000,0,0x5D,0xB6,Read,ACK
3.531919812500000,0,0x5D,0x08,Read,ACK
3.531941406250000,0,0x5D,0xC0,Read,ACK
3.531963468750000,0,0x5D,0x04,Read,ACK
3.531985375000000,0,0x5D,0x03,Read,ACK
3.532007062500000,0,0x5D,0x03,Read,ACK
3.532028593750000,0,0x5D,0x20,Read,ACK
3.532050093750000,0,0x5D,0x00,Read,ACK
3.532071593750000,0,0x5D,0x00,Read,ACK
3.532093093750000,0,0x5D,0x00,Read,ACK
3.532114562500000,0,0x5D,0x00,Read,ACK
3.532136093750000,0,0x5D,0x00,Read,ACK
3.532157562500000,0,0x5D,0x00,Read,ACK
3.532180593750000,0,0x5D,0x00,Read,ACK
3.532202062500000,0,0x5D,0x00,Read,ACK
3.532223531250000,0,0x5D,0x00,Read,ACK
3.532245031250000,0,0x5D,0x00,Read,ACK
3.532266500000000,0,0x5D,0x00,Read,ACK
3.532287968750000,0,0x5D,0x00,Read,ACK
3.532309468750000,0,0x5D,0x00,Read,ACK
3.532330937500000,0,0x5D,0x00,Read,ACK
3.532352406250000,0,0x5D,0x00,Read,ACK
3.532374031250000,0,0x5D,0x00,Read,ACK
3.532395468750000,0,0x5D,0x00,Read,ACK
3.532417000000000,0,0x5D,0x00,Read,ACK
3.532438500000000,0,0x5D,0x00,Read,ACK
3.532459968750000,0,0x5D,0x00,Read,ACK
3.532481437500000,0,0x5D,0x00,Read,ACK
3.532502906250000,0,0x5D,0x00,Read,ACK
3.532524406250000,0,0x5D,0x00,Read,ACK
3.532545875000000,0,0x5D,0x00,Read,ACK
3.532567375000000,0,0x5D,0x00,Read,ACK
3.532588812500000,0,0x5D,0x00,Read,ACK
3.532610281250000,0,0x5D,0x00,Read,ACK
3.532632750000000,0,0x5D,0x00,Read,ACK
3.532654250000000,0,0x5D,0x00,Read,ACK
3.532676968750000,0,0x5D,0x00,Read,ACK
3.532699812500000,0,0x5D,0x00,Read,ACK
3.532722812500000,0,0x5D,0x00,Read,ACK
3.532744281250000,0,0x5D,0x94,Read,ACK
3.532766718750000,0,0x5D,0x78,Read,ACK
3.532788343750000,0,0x5D,0x01,Read,ACK
3.532809843750000,0,0x5D,0x00,Read,ACK
3.532832468750000,0,0x5D,0x00,Read,ACK
3.532853937500000,0,0x5D,0x00,Read,ACK
3.532875750000000,0,0x5D,0x00,Read,ACK
3.532898187500000,0,0x5D,0x00,Read,ACK
3.532920281250000,0,0x5D,0x00,Read,ACK
3.532941750000000,0,0x5D,0x00,Read,ACK
3.532964000000000,0,0x5D,0x00,Read,ACK
3.532985750000000,0,0x5D,0x00,Read,ACK
3.533007250000000,0,0x5D,0x00,Read,ACK
3.533030656250000,0,0x5D,0x00,Read,ACK
3.533052312500000,0,0x5D,0x00,Read,ACK
3.533073812500000,0,0x5D,0x00,Read,ACK
3.533097468750000,0,0x5D,0x00,Read,ACK
3.533118937500000,0,0x5D,0x00,Read,ACK
3.533140906250000,0,0x5D,0x00,Read,ACK
3.533162375000000,0,0x5D,0x00,Read,ACK
3.533183906250000,0,0x5D,0x00,Read,NAK
3.538937406250000,0,0x5D,0x2F,Read,ACK
3.538964093750000,0,0x5D,0x00,Read,ACK
3.538985562500000,0,0x5D,0x04,Read,ACK
3.539007062500000,0,0x5D,0x03,Read,ACK
3.539028531250000,0,0x5D,0xBA,Read,ACK
3.539050000000000,0,0x5D,0x08,Read,ACK
3.539071500000000,0,0x5D,0xCE,Read,ACK
3.539092968750000,0,0x5D,0x04,Read,ACK
3.539114625000000,0,0x5D,0x03,Read,ACK
3.539136125000000,0,0x5D,0x03,Read,ACK
3.539157625000000,0,0x5D,0x20,Read,ACK
3.539179062500000,0,0x5D,0x00,Read,ACK
3.539201031250000,0,0x5D,0x00,Read,ACK
3.539222531250000,0,0x5D,0x00,Read,ACK
3.539244000000000,0,0x5D,0x00,Read,ACK
3.539265468750000,0,0x5D,0x00,Read,ACK
3.539286937500000,0,0x5D,0x00,Read,ACK
3.539308406250000,0,0x5D,0x00,Read,ACK
3.539329906250000,0,0x5D,0x00,Read,ACK
3.539352718750000,0,0x5D,0x00,Read,ACK
3.539374187500000,0,0x5D,0x00,Read,ACK
3.539395843750000,0,0x5D,0x00,Read,ACK
3.539417312500000,0,0x5D,0x00,Read,ACK
3.539438968750000,0,0x5D,0x00,Read,ACK
3.539460718750000,0,0x5D,0x00,Read,ACK
3.539482187500000,0,0x5D,0x00,Read,ACK
3.539503656250000,0,0x5D,0x00,Read,ACK
3.539525125000000,0,0x5D,0x00,Read,ACK
3.539546593750000,0,0x5D,0x00,Read,ACK
3.539568093750000,0,0x5D,0x00,Read,ACK
3.539589562500000,0,0x5D,0x00,Read,ACK
3.539611031250000,0,0x5D,0x00,Read,ACK
3.539632562500000,0,0x5D,0x00,Read,ACK
3.539654031250000,0,0x5D,0x00,Read,ACK
3.539675531250000,0,0x5D,0x00,Read,ACK
3.539697000000000,0,0x5D,0x00,Read,ACK
3.539718468750000,0,0x5D,0x00,Read,ACK
3.539739937500000,0,0x5D,0x00,Read,ACK
3.539762906250000,0,0x5D,0x00,Read,ACK
3.539787312500000,0,0x5D,0x00,Read,ACK
3.539808812500000,0,0x5D,0x00,Read,ACK
3.539830281250000,0,0x5D,0x00,Read,ACK
3.539853218750000,0,0x5D,0x00,Read,ACK
3.539874937500000,0,0x5D,0xDA,Read,ACK
3.539896406250000,0,0x5D,0x78,Read,ACK
3.539917875000000,0,0x5D,0x01,Read,ACK
3.539940093750000,0,0x5D,0x00,Read,ACK
3.539963156250000,0,0x5D,0x00,Read,ACK
3.539984812500000,0,0x5D,0x00,Read,ACK
3.540006281250000,0,0x5D,0x00,Read,ACK
3.540028093750000,0,0x5D,0x00,Read,ACK
3.540049562500000,0,0x5D,0x00,Read,ACK
3.540071437500000,0,0x5D,0x00,Read,ACK
3.540093281250000,0,0x5D,0x00,Read,ACK
3.540114843750000,0,0x5D,0x00,Read,ACK
3.540137906250000,0,0x5D,0x00,Read,ACK
3.540159437500000,0,0x5D,0x00,Read,ACK
3.540180906250000,0,0x5D,0x00,Read,ACK
3.540203156250000,0,0x5D,0x00,Read,ACK
3.540225656250000,0,0x5D,0x00,Read,ACK
3.540247625000000,0,0x5D,0x00,Read,ACK
3.540269343750000,0,0x5D,0x00,Read,ACK
3.540290812500000,0,0x5D,0x00,Read,ACK
3.540312281250000,0,0x5D,0x00,Read,NAK
3.546092875000000,0,0x5D,0x2F,Read,ACK
3.546116843750000,0,0x5D,0x00,Read,ACK
3.546138312500000,0,0x5D,0x04,Read,ACK
3.546159812500000,0,0x5D,0x03,Read,ACK
3.546181281250000,0,0x5D,0xBC,Read,ACK
3.546202750000000,0,0x5D,0x08,Read,ACK
3.546224218750000,0,0x5D,0xDC,Read,ACK
3.546246312500000,0,0x5D,0x04,Read,ACK
3.546270031250000,0,0x5D,0x03,Read,ACK
3.546291531250000,0,0x5D,0x03,Read,ACK
3.546313000000000,0,0x5D,0x20,Read,ACK
3.546334531250000,0,0x5D,0x00,Read,ACK
3.546356312500000,0,0x5D,0x00,Read,ACK
3.546378031250000,0,0x5D,0x00,Read,ACK
3.546399531250000,0,0x5D,0x00,Read,ACK
3.546421031250000,0,0x5D,0x00,Read,ACK
3.546442500000000,0,0x5D,0x00,Read,ACK
3.546464000000000,0,0x5D,0x00,Read,ACK
3.546486781250000,0,0x5D,0x00,Read,ACK
3.546508250000000,0,0x5D,0x00,Read,ACK
3.546529718750000,0,0x5D,0x00,Read,ACK
3.546551218750000,0,0x5D,0x00,Read,ACK
3.546572687500000,0,0x5D,0x00,Read,ACK
3.546594156250000,0,0x5D,0x00,Read,ACK
3.546615781250000,0,0x5D,0x00,Read,ACK
3.546637281250000,0,0x5D,0x00,Read,ACK
3.546658750000000,0,0x5D,0x00,Read,ACK
3.546680250000000,0,0x5D,0x00,Read,ACK
3.546701718750000,0,0x5D,0x00,Read,ACK
3.546723187500000,0,0x5D,0x00,Read,ACK
3.546744687500000,0,0x5D,0x00,Read,ACK
3.546766156250000,0,0x5D,0x00,Read,ACK
3.546787625000000,0,0x5D,0x00,Read,ACK
3.546809125000000,0,0x5D,0x00,Read,ACK
3.546830656250000,0,0x5D,0x00,Read,ACK
3.546852125000000,0,0x5D,0x00,Read,ACK
3.546873843750000,0,0x5D,0x00,Read,ACK
3.546895343750000,0,0x5D,0x00,Read,ACK
3.546919406250000,0,0x5D,0x00,Read,ACK
3.546942500000000,0,0x5D,0x00,Read,ACK
3.546965906250000,0,0x5D,0x00,Read,ACK
3.546987343750000,0,0x5D,0x00,Read,ACK
3.547008937500000,0,0x5D,0x00,Read,ACK
3.547030781250000,0,0x5D,0x20,Read,ACK
3.547052218750000,0,0x5D,0x79,Read,ACK
3.547073687500000,0,0x5D,0x01,Read,ACK
3.547095406250000,0,0x5D,0x00,Read,ACK
3.547119531250000,0,0x5D,0x00,Read,ACK
3.547141187500000,0,0x5D,0x00,Read,ACK
3.547162750000000,0,0x5D,0x00,Read,ACK
3.547184218750000,0,0x5D,0x00,Read,ACK
3.547205718750000,0,0x5D,0x00,Read,ACK
3.547227156250000,0,0x5D,0x00,Read,ACK
3.547248625000000,0,0x5D,0x00,Read,ACK
3.547272687500000,0,0x5D,0x00,Read,ACK
3.547294156250000,0,0x5D,0x00,Read,ACK
3.547317250000000,0,0x5D,0x00,Read,ACK
3.547338718750000,0,0x5D,0x00,Read,ACK
3.547360562500000,0,0x5D,0x00,Read,ACK
3.547382968750000,0,0x5D,0x00,Read,ACK
3.547405031250000,0,0x5D,0x00,Read,ACK
3.547428781250000,0,0x5D,0x00,Read,ACK
3.547450218750000,0,0x5D,0x00,Read,ACK
3.547471781250000,0,0x5D,0x00,Read,NAK
3.553227750000000,0,0x5D,0x2F,Read,ACK
3.553252250000000,0,0x5D,0x00,Read,ACK
3.553273781250000,0,0x5D,0x04,Read,ACK
3.553295250000000,0,0x5D,0x03,Read,ACK
3.553316718750000,0,0x5D,0xBC,Read,ACK
3.553338187500000,0,0x5D,0x08,Read,ACK
3.553359937500000,0,0x5D,0xEA,Read,ACK
3.553381406250000,0,0x5D,0x04,Read,ACK
3.553402875000000,0,0x5D,0x03,Read,ACK
3.553424375000000,0,0x5D,0x02,Read,ACK
3.553445843750000,0,0x5D,0x20,Read,ACK
3.553467312500000,0,0x5D,0x00,Read,ACK
3.553489625000000,0,0x5D,0x00,Read,ACK
3.553511125000000,0,0x5D,0x00,Read,ACK
3.553532562500000,0,0x5D,0x00,Read,ACK
3.553554031250000,0,0x5D,0x00,Read,ACK
3.553575531250000,0,0x5D,0x00,Read,ACK
3.553598531250000,0,0x5D,0x00,Read,ACK
3.553619968750000,0,0x5D,0x00,Read,ACK
3.553641593750000,0,0x5D,0x00,Read,ACK
3.553663156250000,0,0x5D,0x00,Read,ACK
3.553684656250000,0,0x5D,0x00,Read,ACK
3.553706125000000,0,0x5D,0x00,Read,ACK
3.553727843750000,0,0x5D,0x00,Read,ACK
3.553749343750000,0,0x5D,0x00,Read,ACK
3.553770812500000,0,0x5D,0x00,Read,ACK
3.553792281250000,0,0x5D,0x00,Read,ACK
3.553813812500000,0,0x5D,0x00,Read,ACK
3.553835312500000,0,0x5D,0x00,Read,ACK
3.553856781250000,0,0x5D,0x00,Read,ACK
3.553878250000000,0,0x5D,0x00,Read,ACK
3.553899750000000,0,0x5D,0x00,Read,ACK
3.553921562500000,0,0x5D,0x00,Read,ACK
3.553943062500000,0,0x5D,0x00,Read,ACK
3.553964562500000,0,0x5D,0x00,Read,ACK
3.553986031250000,0,0x5D,0x00,Read,ACK
3.554007500000000,0,0x5D,0x00,Read,ACK
3.554032843750000,0,0x5D,0x00,Read,ACK
3.554057312500000,0,0x5D,0x00,Read,ACK
3.554078812500000,0,0x5D,0x00,Read,ACK
3.554100281250000,0,0x5D,0x00,Read,ACK
3.554124437500000,0,0x5D,0x00,Read,ACK
3.554145906250000,0,0x5D,0x00,Read,ACK
3.554167375000000,0,0x5D,0x66,Read,ACK
3.554188875000000,0,0x5D,0x79,Read,ACK
3.554211031250000,0,0x5D,0x01,Read,ACK
3.554232500000000,0,0x5D,0x00,Read,ACK
3.554254468750000,0,0x5D,0x00,Read,ACK
3.554275937500000,0,0x5D,0x00,Read,ACK
3.554297500000000,0,0x5D,0x00,Read,ACK
3.554318968750000,0,0x5D,0x00,Read,ACK
3.554340875000000,0,0x5D,0x00,Read,ACK
3.554362375000000,0,0x5D,0x00,Read,ACK
3.554383843750000,0,0x5D,0x00,Read,ACK
3.554406218750000,0,0x5D,0x00,Read,ACK
3.554428343750000,0,0x5D,0x00,Read,ACK
3.554449906250000,0,0x5D,0x00,Read,ACK
3.554472500000000,0,0x5D,0x00,Read,ACK
3.554494187500000,0,0x5D,0x00,Read,ACK
3.554515625000000,0,0x5D,0x00,Read,ACK
3.554537968750000,0,0x5D,0x00,Read,ACK
3.554559468750000,0,0x5D,0x00,Read,ACK
3.554581375000000,0,0x5D,0x00,Read,ACK
3.554602843750000,0,0x5D,0x00,Read,NAK
3.560483125000000,0,0x5D,0x2F,Read,ACK
3.560512000000000,0,0x5D,0x00,Read,ACK
3.560533437500000,0,0x5D,0x04,Read,ACK
3.560554937500000,0,0x5D,0x03,Read,ACK
3.560576375000000,0,0x5D,0xBC,Read,ACK
3.560597843750000,0,0x5D,0x08,Read,ACK
3.560620000000000,0,0x5D,0xF9,Read,ACK
3.560641468750000,0,0x5D,0x04,Read,ACK
3.560663312500000,0,0x5D,0x03,Read,ACK
3.560684812500000,0,0x5D,0x02,Read,ACK
3.560706250000000,0,0x5D,0x20,Read,ACK
3.560727718750000,0,0x5D,0x00,Read,ACK
3.560749187500000,0,0x5D,0x00,Read,ACK
3.560772468750000,0,0x5D,0x00,Read,ACK
3.560793968750000,0,0x5D,0x00,Read,ACK
3.560815468750000,0,0x5D,0x00,Read,ACK
3.560836937500000,0,0x5D,0x00,Read,ACK
3.560858406250000,0,0x5D,0x00,Read,ACK
3.560879937500000,0,0x5D,0x00,Read,ACK
3.560901406250000,0,0x5D,0x00,Read,ACK
3.560922906250000,0,0x5D,0x00,Read,ACK
3.560944375000000,0,0x5D,0x00,Read,ACK
3.560965843750000,0,0x5D,0x00,Read,ACK
3.560987312500000,0,0x5D,0x00,Read,ACK
3.561008781250000,0,0x5D,0x00,Read,ACK
3.561030281250000,0,0x5D,0x00,Read,ACK
3.561051750000000,0,0x5D,0x00,Read,ACK
3.561073218750000,0,0x5D,0x00,Read,ACK
3.561094687500000,0,0x5D,0x00,Read,ACK
3.561116875000000,0,0x5D,0x00,Read,ACK
3.561138343750000,0,0x5D,0x00,Read,ACK
3.561159812500000,0,0x5D,0x00,Read,ACK
3.561181281250000,0,0x5D,0x00,Read,ACK
3.561203406250000,0,0x5D,0x00,Read,ACK
3.561225250000000,0,0x5D,0x00,Read,ACK
3.561246750000000,0,0x5D,0x00,Read,ACK
3.561268250000000,0,0x5D,0x00,Read,ACK
3.561289750000000,0,0x5D,0x00,Read,ACK
3.561313562500000,0,0x5D,0x00,Read,ACK
3.561335093750000,0,0x5D,0x00,Read,ACK
3.561356593750000,0,0x5D,0x00,Read,ACK
3.561378500000000,0,0x5D,0x00,Read,ACK
3.561401437500000,0,0x5D,0x00,Read,ACK
3.561423031250000,0,0x5D,0xAC,Read,ACK
3.561444500000000,0,0x5D,0x79,Read,ACK
3.561466906250000,0,0x5D,0x01,Read,ACK
3.561488375000000,0,0x5D,0x00,Read,ACK
3.561510968750000,0,0x5D,0x00,Read,ACK
3.561532687500000,0,0x5D,0x00,Read,ACK
3.561554937500000,0,0x5D,0x00,Read,ACK
3.561576562500000,0,0x5D,0x00,Read,ACK
3.561598031250000,0,0x5D,0x00,Read,ACK
3.561619531250000,0,0x5D,0x00,Read,ACK
3.561641500000000,0,0x5D,0x00,Read,ACK
3.561663468750000,0,0x5D,0x00,Read,ACK
3.561685531250000,0,0x5D,0x00,Read,ACK
3.561707031250000,0,0x5D,0x00,Read,ACK
3.561728875000000,0,0x5D,0x00,Read,ACK
3.561750656250000,0,0x5D,0x00,Read,ACK
3.561772968750000,0,0x5D,0x00,Read,ACK
3.561794906250000,0,0x5D,0x00,Read,ACK
3.561816406250000,0,0x5D,0x00,Read,ACK
3.561837906250000,0,0x5D,0x00,Read,ACK
3.561859562500000,0,0x5D,0x00,Read,NAK
3.567577156250000,0,0x5D,0x2F,Read,ACK
3.567601187500000,0,0x5D,0x00,Read,ACK
3.567622687500000,0,0x5D,0x04,Read,ACK
3.567644562500000,0,0x5D,0x03,Read,ACK
3.567666062500000,0,0x5D,0xBA,Read,ACK
3.567687562500000,0,0x5D,0x08,Read,ACK
3.567709062500000,0,0x5D,0x08,Read,ACK
3.567730562500000,0,0x5D,0x05,Read,ACK
3.567753375000000,0,0x5D,0x03,Read,ACK
3.567775968750000,0,0x5D,0x02,Read,ACK
3.567797437500000,0,0x5D,0x20,Read,ACK
3.567818906250000,0,0x5D,0x00,Read,ACK
3.567840375000000,0,0x5D,0x00,Read,ACK
3.567861843750000,0,0x5D,0x00,Read,ACK
3.567883343750000,0,0x5D,0x00,Read,ACK
3.567904812500000,0,0x5D,0x00,Read,ACK
3.567926281250000,0,0x5D,0x00,Read,ACK
3.567947750000000,0,0x5D,0x00,Read,ACK
3.567969281250000,0,0x5D,0x00,Read,ACK
3.567990906250000,0,0x5D,0x00,Read,ACK
3.568012375000000,0,0x5D,0x00,Read,ACK
3.568033843750000,0,0x5D,0x00,Read,ACK
3.568055343750000,0,0x5D,0x00,Read,ACK
3.568076812500000,0,0x5D,0x00,Read,ACK
3.568098281250000,0,0x5D,0x00,Read,ACK
3.568119781250000,0,0x5D,0x00,Read,ACK
3.568141250000000,0,0x5D,0x00,Read,ACK
3.568162750000000,0,0x5D,0x00,Read,ACK
3.568184218750000,0,0x5D,0x00,Read,ACK
3.568205687500000,0,0x5D,0x00,Read,ACK
3.568227187500000,0,0x5D,0x00,Read,ACK
3.568248625000000,0,0x5D,0x00,Read,ACK
3.568270125000000,0,0x5D,0x00,Read,ACK
3.568291875000000,0,0x5D,0x00,Read,ACK
3.568314156250000,0,0x5D,0x00,Read,ACK
3.568337656250000,0,0x5D,0x00,Read,ACK
3.568360031250000,0,0x5D,0x00,Read,ACK
3.568381531250000,0,0x5D,0x00,Read,ACK
3.568403875000000,0,0x5D,0x00,Read,ACK
3.568425375000000,0,0x5D,0x00,Read,ACK
3.568447218750000,0,0x5D,0x00,Read,ACK
3.568468718750000,0,0x5D,0x00,Read,ACK
3.568491468750000,0,0x5D,0x00,Read,ACK
3.568513968750000,0,0x5D,0xF2,Read,ACK
3.568536062500000,0,0x5D,0x79,Read,ACK
3.568557562500000,0,0x5D,0x01,Read,ACK
3.568579187500000,0,0x5D,0x00,Read,ACK
3.568601343750000,0,0x5D,0x00,Read,ACK
3.568623281250000,0,0x5D,0x00,Read,ACK
3.568644750000000,0,0x5D,0x00,Read,ACK
3.568667250000000,0,0x5D,0x00,Read,ACK
3.568688718750000,0,0x5D,0x00,Read,ACK
3.568711281250000,0,0x5D,0x00,Read,ACK
3.568734281250000,0,0x5D,0x00,Read,ACK
3.568756281250000,0,0x5D,0x00,Read,ACK
3.568777750000000,0,0x5D,0x00,Read,ACK
3.568800031250000,0,0x5D,0x00,Read,ACK
3.568821750000000,0,0x5D,0x00,Read,ACK
3.568843250000000,0,0x5D,0x00,Read,ACK
3.568865750000000,0,0x5D,0x00,Read,ACK
3.568887250000000,0,0x5D,0x00,Read,ACK
3.568910843750000,0,0x5D,0x00,Read,ACK
3.568932562500000,0,0x5D,0x00,Read,ACK
3.568955750000000,0,0x5D,0x00,Read,NAK
3.574796968750000,0,0x5D,0x2F,Read,ACK
3.574826937500000,0,0x5D,0x00,Read,ACK
3.574848593750000,0,0x5D,0x04,Read,ACK
3.574870437500000,0,0x5D,0x03,Read,ACK
3.574891906250000,0,0x5D,0xB8,Read,ACK
3.574913375000000,0,0x5D,0x08,Read,ACK
3.574934875000000,0,0x5D,0x16,Read,ACK
3.574956375000000,0,0x5D,0x05,Read,ACK
3.574977843750000,0,0x5D,0x03,Read,ACK
3.574999531250000,0,0x5D,0x02,Read,ACK
3.575021031250000,0,0x5D,0x20,Read,ACK
3.575042812500000,0,0x5D,0x00,Read,ACK
3.575066125000000,0,0x5D,0x00,Read,ACK
3.575087593750000,0,0x5D,0x00,Read,ACK
3.575109093750000,0,0x5D,0x00,Read,ACK
3.575130531250000,0,0x5D,0x00,Read,ACK
3.575152031250000,0,0x5D,0x00,Read,ACK
3.575173500000000,0,0x5D,0x00,Read,ACK
3.575194968750000,0,0x5D,0x00,Read,ACK
3.575216468750000,0,0x5D,0x00,Read,ACK
3.575237937500000,0,0x5D,0x00,Read,ACK
3.575259437500000,0,0x5D,0x00,Read,ACK
3.575280875000000,0,0x5D,0x00,Read,ACK
3.575302375000000,0,0x5D,0x00,Read,ACK
3.575323843750000,0,0x5D,0x00,Read,ACK
3.575345312500000,0,0x5D,0x00,Read,ACK
3.575366812500000,0,0x5D,0x00,Read,ACK
3.575388281250000,0,0x5D,0x00,Read,ACK
3.575409781250000,0,0x5D,0x00,Read,ACK
3.575431281250000,0,0x5D,0x00,Read,ACK
3.575452812500000,0,0x5D,0x00,Read,ACK
3.575475968750000,0,0x5D,0x00,Read,ACK
3.575499500000000,0,0x5D,0x00,Read,ACK
3.575522375000000,0,0x5D,0x00,Read,ACK
3.575543875000000,0,0x5D,0x00,Read,ACK
3.575565437500000,0,0x5D,0x00,Read,ACK
3.575587062500000,0,0x5D,0x00,Read,ACK
3.575608562500000,0,0x5D,0x00,Read,ACK
3.575630375000000,0,0x5D,0x00,Read,ACK
3.575652312500000,0,0x5D,0x00,Read,ACK
3.575674218750000,0,0x5D,0x00,Read,ACK
3.575695781250000,0,0x5D,0x00,Read,ACK
3.575718250000000,0,0x5D,0x00,Read,ACK
3.575739937500000,0,0x5D,0x38,Read,ACK
3.575761406250000,0,0x5D,0x7A,Read,ACK
3.575782875000000,0,0x5D,0x01,Read,ACK
3.575804812500000,0,0x5D,0x00,Read,ACK
3.575827468750000,0,0x5D,0x00,Read,ACK
3.575848937500000,0,0x5D,0x00,Read,ACK
3.575870406250000,0,0x5D,0x00,Read,ACK
3.575892968750000,0,0x5D,0x00,Read,ACK
3.575915687500000,0,0x5D,0x00,Read,ACK
3.575937812500000,0,0x5D,0x00,Read,ACK
3.575959250000000,0,0x5D,0x00,Read,ACK
3.575980750000000,0,0x5D,0x00,Read,ACK
3.576002625000000,0,0x5D,0x00,Read,ACK
3.576024156250000,0,0x5D,0x00,Read,ACK
3.576046187500000,0,0x5D,0x00,Read,ACK
3.576068406250000,0,0x5D,0x00,Read,ACK
3.576091343750000,0,0x5D,0x00,Read,ACK
3.576113218750000,0,0x5D,0x00,Read,ACK
3.576142843750000,0,0x5D,0x00,Read,ACK
3.576164281250000,0,0x5D,0x00,Read,ACK
3.576185781250000,0,0x5D,0x00,Read,NAK
3.581934125000000,0,0x5D,0x2F,Read,ACK
3.581961187500000,0,0x5D,0x00,Read,ACK
3.581982937500000,0,0x5D,0x04,Read,ACK
3.582004437500000,0,0x5D,0x03,Read,ACK
3.582025906250000,0,0x5D,0xB3,Read,ACK
3.582047375000000,0,0x5D,0x08,Read,ACK
3.582070281250000,0,0x5D,0x25,Read,ACK
3.582092093750000,0,0x5D,0x05,Read,ACK
3.582113562500000,0,0x5D,0x03,Read,ACK
3.582135406250000,0,0x5D,0x03,Read,ACK
3.582156875000000,0,0x5D,0x20,Read,ACK
3.582178375000000,0,0x5D,0x00,Read,ACK
3.582199843750000,0,0x5D,0x00,Read,ACK
3.582223000000000,0,0x5D,0x00,Read,ACK
3.582244468750000,0,0x5D,0x00,Read,ACK
3.582265937500000,0,0x5D,0x00,Read,ACK
3.582287437500000,0,0x5D,0x00,Read,ACK
3.582308937500000,0,0x5D,0x00,Read,ACK
3.582330468750000,0,0x5D,0x00,Read,ACK
3.582351937500000,0,0x5D,0x00,Read,ACK
3.582373406250000,0,0x5D,0x00,Read,ACK
3.582394875000000,0,0x5D,0x00,Read,ACK
3.582416343750000,0,0x5D,0x00,Read,ACK
3.582437843750000,0,0x5D,0x00,Read,ACK
3.582459312500000,0,0x5D,0x00,Read,ACK
3.582480781250000,0,0x5D,0x00,Read,ACK
3.582502281250000,0,0x5D,0x00,Read,ACK
3.582523750000000,0,0x5D,0x00,Read,ACK
3.582545218750000,0,0x5D,0x00,Read,ACK
3.582566718750000,0,0x5D,0x00,Read,ACK
3.582588187500000,0,0x5D,0x00,Read,ACK
3.582609937500000,0,0x5D,0x00,Read,ACK
3.582631437500000,0,0x5D,0x00,Read,ACK
3.582652906250000,0,0x5D,0x00,Read,ACK
3.582676375000000,0,0x5D,0x00,Read,ACK
3.582700187500000,0,0x5D,0x00,Read,ACK
3.582723312500000,0,0x5D,0x00,Read,ACK
3.582745062500000,0,0x5D,0x00,Read,ACK
3.582767875000000,0,0x5D,0x00,Read,ACK
3.582789656250000,0,0x5D,0x00,Read,ACK
3.582811343750000,0,0x5D,0x00,Read,ACK
3.582832812500000,0,0x5D,0x00,Read,ACK
3.582856093750000,0,0x5D,0x00,Read,ACK
3.582877593750000,0,0x5D,0x7E,Read,ACK
3.582900156250000,0,0x5D,0x7A,Read,ACK
3.582922312500000,0,0x5D,0x01,Read,ACK
3.582943750000000,0,0x5D,0x00,Read,ACK
3.582965218750000,0,0x5D,0x00,Read,ACK
3.582987062500000,0,0x5D,0x00,Read,ACK
3.583008562500000,0,0x5D,0x00,Read,ACK
3.583030031250000,0,0x5D,0x00,Read,ACK
3.583051500000000,0,0x5D,0x00,Read,ACK
3.583075406250000,0,0x5D,0x00,Read,ACK
3.583096906250000,0,0x5D,0x00,Read,ACK
3.583119593750000,0,0x5D,0x00,Read,ACK
3.583141437500000,0,0x5D,0x00,Read,ACK
3.583163593750000,0,0x5D,0x00,Read,ACK
3.583186062500000,0,0x5D,0x00,Read,ACK
3.583207937500000,0,0x5D,0x00,Read,ACK
3.583229531250000,0,0x5D,0x00,Read,ACK
3.583251000000000,0,0x5D,0x00,Read,ACK
3.583273531250000,0,0x5D,0x00,Read,ACK
3.583296375000000,0,0x5D,0x00,Read,ACK
3.583322781250000,0,0x5D,0x00,Read,NAK
3.588958468750000,0,0x5D,0x2F,Read,ACK
3.588983031250000,0,0x5D,0x00,Read,ACK
3.589004500000000,0,0x5D,0x04,Read,ACK
3.589026031250000,0,0x5D,0x03,Read,ACK
3.589047500000000,0,0x5D,0xAD,Read,ACK
3.589069000000000,0,0x5D,0x08,Read,ACK
3.589091093750000,0,0x5D,0x34,Read,ACK
3.589113156250000,0,0x5D,0x05,Read,ACK
3.589134593750000,0,0x5D,0x03,Read,ACK
3.589157562500000,0,0x5D,0x03,Read,ACK
3.589179062500000,0,0x5D,0x20,Read,ACK
3.589201500000000,0,0x5D,0x00,Read,ACK
3.589223375000000,0,0x5D,0x00,Read,ACK
3.589244875000000,0,0x5D,0x00,Read,ACK
3.589266312500000,0,0x5D,0x00,Read,ACK
3.589287781250000,0,0x5D,0x00,Read,ACK
3.589309281250000,0,0x5D,0x00,Read,ACK
3.589330937500000,0,0x5D,0x00,Read,ACK
3.589352406250000,0,0x5D,0x00,Read,ACK
3.589373906250000,0,0x5D,0x00,Read,ACK
3.589395375000000,0,0x5D,0x00,Read,ACK
3.589416906250000,0,0x5D,0x00,Read,ACK
3.589438375000000,0,0x5D,0x00,Read,ACK
3.589459843750000,0,0x5D,0x00,Read,ACK
3.589481343750000,0,0x5D,0x00,Read,ACK
3.589502812500000,0,0x5D,0x00,Read,ACK
3.589524281250000,0,0x5D,0x00,Read,ACK
3.589545750000000,0,0x5D,0x00,Read,ACK
3.589567218750000,0,0x5D,0x00,Read,ACK
3.589588687500000,0,0x5D,0x00,Read,ACK
3.589610312500000,0,0x5D,0x00,Read,ACK
3.589631781250000,0,0x5D,0x00,Read,ACK
3.589653250000000,0,0x5D,0x00,Read,ACK
3.589674750000000,0,0x5D,0x00,Read,ACK
3.589696187500000,0,0x5D,0x00,Read,ACK
3.589717687500000,0,0x5D,0x00,Read,ACK
3.589739156250000,0,0x5D,0x00,Read,ACK
3.589760625000000,0,0x5D,0x00,Read,ACK
3.589785406250000,0,0x5D,0x00,Read,ACK
3.589808812500000,0,0x5D,0x00,Read,ACK
3.589832375000000,0,0x5D,0x00,Read,ACK
3.589857000000000,0,0x5D,0x00,Read,ACK
3.589878718750000,0,0x5D,0x00,Read,ACK
3.589900218750000,0,0x5D,0xC4,Read,ACK
3.589923593750000,0,0x5D,0x7A,Read,ACK
3.589945031250000,0,0x5D,0x01,Read,ACK
3.589966500000000,0,0x5D,0x00,Read,ACK
3.589988437500000,0,0x5D,0x00,Read,ACK
3.590009906250000,0,0x5D,0x00,Read,ACK
3.590031406250000,0,0x5D,0x00,Read,ACK
3.590052843750000,0,0x5D,0x00,Read,ACK
3.590074343750000,0,0x5D,0x00,Read,ACK
3.590095812500000,0,0x5D,0x00,Read,ACK
3.590117281250000,0,0x5D,0x00,Read,ACK
3.590140437500000,0,0x5D,0x00,Read,ACK
3.590161906250000,0,0x5D,0x00,Read,ACK
3.590184000000000,0,0x5D,0x00,Read,ACK
3.590205437500000,0,0x5D,0x00,Read,ACK
3.590229062500000,0,0x5D,0x00,Read,ACK
3.590250875000000,0,0x5D,0x00,Read,ACK
3.590272500000000,0,0x5D,0x00,Read,ACK
3.590294875000000,0,0x5D,0x00,Read,ACK
3.590317312500000,0,0x5D,0x00,Read,ACK
3.590338906250000,0,0x5D,0x00,Read,NAK
3.596125437500000,0,0x5D,0x2F,Read,ACK
3.596148218750000,0,0x5D,0x00,Read,ACK
3.596169687500000,0,0x5D,0x04,Read,ACK
3.596191156250000,0,0x5D,0x03,Read,ACK
3.596212625000000,0,0x5D,0xA6,Read,ACK
3.596234093750000,0,0x5D,0x08,Read,ACK
3.596256781250000,0,0x5D,0x42,Read,ACK
3.596278250000000,0,0x5D,0x05,Read,ACK
3.596299718750000,0,0x5D,0x03,Read,ACK
3.596321187500000,0,0x5D,0x03,Read,ACK
3.596342687500000,0,0x5D,0x20,Read,ACK
3.596364281250000,0,0x5D,0x00,Read,ACK
3.596387437500000,0,0x5D,0x00,Read,ACK
3.596408906250000,0,0x5D,0x00,Read,ACK
3.596430406250000,0,0x5D,0x00,Read,ACK
3.596451875000000,0,0x5D,0x00,Read,ACK
3.596473343750000,0,0x5D,0x00,Read,ACK
3.596495312500000,0,0x5D,0x00,Read,ACK
3.596516781250000,0,0x5D,0x00,Read,ACK
3.596538281250000,0,0x5D,0x00,Read,ACK
3.596559750000000,0,0x5D,0x00,Read,ACK
3.596581250000000,0,0x5D,0x00,Read,ACK
3.596602687500000,0,0x5D,0x00,Read,ACK
3.596624187500000,0,0x5D,0x00,Read,ACK
3.596645656250000,0,0x5D,0x00,Read,ACK
3.596667125000000,0,0x5D,0x00,Read,ACK
3.596688625000000,0,0x5D,0x00,Read,ACK
3.596710093750000,0,0x5D,0x00,Read,ACK
3.596731562500000,0,0x5D,0x00,Read,ACK
3.596753031250000,0,0x5D,0x00,Read,ACK
3.596774531250000,0,0x5D,0x00,Read,ACK
3.596796000000000,0,0x5D,0x00,Read,ACK
3.596817500000000,0,0x5D,0x00,Read,ACK
3.596838968750000,0,0x5D,0x00,Read,ACK
3.596860406250000,0,0x5D,0x00,Read,ACK
3.596881906250000,0,0x5D,0x00,Read,ACK
3.596903375000000,0,0x5D,0x00,Read,ACK
3.596927468750000,0,0x5D,0x00,Read,ACK
3.596949156250000,0,0x5D,0x00,Read,ACK
3.596970625000000,0,0x5D,0x00,Read,ACK
3.596992906250000,0,0x5D,0x00,Read,ACK
3.597014906250000,0,0x5D,0x00,Read,ACK
3.597036343750000,0,0x5D,0x00,Read,ACK
3.597057843750000,0,0x5D,0x0A,Read,ACK
3.597079312500000,0,0x5D,0x7B,Read,ACK
3.597101281250000,0,0x5D,0x01,Read,ACK
3.597122843750000,0,0x5D,0x00,Read,ACK
3.597145343750000,0,0x5D,0x00,Read,ACK
3.597166843750000,0,0x5D,0x00,Read,ACK
3.597188562500000,0,0x5D,0x00,Read,ACK
3.597210031250000,0,0x5D,0x00,Read,ACK
3.597231625000000,0,0x5D,0x00,Read,ACK
3.597253750000000,0,0x5D,0x00,Read,ACK
3.597275218750000,0,0x5D,0x00,Read,ACK
3.597296687500000,0,0x5D,0x00,Read,ACK
3.597318343750000,0,0x5D,0x00,Read,ACK
3.597339843750000,0,0x5D,0x00,Read,ACK
3.597362062500000,0,0x5D,0x00,Read,ACK
3.597383531250000,0,0x5D,0x00,Read,ACK
3.597405343750000,0,0x5D,0x00,Read,ACK
3.597428875000000,0,0x5D,0x00,Read,ACK
3.597450343750000,0,0x5D,0x00,Read,ACK
3.597472875000000,0,0x5D,0x00,Read,ACK
3.597494593750000,0,0x5D,0x00,Read,NAK
3.603247593750000,0,0x5D,0x2F,Read,ACK
3.603272125000000,0,0x5D,0x00,Read,ACK
3.603293625000000,0,0x5D,0x04,Read,ACK
3.603315125000000,0,0x5D,0x03,Read,ACK
3.603336593750000,0,0x5D,0x9E,Read,ACK
3.603358062500000,0,0x5D,0x08,Read,ACK
3.603379718750000,0,0x5D,0x4F,Read,ACK
3.603403812500000,0,0x5D,0x05,Read,ACK
3.603425281250000,0,0x5D,0x03,Read,ACK
3.603446781250000,0,0x5D,0x03,Read,ACK
3.603468250000000,0,0x5D,0x20,Read,ACK
3.603489750000000,0,0x5D,0x00,Read,ACK
3.603511218750000,0,0x5D,0x00,Read,ACK
3.603532687500000,0,0x5D,0x00,Read,ACK
3.603554156250000,0,0x5D,0x00,Read,ACK
3.603575625000000,0,0x5D,0x00,Read,ACK
3.603597125000000,0,0x5D,0x00,Read,ACK
3.603619312500000,0,0x5D,0x00,Read,ACK
3.603640812500000,0,0x5D,0x00,Read,ACK
3.603662312500000,0,0x5D,0x00,Read,ACK
3.603683750000000,0,0x5D,0x00,Read,ACK
3.603705218750000,0,0x5D,0x00,Read,ACK
3.603726718750000,0,0x5D,0x00,Read,ACK
3.603748406250000,0,0x5D,0x00,Read,ACK
3.603769906250000,0,0x5D,0x00,Read,ACK
3.603791375000000,0,0x5D,0x00,Read,ACK
3.603812875000000,0,0x5D,0x00,Read,ACK
3.603834343750000,0,0x5D,0x00,Read,ACK
3.603855843750000,0,0x5D,0x00,Read,ACK
3.603877312500000,0,0x5D,0x00,Read,ACK
3.603898781250000,0,0x5D,0x00,Read,ACK
3.603920250000000,0,0x5D,0x00,Read,ACK
3.603941718750000,0,0x5D,0x00,Read,ACK
3.603963187500000,0,0x5D,0x00,Read,ACK
3.603984656250000,0,0x5D,0x00,Read,ACK
3.604006437500000,0,0x5D,0x00,Read,ACK
3.604027937500000,0,0x5D,0x00,Read,ACK
3.604049406250000,0,0x5D,0x00,Read,ACK
3.604073406250000,0,0x5D,0x00,Read,ACK
3.604095218750000,0,0x5D,0x00,Read,ACK
3.604117218750000,0,0x5D,0x00,Read,ACK
3.604139656250000,0,0x5D,0x00,Read,ACK
3.604161468750000,0,0x5D,0x00,Read,ACK
3.604182968750000,0,0x5D,0x50,Read,ACK
3.604204437500000,0,0x5D,0x7B,Read,ACK
3.604227375000000,0,0x5D,0x01,Read,ACK
3.604248812500000,0,0x5D,0x00,Read,ACK
3.604270312500000,0,0x5D,0x00,Read,ACK
3.604291843750000,0,0x5D,0x00,Read,ACK
3.604313687500000,0,0x5D,0x00,Read,ACK
3.604335156250000,0,0x5D,0x00,Read,ACK
3.604357031250000,0,0x5D,0x00,Read,ACK
3.604378500000000,0,0x5D,0x00,Read,ACK
3.604400843750000,0,0x5D,0x00,Read,ACK
3.604423625000000,0,0x5D,0x00,Read,ACK
3.604445156250000,0,0x5D,0x00,Read,ACK
3.604466937500000,0,0x5D,0x00,Read,ACK
3.604489218750000,0,0x5D,0x00,Read,ACK
3.604512781250000,0,0x5D,0x00,Read,ACK
3.604534406250000,0,0x5D,0x00,Read,ACK
3.604555843750000,0,0x5D,0x00,Read,ACK
3.604577906250000,0,0x5D,0x00,Read,ACK
3.604601406250000,0,0x5D,0x00,Read,ACK
3.604623218750000,0,0x5D,0x00,Read,NAK
3.610446812500000,0,0x5D,0x2F,Read,ACK
3.610470062500000,0,0x5D,0x00,Read,ACK
3.610491531250000,0,0x5D,0x04,Read,ACK
3.610513000000000,0,0x5D,0x03,Read,ACK
3.610535375000000,0,0x5D,0x95,Read,ACK
3.610557968750000,0,0x5D,0x08,Read,ACK
3.610579468750000,0,0x5D,0x5B,Read,ACK
3.610600968750000,0,0x5D,0x05,Read,ACK
3.610622437500000,0,0x5D,0x03,Read,ACK
3.610643906250000,0,0x5D,0x03,Read,ACK
3.610665406250000,0,0x5D,0x20,Read,ACK
3.610686875000000,0,0x5D,0x00,Read,ACK
3.610708343750000,0,0x5D,0x00,Read,ACK
3.610729812500000,0,0x5D,0x00,Read,ACK
3.610751281250000,0,0x5D,0x00,Read,ACK
3.610772781250000,0,0x5D,0x00,Read,ACK
3.610794250000000,0,0x5D,0x00,Read,ACK
3.610815718750000,0,0x5D,0x00,Read,ACK
3.610837187500000,0,0x5D,0x00,Read,ACK
3.610858687500000,0,0x5D,0x00,Read,ACK
3.610880156250000,0,0x5D,0x00,Read,ACK
3.610901625000000,0,0x5D,0x00,Read,ACK
3.610923093750000,0,0x5D,0x00,Read,ACK
3.610944593750000,0,0x5D,0x00,Read,ACK
3.610966062500000,0,0x5D,0x00,Read,ACK
3.610987531250000,0,0x5D,0x00,Read,ACK
3.611009000000000,0,0x5D,0x00,Read,ACK
3.611030500000000,0,0x5D,0x00,Read,ACK
3.611052000000000,0,0x5D,0x00,Read,ACK
3.611073437500000,0,0x5D,0x00,Read,ACK
3.611094906250000,0,0x5D,0x00,Read,ACK
3.611116375000000,0,0x5D,0x00,Read,ACK
3.611137906250000,0,0x5D,0x00,Read,ACK
3.611159375000000,0,0x5D,0x00,Read,ACK
3.611180812500000,0,0x5D,0x00,Read,ACK
3.611202312500000,0,0x5D,0x00,Read,ACK
3.611227500000000,0,0x5D,0x00,Read,ACK
3.611251531250000,0,0x5D,0x00,Read,ACK
3.611273312500000,0,0x5D,0x00,Read,ACK
3.611295625000000,0,0x5D,0x00,Read,ACK
3.611318125000000,0,0x5D,0x00,Read,ACK
3.611339843750000,0,0x5D,0x00,Read,ACK
3.611361437500000,0,0x5D,0x00,Read,ACK
3.611382906250000,0,0x5D,0x96,Read,ACK
3.611404406250000,0,0x5D,0x7B,Read,ACK
3.611425875000000,0,0x5D,0x01,Read,ACK
3.611447343750000,0,0x5D,0x00,Read,ACK
3.611470125000000,0,0x5D,0x00,Read,ACK
3.611492718750000,0,0x5D,0x00,Read,ACK
3.611514218750000,0,0x5D,0x00,Read,ACK
3.611535718750000,0,0x5D,0x00,Read,ACK
3.611558843750000,0,0x5D,0x00,Read,ACK
3.611580906250000,0,0x5D,0x00,Read,ACK
3.611602375000000,0,0x5D,0x00,Read,ACK
3.611624781250000,0,0x5D,0x00,Read,ACK
3.611646375000000,0,0x5D,0x00,Read,ACK
3.611667875000000,0,0x5D,0x00,Read,ACK
3.611690000000000,0,0x5D,0x00,Read,ACK
3.611711500000000,0,0x5D,0x00,Read,ACK
3.611733125000000,0,0x5D,0x00,Read,ACK
3.611754562500000,0,0x5D,0x00,Read,ACK
3.611776250000000,0,0x5D,0x00,Read,ACK
3.611797718750000,0,0x5D,0x00,Read,ACK
3.611819687500000,0,0x5D,0x00,Read,NAK
3.617521843750000,0,0x5D,0x2F,Read,ACK
3.617548000000000,0,0x5D,0x00,Read,ACK
3.617569500000000,0,0x5D,0x04,Read,ACK
3.617590968750000,0,0x5D,0x03,Read,ACK
3.617612437500000,0,0x5D,0x8B,Read,ACK
3.617633937500000,0,0x5D,0x08,Read,ACK
3.617655625000000,0,0x5D,0x66,Read,ACK
3.617677093750000,0,0x5D,0x05,Read,ACK
3.617698531250000,0,0x5D,0x02,Read,ACK
3.617720031250000,0,0x5D,0x03,Read,ACK
3.617741750000000,0,0x5D,0x20,Read,ACK
3.617763406250000,0,0x5D,0x00,Read,ACK
3.617784906250000,0,0x5D,0x00,Read,ACK
3.617807593750000,0,0x5D,0x00,Read,ACK
3.617829093750000,0,0x5D,0x00,Read,ACK
3.617850593750000,0,0x5D,0x00,Read,ACK
3.617876156250000,0,0x5D,0x00,Read,ACK
3.617899156250000,0,0x5D,0x00,Read,ACK
3.617920625000000,0,0x5D,0x00,Read,ACK
3.617942093750000,0,0x5D,0x00,Read,ACK
3.617963593750000,0,0x5D,0x00,Read,ACK
3.617985062500000,0,0x5D,0x00,Read,ACK
3.618006531250000,0,0x5D,0x00,Read,ACK
3.618028000000000,0,0x5D,0x00,Read,ACK
3.618049500000000,0,0x5D,0x00,Read,ACK
3.618070968750000,0,0x5D,0x00,Read,ACK
3.618092843750000,0,0x5D,0x00,Read,ACK
3.618114343750000,0,0x5D,0x00,Read,ACK
3.618135843750000,0,0x5D,0x00,Read,ACK
3.618157312500000,0,0x5D,0x00,Read,ACK
3.618178781250000,0,0x5D,0x00,Read,ACK
3.618200250000000,0,0x5D,0x00,Read,ACK
3.618221750000000,0,0x5D,0x00,Read,ACK
3.618243218750000,0,0x5D,0x00,Read,ACK
3.618264718750000,0,0x5D,0x00,Read,ACK
3.618286156250000,0,0x5D,0x00,Read,ACK
3.618309687500000,0,0x5D,0x00,Read,ACK
3.618335531250000,0,0x5D,0x00,Read,ACK
3.618357125000000,0,0x5D,0x00,Read,ACK
3.618378625000000,0,0x5D,0x00,Read,ACK
3.618400437500000,0,0x5D,0x00,Read,ACK
3.618421906250000,0,0x5D,0x00,Read,ACK
3.618443781250000,0,0x5D,0x00,Read,ACK
3.618465312500000,0,0x5D,0xDC,Read,ACK
3.618488656250000,0,0x5D,0x7B,Read,ACK
3.618511218750000,0,0x5D,0x01,Read,ACK
3.618535718750000,0,0x5D,0x00,Read,ACK
3.618557343750000,0,0x5D,0x00,Read,ACK
3.618578781250000,0,0x5D,0x00,Read,ACK
3.618600250000000,0,0x5D,0x00,Read,ACK
3.618621718750000,0,0x5D,0x00,Read,ACK
3.618643375000000,0,0x5D,0x00,Read,ACK
3.618666875000000,0,0x5D,0x00,Read,ACK
3.618688343750000,0,0x5D,0x00,Read,ACK
3.618710218750000,0,0x5D,0x00,Read,ACK
3.618733468750000,0,0x5D,0x00,Read,ACK
3.618755593750000,0,0x5D,0x00,Read,ACK
3.618777562500000,0,0x5D,0x00,Read,ACK
3.618799062500000,0,0x5D,0x00,Read,ACK
3.618821875000000,0,0x5D,0x00,Read,ACK
3.618843406250000,0,0x5D,0x00,Read,ACK
3.618865312500000,0,0x5D,0x00,Read,ACK
3.618887031250000,0,0x5D,0x00,Read,ACK
3.618908718750000,0,0x5D,0x00,Read,NAK
3.624755406250000,0,0x5D,0x2F,Read,ACK
3.624778562500000,0,0x5D,0x00,Read,ACK
3.624800062500000,0,0x5D,0x04,Read,ACK
3.624822031250000,0,0x5D,0x03,Read,ACK
3.624845093750000,0,0x5D,0x80,Read,ACK
3.624866562500000,0,0x5D,0x08,Read,ACK
3.624888000000000,0,0x5D,0x6F,Read,ACK
3.624909468750000,0,0x5D,0x05,Read,ACK
3.624932437500000,0,0x5D,0x03,Read,ACK
3.624953937500000,0,0x5D,0x03,Read,ACK
3.624976843750000,0,0x5D,0x20,Read,ACK
3.624998312500000,0,0x5D,0x00,Read,ACK
3.625020718750000,0,0x5D,0x00,Read,ACK
3.625042187500000,0,0x5D,0x00,Read,ACK
3.625063687500000,0,0x5D,0x00,Read,ACK
3.625085281250000,0,0x5D,0x00,Read,ACK
3.625106781250000,0,0x5D,0x00,Read,ACK
3.625128218750000,0,0x5D,0x00,Read,ACK
3.625149687500000,0,0x5D,0x00,Read,ACK
3.625171187500000,0,0x5D,0x00,Read,ACK
3.625192656250000,0,0x5D,0x00,Read,ACK
3.625214125000000,0,0x5D,0x00,Read,ACK
3.625235625000000,0,0x5D,0x00,Read,ACK
3.625257093750000,0,0x5D,0x00,Read,ACK
3.625278562500000,0,0x5D,0x00,Read,ACK
3.625300031250000,0,0x5D,0x00,Read,ACK
3.625321500000000,0,0x5D,0x00,Read,ACK
3.625343000000000,0,0x5D,0x00,Read,ACK
3.625364468750000,0,0x5D,0x00,Read,ACK
3.625385937500000,0,0x5D,0x00,Read,ACK
3.625407406250000,0,0x5D,0x00,Read,ACK
3.625428906250000,0,0x5D,0x00,Read,ACK
3.625450531250000,0,0x5D,0x00,Read,ACK
3.625472031250000,0,0x5D,0x00,Read,ACK
3.625496562500000,0,0x5D,0x00,Read,ACK
3.625518031250000,0,0x5D,0x00,Read,ACK
3.625539531250000,0,0x5D,0x00,Read,ACK
3.625563687500000,0,0x5D,0x00,Read,ACK
3.625585562500000,0,0x5D,0x00,Read,ACK
3.625607000000000,0,0x5D,0x00,Read,ACK
3.625628500000000,0,0x5D,0x00,Read,ACK
3.625649968750000,0,0x5D,0x00,Read,ACK
3.625671437500000,0,0x5D,0x00,Read,ACK
3.625693093750000,0,0x5D,0x22,Read,ACK
3.625714593750000,0,0x5D,0x7C,Read,ACK
3.625736406250000,0,0x5D,0x01,Read,ACK
3.625759781250000,0,0x5D,0x00,Read,ACK
3.625781250000000,0,0x5D,0x00,Read,ACK
3.625802750000000,0,0x5D,0x00,Read,ACK
3.625825125000000,0,0x5D,0x00,Read,ACK
3.625847906250000,0,0x5D,0x00,Read,ACK
3.625869406250000,0,0x5D,0x00,Read,ACK
3.625891312500000,0,0x5D,0x00,Read,ACK
3.625912781250000,0,0x5D,0x00,Read,ACK
3.625934281250000,0,0x5D,0x00,Read,ACK
3.625956718750000,0,0x5D,0x00,Read,ACK
3.625978218750000,0,0x5D,0x00,Read,ACK
3.625999687500000,0,0x5D,0x00,Read,ACK
3.626021156250000,0,0x5D,0x00,Read,ACK
3.626044250000000,0,0x5D,0x00,Read,ACK
3.626065750000000,0,0x5D,0x00,Read,ACK
3.626089375000000,0,0x5D,0x00,Read,ACK
3.626111812500000,0,0x5D,0x00,Read,ACK
3.626133437500000,0,0x5D,0x00,Read,NAK
3.631844937500000,0,0x5D,0x2F,Read,ACK
3.631869500000000,0,0x5D,0x00,Read,ACK
3.631891031250000,0,0x5D,0x04,Read,ACK
3.631912531250000,0,0x5D,0x03,Read,ACK
3.631934000000000,0,0x5D,0x74,Read,ACK
3.631955531250000,0,0x5D,0x08,Read,ACK
3.631977062500000,0,0x5D,0x77,Read,ACK
3.631999062500000,0,0x5D,0x05,Read,ACK
3.632020562500000,0,0x5D,0x03,Read,ACK
3.632042031250000,0,0x5D,0x03,Read,ACK
3.632063937500000,0,0x5D,0x20,Read,ACK
3.632085406250000,0,0x5D,0x00,Read,ACK
3.632106875000000,0,0x5D,0x00,Read,ACK
3.632128593750000,0,0x5D,0x00,Read,ACK
3.632150093750000,0,0x5D,0x00,Read,ACK
3.632171562500000,0,0x5D,0x00,Read,ACK
3.632193062500000,0,0x5D,0x00,Read,ACK
3.632214531250000,0,0x5D,0x00,Read,ACK
3.632236000000000,0,0x5D,0x00,Read,ACK
3.632257500000000,0,0x5D,0x00,Read,ACK
3.632279031250000,0,0x5D,0x00,Read,ACK
3.632300500000000,0,0x5D,0x00,Read,ACK
3.632322718750000,0,0x5D,0x00,Read,ACK
3.632344437500000,0,0x5D,0x00,Read,ACK
3.632365937500000,0,0x5D,0x00,Read,ACK
3.632387406250000,0,0x5D,0x00,Read,ACK
3.632408875000000,0,0x5D,0x00,Read,ACK
3.632430656250000,0,0x5D,0x00,Read,ACK
3.632452156250000,0,0x5D,0x00,Read,ACK
3.632473625000000,0,0x5D,0x00,Read,ACK
3.632495093750000,0,0x5D,0x00,Read,ACK
3.632516562500000,0,0x5D,0x00,Read,ACK
3.632538062500000,0,0x5D,0x00,Read,ACK
3.632559531250000,0,0x5D,0x00,Read,ACK
3.632582906250000,0,0x5D,0x00,Read,ACK
3.632605250000000,0,0x5D,0x00,Read,ACK
3.632629187500000,0,0x5D,0x00,Read,ACK
3.632652468750000,0,0x5D,0x00,Read,ACK
3.632674468750000,0,0x5D,0x00,Read,ACK
3.632697125000000,0,0x5D,0x00,Read,ACK
3.632718593750000,0,0x5D,0x00,Read,ACK
3.632740125000000,0,0x5D,0x00,Read,ACK
3.632761625000000,0,0x5D,0x00,Read,ACK
3.632783125000000,0,0x5D,0x68,Read,ACK
3.632804562500000,0,0x5D,0x7C,Read,ACK
3.632827656250000,0,0x5D,0x01,Read,ACK
3.632849656250000,0,0x5D,0x00,Read,ACK
3.632871125000000,0,0x5D,0x00,Read,ACK
3.632892593750000,0,0x5D,0x00,Read,ACK
3.632914093750000,0,0x5D,0x00,Read,ACK
3.632937656250000,0,0x5D,0x00,Read,ACK
3.632959156250000,0,0x5D,0x00,Read,ACK
3.632981625000000,0,0x5D,0x00,Read,ACK
3.633003656250000,0,0x5D,0x00,Read,ACK
3.633025156250000,0,0x5D,0x00,Read,ACK
3.633046625000000,0,0x5D,0x00,Read,ACK
3.633068093750000,0,0x5D,0x00,Read,ACK
3.633089593750000,0,0x5D,0x00,Read,ACK
3.633111062500000,0,0x5D,0x00,Read,ACK
3.633133781250000,0,0x5D,0x00,Read,ACK
3.633155750000000,0,0x5D,0x00,Read,ACK
3.633179593750000,0,0x5D,0x00,Read,ACK
3.633201031250000,0,0x5D,0x00,Read,ACK
3.633223625000000,0,0x5D,0x00,Read,NAK
3.638994000000000,0,0x5D,0x2F,Read,ACK
3.639017437500000,0,0x5D,0x00,Read,ACK
3.639038906250000,0,0x5D,0x04,Read,ACK
3.639060406250000,0,0x5D,0x03,Read,ACK
3.639081875000000,0,0x5D,0x67,Read,ACK
3.639104343750000,0,0x5D,0x08,Read,ACK
3.639125906250000,0,0x5D,0x7C,Read,ACK
3.639147375000000,0,0x5D,0x05,Read,ACK
3.639169000000000,0,0x5D,0x03,Read,ACK
3.639190437500000,0,0x5D,0x03,Read,ACK
3.639212687500000,0,0x5D,0x20,Read,ACK
3.639234156250000,0,0x5D,0x00,Read,ACK
3.639255625000000,0,0x5D,0x00,Read,ACK
3.639277125000000,0,0x5D,0x00,Read,ACK
3.639298562500000,0,0x5D,0x00,Read,ACK
3.639320093750000,0,0x5D,0x00,Read,ACK
3.639343437500000,0,0x5D,0x00,Read,ACK
3.639367000000000,0,0x5D,0x00,Read,ACK
3.639388500000000,0,0x5D,0x00,Read,ACK
3.639410437500000,0,0x5D,0x00,Read,ACK
3.639431937500000,0,0x5D,0x00,Read,ACK
3.639453406250000,0,0x5D,0x00,Read,ACK
3.639475000000000,0,0x5D,0x00,Read,ACK
3.639496468750000,0,0x5D,0x00,Read,ACK
3.639517968750000,0,0x5D,0x00,Read,ACK
3.639539437500000,0,0x5D,0x00,Read,ACK
3.639560906250000,0,0x5D,0x00,Read,ACK
3.639582437500000,0,0x5D,0x00,Read,ACK
3.639603937500000,0,0x5D,0x00,Read,ACK
3.639625406250000,0,0x5D,0x00,Read,ACK
3.639646906250000,0,0x5D,0x00,Read,ACK
3.639668343750000,0,0x5D,0x00,Read,ACK
3.639689843750000,0,0x5D,0x00,Read,ACK
3.639711312500000,0,0x5D,0x00,Read,ACK
3.639732781250000,0,0x5D,0x00,Read,ACK
3.639754281250000,0,0x5D,0x00,Read,ACK
3.639775750000000,0,0x5D,0x00,Read,ACK
3.639802687500000,0,0x5D,0x00,Read,ACK
3.639825750000000,0,0x5D,0x00,Read,ACK
3.639847687500000,0,0x5D,0x00,Read,ACK
3.639871718750000,0,0x5D,0x00,Read,ACK
3.639893531250000,0,0x5D,0x00,Read,ACK
3.639915000000000,0,0x5D,0x00,Read,ACK
3.639936500000000,0,0x5D,0xAE,Read,ACK
3.639957968750000,0,0x5D,0x7C,Read,ACK
3.639979468750000,0,0x5D,0x01,Read,ACK
3.640000937500000,0,0x5D,0x00,Read,ACK
3.640022406250000,0,0x5D,0x00,Read,ACK
3.640046062500000,0,0x5D,0x00,Read,ACK
3.640068656250000,0,0x5D,0x00,Read,ACK
3.640090343750000,0,0x5D,0x00,Read,ACK
3.640111781250000,0,0x5D,0x00,Read,ACK
3.640133343750000,0,0x5D,0x00,Read,ACK
3.640154812500000,0,0x5D,0x00,Read,ACK
3.640176312500000,0,0x5D,0x00,Read,ACK
3.640197781250000,0,0x5D,0x00,Read,ACK
3.640220687500000,0,0x5D,0x00,Read,ACK
3.640242156250000,0,0x5D,0x00,Read,ACK
3.640265531250000,0,0x5D,0x00,Read,ACK
3.640286968750000,0,0x5D,0x00,Read,ACK
3.640308875000000,0,0x5D,0x00,Read,ACK
3.640330312500000,0,0x5D,0x00,Read,ACK
3.640351781250000,0,0x5D,0x00,Read,ACK
3.640374218750000,0,0x5D,0x00,Read,NAK
3.646543375000000,0,0x5D,0x2F,Read,ACK
3.646569218750000,0,0x5D,0x00,Read,ACK
3.646590687500000,0,0x5D,0x04,Read,ACK
3.646612156250000,0,0x5D,0x03,Read,ACK
3.646633625000000,0,0x5D,0x5A,Read,ACK
3.646655093750000,0,0x5D,0x08,Read,ACK
3.646676593750000,0,0x5D,0x7F,Read,ACK
3.646698062500000,0,0x5D,0x05,Read,ACK
3.646719531250000,0,0x5D,0x03,Read,ACK
3.646741000000000,0,0x5D,0x03,Read,ACK
3.646762468750000,0,0x5D,0x20,Read,ACK
3.646784375000000,0,0x5D,0x00,Read,ACK
3.646805875000000,0,0x5D,0x00,Read,ACK
3.646827375000000,0,0x5D,0x00,Read,ACK
3.646848812500000,0,0x5D,0x00,Read,ACK
3.646870312500000,0,0x5D,0x00,Read,ACK
3.646891781250000,0,0x5D,0x00,Read,ACK
3.646917218750000,0,0x5D,0x00,Read,ACK
3.646941000000000,0,0x5D,0x00,Read,ACK
3.646964031250000,0,0x5D,0x00,Read,ACK
3.646986656250000,0,0x5D,0x00,Read,ACK
3.647009062500000,0,0x5D,0x00,Read,ACK
3.647030562500000,0,0x5D,0x00,Read,ACK
3.647053031250000,0,0x5D,0x00,Read,ACK
3.647074531250000,0,0x5D,0x00,Read,ACK
3.647096000000000,0,0x5D,0x00,Read,ACK
3.647117468750000,0,0x5D,0x00,Read,ACK
3.647139718750000,0,0x5D,0x00,Read,ACK
3.647161281250000,0,0x5D,0x00,Read,ACK
3.647182843750000,0,0x5D,0x00,Read,ACK
3.647205250000000,0,0x5D,0x00,Read,ACK
3.647228218750000,0,0x5D,0x00,Read,ACK
3.647249687500000,0,0x5D,0x00,Read,ACK
3.647271187500000,0,0x5D,0x00,Read,ACK
3.647293031250000,0,0x5D,0x00,Read,ACK
3.647314500000000,0,0x5D,0x00,Read,ACK
3.647336156250000,0,0x5D,0x00,Read,ACK
3.647357625000000,0,0x5D,0x00,Read,ACK
3.647379375000000,0,0x5D,0x00,Read,ACK
3.647400906250000,0,0x5D,0x00,Read,ACK
3.647422406250000,0,0x5D,0x00,Read,ACK
3.647444187500000,0,0x5D,0x00,Read,ACK
3.647467062500000,0,0x5D,0x00,Read,ACK
3.647488500000000,0,0x5D,0xF4,Read,ACK
3.647511531250000,0,0x5D,0x7C,Read,ACK
3.647533937500000,0,0x5D,0x01,Read,ACK
3.647556906250000,0,0x5D,0x00,Read,ACK
3.647581312500000,0,0x5D,0x00,Read,ACK
3.647602812500000,0,0x5D,0x00,Read,ACK
3.647624781250000,0,0x5D,0x00,Read,ACK
3.647646250000000,0,0x5D,0x00,Read,ACK
3.647668937500000,0,0x5D,0x00,Read,ACK
3.647691593750000,0,0x5D,0x00,Read,ACK
3.647713125000000,0,0x5D,0x00,Read,ACK
3.647734875000000,0,0x5D,0x00,Read,ACK
3.647756312500000,0,0x5D,0x00,Read,ACK
3.647777812500000,0,0x5D,0x00,Read,ACK
3.647799312500000,0,0x5D,0x00,Read,ACK
3.647820750000000,0,0x5D,0x00,Read,ACK
3.647842250000000,0,0x5D,0x00,Read,ACK
3.647863687500000,0,0x5D,0x00,Read,ACK
3.647885968750000,0,0x5D,0x00,Read,ACK
3.647907468750000,0,0x5D,0x00,Read,ACK
3.647929250000000,0,0x5D,0x00,Read,NAK
3.653326875000000,0,0x5D,0x2F,Read,ACK
3.653350437500000,0,0x5D,0x00,Read,ACK
3.653371906250000,0,0x5D,0x04,Read,ACK
3.653395468750000,0,0x5D,0x03,Read,ACK
3.653416968750000,0,0x5D,0x4B,Read,ACK
3.653438406250000,0,0x5D,0x08,Read,ACK
3.653459937500000,0,0x5D,0x80,Read,ACK
3.653481406250000,0,0x5D,0x05,Read,ACK
3.653503187500000,0,0x5D,0x03,Read,ACK
3.653524718750000,0,0x5D,0x03,Read,ACK
3.653546218750000,0,0x5D,0x20,Read,ACK
3.653567718750000,0,0x5D,0x00,Read,ACK
3.653589187500000,0,0x5D,0x00,Read,ACK
3.653610687500000,0,0x5D,0x00,Read,ACK
3.653632125000000,0,0x5D,0x00,Read,ACK
3.653653625000000,0,0x5D,0x00,Read,ACK
3.653675093750000,0,0x5D,0x00,Read,ACK
3.653696593750000,0,0x5D,0x00,Read,ACK
3.653718031250000,0,0x5D,0x00,Read,ACK
3.653739531250000,0,0x5D,0x00,Read,ACK
3.653761000000000,0,0x5D,0x00,Read,ACK
3.653782468750000,0,0x5D,0x00,Read,ACK
3.653803937500000,0,0x5D,0x00,Read,ACK
3.653825437500000,0,0x5D,0x00,Read,ACK
3.653846906250000,0,0x5D,0x00,Read,ACK
3.653868406250000,0,0x5D,0x00,Read,ACK
3.653889843750000,0,0x5D,0x00,Read,ACK
3.653911312500000,0,0x5D,0x00,Read,ACK
3.653933062500000,0,0x5D,0x00,Read,ACK
3.653954531250000,0,0x5D,0x00,Read,ACK
3.653976031250000,0,0x5D,0x00,Read,ACK
3.653997468750000,0,0x5D,0x00,Read,ACK
3.654019000000000,0,0x5D,0x00,Read,ACK
3.654040500000000,0,0x5D,0x00,Read,ACK
3.654061968750000,0,0x5D,0x00,Read,ACK
3.654086687500000,0,0x5D,0x00,Read,ACK
3.654108375000000,0,0x5D,0x00,Read,ACK
3.654129968750000,0,0x5D,0x00,Read,ACK
3.654155500000000,0,0x5D,0x00,Read,ACK
3.654177281250000,0,0x5D,0x00,Read,ACK
3.654199500000000,0,0x5D,0x00,Read,ACK
3.654220968750000,0,0x5D,0x00,Read,ACK
3.654242437500000,0,0x5D,0x00,Read,ACK
3.654263937500000,0,0x5D,0x3A,Read,ACK
3.654285656250000,0,0x5D,0x7D,Read,ACK
3.654308187500000,0,0x5D,0x01,Read,ACK
3.654329968750000,0,0x5D,0x00,Read,ACK
3.654351437500000,0,0x5D,0x00,Read,ACK
3.654372937500000,0,0x5D,0x00,Read,ACK
3.654394406250000,0,0x5D,0x00,Read,ACK
3.654416562500000,0,0x5D,0x00,Read,ACK
3.654438062500000,0,0x5D,0x00,Read,ACK
3.654459531250000,0,0x5D,0x00,Read,ACK
3.654481875000000,0,0x5D,0x00,Read,ACK
3.654503343750000,0,0x5D,0x00,Read,ACK
3.654526125000000,0,0x5D,0x00,Read,ACK
3.654548312500000,0,0x5D,0x00,Read,ACK
3.654569843750000,0,0x5D,0x00,Read,ACK
3.654591312500000,0,0x5D,0x00,Read,ACK
3.654614031250000,0,0x5D,0x00,Read,ACK
3.654637406250000,0,0x5D,0x00,Read,ACK
3.654658875000000,0,0x5D,0x00,Read,ACK
3.654680906250000,0,0x5D,0x00,Read,ACK
3.654702718750000,0,0x5D,0x00,Read,NAK
3.660502218750000,0,0x5D,0x2F,Read,ACK
3.660527531250000,0,0x5D,0x00,Read,ACK
3.660549062500000,0,0x5D,0x04,Read,ACK
3.660570593750000,0,0x5D,0x03,Read,ACK
3.660592062500000,0,0x5D,0x3C,Read,ACK
3.660613750000000,0,0x5D,0x08,Read,ACK
3.660635187500000,0,0x5D,0x7F,Read,ACK
3.660657843750000,0,0x5D,0x05,Read,ACK
3.660679656250000,0,0x5D,0x03,Read,ACK
3.660701250000000,0,0x5D,0x03,Read,ACK
3.660722750000000,0,0x5D,0x20,Read,ACK
3.660744218750000,0,0x5D,0x00,Read,ACK
3.660765687500000,0,0x5D,0x00,Read,ACK
3.660787156250000,0,0x5D,0x00,Read,ACK
3.660808625000000,0,0x5D,0x00,Read,ACK
3.660830125000000,0,0x5D,0x00,Read,ACK
3.660851593750000,0,0x5D,0x00,Read,ACK
3.660873062500000,0,0x5D,0x00,Read,ACK
3.660894531250000,0,0x5D,0x00,Read,ACK
3.660916031250000,0,0x5D,0x00,Read,ACK
3.660937500000000,0,0x5D,0x00,Read,ACK
3.660958968750000,0,0x5D,0x00,Read,ACK
3.660980625000000,0,0x5D,0x00,Read,ACK
3.661002125000000,0,0x5D,0x00,Read,ACK
3.661023687500000,0,0x5D,0x00,Read,ACK
3.661045187500000,0,0x5D,0x00,Read,ACK
3.661066656250000,0,0x5D,0x00,Read,ACK
3.661088125000000,0,0x5D,0x00,Read,ACK
3.661109656250000,0,0x5D,0x00,Read,ACK
3.661131156250000,0,0x5D,0x00,Read,ACK
3.661152625000000,0,0x5D,0x00,Read,ACK
3.661174125000000,0,0x5D,0x00,Read,ACK
3.661195593750000,0,0x5D,0x00,Read,ACK
3.661217093750000,0,0x5D,0x00,Read,ACK
3.661238562500000,0,0x5D,0x00,Read,ACK
3.661261000000000,0,0x5D,0x00,Read,ACK
3.661282500000000,0,0x5D,0x00,Read,ACK
3.661304468750000,0,0x5D,0x00,Read,ACK
3.661326968750000,0,0x5D,0x00,Read,ACK
3.661348500000000,0,0x5D,0x00,Read,ACK
3.661370437500000,0,0x5D,0x00,Read,ACK
3.661393125000000,0,0x5D,0x00,Read,ACK
3.661416281250000,0,0x5D,0x00,Read,ACK
3.661438468750000,0,0x5D,0x80,Read,ACK
3.661460406250000,0,0x5D,0x7D,Read,ACK
3.661481906250000,0,0x5D,0x01,Read,ACK
3.661503656250000,0,0x5D,0x00,Read,ACK
3.661525406250000,0,0x5D,0x00,Read,ACK
3.661546875000000,0,0x5D,0x00,Read,ACK
3.661568343750000,0,0x5D,0x00,Read,ACK
3.661589843750000,0,0x5D,0x00,Read,ACK
3.661611656250000,0,0x5D,0x00,Read,ACK
3.661634125000000,0,0x5D,0x00,Read,ACK
3.661655593750000,0,0x5D,0x00,Read,ACK
3.661677531250000,0,0x5D,0x00,Read,ACK
3.661699031250000,0,0x5D,0x00,Read,ACK
3.661720718750000,0,0x5D,0x00,Read,ACK
3.661742937500000,0,0x5D,0x00,Read,ACK
3.661764843750000,0,0x5D,0x00,Read,ACK
3.661786531250000,0,0x5D,0x00,Read,ACK
3.661808968750000,0,0x5D,0x00,Read,ACK
3.661832843750000,0,0x5D,0x00,Read,ACK
3.661858343750000,0,0x5D,0x00,Read,ACK
3.661880187500000,0,0x5D,0x00,Read,NAK
3.667566062500000,0,0x5D,0x2F,Read,ACK
3.667590687500000,0,0x5D,0x00,Read,ACK
3.667612125000000,0,0x5D,0x04,Read,ACK
3.667633625000000,0,0x5D,0x03,Read,ACK
3.667655125000000,0,0x5D,0x2D,Read,ACK
3.667676843750000,0,0x5D,0x08,Read,ACK
3.667699250000000,0,0x5D,0x7C,Read,ACK
3.667720750000000,0,0x5D,0x05,Read,ACK
3.667742187500000,0,0x5D,0x03,Read,ACK
3.667763656250000,0,0x5D,0x03,Read,ACK
3.667785156250000,0,0x5D,0x20,Read,ACK
3.667806625000000,0,0x5D,0x00,Read,ACK
3.667828875000000,0,0x5D,0x00,Read,ACK
3.667850406250000,0,0x5D,0x00,Read,ACK
3.667871875000000,0,0x5D,0x00,Read,ACK
3.667893343750000,0,0x5D,0x00,Read,ACK
3.667915687500000,0,0x5D,0x00,Read,ACK
3.667937468750000,0,0x5D,0x00,Read,ACK
3.667959968750000,0,0x5D,0x00,Read,ACK
3.667981437500000,0,0x5D,0x00,Read,ACK
3.668002906250000,0,0x5D,0x00,Read,ACK
3.668024375000000,0,0x5D,0x00,Read,ACK
3.668045843750000,0,0x5D,0x00,Read,ACK
3.668067343750000,0,0x5D,0x00,Read,ACK
3.668088812500000,0,0x5D,0x00,Read,ACK
3.668110281250000,0,0x5D,0x00,Read,ACK
3.668131812500000,0,0x5D,0x00,Read,ACK
3.668153312500000,0,0x5D,0x00,Read,ACK
3.668174781250000,0,0x5D,0x00,Read,ACK
3.668196250000000,0,0x5D,0x00,Read,ACK
3.668217750000000,0,0x5D,0x00,Read,ACK
3.668239218750000,0,0x5D,0x00,Read,ACK
3.668260687500000,0,0x5D,0x00,Read,ACK
3.668282156250000,0,0x5D,0x00,Read,ACK
3.668303625000000,0,0x5D,0x00,Read,ACK
3.668325125000000,0,0x5D,0x00,Read,ACK
3.668353125000000,0,0x5D,0x00,Read,ACK
3.668376218750000,0,0x5D,0x00,Read,ACK
3.668397718750000,0,0x5D,0x00,Read,ACK
3.668420250000000,0,0x5D,0x00,Read,ACK
3.668442031250000,0,0x5D,0x00,Read,ACK
3.668464031250000,0,0x5D,0x00,Read,ACK
3.668485500000000,0,0x5D,0x00,Read,ACK
3.668506968750000,0,0x5D,0xC6,Read,ACK
3.668528468750000,0,0x5D,0x7D,Read,ACK
3.668550125000000,0,0x5D,0x01,Read,ACK
3.668571750000000,0,0x5D,0x00,Read,ACK
3.668593250000000,0,0x5D,0x00,Read,ACK
3.668615718750000,0,0x5D,0x00,Read,ACK
3.668637625000000,0,0x5D,0x00,Read,ACK
3.668659062500000,0,0x5D,0x00,Read,ACK
3.668681187500000,0,0x5D,0x00,Read,ACK
3.668702656250000,0,0x5D,0x00,Read,ACK
3.668724125000000,0,0x5D,0x00,Read,ACK
3.668745593750000,0,0x5D,0x00,Read,ACK
3.668769125000000,0,0x5D,0x00,Read,ACK
3.668790625000000,0,0x5D,0x00,Read,ACK
3.668812906250000,0,0x5D,0x00,Read,ACK
3.668834406250000,0,0x5D,0x00,Read,ACK
3.668856250000000,0,0x5D,0x00,Read,ACK
3.668877687500000,0,0x5D,0x00,Read,ACK
3.668899468750000,0,0x5D,0x00,Read,ACK
3.668921187500000,0,0x5D,0x00,Read,ACK
3.668944031250000,0,0x5D,0x00,Read,NAK
3.674736000000000,0,0x5D,0x2F,Read,ACK
3.674763281250000,0,0x5D,0x00,Read,ACK
3.674784781250000,0,0x5D,0x04,Read,ACK
3.674806281250000,0,0x5D,0x03,Read,ACK
3.674829000000000,0,0x5D,0x1E,Read,ACK
3.674850468750000,0,0x5D,0x08,Read,ACK
3.674872406250000,0,0x5D,0x78,Read,ACK
3.674893937500000,0,0x5D,0x05,Read,ACK
3.674915406250000,0,0x5D,0x03,Read,ACK
3.674937406250000,0,0x5D,0x03,Read,ACK
3.674958875000000,0,0x5D,0x20,Read,ACK
3.674980343750000,0,0x5D,0x00,Read,ACK
3.675001968750000,0,0x5D,0x00,Read,ACK
3.675023437500000,0,0x5D,0x00,Read,ACK
3.675044906250000,0,0x5D,0x00,Read,ACK
3.675067750000000,0,0x5D,0x00,Read,ACK
3.675089531250000,0,0x5D,0x00,Read,ACK
3.675111000000000,0,0x5D,0x00,Read,ACK
3.675132718750000,0,0x5D,0x00,Read,ACK
3.675154218750000,0,0x5D,0x00,Read,ACK
3.675175687500000,0,0x5D,0x00,Read,ACK
3.675197156250000,0,0x5D,0x00,Read,ACK
3.675218656250000,0,0x5D,0x00,Read,ACK
3.675240125000000,0,0x5D,0x00,Read,ACK
3.675262250000000,0,0x5D,0x00,Read,ACK
3.675283750000000,0,0x5D,0x00,Read,ACK
3.675305218750000,0,0x5D,0x00,Read,ACK
3.675326687500000,0,0x5D,0x00,Read,ACK
3.675348187500000,0,0x5D,0x00,Read,ACK
3.675369656250000,0,0x5D,0x00,Read,ACK
3.675391125000000,0,0x5D,0x00,Read,ACK
3.675412593750000,0,0x5D,0x00,Read,ACK
3.675434093750000,0,0x5D,0x00,Read,ACK
3.675455656250000,0,0x5D,0x00,Read,ACK
3.675477156250000,0,0x5D,0x00,Read,ACK
3.675498656250000,0,0x5D,0x00,Read,ACK
3.675523781250000,0,0x5D,0x00,Read,ACK
3.675545250000000,0,0x5D,0x00,Read,ACK
3.675566750000000,0,0x5D,0x00,Read,ACK
3.675588281250000,0,0x5D,0x00,Read,ACK
3.675610937500000,0,0x5D,0x00,Read,ACK
3.675632406250000,0,0x5D,0x00,Read,ACK
3.675654125000000,0,0x5D,0x00,Read,ACK
3.675675593750000,0,0x5D,0x0C,Read,ACK
3.675697781250000,0,0x5D,0x7E,Read,ACK
3.675720906250000,0,0x5D,0x01,Read,ACK
3.675742781250000,0,0x5D,0x00,Read,ACK
3.675764250000000,0,0x5D,0x00,Read,ACK
3.675785750000000,0,0x5D,0x00,Read,ACK
3.675807218750000,0,0x5D,0x00,Read,ACK
3.675829437500000,0,0x5D,0x00,Read,ACK
3.675850906250000,0,0x5D,0x00,Read,ACK
3.675872375000000,0,0x5D,0x00,Read,ACK
3.675894031250000,0,0x5D,0x00,Read,ACK
3.675915531250000,0,0x5D,0x00,Read,ACK
3.675937000000000,0,0x5D,0x00,Read,ACK
3.675959656250000,0,0x5D,0x00,Read,ACK
3.675982687500000,0,0x5D,0x00,Read,ACK
3.676004343750000,0,0x5D,0x00,Read,ACK
3.676025875000000,0,0x5D,0x00,Read,ACK
3.676047375000000,0,0x5D,0x00,Read,ACK
3.676069781250000,0,0x5D,0x00,Read,ACK
3.676091250000000,0,0x5D,0x00,Read,ACK
3.676112781250000,0,0x5D,0x00,Read,NAK
3.681853437500000,0,0x5D,0x2F,Read,ACK
3.681877531250000,0,0x5D,0x00,Read,ACK
3.681898968750000,0,0x5D,0x04,Read,ACK
3.681920468750000,0,0x5D,0x03,Read,ACK
3.681941968750000,0,0x5D,0x0F,Read,ACK
3.681964406250000,0,0x5D,0x08,Read,ACK
3.681985875000000,0,0x5D,0x72,Read,ACK
3.682007375000000,0,0x5D,0x05,Read,ACK
3.682028843750000,0,0x5D,0x03,Read,ACK
3.682050531250000,0,0x5D,0x03,Read,ACK
3.682072906250000,0,0x5D,0x20,Read,ACK
3.682094593750000,0,0x5D,0x00,Read,ACK
3.682116312500000,0,0x5D,0x00,Read,ACK
3.682137812500000,0,0x5D,0x00,Read,ACK
3.682159312500000,0,0x5D,0x00,Read,ACK
3.682185000000000,0,0x5D,0x00,Read,ACK
3.682210625000000,0,0x5D,0x00,Read,ACK
3.682232093750000,0,0x5D,0x00,Read,ACK
3.682253562500000,0,0x5D,0x00,Read,ACK
3.682275062500000,0,0x5D,0x00,Read,ACK
3.682296500000000,0,0x5D,0x00,Read,ACK
3.682317968750000,0,0x5D,0x00,Read,ACK
3.682339468750000,0,0x5D,0x00,Read,ACK
3.682360937500000,0,0x5D,0x00,Read,ACK
3.682382437500000,0,0x5D,0x00,Read,ACK
3.682403875000000,0,0x5D,0x00,Read,ACK
3.682425375000000,0,0x5D,0x00,Read,ACK
3.682446843750000,0,0x5D,0x00,Read,ACK
3.682468343750000,0,0x5D,0x00,Read,ACK
3.682489781250000,0,0x5D,0x00,Read,ACK
3.682511531250000,0,0x5D,0x00,Read,ACK
3.682533000000000,0,0x5D,0x00,Read,ACK
3.682554531250000,0,0x5D,0x00,Read,ACK
3.682576031250000,0,0x5D,0x00,Read,ACK
3.682597500000000,0,0x5D,0x00,Read,ACK
3.682619000000000,0,0x5D,0x00,Read,ACK
3.682642843750000,0,0x5D,0x00,Read,ACK
3.682664468750000,0,0x5D,0x00,Read,ACK
3.682685968750000,0,0x5D,0x00,Read,ACK
3.682707937500000,0,0x5D,0x00,Read,ACK
3.682729468750000,0,0x5D,0x00,Read,ACK
3.682751156250000,0,0x5D,0x00,Read,ACK
3.682772625000000,0,0x5D,0x00,Read,ACK
3.682794093750000,0,0x5D,0x52,Read,ACK
3.682816187500000,0,0x5D,0x7E,Read,ACK
3.682838156250000,0,0x5D,0x01,Read,ACK
3.682860250000000,0,0x5D,0x00,Read,ACK
3.682881937500000,0,0x5D,0x00,Read,ACK
3.682905093750000,0,0x5D,0x00,Read,ACK
3.682926593750000,0,0x5D,0x00,Read,ACK
3.682948062500000,0,0x5D,0x00,Read,ACK
3.682971906250000,0,0x5D,0x00,Read,ACK
3.682995750000000,0,0x5D,0x00,Read,ACK
3.683018562500000,0,0x5D,0x00,Read,ACK
3.683040156250000,0,0x5D,0x00,Read,ACK
3.683061625000000,0,0x5D,0x00,Read,ACK
3.683084312500000,0,0x5D,0x00,Read,ACK
3.683105781250000,0,0x5D,0x00,Read,ACK
3.683128562500000,0,0x5D,0x00,Read,ACK
3.683150593750000,0,0x5D,0x00,Read,ACK
3.683172593750000,0,0x5D,0x00,Read,ACK
3.683194156250000,0,0x5D,0x00,Read,ACK
3.683215656250000,0,0x5D,0x00,Read,ACK
3.683237531250000,0,0x5D,0x00,Read,NAK
3.688937156250000,0,0x5D,0x2F,Read,ACK
3.688959750000000,0,0x5D,0x00,Read,ACK
3.688981187500000,0,0x5D,0x04,Read,ACK
3.689002656250000,0,0x5D,0x03,Read,ACK
3.689024125000000,0,0x5D,0x00,Read,ACK
3.689045625000000,0,0x5D,0x08,Read,ACK
3.689067093750000,0,0x5D,0x6A,Read,ACK
3.689088562500000,0,0x5D,0x05,Read,ACK
3.689110187500000,0,0x5D,0x03,Read,ACK
3.689131656250000,0,0x5D,0x03,Read,ACK
3.689153250000000,0,0x5D,0x20,Read,ACK
3.689174781250000,0,0x5D,0x00,Read,ACK
3.689196531250000,0,0x5D,0x00,Read,ACK
3.689219937500000,0,0x5D,0x00,Read,ACK
3.689241406250000,0,0x5D,0x00,Read,ACK
3.689262906250000,0,0x5D,0x00,Read,ACK
3.689284375000000,0,0x5D,0x00,Read,ACK
3.689305843750000,0,0x5D,0x00,Read,ACK
3.689327312500000,0,0x5D,0x00,Read,ACK
3.689348812500000,0,0x5D,0x00,Read,ACK
3.689370531250000,0,0x5D,0x00,Read,ACK
3.689392031250000,0,0x5D,0x00,Read,ACK
3.689413500000000,0,0x5D,0x00,Read,ACK
3.689434968750000,0,0x5D,0x00,Read,ACK
3.689456437500000,0,0x5D,0x00,Read,ACK
3.689477906250000,0,0x5D,0x00,Read,ACK
3.689499406250000,0,0x5D,0x00,Read,ACK
3.689520875000000,0,0x5D,0x00,Read,ACK
3.689542343750000,0,0x5D,0x00,Read,ACK
3.689563968750000,0,0x5D,0x00,Read,ACK
3.689585468750000,0,0x5D,0x00,Read,ACK
3.689606906250000,0,0x5D,0x00,Read,ACK
3.689628375000000,0,0x5D,0x00,Read,ACK
3.689649875000000,0,0x5D,0x00,Read,ACK
3.689671343750000,0,0x5D,0x00,Read,ACK
3.689692812500000,0,0x5D,0x00,Read,ACK
3.689714312500000,0,0x5D,0x00,Read,ACK
3.689735781250000,0,0x5D,0x00,Read,ACK
3.689757250000000,0,0x5D,0x00,Read,ACK
3.689781593750000,0,0x5D,0x00,Read,ACK
3.689807468750000,0,0x5D,0x00,Read,ACK
3.689829156250000,0,0x5D,0x00,Read,ACK
3.689852156250000,0,0x5D,0x00,Read,ACK
3.689875031250000,0,0x5D,0x98,Read,ACK
3.689896656250000,0,0x5D,0x7E,Read,ACK
3.689918125000000,0,0x5D,0x01,Read,ACK
3.689939593750000,0,0x5D,0x00,Read,ACK
3.689961062500000,0,0x5D,0x00,Read,ACK
3.689982562500000,0,0x5D,0x00,Read,ACK
3.690004031250000,0,0x5D,0x00,Read,ACK
3.690026125000000,0,0x5D,0x00,Read,ACK
3.690050750000000,0,0x5D,0x00,Read,ACK
3.690072218750000,0,0x5D,0x00,Read,ACK
3.690093687500000,0,0x5D,0x00,Read,ACK
3.690115156250000,0,0x5D,0x00,Read,ACK
3.690136625000000,0,0x5D,0x00,Read,ACK
3.690158125000000,0,0x5D,0x00,Read,ACK
3.690179656250000,0,0x5D,0x00,Read,ACK
3.690201125000000,0,0x5D,0x00,Read,ACK
3.690226281250000,0,0x5D,0x00,Read,ACK
3.690247781250000,0,0x5D,0x00,Read,ACK
3.690269250000000,0,0x5D,0x00,Read,ACK
3.690290718750000,0,0x5D,0x00,Read,ACK
3.690312468750000,0,0x5D,0x00,Read,NAK
3.696112750000000,0,0x5D,0x2F,Read,ACK
3.696142593750000,0,0x5D,0x00,Read,ACK
3.696164093750000,0,0x5D,0x04,Read,ACK
3.696185562500000,0,0x5D,0x03,Read,ACK
3.696207031250000,0,0x5D,0xF2,Read,ACK
3.696228500000000,0,0x5D,0x07,Read,ACK
3.696251281250000,0,0x5D,0x61,Read,ACK
3.696272812500000,0,0x5D,0x05,Read,ACK
3.696294312500000,0,0x5D,0x03,Read,ACK
3.696315781250000,0,0x5D,0x03,Read,ACK
3.696337250000000,0,0x5D,0x20,Read,ACK
3.696359687500000,0,0x5D,0x00,Read,ACK
3.696381156250000,0,0x5D,0x00,Read,ACK
3.696403625000000,0,0x5D,0x00,Read,ACK
3.696425125000000,0,0x5D,0x00,Read,ACK
3.696446625000000,0,0x5D,0x00,Read,ACK
3.696468312500000,0,0x5D,0x00,Read,ACK
3.696490375000000,0,0x5D,0x00,Read,ACK
3.696511843750000,0,0x5D,0x00,Read,ACK
3.696533343750000,0,0x5D,0x00,Read,ACK
3.696554781250000,0,0x5D,0x00,Read,ACK
3.696576281250000,0,0x5D,0x00,Read,ACK
3.696597781250000,0,0x5D,0x00,Read,ACK
3.696619281250000,0,0x5D,0x00,Read,ACK
3.696640750000000,0,0x5D,0x00,Read,ACK
3.696662218750000,0,0x5D,0x00,Read,ACK
3.696683750000000,0,0x5D,0x00,Read,ACK
3.696705281250000,0,0x5D,0x00,Read,ACK
3.696726718750000,0,0x5D,0x00,Read,ACK
3.696748187500000,0,0x5D,0x00,Read,ACK
3.696769687500000,0,0x5D,0x00,Read,ACK
3.696791156250000,0,0x5D,0x00,Read,ACK
3.696812625000000,0,0x5D,0x00,Read,ACK
3.696834125000000,0,0x5D,0x00,Read,ACK
3.696855593750000,0,0x5D,0x00,Read,ACK
3.696877062500000,0,0x5D,0x00,Read,ACK
3.696898531250000,0,0x5D,0x00,Read,ACK
3.696921093750000,0,0x5D,0x00,Read,ACK
3.696942562500000,0,0x5D,0x00,Read,ACK
3.696964031250000,0,0x5D,0x00,Read,ACK
3.696986968750000,0,0x5D,0x00,Read,ACK
3.697009812500000,0,0x5D,0x00,Read,ACK
3.697031281250000,0,0x5D,0x00,Read,ACK
3.697052750000000,0,0x5D,0xDE,Read,ACK
3.697074218750000,0,0x5D,0x7E,Read,ACK
3.697095968750000,0,0x5D,0x01,Read,ACK
3.697118406250000,0,0x5D,0x00,Read,ACK
3.697140312500000,0,0x5D,0x00,Read,ACK
3.697162093750000,0,0x5D,0x00,Read,ACK
3.697183593750000,0,0x5D,0x00,Read,ACK
3.697205093750000,0,0x5D,0x00,Read,ACK
3.697226562500000,0,0x5D,0x00,Read,ACK
3.697248062500000,0,0x5D,0x00,Read,ACK
3.697269531250000,0,0x5D,0x00,Read,ACK
3.697291000000000,0,0x5D,0x00,Read,ACK
3.697312468750000,0,0x5D,0x00,Read,ACK
3.697334093750000,0,0x5D,0x00,Read,ACK
3.697355562500000,0,0x5D,0x00,Read,ACK
3.697377250000000,0,0x5D,0x00,Read,ACK
3.697398937500000,0,0x5D,0x00,Read,ACK
3.697420437500000,0,0x5D,0x00,Read,ACK
3.697441968750000,0,0x5D,0x00,Read,ACK
3.697463468750000,0,0x5D,0x00,Read,ACK
3.697485437500000,0,0x5D,0x00,Read,NAK
3.703253062500000,0,0x5D,0x2F,Read,ACK
3.703277093750000,0,0x5D,0x00,Read,ACK
3.703298562500000,0,0x5D,0x04,Read,ACK
3.703320062500000,0,0x5D,0x03,Read,ACK
3.703341593750000,0,0x5D,0xE5,Read,ACK
3.703363062500000,0,0x5D,0x07,Read,ACK
3.703385468750000,0,0x5D,0x56,Read,ACK
3.703407406250000,0,0x5D,0x05,Read,ACK
3.703429156250000,0,0x5D,0x03,Read,ACK
3.703450656250000,0,0x5D,0x03,Read,ACK
3.703472125000000,0,0x5D,0x20,Read,ACK
3.703494406250000,0,0x5D,0x00,Read,ACK
3.703516468750000,0,0x5D,0x00,Read,ACK
3.703537937500000,0,0x5D,0x00,Read,ACK
3.703559468750000,0,0x5D,0x00,Read,ACK
3.703580937500000,0,0x5D,0x00,Read,ACK
3.703602437500000,0,0x5D,0x00,Read,ACK
3.703625750000000,0,0x5D,0x00,Read,ACK
3.703647250000000,0,0x5D,0x00,Read,ACK
3.703668968750000,0,0x5D,0x00,Read,ACK
3.703690437500000,0,0x5D,0x00,Read,ACK
3.703711906250000,0,0x5D,0x00,Read,ACK
3.703733406250000,0,0x5D,0x00,Read,ACK
3.703755062500000,0,0x5D,0x00,Read,ACK
3.703776562500000,0,0x5D,0x00,Read,ACK
3.703798031250000,0,0x5D,0x00,Read,ACK
3.703819500000000,0,0x5D,0x00,Read,ACK
3.703840968750000,0,0x5D,0x00,Read,ACK
3.703862468750000,0,0x5D,0x00,Read,ACK
3.703883937500000,0,0x5D,0x00,Read,ACK
3.703905406250000,0,0x5D,0x00,Read,ACK
3.703926875000000,0,0x5D,0x00,Read,ACK
3.703948375000000,0,0x5D,0x00,Read,ACK
3.703969843750000,0,0x5D,0x00,Read,ACK
3.703991343750000,0,0x5D,0x00,Read,ACK
3.704012781250000,0,0x5D,0x00,Read,ACK
3.704034250000000,0,0x5D,0x00,Read,ACK
3.704055937500000,0,0x5D,0x00,Read,ACK
3.704078250000000,0,0x5D,0x00,Read,ACK
3.704099906250000,0,0x5D,0x00,Read,ACK
3.704122593750000,0,0x5D,0x00,Read,ACK
3.704144156250000,0,0x5D,0x00,Read,ACK
3.704165625000000,0,0x5D,0x00,Read,ACK
3.704187093750000,0,0x5D,0x24,Read,ACK
3.704208593750000,0,0x5D,0x7F,Read,ACK
3.704230562500000,0,0x5D,0x01,Read,ACK
3.704252031250000,0,0x5D,0x00,Read,ACK
3.704273500000000,0,0x5D,0x00,Read,ACK
3.704295000000000,0,0x5D,0x00,Read,ACK
3.704316562500000,0,0x5D,0x00,Read,ACK
3.704338062500000,0,0x5D,0x00,Read,ACK
3.704360468750000,0,0x5D,0x00,Read,ACK
3.704381968750000,0,0x5D,0x00,Read,ACK
3.704404968750000,0,0x5D,0x00,Read,ACK
3.704426687500000,0,0x5D,0x00,Read,ACK
3.704448156250000,0,0x5D,0x00,Read,ACK
3.704471218750000,0,0x5D,0x00,Read,ACK
3.704492656250000,0,0x5D,0x00,Read,ACK
3.704514156250000,0,0x5D,0x00,Read,ACK
3.704536031250000,0,0x5D,0x00,Read,ACK
3.704557531250000,0,0x5D,0x00,Read,ACK
3.704580156250000,0,0x5D,0x00,Read,ACK
3.704602812500000,0,0x5D,0x00,Read,ACK
3.704624718750000,0,0x5D,0x00,Read,NAK
3.710678312500000,0,0x5D,0x2F,Read,ACK
3.710706500000000,0,0x5D,0x00,Read,ACK
3.710728000000000,0,0x5D,0x04,Read,ACK
3.710749500000000,0,0x5D,0x03,Read,ACK
3.710770968750000,0,0x5D,0xD9,Read,ACK
3.710792437500000,0,0x5D,0x07,Read,ACK
3.710813906250000,0,0x5D,0x4B,Read,ACK
3.710835406250000,0,0x5D,0x05,Read,ACK
3.710856875000000,0,0x5D,0x03,Read,ACK
3.710878343750000,0,0x5D,0x02,Read,ACK
3.710899843750000,0,0x5D,0x20,Read,ACK
3.710921312500000,0,0x5D,0x00,Read,ACK
3.710942781250000,0,0x5D,0x00,Read,ACK
3.710964250000000,0,0x5D,0x00,Read,ACK
3.710985718750000,0,0x5D,0x00,Read,ACK
3.711007250000000,0,0x5D,0x00,Read,ACK
3.711028781250000,0,0x5D,0x00,Read,ACK
3.711050281250000,0,0x5D,0x00,Read,ACK
3.711071718750000,0,0x5D,0x00,Read,ACK
3.711093218750000,0,0x5D,0x00,Read,ACK
3.711114906250000,0,0x5D,0x00,Read,ACK
3.711136437500000,0,0x5D,0x00,Read,ACK
3.711162625000000,0,0x5D,0x00,Read,ACK
3.711184500000000,0,0x5D,0x00,Read,ACK
3.711207750000000,0,0x5D,0x00,Read,ACK
3.711229468750000,0,0x5D,0x00,Read,ACK
3.711251375000000,0,0x5D,0x00,Read,ACK
3.711274031250000,0,0x5D,0x00,Read,ACK
3.711295531250000,0,0x5D,0x00,Read,ACK
3.711317000000000,0,0x5D,0x00,Read,ACK
3.711338500000000,0,0x5D,0x00,Read,ACK
3.711359968750000,0,0x5D,0x00,Read,ACK
3.711381625000000,0,0x5D,0x00,Read,ACK
3.711403843750000,0,0x5D,0x00,Read,ACK
3.711426000000000,0,0x5D,0x00,Read,ACK
3.711448968750000,0,0x5D,0x00,Read,ACK
3.711470468750000,0,0x5D,0x00,Read,ACK
3.711492000000000,0,0x5D,0x00,Read,ACK
3.711513812500000,0,0x5D,0x00,Read,ACK
3.711535281250000,0,0x5D,0x00,Read,ACK
3.711557312500000,0,0x5D,0x00,Read,ACK
3.711580000000000,0,0x5D,0x00,Read,ACK
3.711603031250000,0,0x5D,0x00,Read,ACK
3.711624500000000,0,0x5D,0x6A,Read,ACK
3.711646125000000,0,0x5D,0x7F,Read,ACK
3.711668812500000,0,0x5D,0x01,Read,ACK
3.711690312500000,0,0x5D,0x00,Read,ACK
3.711711968750000,0,0x5D,0x00,Read,ACK
3.711734250000000,0,0x5D,0x00,Read,ACK
3.711755750000000,0,0x5D,0x00,Read,ACK
3.711778343750000,0,0x5D,0x00,Read,ACK
3.711800062500000,0,0x5D,0x00,Read,ACK
3.711822562500000,0,0x5D,0x00,Read,ACK
3.711845312500000,0,0x5D,0x00,Read,ACK
3.711867843750000,0,0x5D,0x00,Read,ACK
3.711890718750000,0,0x5D,0x00,Read,ACK
3.711912218750000,0,0x5D,0x00,Read,ACK
3.711933687500000,0,0x5D,0x00,Read,ACK
3.711955187500000,0,0x5D,0x00,Read,ACK
3.711977062500000,0,0x5D,0x00,Read,ACK
3.712000062500000,0,0x5D,0x00,Read,ACK
3.712021750000000,0,0x5D,0x00,Read,ACK
3.712043250000000,0,0x5D,0x00,Read,ACK
3.712065062500000,0,0x5D,0x00,Read,NAK
3.755136562500000,0,0x5D,0x2F,Read,ACK
3.755167906250000,0,0x5D,0x00,Read,ACK
3.755190187500000,0,0x5D,0x04,Read,ACK
3.755212687500000,0,0x5D,0x03,Read,ACK
3.755234156250000,0,0x5D,0xB7,Read,ACK
3.755255937500000,0,0x5D,0x07,Read,ACK
3.755277406250000,0,0x5D,0x18,Read,ACK
3.755298875000000,0,0x5D,0x05,Read,ACK
3.755321218750000,0,0x5D,0x03,Read,ACK
3.755342656250000,0,0x5D,0x03,Read,ACK
3.755364125000000,0,0x5D,0x20,Read,ACK
3.755386406250000,0,0x5D,0x00,Read,ACK
3.755407906250000,0,0x5D,0x00,Read,ACK
3.755429375000000,0,0x5D,0x00,Read,ACK
3.755450843750000,0,0x5D,0x00,Read,ACK
3.755472343750000,0,0x5D,0x00,Read,ACK
3.755493812500000,0,0x5D,0x00,Read,ACK
3.755515281250000,0,0x5D,0x00,Read,ACK
3.755536781250000,0,0x5D,0x00,Read,ACK
3.755558218750000,0,0x5D,0x00,Read,ACK
3.755581156250000,0,0x5D,0x00,Read,ACK
3.755606343750000,0,0x5D,0x00,Read,ACK
3.755627781250000,0,0x5D,0x00,Read,ACK
3.755649250000000,0,0x5D,0x00,Read,ACK
3.755670750000000,0,0x5D,0x00,Read,ACK
3.755692218750000,0,0x5D,0x00,Read,ACK
3.755713687500000,0,0x5D,0x00,Read,ACK
3.755735156250000,0,0x5D,0x00,Read,ACK
3.755756656250000,0,0x5D,0x00,Read,ACK
3.755778125000000,0,0x5D,0x00,Read,ACK
3.755799593750000,0,0x5D,0x00,Read,ACK
3.755821062500000,0,0x5D,0x00,Read,ACK
3.755842562500000,0,0x5D,0x00,Read,ACK
3.755864062500000,0,0x5D,0x00,Read,ACK
3.755885531250000,0,0x5D,0x00,Read,ACK
3.755907000000000,0,0x5D,0x00,Read,ACK
3.755928468750000,0,0x5D,0x00,Read,ACK
3.755950656250000,0,0x5D,0x00,Read,ACK
3.755972125000000,0,0x5D,0x00,Read,ACK
3.755993625000000,0,0x5D,0x00,Read,ACK
3.756015093750000,0,0x5D,0x00,Read,ACK
3.756036531250000,0,0x5D,0x00,Read,ACK
3.756058031250000,0,0x5D,0x00,Read,ACK
3.756079500000000,0,0x5D,0x82,Read,ACK
3.756100968750000,0,0x5D,0x80,Read,ACK
3.756123687500000,0,0x5D,0x01,Read,ACK
3.756147343750000,0,0x5D,0x00,Read,ACK
3.756169500000000,0,0x5D,0x00,Read,ACK
3.756191000000000,0,0x5D,0x00,Read,ACK
3.756212468750000,0,0x5D,0x00,Read,ACK
3.756235156250000,0,0x5D,0x00,Read,ACK
3.756258187500000,0,0x5D,0x00,Read,ACK
3.756279843750000,0,0x5D,0x00,Read,ACK
3.756302843750000,0,0x5D,0x00,Read,ACK
3.756324312500000,0,0x5D,0x00,Read,ACK
3.756346312500000,0,0x5D,0x00,Read,ACK
3.756367750000000,0,0x5D,0x00,Read,ACK
3.756389968750000,0,0x5D,0x00,Read,ACK
3.756411437500000,0,0x5D,0x00,Read,ACK
3.756433375000000,0,0x5D,0x00,Read,ACK
3.756454906250000,0,0x5D,0x00,Read,ACK
3.756477343750000,0,0x5D,0x00,Read,ACK
3.756499125000000,0,0x5D,0x00,Read,ACK
3.756521906250000,0,0x5D,0x00,Read,NAK
3.761663718750000,0,0x5D,0x2F,Read,ACK
3.761689125000000,0,0x5D,0x00,Read,ACK
3.761710625000000,0,0x5D,0x04,Read,ACK
3.761732156250000,0,0x5D,0x03,Read,ACK
3.761753812500000,0,0x5D,0xB3,Read,ACK
3.761775312500000,0,0x5D,0x07,Read,ACK
3.761796781250000,0,0x5D,0x07,Read,ACK
3.761818281250000,0,0x5D,0x05,Read,ACK
3.761839718750000,0,0x5D,0x03,Read,ACK
3.761861187500000,0,0x5D,0x03,Read,ACK
3.761882687500000,0,0x5D,0x20,Read,ACK
3.761904156250000,0,0x5D,0x00,Read,ACK
3.761926375000000,0,0x5D,0x00,Read,ACK
3.761948093750000,0,0x5D,0x00,Read,ACK
3.761969718750000,0,0x5D,0x00,Read,ACK
3.761992125000000,0,0x5D,0x00,Read,ACK
3.762013593750000,0,0x5D,0x00,Read,ACK
3.762035062500000,0,0x5D,0x00,Read,ACK
3.762056562500000,0,0x5D,0x00,Read,ACK
3.762078031250000,0,0x5D,0x00,Read,ACK
3.762099531250000,0,0x5D,0x00,Read,ACK
3.762121468750000,0,0x5D,0x00,Read,ACK
3.762142968750000,0,0x5D,0x00,Read,ACK
3.762164437500000,0,0x5D,0x00,Read,ACK
3.762186218750000,0,0x5D,0x00,Read,ACK
3.762207718750000,0,0x5D,0x00,Read,ACK
3.762229156250000,0,0x5D,0x00,Read,ACK
3.762250656250000,0,0x5D,0x00,Read,ACK
3.762273593750000,0,0x5D,0x00,Read,ACK
3.762295031250000,0,0x5D,0x00,Read,ACK
3.762316750000000,0,0x5D,0x00,Read,ACK
3.762338468750000,0,0x5D,0x00,Read,ACK
3.762359937500000,0,0x5D,0x00,Read,ACK
3.762381593750000,0,0x5D,0x00,Read,ACK
3.762403031250000,0,0x5D,0x00,Read,ACK
3.762424500000000,0,0x5D,0x00,Read,ACK
3.762445968750000,0,0x5D,0x00,Read,ACK
3.762467656250000,0,0x5D,0x00,Read,ACK
3.762489125000000,0,0x5D,0x00,Read,ACK
3.762510593750000,0,0x5D,0x00,Read,ACK
3.762532062500000,0,0x5D,0x00,Read,ACK
3.762553531250000,0,0x5D,0x00,Read,ACK
3.762575312500000,0,0x5D,0x00,Read,ACK
3.762596812500000,0,0x5D,0xC8,Read,ACK
3.762618281250000,0,0x5D,0x80,Read,ACK
3.762639781250000,0,0x5D,0x01,Read,ACK
3.762661250000000,0,0x5D,0x00,Read,ACK
3.762682718750000,0,0x5D,0x00,Read,ACK
3.762704218750000,0,0x5D,0x00,Read,ACK
3.762725687500000,0,0x5D,0x00,Read,ACK
3.762747156250000,0,0x5D,0x00,Read,ACK
3.762768625000000,0,0x5D,0x00,Read,ACK
3.762790093750000,0,0x5D,0x00,Read,ACK
3.762811562500000,0,0x5D,0x00,Read,ACK
3.762833062500000,0,0x5D,0x00,Read,ACK
3.762854531250000,0,0x5D,0x00,Read,ACK
3.762876031250000,0,0x5D,0x00,Read,ACK
3.762897500000000,0,0x5D,0x00,Read,ACK
3.762919000000000,0,0x5D,0x00,Read,ACK
3.762940500000000,0,0x5D,0x00,Read,ACK
3.762961968750000,0,0x5D,0x00,Read,ACK
3.762986656250000,0,0x5D,0x00,Read,ACK
3.763008093750000,0,0x5D,0x00,Read,ACK
3.763033031250000,0,0x5D,0x00,Read,NAK
3.764680843750000,0,0x5D,0x2F,Read,ACK
3.764707000000000,0,0x5D,0x00,Read,ACK
3.764728468750000,0,0x5D,0x04,Read,ACK
3.764749937500000,0,0x5D,0x03,Read,ACK
3.764771406250000,0,0x5D,0xB3,Read,ACK
3.764793593750000,0,0x5D,0x07,Read,ACK
3.764815562500000,0,0x5D,0x07,Read,ACK
3.764837718750000,0,0x5D,0x05,Read,ACK
3.764859843750000,0,0x5D,0x03,Read,ACK
3.764881343750000,0,0x5D,0x03,Read,ACK
3.764902812500000,0,0x5D,0x20,Read,ACK
3.764924312500000,0,0x5D,0x00,Read,ACK
3.764947375000000,0,0x5D,0x00,Read,ACK
3.764968875000000,0,0x5D,0x00,Read,ACK
3.764991750000000,0,0x5D,0x00,Read,ACK
3.765013250000000,0,0x5D,0x00,Read,ACK
3.765035468750000,0,0x5D,0x00,Read,ACK
3.765057343750000,0,0x5D,0x00,Read,ACK
3.765078812500000,0,0x5D,0x00,Read,ACK
3.765100281250000,0,0x5D,0x00,Read,ACK
3.765123281250000,0,0x5D,0x00,Read,ACK
3.765144812500000,0,0x5D,0x00,Read,ACK
3.765166281250000,0,0x5D,0x00,Read,ACK
3.765187875000000,0,0x5D,0x00,Read,ACK
3.765210968750000,0,0x5D,0x00,Read,ACK
3.765232437500000,0,0x5D,0x00,Read,ACK
3.765253937500000,0,0x5D,0x00,Read,ACK
3.765275406250000,0,0x5D,0x00,Read,ACK
3.765296875000000,0,0x5D,0x00,Read,ACK
3.765318343750000,0,0x5D,0x00,Read,ACK
3.765339812500000,0,0x5D,0x00,Read,ACK
3.765362437500000,0,0x5D,0x00,Read,ACK
3.765384406250000,0,0x5D,0x00,Read,ACK
3.765405937500000,0,0x5D,0x00,Read,ACK
3.765427531250000,0,0x5D,0x00,Read,ACK
3.765449000000000,0,0x5D,0x00,Read,ACK
3.765470468750000,0,0x5D,0x00,Read,ACK
3.765492406250000,0,0x5D,0x00,Read,ACK
3.765513843750000,0,0x5D,0x00,Read,ACK
3.765535343750000,0,0x5D,0x00,Read,ACK
3.765558000000000,0,0x5D,0x00,Read,ACK
3.765580406250000,0,0x5D,0x00,Read,ACK
3.765602125000000,0,0x5D,0x00,Read,ACK
3.765623593750000,0,0x5D,0x0E,Read,ACK
3.765645093750000,0,0x5D,0x81,Read,ACK
3.765666562500000,0,0x5D,0x01,Read,ACK
3.765688062500000,0,0x5D,0x00,Read,ACK
3.765709500000000,0,0x5D,0x00,Read,ACK
3.765730968750000,0,0x5D,0x00,Read,ACK
3.765752468750000,0,0x5D,0x00,Read,ACK
3.765773937500000,0,0x5D,0x00,Read,ACK
3.765795406250000,0,0x5D,0x00,Read,ACK
3.765817156250000,0,0x5D,0x00,Read,ACK
3.765839843750000,0,0x5D,0x00,Read,ACK
3.765862312500000,0,0x5D,0x00,Read,ACK
3.765883843750000,0,0x5D,0x00,Read,ACK
3.765905343750000,0,0x5D,0x00,Read,ACK
3.765927281250000,0,0x5D,0x00,Read,ACK
3.765949687500000,0,0x5D,0x00,Read,ACK
3.765971218750000,0,0x5D,0x00,Read,ACK
3.765993750000000,0,0x5D,0x00,Read,ACK
3.766015218750000,0,0x5D,0x00,Read,ACK
3.766036687500000,0,0x5D,0x00,Read,ACK
3.766058156250000,0,0x5D,0x00,Read,NAK
3.768462625000000,0,0x5D,0x2F,Read,ACK
3.768485343750000,0,0x5D,0x00,Read,ACK
3.768506875000000,0,0x5D,0x04,Read,ACK
3.768528312500000,0,0x5D,0x03,Read,ACK
3.768552500000000,0,0x5D,0xB0,Read,ACK
3.768574000000000,0,0x5D,0x07,Read,ACK
3.768595437500000,0,0x5D,0xF0,Read,ACK
3.768616906250000,0,0x5D,0x04,Read,ACK
3.768638375000000,0,0x5D,0x03,Read,ACK
3.768659875000000,0,0x5D,0x02,Read,ACK
3.768681343750000,0,0x5D,0x20,Read,ACK
3.768702812500000,0,0x5D,0x00,Read,ACK
3.768724281250000,0,0x5D,0x00,Read,ACK
3.768747750000000,0,0x5D,0x00,Read,ACK
3.768769218750000,0,0x5D,0x00,Read,ACK
3.768790718750000,0,0x5D,0x00,Read,ACK
3.768812281250000,0,0x5D,0x00,Read,ACK
3.768835750000000,0,0x5D,0x00,Read,ACK
3.768857187500000,0,0x5D,0x00,Read,ACK
3.768878687500000,0,0x5D,0x00,Read,ACK
3.768902031250000,0,0x5D,0x00,Read,ACK
3.768923750000000,0,0x5D,0x00,Read,ACK
3.768945218750000,0,0x5D,0x00,Read,ACK
3.768966687500000,0,0x5D,0x00,Read,ACK
3.768988343750000,0,0x5D,0x00,Read,ACK
3.769012593750000,0,0x5D,0x00,Read,ACK
3.769034093750000,0,0x5D,0x00,Read,ACK
3.769055593750000,0,0x5D,0x00,Read,ACK
3.769077062500000,0,0x5D,0x00,Read,ACK
3.769098531250000,0,0x5D,0x00,Read,ACK
3.769120031250000,0,0x5D,0x00,Read,ACK
3.769141500000000,0,0x5D,0x00,Read,ACK
3.769162968750000,0,0x5D,0x00,Read,ACK
3.769184437500000,0,0x5D,0x00,Read,ACK
3.769205906250000,0,0x5D,0x00,Read,ACK
3.769227656250000,0,0x5D,0x00,Read,ACK
3.769250062500000,0,0x5D,0x00,Read,ACK
3.769271718750000,0,0x5D,0x00,Read,ACK
3.769293281250000,0,0x5D,0x00,Read,ACK
3.769314781250000,0,0x5D,0x00,Read,ACK
3.769336281250000,0,0x5D,0x00,Read,ACK
3.769357750000000,0,0x5D,0x00,Read,ACK
3.769379218750000,0,0x5D,0x00,Read,ACK
3.769400687500000,0,0x5D,0x0E,Read,ACK
3.769422187500000,0,0x5D,0x81,Read,ACK
3.769443656250000,0,0x5D,0x01,Read,ACK
3.769465281250000,0,0x5D,0x00,Read,ACK
3.769486718750000,0,0x5D,0x00,Read,ACK
3.769508187500000,0,0x5D,0x00,Read,ACK
3.769529687500000,0,0x5D,0x00,Read,ACK
3.769551156250000,0,0x5D,0x00,Read,ACK
3.769572625000000,0,0x5D,0x00,Read,ACK
3.769594343750000,0,0x5D,0x00,Read,ACK
3.769615812500000,0,0x5D,0x00,Read,ACK
3.769638312500000,0,0x5D,0x00,Read,ACK
3.769659781250000,0,0x5D,0x00,Read,ACK
3.769681343750000,0,0x5D,0x00,Read,ACK
3.769702781250000,0,0x5D,0x00,Read,ACK
3.769724281250000,0,0x5D,0x00,Read,ACK
3.769745781250000,0,0x5D,0x00,Read,ACK
3.769767281250000,0,0x5D,0x00,Read,ACK
3.769788843750000,0,0x5D,0x00,Read,ACK
3.769810312500000,0,0x5D,0x00,Read,ACK
3.769831781250000,0,0x5D,0x00,Read,NAK
3.769990906250000,0,0x5D,0x2F,Read,ACK
3.770012375000000,0,0x5D,0x00,Read,ACK
3.770034000000000,0,0x5D,0x04,Read,ACK
3.770055500000000,0,0x5D,0x03,Read,ACK
3.770076968750000,0,0x5D,0xB0,Read,ACK
3.770098468750000,0,0x5D,0x07,Read,ACK
3.770119906250000,0,0x5D,0xF0,Read,ACK
3.770141406250000,0,0x5D,0x04,Read,ACK
3.770162875000000,0,0x5D,0x03,Read,ACK
3.770184343750000,0,0x5D,0x02,Read,ACK
3.770205843750000,0,0x5D,0x20,Read,ACK
3.770227312500000,0,0x5D,0x00,Read,ACK
3.770248968750000,0,0x5D,0x00,Read,ACK
3.770270468750000,0,0x5D,0x00,Read,ACK
3.770291937500000,0,0x5D,0x00,Read,ACK
3.770313375000000,0,0x5D,0x00,Read,ACK
3.770334875000000,0,0x5D,0x00,Read,ACK
3.770356375000000,0,0x5D,0x00,Read,ACK
3.770377812500000,0,0x5D,0x00,Read,ACK
3.770399312500000,0,0x5D,0x00,Read,ACK
3.770420781250000,0,0x5D,0x00,Read,ACK
3.770442281250000,0,0x5D,0x00,Read,ACK
3.770464343750000,0,0x5D,0x00,Read,ACK
3.770485812500000,0,0x5D,0x00,Read,ACK
3.770508812500000,0,0x5D,0x00,Read,ACK
3.770531125000000,0,0x5D,0x00,Read,ACK
3.770554281250000,0,0x5D,0x00,Read,ACK
3.770577281250000,0,0x5D,0x00,Read,ACK
3.770599937500000,0,0x5D,0x00,Read,ACK
3.770621906250000,0,0x5D,0x00,Read,ACK
3.770644125000000,0,0x5D,0x00,Read,ACK
3.770665562500000,0,0x5D,0x00,Read,ACK
3.770687593750000,0,0x5D,0x00,Read,ACK
3.770709093750000,0,0x5D,0x00,Read,ACK
3.770730562500000,0,0x5D,0x00,Read,ACK
3.770752031250000,0,0x5D,0x00,Read,ACK
3.770773500000000,0,0x5D,0x00,Read,ACK
3.770794968750000,0,0x5D,0x00,Read,ACK
3.770816468750000,0,0x5D,0x00,Read,ACK
3.770837937500000,0,0x5D,0x00,Read,ACK
3.770859406250000,0,0x5D,0x00,Read,ACK
3.770880875000000,0,0x5D,0x00,Read,ACK
3.770902375000000,0,0x5D,0x00,Read,ACK
3.770923843750000,0,0x5D,0x0E,Read,ACK
3.770945312500000,0,0x5D,0x81,Read,ACK
3.770966812500000,0,0x5D,0x01,Read,ACK
3.770988281250000,0,0x5D,0x00,Read,ACK
3.771009750000000,0,0x5D,0x00,Read,ACK
3.771031218750000,0,0x5D,0x00,Read,ACK
3.771052687500000,0,0x5D,0x00,Read,ACK
3.771074156250000,0,0x5D,0x00,Read,ACK
3.771095656250000,0,0x5D,0x00,Read,ACK
3.771117125000000,0,0x5D,0x00,Read,ACK
3.771138593750000,0,0x5D,0x00,Read,ACK
3.771160062500000,0,0x5D,0x00,Read,ACK
3.771181562500000,0,0x5D,0x00,Read,ACK
3.771203031250000,0,0x5D,0x00,Read,ACK
3.771224500000000,0,0x5D,0x00,Read,ACK
3.771245968750000,0,0x5D,0x00,Read,ACK
3.771267437500000,0,0x5D,0x00,Read,ACK
3.771288937500000,0,0x5D,0x00,Read,ACK
3.771310406250000,0,0x5D,0x00,Read,ACK
3.771331875000000,0,0x5D,0x00,Read,ACK
3.771353343750000,0,0x5D,0x00,Read,NAK
3.774408218750000,0,0x5D,0x2F,Read,ACK
3.774432687500000,0,0x5D,0x00,Read,ACK
3.774454500000000,0,0x5D,0x04,Read,ACK
3.774475968750000,0,0x5D,0x03,Read,ACK
3.774497437500000,0,0x5D,0xB0,Read,ACK
3.774518906250000,0,0x5D,0x07,Read,ACK
3.774540718750000,0,0x5D,0xD6,Read,ACK
3.774562250000000,0,0x5D,0x04,Read,ACK
3.774584281250000,0,0x5D,0x03,Read,ACK
3.774605750000000,0,0x5D,0x02,Read,ACK
3.774627468750000,0,0x5D,0x20,Read,ACK
3.774648937500000,0,0x5D,0x00,Read,ACK
3.774670812500000,0,0x5D,0x00,Read,ACK
3.774692375000000,0,0x5D,0x00,Read,ACK
3.774715531250000,0,0x5D,0x00,Read,ACK
3.774737000000000,0,0x5D,0x00,Read,ACK
3.774760593750000,0,0x5D,0x00,Read,ACK
3.774783531250000,0,0x5D,0x00,Read,ACK
3.774805500000000,0,0x5D,0x00,Read,ACK
3.774827187500000,0,0x5D,0x00,Read,ACK
3.774849593750000,0,0x5D,0x00,Read,ACK
3.774871937500000,0,0x5D,0x00,Read,ACK
3.774893406250000,0,0x5D,0x00,Read,ACK
3.774917156250000,0,0x5D,0x00,Read,ACK
3.774940125000000,0,0x5D,0x00,Read,ACK
3.774961656250000,0,0x5D,0x00,Read,ACK
3.774983093750000,0,0x5D,0x00,Read,ACK
3.775005031250000,0,0x5D,0x00,Read,ACK
3.775026562500000,0,0x5D,0x00,Read,ACK
3.775050250000000,0,0x5D,0x00,Read,ACK
3.775071687500000,0,0x5D,0x00,Read,ACK
3.775097406250000,0,0x5D,0x00,Read,ACK
3.775118875000000,0,0x5D,0x00,Read,ACK
3.775140531250000,0,0x5D,0x00,Read,ACK
3.775163250000000,0,0x5D,0x00,Read,ACK
3.775185750000000,0,0x5D,0x00,Read,ACK
3.775208718750000,0,0x5D,0x00,Read,ACK
3.775230812500000,0,0x5D,0x00,Read,ACK
3.775252656250000,0,0x5D,0x00,Read,ACK
3.775274312500000,0,0x5D,0x00,Read,ACK
3.775298750000000,0,0x5D,0x00,Read,ACK
3.775320843750000,0,0x5D,0x00,Read,ACK
3.775343906250000,0,0x5D,0x00,Read,ACK
3.775366312500000,0,0x5D,0x54,Read,ACK
3.775387812500000,0,0x5D,0x81,Read,ACK
3.775410218750000,0,0x5D,0x01,Read,ACK
3.775431812500000,0,0x5D,0x00,Read,ACK
3.775454875000000,0,0x5D,0x00,Read,ACK
3.775476343750000,0,0x5D,0x00,Read,ACK
3.775498500000000,0,0x5D,0x00,Read,ACK
3.775521312500000,0,0x5D,0x00,Read,ACK
3.775542750000000,0,0x5D,0x00,Read,ACK
3.775564250000000,0,0x5D,0x00,Read,ACK
3.775586250000000,0,0x5D,0x00,Read,ACK
3.775607718750000,0,0x5D,0x00,Read,ACK
3.775629156250000,0,0x5D,0x00,Read,ACK
3.775650656250000,0,0x5D,0x00,Read,ACK
3.775672125000000,0,0x5D,0x00,Read,ACK
3.775693593750000,0,0x5D,0x00,Read,ACK
3.775715062500000,0,0x5D,0x00,Read,ACK
3.775736531250000,0,0x5D,0x00,Read,ACK
3.775758000000000,0,0x5D,0x00,Read,ACK
3.775781312500000,0,0x5D,0x00,Read,ACK
3.775806468750000,0,0x5D,0x00,Read,NAK
3.780658875000000,0,0x5D,0x2F,Read,ACK
3.780683843750000,0,0x5D,0x00,Read,ACK
3.780705562500000,0,0x5D,0x04,Read,ACK
3.780727031250000,0,0x5D,0x03,Read,ACK
3.780748468750000,0,0x5D,0xB2,Read,ACK
3.780770000000000,0,0x5D,0x07,Read,ACK
3.780792218750000,0,0x5D,0xBC,Read,ACK
3.780815000000000,0,0x5D,0x04,Read,ACK
3.780836500000000,0,0x5D,0x03,Read,ACK
3.780858000000000,0,0x5D,0x03,Read,ACK
3.780879468750000,0,0x5D,0x20,Read,ACK
3.780900937500000,0,0x5D,0x00,Read,ACK
3.780923781250000,0,0x5D,0x00,Read,ACK
3.780946031250000,0,0x5D,0x00,Read,ACK
3.780967468750000,0,0x5D,0x00,Read,ACK
3.780990312500000,0,0x5D,0x00,Read,ACK
3.781011750000000,0,0x5D,0x00,Read,ACK
3.781034437500000,0,0x5D,0x00,Read,ACK
3.781057468750000,0,0x5D,0x00,Read,ACK
3.781078906250000,0,0x5D,0x00,Read,ACK
3.781100593750000,0,0x5D,0x00,Read,ACK
3.781122562500000,0,0x5D,0x00,Read,ACK
3.781144031250000,0,0x5D,0x00,Read,ACK
3.781165531250000,0,0x5D,0x00,Read,ACK
3.781187062500000,0,0x5D,0x00,Read,ACK
3.781209187500000,0,0x5D,0x00,Read,ACK
3.781230812500000,0,0x5D,0x00,Read,ACK
3.781252531250000,0,0x5D,0x00,Read,ACK
3.781281812500000,0,0x5D,0x00,Read,ACK
3.781306125000000,0,0x5D,0x00,Read,ACK
3.781327781250000,0,0x5D,0x00,Read,ACK
3.781349281250000,0,0x5D,0x00,Read,ACK
3.781370781250000,0,0x5D,0x00,Read,ACK
3.781392218750000,0,0x5D,0x00,Read,ACK
3.781415406250000,0,0x5D,0x00,Read,ACK
3.781437156250000,0,0x5D,0x00,Read,ACK
3.781459031250000,0,0x5D,0x00,Read,ACK
3.781483031250000,0,0x5D,0x00,Read,ACK
3.781504468750000,0,0x5D,0x00,Read,ACK
3.781526968750000,0,0x5D,0x00,Read,ACK
3.781548437500000,0,0x5D,0x00,Read,ACK
3.781569937500000,0,0x5D,0x00,Read,ACK
3.781591437500000,0,0x5D,0x00,Read,ACK
3.781614343750000,0,0x5D,0x9A,Read,ACK
3.781635812500000,0,0x5D,0x81,Read,ACK
3.781657281250000,0,0x5D,0x01,Read,ACK
3.781678812500000,0,0x5D,0x00,Read,ACK
3.781700281250000,0,0x5D,0x00,Read,ACK
3.781722031250000,0,0x5D,0x00,Read,ACK
3.781743500000000,0,0x5D,0x00,Read,ACK
3.781764968750000,0,0x5D,0x00,Read,ACK
3.781786437500000,0,0x5D,0x00,Read,ACK
3.781807937500000,0,0x5D,0x00,Read,ACK
3.781829750000000,0,0x5D,0x00,Read,ACK
3.781851281250000,0,0x5D,0x00,Read,ACK
3.781873656250000,0,0x5D,0x00,Read,ACK
3.781895125000000,0,0x5D,0x00,Read,ACK
3.781918812500000,0,0x5D,0x00,Read,ACK
3.781940281250000,0,0x5D,0x00,Read,ACK
3.781962000000000,0,0x5D,0x00,Read,ACK
3.781983468750000,0,0x5D,0x00,Read,ACK
3.782004937500000,0,0x5D,0x00,Read,ACK
3.782028000000000,0,0x5D,0x00,Read,ACK
3.782049937500000,0,0x5D,0x00,Read,NAK
3.787708843750000,0,0x5D,0x2F,Read,ACK
3.787736562500000,0,0x5D,0x00,Read,ACK
3.787759531250000,0,0x5D,0x04,Read,ACK
3.787781000000000,0,0x5D,0x03,Read,ACK
3.787804625000000,0,0x5D,0xB7,Read,ACK
3.787827125000000,0,0x5D,0x07,Read,ACK
3.787849000000000,0,0x5D,0xA5,Read,ACK
3.787870968750000,0,0x5D,0x04,Read,ACK
3.787892468750000,0,0x5D,0x03,Read,ACK
3.787913968750000,0,0x5D,0x03,Read,ACK
3.787936375000000,0,0x5D,0x20,Read,ACK
3.787959843750000,0,0x5D,0x00,Read,ACK
3.787985218750000,0,0x5D,0x00,Read,ACK
3.788009406250000,0,0x5D,0x00,Read,ACK
3.788030906250000,0,0x5D,0x00,Read,ACK
3.788052343750000,0,0x5D,0x00,Read,ACK
3.788074218750000,0,0x5D,0x00,Read,ACK
3.788095687500000,0,0x5D,0x00,Read,ACK
3.788117562500000,0,0x5D,0x00,Read,ACK
3.788139093750000,0,0x5D,0x00,Read,ACK
3.788160593750000,0,0x5D,0x00,Read,ACK
3.788183343750000,0,0x5D,0x00,Read,ACK
3.788205468750000,0,0x5D,0x00,Read,ACK
3.788227718750000,0,0x5D,0x00,Read,ACK
3.788249187500000,0,0x5D,0x00,Read,ACK
3.788270687500000,0,0x5D,0x00,Read,ACK
3.788292156250000,0,0x5D,0x00,Read,ACK
3.788313625000000,0,0x5D,0x00,Read,ACK
3.788336187500000,0,0x5D,0x00,Read,ACK
3.788357687500000,0,0x5D,0x00,Read,ACK
3.788380843750000,0,0x5D,0x00,Read,ACK
3.788403250000000,0,0x5D,0x00,Read,ACK
3.788424781250000,0,0x5D,0x00,Read,ACK
3.788450656250000,0,0x5D,0x00,Read,ACK
3.788473031250000,0,0x5D,0x00,Read,ACK
3.788494468750000,0,0x5D,0x00,Read,ACK
3.788515968750000,0,0x5D,0x00,Read,ACK
3.788538500000000,0,0x5D,0x00,Read,ACK
3.788559968750000,0,0x5D,0x00,Read,ACK
3.788581843750000,0,0x5D,0x00,Read,ACK
3.788603343750000,0,0x5D,0x00,Read,ACK
3.788625843750000,0,0x5D,0x00,Read,ACK
3.788647312500000,0,0x5D,0x00,Read,ACK
3.788668781250000,0,0x5D,0xE0,Read,ACK
3.788690531250000,0,0x5D,0x81,Read,ACK
3.788712187500000,0,0x5D,0x01,Read,ACK
3.788733625000000,0,0x5D,0x00,Read,ACK
3.788755125000000,0,0x5D,0x00,Read,ACK
3.788776593750000,0,0x5D,0x00,Read,ACK
3.788798093750000,0,0x5D,0x00,Read,ACK
3.788820406250000,0,0x5D,0x00,Read,ACK
3.788843750000000,0,0x5D,0x00,Read,ACK
3.788865218750000,0,0x5D,0x00,Read,ACK
3.788886718750000,0,0x5D,0x00,Read,ACK
3.788908250000000,0,0x5D,0x00,Read,ACK
3.788929937500000,0,0x5D,0x00,Read,ACK
3.788951468750000,0,0x5D,0x00,Read,ACK
3.788972937500000,0,0x5D,0x00,Read,ACK
3.788995343750000,0,0x5D,0x00,Read,ACK
3.789018656250000,0,0x5D,0x00,Read,ACK
3.789040156250000,0,0x5D,0x00,Read,ACK
3.789061625000000,0,0x5D,0x00,Read,ACK
3.789083093750000,0,0x5D,0x00,Read,ACK
3.789104750000000,0,0x5D,0x00,Read,NAK
3.794608406250000,0,0x5D,0x2F,Read,ACK
3.794635656250000,0,0x5D,0x00,Read,ACK
3.794657125000000,0,0x5D,0x04,Read,ACK
3.794678593750000,0,0x5D,0x03,Read,ACK
3.794700093750000,0,0x5D,0xBD,Read,ACK
3.794721562500000,0,0x5D,0x07,Read,ACK
3.794743000000000,0,0x5D,0x92,Read,ACK
3.794764531250000,0,0x5D,0x04,Read,ACK
3.794785968750000,0,0x5D,0x03,Read,ACK
3.794807468750000,0,0x5D,0x03,Read,ACK
3.794829093750000,0,0x5D,0x20,Read,ACK
3.794850875000000,0,0x5D,0x00,Read,ACK
3.794872406250000,0,0x5D,0x00,Read,ACK
3.794893843750000,0,0x5D,0x00,Read,ACK
3.794915343750000,0,0x5D,0x00,Read,ACK
3.794937062500000,0,0x5D,0x00,Read,ACK
3.794958531250000,0,0x5D,0x00,Read,ACK
3.794981406250000,0,0x5D,0x00,Read,ACK
3.795007781250000,0,0x5D,0x00,Read,ACK
3.795029250000000,0,0x5D,0x00,Read,ACK
3.795050750000000,0,0x5D,0x00,Read,ACK
3.795072593750000,0,0x5D,0x00,Read,ACK
3.795094062500000,0,0x5D,0x00,Read,ACK
3.795115593750000,0,0x5D,0x00,Read,ACK
3.795137093750000,0,0x5D,0x00,Read,ACK
3.795159156250000,0,0x5D,0x00,Read,ACK
3.795182312500000,0,0x5D,0x00,Read,ACK
3.795203750000000,0,0x5D,0x00,Read,ACK
3.795226937500000,0,0x5D,0x00,Read,ACK
3.795248406250000,0,0x5D,0x00,Read,ACK
3.795269875000000,0,0x5D,0x00,Read,ACK
3.795291593750000,0,0x5D,0x00,Read,ACK
3.795313156250000,0,0x5D,0x00,Read,ACK
3.795336187500000,0,0x5D,0x00,Read,ACK
3.795358812500000,0,0x5D,0x00,Read,ACK
3.795381593750000,0,0x5D,0x00,Read,ACK
3.795403093750000,0,0x5D,0x00,Read,ACK
3.795425125000000,0,0x5D,0x00,Read,ACK
3.795446593750000,0,0x5D,0x00,Read,ACK
3.795469187500000,0,0x5D,0x00,Read,ACK
3.795491625000000,0,0x5D,0x00,Read,ACK
3.795513093750000,0,0x5D,0x00,Read,ACK
3.795535875000000,0,0x5D,0x00,Read,ACK
3.795557375000000,0,0x5D,0x26,Read,ACK
3.795580000000000,0,0x5D,0x82,Read,ACK
3.795601781250000,0,0x5D,0x01,Read,ACK
3.795625187500000,0,0x5D,0x00,Read,ACK
3.795648125000000,0,0x5D,0x00,Read,ACK
3.795669593750000,0,0x5D,0x00,Read,ACK
3.795691062500000,0,0x5D,0x00,Read,ACK
3.795712531250000,0,0x5D,0x00,Read,ACK
3.795734468750000,0,0x5D,0x00,Read,ACK
3.795755937500000,0,0x5D,0x00,Read,ACK
3.795777406250000,0,0x5D,0x00,Read,ACK
3.795798875000000,0,0x5D,0x00,Read,ACK
3.795820843750000,0,0x5D,0x00,Read,ACK
3.795842625000000,0,0x5D,0x00,Read,ACK
3.795864125000000,0,0x5D,0x00,Read,ACK
3.795885781250000,0,0x5D,0x00,Read,ACK
3.795907250000000,0,0x5D,0x00,Read,ACK
3.795928718750000,0,0x5D,0x00,Read,ACK
3.795950937500000,0,0x5D,0x00,Read,ACK
3.795973781250000,0,0x5D,0x00,Read,ACK
3.795996187500000,0,0x5D,0x00,Read,NAK
3.801462875000000,0,0x5D,0x2F,Read,ACK
3.801489468750000,0,0x5D,0x00,Read,ACK
3.801511187500000,0,0x5D,0x04,Read,ACK
3.801532687500000,0,0x5D,0x03,Read,ACK
3.801554531250000,0,0x5D,0xC4,Read,ACK
3.801576031250000,0,0x5D,0x07,Read,ACK
3.801597468750000,0,0x5D,0x80,Read,ACK
3.801618937500000,0,0x5D,0x04,Read,ACK
3.801640406250000,0,0x5D,0x03,Read,ACK
3.801662125000000,0,0x5D,0x03,Read,ACK
3.801683625000000,0,0x5D,0x20,Read,ACK
3.801705093750000,0,0x5D,0x00,Read,ACK
3.801727968750000,0,0x5D,0x00,Read,ACK
3.801749468750000,0,0x5D,0x00,Read,ACK
3.801770937500000,0,0x5D,0x00,Read,ACK
3.801792468750000,0,0x5D,0x00,Read,ACK
3.801813906250000,0,0x5D,0x00,Read,ACK
3.801835375000000,0,0x5D,0x00,Read,ACK
3.801856843750000,0,0x5D,0x00,Read,ACK
3.801878343750000,0,0x5D,0x00,Read,ACK
3.801899812500000,0,0x5D,0x00,Read,ACK
3.801921281250000,0,0x5D,0x00,Read,ACK
3.801942750000000,0,0x5D,0x00,Read,ACK
3.801964250000000,0,0x5D,0x00,Read,ACK
3.801985718750000,0,0x5D,0x00,Read,ACK
3.802007250000000,0,0x5D,0x00,Read,ACK
3.802028750000000,0,0x5D,0x00,Read,ACK
3.802050375000000,0,0x5D,0x00,Read,ACK
3.802071812500000,0,0x5D,0x00,Read,ACK
3.802093281250000,0,0x5D,0x00,Read,ACK
3.802114781250000,0,0x5D,0x00,Read,ACK
3.802136250000000,0,0x5D,0x00,Read,ACK
3.802162875000000,0,0x5D,0x00,Read,ACK
3.802186531250000,0,0x5D,0x00,Read,ACK
3.802208406250000,0,0x5D,0x00,Read,ACK
3.802230468750000,0,0x5D,0x00,Read,ACK
3.802252343750000,0,0x5D,0x00,Read,ACK
3.802273843750000,0,0x5D,0x00,Read,ACK
3.802296218750000,0,0x5D,0x00,Read,ACK
3.802317656250000,0,0x5D,0x00,Read,ACK
3.802339656250000,0,0x5D,0x00,Read,ACK
3.802362718750000,0,0x5D,0x00,Read,ACK
3.802384343750000,0,0x5D,0x00,Read,ACK
3.802405812500000,0,0x5D,0x6C,Read,ACK
3.802428031250000,0,0x5D,0x82,Read,ACK
3.802449531250000,0,0x5D,0x01,Read,ACK
3.802471843750000,0,0x5D,0x00,Read,ACK
3.802493281250000,0,0x5D,0x00,Read,ACK
3.802515500000000,0,0x5D,0x00,Read,ACK
3.802537000000000,0,0x5D,0x00,Read,ACK
3.802559312500000,0,0x5D,0x00,Read,ACK
3.802581062500000,0,0x5D,0x00,Read,ACK
3.802603187500000,0,0x5D,0x00,Read,ACK
3.802625781250000,0,0x5D,0x00,Read,ACK
3.802647312500000,0,0x5D,0x00,Read,ACK
3.802668843750000,0,0x5D,0x00,Read,ACK
3.802690343750000,0,0x5D,0x00,Read,ACK
3.802712250000000,0,0x5D,0x00,Read,ACK
3.802735187500000,0,0x5D,0x00,Read,ACK
3.802756812500000,0,0x5D,0x00,Read,ACK
3.802778593750000,0,0x5D,0x00,Read,ACK
3.802800312500000,0,0x5D,0x00,Read,ACK
3.802826312500000,0,0x5D,0x00,Read,ACK
3.802848093750000,0,0x5D,0x00,Read,NAK
3.808636031250000,0,0x5D,0x2F,Read,ACK
3.808665937500000,0,0x5D,0x00,Read,ACK
3.808687437500000,0,0x5D,0x04,Read,ACK
3.808709000000000,0,0x5D,0x03,Read,ACK
3.808731656250000,0,0x5D,0xCD,Read,ACK
3.808753375000000,0,0x5D,0x07,Read,ACK
3.808775093750000,0,0x5D,0x6D,Read,ACK
3.808796562500000,0,0x5D,0x04,Read,ACK
3.808818750000000,0,0x5D,0x04,Read,ACK
3.808840250000000,0,0x5D,0x03,Read,ACK
3.808861687500000,0,0x5D,0x20,Read,ACK
3.808883156250000,0,0x5D,0x00,Read,ACK
3.808906312500000,0,0x5D,0x00,Read,ACK
3.808927781250000,0,0x5D,0x00,Read,ACK
3.808949500000000,0,0x5D,0x00,Read,ACK
3.808971000000000,0,0x5D,0x00,Read,ACK
3.808992656250000,0,0x5D,0x00,Read,ACK
3.809014406250000,0,0x5D,0x00,Read,ACK
3.809035875000000,0,0x5D,0x00,Read,ACK
3.809057343750000,0,0x5D,0x00,Read,ACK
3.809078812500000,0,0x5D,0x00,Read,ACK
3.809100312500000,0,0x5D,0x00,Read,ACK
3.809121781250000,0,0x5D,0x00,Read,ACK
3.809143250000000,0,0x5D,0x00,Read,ACK
3.809164718750000,0,0x5D,0x00,Read,ACK
3.809186187500000,0,0x5D,0x00,Read,ACK
3.809207656250000,0,0x5D,0x00,Read,ACK
3.809229156250000,0,0x5D,0x00,Read,ACK
3.809253031250000,0,0x5D,0x00,Read,ACK
3.809276562500000,0,0x5D,0x00,Read,ACK
3.809298468750000,0,0x5D,0x00,Read,ACK
3.809321750000000,0,0x5D,0x00,Read,ACK
3.809345031250000,0,0x5D,0x00,Read,ACK
3.809367781250000,0,0x5D,0x00,Read,ACK
3.809389281250000,0,0x5D,0x00,Read,ACK
3.809410781250000,0,0x5D,0x00,Read,ACK
3.809433093750000,0,0x5D,0x00,Read,ACK
3.809455593750000,0,0x5D,0x00,Read,ACK
3.809477062500000,0,0x5D,0x00,Read,ACK
3.809499031250000,0,0x5D,0x00,Read,ACK
3.809520531250000,0,0x5D,0x00,Read,ACK
3.809542093750000,0,0x5D,0x00,Read,ACK
3.809563593750000,0,0x5D,0x00,Read,ACK
3.809585593750000,0,0x5D,0xB2,Read,ACK
3.809607062500000,0,0x5D,0x82,Read,ACK
3.809630531250000,0,0x5D,0x01,Read,ACK
3.809652093750000,0,0x5D,0x00,Read,ACK
3.809675250000000,0,0x5D,0x00,Read,ACK
3.809698468750000,0,0x5D,0x00,Read,ACK
3.809719968750000,0,0x5D,0x00,Read,ACK
3.809741437500000,0,0x5D,0x00,Read,ACK
3.809763468750000,0,0x5D,0x00,Read,ACK
3.809785843750000,0,0x5D,0x00,Read,ACK
3.809808531250000,0,0x5D,0x00,Read,ACK
3.809830343750000,0,0x5D,0x00,Read,ACK
3.809851843750000,0,0x5D,0x00,Read,ACK
3.809873281250000,0,0x5D,0x00,Read,ACK
3.809894968750000,0,0x5D,0x00,Read,ACK
3.809916593750000,0,0x5D,0x00,Read,ACK
3.809939312500000,0,0x5D,0x00,Read,ACK
3.809961218750000,0,0x5D,0x00,Read,ACK
3.809988250000000,0,0x5D,0x00,Read,ACK
3.810009718750000,0,0x5D,0x00,Read,ACK
3.810031187500000,0,0x5D,0x00,Read,NAK
3.815729625000000,0,0x5D,0x2F,Read,ACK
3.815755812500000,0,0x5D,0x00,Read,ACK
3.815777343750000,0,0x5D,0x04,Read,ACK
3.815798843750000,0,0x5D,0x03,Read,ACK
3.815820312500000,0,0x5D,0xD7,Read,ACK
3.815841781250000,0,0x5D,0x07,Read,ACK
3.815863750000000,0,0x5D,0x5B,Read,ACK
3.815885218750000,0,0x5D,0x04,Read,ACK
3.815906750000000,0,0x5D,0x04,Read,ACK
3.815928250000000,0,0x5D,0x03,Read,ACK
3.815949718750000,0,0x5D,0x20,Read,ACK
3.815971187500000,0,0x5D,0x00,Read,ACK
3.815994093750000,0,0x5D,0x00,Read,ACK
3.816015593750000,0,0x5D,0x00,Read,ACK
3.816037375000000,0,0x5D,0x00,Read,ACK
3.816058875000000,0,0x5D,0x00,Read,ACK
3.816080312500000,0,0x5D,0x00,Read,ACK
3.816101812500000,0,0x5D,0x00,Read,ACK
3.816123281250000,0,0x5D,0x00,Read,ACK
3.816144750000000,0,0x5D,0x00,Read,ACK
3.816166250000000,0,0x5D,0x00,Read,ACK
3.816187687500000,0,0x5D,0x00,Read,ACK
3.816209187500000,0,0x5D,0x00,Read,ACK
3.816230687500000,0,0x5D,0x00,Read,ACK
3.816252125000000,0,0x5D,0x00,Read,ACK
3.816273625000000,0,0x5D,0x00,Read,ACK
3.816295125000000,0,0x5D,0x00,Read,ACK
3.816316593750000,0,0x5D,0x00,Read,ACK
3.816338093750000,0,0x5D,0x00,Read,ACK
3.816361750000000,0,0x5D,0x00,Read,ACK
3.816385500000000,0,0x5D,0x00,Read,ACK
3.816406937500000,0,0x5D,0x00,Read,ACK
3.816428718750000,0,0x5D,0x00,Read,ACK
3.816450156250000,0,0x5D,0x00,Read,ACK
3.816472906250000,0,0x5D,0x00,Read,ACK
3.816494406250000,0,0x5D,0x00,Read,ACK
3.816515875000000,0,0x5D,0x00,Read,ACK
3.816537343750000,0,0x5D,0x00,Read,ACK
3.816558968750000,0,0x5D,0x00,Read,ACK
3.816580437500000,0,0x5D,0x00,Read,ACK
3.816603125000000,0,0x5D,0x00,Read,ACK
3.816625281250000,0,0x5D,0x00,Read,ACK
3.816648250000000,0,0x5D,0x00,Read,ACK
3.816669687500000,0,0x5D,0xF8,Read,ACK
3.816691156250000,0,0x5D,0x82,Read,ACK
3.816712843750000,0,0x5D,0x01,Read,ACK
3.816734312500000,0,0x5D,0x00,Read,ACK
3.816757593750000,0,0x5D,0x00,Read,ACK
3.816779156250000,0,0x5D,0x00,Read,ACK
3.816802062500000,0,0x5D,0x00,Read,ACK
3.816823562500000,0,0x5D,0x00,Read,ACK
3.816847812500000,0,0x5D,0x00,Read,ACK
3.816870562500000,0,0x5D,0x00,Read,ACK
3.816892468750000,0,0x5D,0x00,Read,ACK
3.816913968750000,0,0x5D,0x00,Read,ACK
3.816936187500000,0,0x5D,0x00,Read,ACK
3.816958437500000,0,0x5D,0x00,Read,ACK
3.816980937500000,0,0x5D,0x00,Read,ACK
3.817002625000000,0,0x5D,0x00,Read,ACK
3.817025031250000,0,0x5D,0x00,Read,ACK
3.817047906250000,0,0x5D,0x00,Read,ACK
3.817072562500000,0,0x5D,0x00,Read,ACK
3.817094093750000,0,0x5D,0x00,Read,ACK
3.817116312500000,0,0x5D,0x00,Read,NAK
3.823256812500000,0,0x5D,0x2F,Read,ACK
3.823280843750000,0,0x5D,0x00,Read,ACK
3.823302312500000,0,0x5D,0x04,Read,ACK
3.823323812500000,0,0x5D,0x03,Read,ACK
3.823345250000000,0,0x5D,0xE2,Read,ACK
3.823366750000000,0,0x5D,0x07,Read,ACK
3.823388218750000,0,0x5D,0x4B,Read,ACK
3.823409687500000,0,0x5D,0x04,Read,ACK
3.823431156250000,0,0x5D,0x03,Read,ACK
3.823453093750000,0,0x5D,0x02,Read,ACK
3.823474562500000,0,0x5D,0x20,Read,ACK
3.823496937500000,0,0x5D,0x00,Read,ACK
3.823518531250000,0,0x5D,0x00,Read,ACK
3.823543656250000,0,0x5D,0x00,Read,ACK
3.823566656250000,0,0x5D,0x00,Read,ACK
3.823588562500000,0,0x5D,0x00,Read,ACK
3.823610781250000,0,0x5D,0x00,Read,ACK
3.823632250000000,0,0x5D,0x00,Read,ACK
3.823653718750000,0,0x5D,0x00,Read,ACK
3.823675187500000,0,0x5D,0x00,Read,ACK
3.823696687500000,0,0x5D,0x00,Read,ACK
3.823718625000000,0,0x5D,0x00,Read,ACK
3.823740781250000,0,0x5D,0x00,Read,ACK
3.823763562500000,0,0x5D,0x00,Read,ACK
3.823785093750000,0,0x5D,0x00,Read,ACK
3.823806531250000,0,0x5D,0x00,Read,ACK
3.823828031250000,0,0x5D,0x00,Read,ACK
3.823849625000000,0,0x5D,0x00,Read,ACK
3.823871093750000,0,0x5D,0x00,Read,ACK
3.823892968750000,0,0x5D,0x00,Read,ACK
3.823914625000000,0,0x5D,0x00,Read,ACK
3.823936125000000,0,0x5D,0x00,Read,ACK
3.823958437500000,0,0x5D,0x00,Read,ACK
3.823980125000000,0,0x5D,0x00,Read,ACK
3.824002218750000,0,0x5D,0x00,Read,ACK
3.824023875000000,0,0x5D,0x00,Read,ACK
3.824045343750000,0,0x5D,0x00,Read,ACK
3.824067687500000,0,0x5D,0x00,Read,ACK
3.824089156250000,0,0x5D,0x00,Read,ACK
3.824111281250000,0,0x5D,0x00,Read,ACK
3.824132906250000,0,0x5D,0x00,Read,ACK
3.824155562500000,0,0x5D,0x00,Read,ACK
3.824181093750000,0,0x5D,0x00,Read,ACK
3.824205968750000,0,0x5D,0x3E,Read,ACK
3.824227593750000,0,0x5D,0x83,Read,ACK
3.824249093750000,0,0x5D,0x01,Read,ACK
3.824270562500000,0,0x5D,0x00,Read,ACK
3.824292031250000,0,0x5D,0x00,Read,ACK
3.824313531250000,0,0x5D,0x00,Read,ACK
3.824335000000000,0,0x5D,0x00,Read,ACK
3.824357687500000,0,0x5D,0x00,Read,ACK
3.824379187500000,0,0x5D,0x00,Read,ACK
3.824400687500000,0,0x5D,0x00,Read,ACK
3.824423000000000,0,0x5D,0x00,Read,ACK
3.824444718750000,0,0x5D,0x00,Read,ACK
3.824466156250000,0,0x5D,0x00,Read,ACK
3.824487656250000,0,0x5D,0x00,Read,ACK
3.824509093750000,0,0x5D,0x00,Read,ACK
3.824530562500000,0,0x5D,0x00,Read,ACK
3.824552031250000,0,0x5D,0x00,Read,ACK
3.824573562500000,0,0x5D,0x00,Read,ACK
3.824595250000000,0,0x5D,0x00,Read,ACK
3.824617062500000,0,0x5D,0x00,Read,ACK
3.824638968750000,0,0x5D,0x00,Read,NAK
3.830642687500000,0,0x5D,0x2F,Read,ACK
3.830670437500000,0,0x5D,0x00,Read,ACK
3.830692250000000,0,0x5D,0x04,Read,ACK
3.830713750000000,0,0x5D,0x03,Read,ACK
3.830735218750000,0,0x5D,0xEF,Read,ACK
3.830757437500000,0,0x5D,0x07,Read,ACK
3.830779312500000,0,0x5D,0x3D,Read,ACK
3.830801468750000,0,0x5D,0x04,Read,ACK
3.830823000000000,0,0x5D,0x03,Read,ACK
3.830844656250000,0,0x5D,0x02,Read,ACK
3.830867468750000,0,0x5D,0x20,Read,ACK
3.830889250000000,0,0x5D,0x00,Read,ACK
3.830910718750000,0,0x5D,0x00,Read,ACK
3.830932187500000,0,0x5D,0x00,Read,ACK
3.830955187500000,0,0x5D,0x00,Read,ACK
3.830977812500000,0,0x5D,0x00,Read,ACK
3.830999312500000,0,0x5D,0x00,Read,ACK
3.831021656250000,0,0x5D,0x00,Read,ACK
3.831043625000000,0,0x5D,0x00,Read,ACK
3.831065093750000,0,0x5D,0x00,Read,ACK
3.831087312500000,0,0x5D,0x00,Read,ACK
3.831109031250000,0,0x5D,0x00,Read,ACK
3.831132093750000,0,0x5D,0x00,Read,ACK
3.831154781250000,0,0x5D,0x00,Read,ACK
3.831176312500000,0,0x5D,0x00,Read,ACK
3.831198250000000,0,0x5D,0x00,Read,ACK
3.831220500000000,0,0x5D,0x00,Read,ACK
3.831242187500000,0,0x5D,0x00,Read,ACK
3.831265531250000,0,0x5D,0x00,Read,ACK
3.831289968750000,0,0x5D,0x00,Read,ACK
3.831311906250000,0,0x5D,0x00,Read,ACK
3.831333406250000,0,0x5D,0x00,Read,ACK
3.831354875000000,0,0x5D,0x00,Read,ACK
3.831376343750000,0,0x5D,0x00,Read,ACK
3.831399093750000,0,0x5D,0x00,Read,ACK
3.831420593750000,0,0x5D,0x00,Read,ACK
3.831442031250000,0,0x5D,0x00,Read,ACK
3.831464218750000,0,0x5D,0x00,Read,ACK
3.831486218750000,0,0x5D,0x00,Read,ACK
3.831507750000000,0,0x5D,0x00,Read,ACK
3.831529593750000,0,0x5D,0x00,Read,ACK
3.831553000000000,0,0x5D,0x00,Read,ACK
3.831574843750000,0,0x5D,0x00,Read,ACK
3.831596312500000,0,0x5D,0x84,Read,ACK
3.831618843750000,0,0x5D,0x83,Read,ACK
3.831640312500000,0,0x5D,0x01,Read,ACK
3.831661781250000,0,0x5D,0x00,Read,ACK
3.831683281250000,0,0x5D,0x00,Read,ACK
3.831705718750000,0,0x5D,0x00,Read,ACK
3.831727687500000,0,0x5D,0x00,Read,ACK
3.831749187500000,0,0x5D,0x00,Read,ACK
3.831771156250000,0,0x5D,0x00,Read,ACK
3.831794000000000,0,0x5D,0x00,Read,ACK
3.831816687500000,0,0x5D,0x00,Read,ACK
3.831838125000000,0,0x5D,0x00,Read,ACK
3.831860343750000,0,0x5D,0x00,Read,ACK
3.831882218750000,0,0x5D,0x00,Read,ACK
3.831903937500000,0,0x5D,0x00,Read,ACK
3.831925437500000,0,0x5D,0x00,Read,ACK
3.831946875000000,0,0x5D,0x00,Read,ACK
3.831969843750000,0,0x5D,0x00,Read,ACK
3.831991500000000,0,0x5D,0x00,Read,ACK
3.832013000000000,0,0x5D,0x00,Read,ACK
3.832038218750000,0,0x5D,0x00,Read,NAK
3.837156031250000,0,0x5D,0x2F,Read,ACK
3.837183812500000,0,0x5D,0x00,Read,ACK
3.837206281250000,0,0x5D,0x04,Read,ACK
3.837228187500000,0,0x5D,0x03,Read,ACK
3.837250312500000,0,0x5D,0xFC,Read,ACK
3.837271781250000,0,0x5D,0x07,Read,ACK
3.837293250000000,0,0x5D,0x30,Read,ACK
3.837316125000000,0,0x5D,0x04,Read,ACK
3.837338562500000,0,0x5D,0x03,Read,ACK
3.837360062500000,0,0x5D,0x02,Read,ACK
3.837381531250000,0,0x5D,0x20,Read,ACK
3.837403000000000,0,0x5D,0x00,Read,ACK
3.837424500000000,0,0x5D,0x00,Read,ACK
3.837446000000000,0,0x5D,0x00,Read,ACK
3.837467500000000,0,0x5D,0x00,Read,ACK
3.837488968750000,0,0x5D,0x00,Read,ACK
3.837510437500000,0,0x5D,0x00,Read,ACK
3.837531906250000,0,0x5D,0x00,Read,ACK
3.837553375000000,0,0x5D,0x00,Read,ACK
3.837575093750000,0,0x5D,0x00,Read,ACK
3.837596593750000,0,0x5D,0x00,Read,ACK
3.837618093750000,0,0x5D,0x00,Read,ACK
3.837639531250000,0,0x5D,0x00,Read,ACK
3.837661000000000,0,0x5D,0x00,Read,ACK
3.837682500000000,0,0x5D,0x00,Read,ACK
3.837703968750000,0,0x5D,0x00,Read,ACK
3.837725468750000,0,0x5D,0x00,Read,ACK
3.837746937500000,0,0x5D,0x00,Read,ACK
3.837768375000000,0,0x5D,0x00,Read,ACK
3.837789875000000,0,0x5D,0x00,Read,ACK
3.837811343750000,0,0x5D,0x00,Read,ACK
3.837832812500000,0,0x5D,0x00,Read,ACK
3.837854718750000,0,0x5D,0x00,Read,ACK
3.837877218750000,0,0x5D,0x00,Read,ACK
3.837901343750000,0,0x5D,0x00,Read,ACK
3.837922843750000,0,0x5D,0x00,Read,ACK
3.837944312500000,0,0x5D,0x00,Read,ACK
3.837966656250000,0,0x5D,0x00,Read,ACK
3.837988562500000,0,0x5D,0x00,Read,ACK
3.838010031250000,0,0x5D,0x00,Read,ACK
3.838031531250000,0,0x5D,0x00,Read,ACK
3.838053750000000,0,0x5D,0x00,Read,ACK
3.838076687500000,0,0x5D,0x00,Read,ACK
3.838098781250000,0,0x5D,0xCA,Read,ACK
3.838121593750000,0,0x5D,0x83,Read,ACK
3.838143781250000,0,0x5D,0x01,Read,ACK
3.838165250000000,0,0x5D,0x00,Read,ACK
3.838186718750000,0,0x5D,0x00,Read,ACK
3.838209125000000,0,0x5D,0x00,Read,ACK
3.838230625000000,0,0x5D,0x00,Read,ACK
3.838252093750000,0,0x5D,0x00,Read,ACK
3.838273562500000,0,0x5D,0x00,Read,ACK
3.838295031250000,0,0x5D,0x00,Read,ACK
3.838316750000000,0,0x5D,0x00,Read,ACK
3.838338218750000,0,0x5D,0x00,Read,ACK
3.838360187500000,0,0x5D,0x00,Read,ACK
3.838382906250000,0,0x5D,0x00,Read,ACK
3.838405875000000,0,0x5D,0x00,Read,ACK
3.838429250000000,0,0x5D,0x00,Read,ACK
3.838450718750000,0,0x5D,0x00,Read,ACK
3.838473375000000,0,0x5D,0x00,Read,ACK
3.838496937500000,0,0x5D,0x00,Read,ACK
3.838518656250000,0,0x5D,0x00,Read,ACK
3.838541875000000,0,0x5D,0x00,Read,NAK
3.844640781250000,0,0x5D,0x2F,Read,ACK
3.844663437500000,0,0x5D,0x00,Read,ACK
3.844685218750000,0,0x5D,0x04,Read,ACK
3.844707500000000,0,0x5D,0x03,Read,ACK
3.844728968750000,0,0x5D,0x0A,Read,ACK
3.844750437500000,0,0x5D,0x08,Read,ACK
3.844771906250000,0,0x5D,0x24,Read,ACK
3.844793406250000,0,0x5D,0x04,Read,ACK
3.844814875000000,0,0x5D,0x03,Read,ACK
3.844836375000000,0,0x5D,0x02,Read,ACK
3.844857875000000,0,0x5D,0x20,Read,ACK
3.844879718750000,0,0x5D,0x00,Read,ACK
3.844901218750000,0,0x5D,0x00,Read,ACK
3.844922687500000,0,0x5D,0x00,Read,ACK
3.844944187500000,0,0x5D,0x00,Read,ACK
3.844965625000000,0,0x5D,0x00,Read,ACK
3.844988437500000,0,0x5D,0x00,Read,ACK
3.845010906250000,0,0x5D,0x00,Read,ACK
3.845032843750000,0,0x5D,0x00,Read,ACK
3.845054281250000,0,0x5D,0x00,Read,ACK
3.845076750000000,0,0x5D,0x00,Read,ACK
3.845098250000000,0,0x5D,0x00,Read,ACK
3.845119718750000,0,0x5D,0x00,Read,ACK
3.845141187500000,0,0x5D,0x00,Read,ACK
3.845164656250000,0,0x5D,0x00,Read,ACK
3.845187781250000,0,0x5D,0x00,Read,ACK
3.845209218750000,0,0x5D,0x00,Read,ACK
3.845232187500000,0,0x5D,0x00,Read,ACK
3.845254093750000,0,0x5D,0x00,Read,ACK
3.845275593750000,0,0x5D,0x00,Read,ACK
3.845297625000000,0,0x5D,0x00,Read,ACK
3.845320468750000,0,0x5D,0x00,Read,ACK
3.845342218750000,0,0x5D,0x00,Read,ACK
3.845364781250000,0,0x5D,0x00,Read,ACK
3.845386281250000,0,0x5D,0x00,Read,ACK
3.845407781250000,0,0x5D,0x00,Read,ACK
3.845430000000000,0,0x5D,0x00,Read,ACK
3.845451468750000,0,0x5D,0x00,Read,ACK
3.845473312500000,0,0x5D,0x00,Read,ACK
3.845494781250000,0,0x5D,0x00,Read,ACK
3.845516531250000,0,0x5D,0x00,Read,ACK
3.845539281250000,0,0x5D,0x00,Read,ACK
3.845560781250000,0,0x5D,0x00,Read,ACK
3.845582375000000,0,0x5D,0x10,Read,ACK
3.845604156250000,0,0x5D,0x84,Read,ACK
3.845625875000000,0,0x5D,0x01,Read,ACK
3.845647843750000,0,0x5D,0x00,Read,ACK
3.845670531250000,0,0x5D,0x00,Read,ACK
3.845692031250000,0,0x5D,0x00,Read,ACK
3.845713500000000,0,0x5D,0x00,Read,ACK
3.845734937500000,0,0x5D,0x00,Read,ACK
3.845756437500000,0,0x5D,0x00,Read,ACK
3.845780437500000,0,0x5D,0x00,Read,ACK
3.845802625000000,0,0x5D,0x00,Read,ACK
3.845825593750000,0,0x5D,0x00,Read,ACK
3.845847812500000,0,0x5D,0x00,Read,ACK
3.845869312500000,0,0x5D,0x00,Read,ACK
3.845891000000000,0,0x5D,0x00,Read,ACK
3.845912500000000,0,0x5D,0x00,Read,ACK
3.845933968750000,0,0x5D,0x00,Read,ACK
3.845955937500000,0,0x5D,0x00,Read,ACK
3.845978187500000,0,0x5D,0x00,Read,ACK
3.845999656250000,0,0x5D,0x00,Read,ACK
3.846021125000000,0,0x5D,0x00,Read,NAK
3.851382937500000,0,0x5D,0x2F,Read,ACK
3.851406968750000,0,0x5D,0x00,Read,ACK
3.851428406250000,0,0x5D,0x04,Read,ACK
3.851449906250000,0,0x5D,0x03,Read,ACK
3.851471343750000,0,0x5D,0x19,Read,ACK
3.851493968750000,0,0x5D,0x08,Read,ACK
3.851516906250000,0,0x5D,0x1B,Read,ACK
3.851538406250000,0,0x5D,0x04,Read,ACK
3.851559875000000,0,0x5D,0x03,Read,ACK
3.851581343750000,0,0x5D,0x03,Read,ACK
3.851603625000000,0,0x5D,0x20,Read,ACK
3.851625093750000,0,0x5D,0x00,Read,ACK
3.851646750000000,0,0x5D,0x00,Read,ACK
3.851668250000000,0,0x5D,0x00,Read,ACK
3.851689718750000,0,0x5D,0x00,Read,ACK
3.851711187500000,0,0x5D,0x00,Read,ACK
3.851732687500000,0,0x5D,0x00,Read,ACK
3.851754125000000,0,0x5D,0x00,Read,ACK
3.851775781250000,0,0x5D,0x00,Read,ACK
3.851797218750000,0,0x5D,0x00,Read,ACK
3.851818687500000,0,0x5D,0x00,Read,ACK
3.851840375000000,0,0x5D,0x00,Read,ACK
3.851861875000000,0,0x5D,0x00,Read,ACK
3.851883343750000,0,0x5D,0x00,Read,ACK
3.851904843750000,0,0x5D,0x00,Read,ACK
3.851926656250000,0,0x5D,0x00,Read,ACK
3.851948125000000,0,0x5D,0x00,Read,ACK
3.851969562500000,0,0x5D,0x00,Read,ACK
3.851991062500000,0,0x5D,0x00,Read,ACK
3.852012562500000,0,0x5D,0x00,Read,ACK
3.852034000000000,0,0x5D,0x00,Read,ACK
3.852055468750000,0,0x5D,0x00,Read,ACK
3.852076937500000,0,0x5D,0x00,Read,ACK
3.852098406250000,0,0x5D,0x00,Read,ACK
3.852120312500000,0,0x5D,0x00,Read,ACK
3.852141812500000,0,0x5D,0x00,Read,ACK
3.852163281250000,0,0x5D,0x00,Read,ACK
3.852184781250000,0,0x5D,0x00,Read,ACK
3.852206218750000,0,0x5D,0x00,Read,ACK
3.852227750000000,0,0x5D,0x00,Read,ACK
3.852249437500000,0,0x5D,0x00,Read,ACK
3.852270937500000,0,0x5D,0x00,Read,ACK
3.852292406250000,0,0x5D,0x00,Read,ACK
3.852313875000000,0,0x5D,0x56,Read,ACK
3.852337031250000,0,0x5D,0x84,Read,ACK
3.852358625000000,0,0x5D,0x01,Read,ACK
3.852380968750000,0,0x5D,0x00,Read,ACK
3.852402437500000,0,0x5D,0x00,Read,ACK
3.852423937500000,0,0x5D,0x00,Read,ACK
3.852445406250000,0,0x5D,0x00,Read,ACK
3.852468968750000,0,0x5D,0x00,Read,ACK
3.852490968750000,0,0x5D,0x00,Read,ACK
3.852512437500000,0,0x5D,0x00,Read,ACK
3.852533906250000,0,0x5D,0x00,Read,ACK
3.852555875000000,0,0x5D,0x00,Read,ACK
3.852578468750000,0,0x5D,0x00,Read,ACK
3.852600187500000,0,0x5D,0x00,Read,ACK
3.852621750000000,0,0x5D,0x00,Read,ACK
3.852644812500000,0,0x5D,0x00,Read,ACK
3.852666281250000,0,0x5D,0x00,Read,ACK
3.852687968750000,0,0x5D,0x00,Read,ACK
3.852709781250000,0,0x5D,0x00,Read,ACK
3.852731500000000,0,0x5D,0x00,Read,ACK
3.852753343750000,0,0x5D,0x00,Read,NAK
3.858596437500000,0,0x5D,0x2F,Read,ACK
3.858625718750000,0,0x5D,0x00,Read,ACK
3.858647312500000,0,0x5D,0x04,Read,ACK
3.858668843750000,0,0x5D,0x03,Read,ACK
3.858690375000000,0,0x5D,0x28,Read,ACK
3.858711843750000,0,0x5D,0x08,Read,ACK
3.858733312500000,0,0x5D,0x12,Read,ACK
3.858754875000000,0,0x5D,0x04,Read,ACK
3.858776406250000,0,0x5D,0x03,Read,ACK
3.858798437500000,0,0x5D,0x03,Read,ACK
3.858819968750000,0,0x5D,0x20,Read,ACK
3.858841437500000,0,0x5D,0x00,Read,ACK
3.858862906250000,0,0x5D,0x00,Read,ACK
3.858884375000000,0,0x5D,0x00,Read,ACK
3.858905875000000,0,0x5D,0x00,Read,ACK
3.858927343750000,0,0x5D,0x00,Read,ACK
3.858948843750000,0,0x5D,0x00,Read,ACK
3.858970281250000,0,0x5D,0x00,Read,ACK
3.858991750000000,0,0x5D,0x00,Read,ACK
3.859013250000000,0,0x5D,0x00,Read,ACK
3.859034718750000,0,0x5D,0x00,Read,ACK
3.859056187500000,0,0x5D,0x00,Read,ACK
3.859077687500000,0,0x5D,0x00,Read,ACK
3.859099156250000,0,0x5D,0x00,Read,ACK
3.859120625000000,0,0x5D,0x00,Read,ACK
3.859142125000000,0,0x5D,0x00,Read,ACK
3.859163593750000,0,0x5D,0x00,Read,ACK
3.859185062500000,0,0x5D,0x00,Read,ACK
3.859206531250000,0,0x5D,0x00,Read,ACK
3.859228000000000,0,0x5D,0x00,Read,ACK
3.859249593750000,0,0x5D,0x00,Read,ACK
3.859271062500000,0,0x5D,0x00,Read,ACK
3.859293718750000,0,0x5D,0x00,Read,ACK
3.859316218750000,0,0x5D,0x00,Read,ACK
3.859337687500000,0,0x5D,0x00,Read,ACK
3.859359187500000,0,0x5D,0x00,Read,ACK
3.859380656250000,0,0x5D,0x00,Read,ACK
3.859403531250000,0,0x5D,0x00,Read,ACK
3.859425031250000,0,0x5D,0x00,Read,ACK
3.859446500000000,0,0x5D,0x00,Read,ACK
3.859469250000000,0,0x5D,0x00,Read,ACK
3.859491687500000,0,0x5D,0x00,Read,ACK
3.859516562500000,0,0x5D,0x00,Read,ACK
3.859538281250000,0,0x5D,0x9C,Read,ACK
3.859559750000000,0,0x5D,0x84,Read,ACK
3.859581250000000,0,0x5D,0x01,Read,ACK
3.859603062500000,0,0x5D,0x00,Read,ACK
3.859624593750000,0,0x5D,0x00,Read,ACK
3.859646093750000,0,0x5D,0x00,Read,ACK
3.859667718750000,0,0x5D,0x00,Read,ACK
3.859689218750000,0,0x5D,0x00,Read,ACK
3.859712687500000,0,0x5D,0x00,Read,ACK
3.859734781250000,0,0x5D,0x00,Read,ACK
3.859756250000000,0,0x5D,0x00,Read,ACK
3.859777812500000,0,0x5D,0x00,Read,ACK
3.859799343750000,0,0x5D,0x00,Read,ACK
3.859821125000000,0,0x5D,0x00,Read,ACK
3.859844062500000,0,0x5D,0x00,Read,ACK
3.859865500000000,0,0x5D,0x00,Read,ACK
3.859888500000000,0,0x5D,0x00,Read,ACK
3.859910781250000,0,0x5D,0x00,Read,ACK
3.859932500000000,0,0x5D,0x00,Read,ACK
3.859956250000000,0,0x5D,0x00,Read,ACK
3.859977687500000,0,0x5D,0x00,Read,NAK
3.865662468750000,0,0x5D,0x2F,Read,ACK
3.865686093750000,0,0x5D,0x00,Read,ACK
3.865707562500000,0,0x5D,0x04,Read,ACK
3.865729031250000,0,0x5D,0x03,Read,ACK
3.865750531250000,0,0x5D,0x38,Read,ACK
3.865771968750000,0,0x5D,0x08,Read,ACK
3.865794531250000,0,0x5D,0x09,Read,ACK
3.865816062500000,0,0x5D,0x04,Read,ACK
3.865837531250000,0,0x5D,0x03,Read,ACK
3.865859593750000,0,0x5D,0x03,Read,ACK
3.865881156250000,0,0x5D,0x20,Read,ACK
3.865902656250000,0,0x5D,0x00,Read,ACK
3.865924125000000,0,0x5D,0x00,Read,ACK
3.865945625000000,0,0x5D,0x00,Read,ACK
3.865967062500000,0,0x5D,0x00,Read,ACK
3.865988562500000,0,0x5D,0x00,Read,ACK
3.866010031250000,0,0x5D,0x00,Read,ACK
3.866031500000000,0,0x5D,0x00,Read,ACK
3.866052968750000,0,0x5D,0x00,Read,ACK
3.866074437500000,0,0x5D,0x00,Read,ACK
3.866095937500000,0,0x5D,0x00,Read,ACK
3.866117406250000,0,0x5D,0x00,Read,ACK
3.866138875000000,0,0x5D,0x00,Read,ACK
3.866160343750000,0,0x5D,0x00,Read,ACK
3.866181812500000,0,0x5D,0x00,Read,ACK
3.866203281250000,0,0x5D,0x00,Read,ACK
3.866224781250000,0,0x5D,0x00,Read,ACK
3.866246250000000,0,0x5D,0x00,Read,ACK
3.866267718750000,0,0x5D,0x00,Read,ACK
3.866289531250000,0,0x5D,0x00,Read,ACK
3.866311000000000,0,0x5D,0x00,Read,ACK
3.866332500000000,0,0x5D,0x00,Read,ACK
3.866354000000000,0,0x5D,0x00,Read,ACK
3.866375468750000,0,0x5D,0x00,Read,ACK
3.866396968750000,0,0x5D,0x00,Read,ACK
3.866420000000000,0,0x5D,0x00,Read,ACK
3.866443468750000,0,0x5D,0x00,Read,ACK
3.866465093750000,0,0x5D,0x00,Read,ACK
3.866486875000000,0,0x5D,0x00,Read,ACK
3.866509187500000,0,0x5D,0x00,Read,ACK
3.866530687500000,0,0x5D,0x00,Read,ACK
3.866552593750000,0,0x5D,0x00,Read,ACK
3.866574062500000,0,0x5D,0x00,Read,ACK
3.866595812500000,0,0x5D,0xE2,Read,ACK
3.866618312500000,0,0x5D,0x84,Read,ACK
3.866640875000000,0,0x5D,0x01,Read,ACK
3.866662343750000,0,0x5D,0x00,Read,ACK
3.866683812500000,0,0x5D,0x00,Read,ACK
3.866705718750000,0,0x5D,0x00,Read,ACK
3.866727187500000,0,0x5D,0x00,Read,ACK
3.866748687500000,0,0x5D,0x00,Read,ACK
3.866770718750000,0,0x5D,0x00,Read,ACK
3.866792218750000,0,0x5D,0x00,Read,ACK
3.866814562500000,0,0x5D,0x00,Read,ACK
3.866836031250000,0,0x5D,0x00,Read,ACK
3.866857531250000,0,0x5D,0x00,Read,ACK
3.866878968750000,0,0x5D,0x00,Read,ACK
3.866900937500000,0,0x5D,0x00,Read,ACK
3.866922437500000,0,0x5D,0x00,Read,ACK
3.866943906250000,0,0x5D,0x00,Read,ACK
3.866967062500000,0,0x5D,0x00,Read,ACK
3.866989468750000,0,0x5D,0x00,Read,ACK
3.867010968750000,0,0x5D,0x00,Read,ACK
3.867034000000000,0,0x5D,0x00,Read,NAK
3.872900406250000,0,0x5D,0x2F,Read,ACK
3.872928250000000,0,0x5D,0x00,Read,ACK
3.872949750000000,0,0x5D,0x04,Read,ACK
3.872971218750000,0,0x5D,0x03,Read,ACK
3.872992687500000,0,0x5D,0x49,Read,ACK
3.873015468750000,0,0x5D,0x08,Read,ACK
3.873036937500000,0,0x5D,0x02,Read,ACK
3.873058406250000,0,0x5D,0x04,Read,ACK
3.873080000000000,0,0x5D,0x04,Read,ACK
3.873101500000000,0,0x5D,0x03,Read,ACK
3.873122968750000,0,0x5D,0x20,Read,ACK
3.873144468750000,0,0x5D,0x00,Read,ACK
3.873167437500000,0,0x5D,0x00,Read,ACK
3.873188906250000,0,0x5D,0x00,Read,ACK
3.873210812500000,0,0x5D,0x00,Read,ACK
3.873232281250000,0,0x5D,0x00,Read,ACK
3.873253750000000,0,0x5D,0x00,Read,ACK
3.873275218750000,0,0x5D,0x00,Read,ACK
3.873296718750000,0,0x5D,0x00,Read,ACK
3.873318187500000,0,0x5D,0x00,Read,ACK
3.873339656250000,0,0x5D,0x00,Read,ACK
3.873361156250000,0,0x5D,0x00,Read,ACK
3.873382593750000,0,0x5D,0x00,Read,ACK
3.873404093750000,0,0x5D,0x00,Read,ACK
3.873425562500000,0,0x5D,0x00,Read,ACK
3.873447031250000,0,0x5D,0x00,Read,ACK
3.873468687500000,0,0x5D,0x00,Read,ACK
3.873490156250000,0,0x5D,0x00,Read,ACK
3.873511687500000,0,0x5D,0x00,Read,ACK
3.873533187500000,0,0x5D,0x00,Read,ACK
3.873554656250000,0,0x5D,0x00,Read,ACK
3.873577750000000,0,0x5D,0x00,Read,ACK
3.873600781250000,0,0x5D,0x00,Read,ACK
3.873622250000000,0,0x5D,0x00,Read,ACK
3.873643750000000,0,0x5D,0x00,Read,ACK
3.873666031250000,0,0x5D,0x00,Read,ACK
3.873687500000000,0,0x5D,0x00,Read,ACK
3.873708968750000,0,0x5D,0x00,Read,ACK
3.873730906250000,0,0x5D,0x00,Read,ACK
3.873752406250000,0,0x5D,0x00,Read,ACK
3.873774906250000,0,0x5D,0x00,Read,ACK
3.873797093750000,0,0x5D,0x00,Read,ACK
3.873820156250000,0,0x5D,0x00,Read,ACK
3.873841625000000,0,0x5D,0x28,Read,ACK
3.873863093750000,0,0x5D,0x85,Read,ACK
3.873884562500000,0,0x5D,0x01,Read,ACK
3.873906562500000,0,0x5D,0x00,Read,ACK
3.873928093750000,0,0x5D,0x00,Read,ACK
3.873949781250000,0,0x5D,0x00,Read,ACK
3.873972531250000,0,0x5D,0x00,Read,ACK
3.873994968750000,0,0x5D,0x00,Read,ACK
3.874017718750000,0,0x5D,0x00,Read,ACK
3.874039781250000,0,0x5D,0x00,Read,ACK
3.874062375000000,0,0x5D,0x00,Read,ACK
3.874083843750000,0,0x5D,0x00,Read,ACK
3.874105468750000,0,0x5D,0x00,Read,ACK
3.874127875000000,0,0x5D,0x00,Read,ACK
3.874150062500000,0,0x5D,0x00,Read,ACK
3.874172437500000,0,0x5D,0x00,Read,ACK
3.874194218750000,0,0x5D,0x00,Read,ACK
3.874216406250000,0,0x5D,0x00,Read,ACK
3.874240281250000,0,0x5D,0x00,Read,ACK
3.874265093750000,0,0x5D,0x00,Read,ACK
3.874286625000000,0,0x5D,0x00,Read,NAK
3.880651906250000,0,0x5D,0x2F,Read,ACK
3.880681843750000,0,0x5D,0x00,Read,ACK
3.880703937500000,0,0x5D,0x04,Read,ACK
3.880725718750000,0,0x5D,0x03,Read,ACK
3.880747187500000,0,0x5D,0x5A,Read,ACK
3.880768656250000,0,0x5D,0x08,Read,ACK
3.880790125000000,0,0x5D,0xFB,Read,ACK
3.880811656250000,0,0x5D,0x03,Read,ACK
3.880834156250000,0,0x5D,0x03,Read,ACK
3.880857312500000,0,0x5D,0x03,Read,ACK
3.880878781250000,0,0x5D,0x20,Read,ACK
3.880900312500000,0,0x5D,0x00,Read,ACK
3.880921781250000,0,0x5D,0x00,Read,ACK
3.880943250000000,0,0x5D,0x00,Read,ACK
3.880964750000000,0,0x5D,0x00,Read,ACK
3.880986218750000,0,0x5D,0x00,Read,ACK
3.881008593750000,0,0x5D,0x00,Read,ACK
3.881030031250000,0,0x5D,0x00,Read,ACK
3.881051750000000,0,0x5D,0x00,Read,ACK
3.881076593750000,0,0x5D,0x00,Read,ACK
3.881098093750000,0,0x5D,0x00,Read,ACK
3.881119812500000,0,0x5D,0x00,Read,ACK
3.881141281250000,0,0x5D,0x00,Read,ACK
3.881163906250000,0,0x5D,0x00,Read,ACK
3.881185906250000,0,0x5D,0x00,Read,ACK
3.881207406250000,0,0x5D,0x00,Read,ACK
3.881229593750000,0,0x5D,0x00,Read,ACK
3.881251093750000,0,0x5D,0x00,Read,ACK
3.881272812500000,0,0x5D,0x00,Read,ACK
3.881295625000000,0,0x5D,0x00,Read,ACK
3.881317437500000,0,0x5D,0x00,Read,ACK
3.881343562500000,0,0x5D,0x00,Read,ACK
3.881365968750000,0,0x5D,0x00,Read,ACK
3.881387437500000,0,0x5D,0x00,Read,ACK
3.881408906250000,0,0x5D,0x00,Read,ACK
3.881430437500000,0,0x5D,0x00,Read,ACK
3.881452343750000,0,0x5D,0x00,Read,ACK
3.881473781250000,0,0x5D,0x00,Read,ACK
3.881497218750000,0,0x5D,0x00,Read,ACK
3.881518750000000,0,0x5D,0x00,Read,ACK
3.881540218750000,0,0x5D,0x00,Read,ACK
3.881561687500000,0,0x5D,0x00,Read,ACK
3.881583593750000,0,0x5D,0x00,Read,ACK
3.881606437500000,0,0x5D,0x6E,Read,ACK
3.881627937500000,0,0x5D,0x85,Read,ACK
3.881649406250000,0,0x5D,0x01,Read,ACK
3.881670875000000,0,0x5D,0x00,Read,ACK
3.881692375000000,0,0x5D,0x00,Read,ACK
3.881713875000000,0,0x5D,0x00,Read,ACK
3.881735468750000,0,0x5D,0x00,Read,ACK
3.881756968750000,0,0x5D,0x00,Read,ACK
3.881778437500000,0,0x5D,0x00,Read,ACK
3.881800125000000,0,0x5D,0x00,Read,ACK
3.881821843750000,0,0x5D,0x00,Read,ACK
3.881843562500000,0,0x5D,0x00,Read,ACK
3.881865312500000,0,0x5D,0x00,Read,ACK
3.881888218750000,0,0x5D,0x00,Read,ACK
3.881911750000000,0,0x5D,0x00,Read,ACK
3.881935687500000,0,0x5D,0x00,Read,ACK
3.881957437500000,0,0x5D,0x00,Read,ACK
3.881979593750000,0,0x5D,0x00,Read,ACK
3.882001500000000,0,0x5D,0x00,Read,ACK
3.882022968750000,0,0x5D,0x00,Read,ACK
3.882044437500000,0,0x5D,0x00,Read,NAK
3.887632812500000,0,0x5D,0x2F,Read,ACK
3.887656968750000,0,0x5D,0x00,Read,ACK
3.887678406250000,0,0x5D,0x04,Read,ACK
3.887699906250000,0,0x5D,0x03,Read,ACK
3.887721406250000,0,0x5D,0x6D,Read,ACK
3.887742906250000,0,0x5D,0x08,Read,ACK
3.887764375000000,0,0x5D,0xF5,Read,ACK
3.887785843750000,0,0x5D,0x03,Read,ACK
3.887812218750000,0,0x5D,0x03,Read,ACK
3.887834125000000,0,0x5D,0x03,Read,ACK
3.887856531250000,0,0x5D,0x20,Read,ACK
3.887879812500000,0,0x5D,0x00,Read,ACK
3.887901468750000,0,0x5D,0x00,Read,ACK
3.887924437500000,0,0x5D,0x00,Read,ACK
3.887945937500000,0,0x5D,0x00,Read,ACK
3.887967406250000,0,0x5D,0x00,Read,ACK
3.887989531250000,0,0x5D,0x00,Read,ACK
3.888011000000000,0,0x5D,0x00,Read,ACK
3.888032625000000,0,0x5D,0x00,Read,ACK
3.888055312500000,0,0x5D,0x00,Read,ACK
3.888076781250000,0,0x5D,0x00,Read,ACK
3.888098312500000,0,0x5D,0x00,Read,ACK
3.888120937500000,0,0x5D,0x00,Read,ACK
3.888142437500000,0,0x5D,0x00,Read,ACK
3.888166906250000,0,0x5D,0x00,Read,ACK
3.888188343750000,0,0x5D,0x00,Read,ACK
3.888210031250000,0,0x5D,0x00,Read,ACK
3.888232687500000,0,0x5D,0x00,Read,ACK
3.888254156250000,0,0x5D,0x00,Read,ACK
3.888275875000000,0,0x5D,0x00,Read,ACK
3.888297500000000,0,0x5D,0x00,Read,ACK
3.888319468750000,0,0x5D,0x00,Read,ACK
3.888340906250000,0,0x5D,0x00,Read,ACK
3.888363625000000,0,0x5D,0x00,Read,ACK
3.888385125000000,0,0x5D,0x00,Read,ACK
3.888406656250000,0,0x5D,0x00,Read,ACK
3.888428156250000,0,0x5D,0x00,Read,ACK
3.888449625000000,0,0x5D,0x00,Read,ACK
3.888473000000000,0,0x5D,0x00,Read,ACK
3.888496031250000,0,0x5D,0x00,Read,ACK
3.888519718750000,0,0x5D,0x00,Read,ACK
3.888541750000000,0,0x5D,0x00,Read,ACK
3.888563250000000,0,0x5D,0x00,Read,ACK
3.888584750000000,0,0x5D,0xB4,Read,ACK
3.888606500000000,0,0x5D,0x85,Read,ACK
3.888628281250000,0,0x5D,0x01,Read,ACK
3.888650750000000,0,0x5D,0x00,Read,ACK
3.888672250000000,0,0x5D,0x00,Read,ACK
3.888693750000000,0,0x5D,0x00,Read,ACK
3.888715250000000,0,0x5D,0x00,Read,ACK
3.888736781250000,0,0x5D,0x00,Read,ACK
3.888758281250000,0,0x5D,0x00,Read,ACK
3.888779750000000,0,0x5D,0x00,Read,ACK
3.888801218750000,0,0x5D,0x00,Read,ACK
3.888823312500000,0,0x5D,0x00,Read,ACK
3.888844781250000,0,0x5D,0x00,Read,ACK
3.888866250000000,0,0x5D,0x00,Read,ACK
3.888887750000000,0,0x5D,0x00,Read,ACK
3.888909375000000,0,0x5D,0x00,Read,ACK
3.888930812500000,0,0x5D,0x00,Read,ACK
3.888952312500000,0,0x5D,0x00,Read,ACK
3.888973781250000,0,0x5D,0x00,Read,ACK
3.888995250000000,0,0x5D,0x00,Read,ACK
3.889016718750000,0,0x5D,0x00,Read,NAK
3.894640156250000,0,0x5D,0x2F,Read,ACK
3.894663343750000,0,0x5D,0x00,Read,ACK
3.894684781250000,0,0x5D,0x04,Read,ACK
3.894706281250000,0,0x5D,0x03,Read,ACK
3.894729406250000,0,0x5D,0x80,Read,ACK
3.894750906250000,0,0x5D,0x08,Read,ACK
3.894772406250000,0,0x5D,0xF0,Read,ACK
3.894793875000000,0,0x5D,0x03,Read,ACK
3.894815343750000,0,0x5D,0x03,Read,ACK
3.894836843750000,0,0x5D,0x03,Read,ACK
3.894858312500000,0,0x5D,0x20,Read,ACK
3.894879937500000,0,0x5D,0x00,Read,ACK
3.894901406250000,0,0x5D,0x00,Read,ACK
3.894922875000000,0,0x5D,0x00,Read,ACK
3.894944375000000,0,0x5D,0x00,Read,ACK
3.894965875000000,0,0x5D,0x00,Read,ACK
3.894987375000000,0,0x5D,0x00,Read,ACK
3.895010812500000,0,0x5D,0x00,Read,ACK
3.895033968750000,0,0x5D,0x00,Read,ACK
3.895055468750000,0,0x5D,0x00,Read,ACK
3.895078750000000,0,0x5D,0x00,Read,ACK
3.895101656250000,0,0x5D,0x00,Read,ACK
3.895123125000000,0,0x5D,0x00,Read,ACK
3.895145093750000,0,0x5D,0x00,Read,ACK
3.895166625000000,0,0x5D,0x00,Read,ACK
3.895188062500000,0,0x5D,0x00,Read,ACK
3.895211562500000,0,0x5D,0x00,Read,ACK
3.895233031250000,0,0x5D,0x00,Read,ACK
3.895254500000000,0,0x5D,0x00,Read,ACK
3.895277125000000,0,0x5D,0x00,Read,ACK
3.895298593750000,0,0x5D,0x00,Read,ACK
3.895320031250000,0,0x5D,0x00,Read,ACK
3.895344531250000,0,0x5D,0x00,Read,ACK
3.895366031250000,0,0x5D,0x00,Read,ACK
3.895387875000000,0,0x5D,0x00,Read,ACK
3.895409343750000,0,0x5D,0x00,Read,ACK
3.895431312500000,0,0x5D,0x00,Read,ACK
3.895453593750000,0,0x5D,0x00,Read,ACK
3.895476718750000,0,0x5D,0x00,Read,ACK
3.895498187500000,0,0x5D,0x00,Read,ACK
3.895520031250000,0,0x5D,0x00,Read,ACK
3.895541500000000,0,0x5D,0x00,Read,ACK
3.895562968750000,0,0x5D,0x00,Read,ACK
3.895585437500000,0,0x5D,0xFA,Read,ACK
3.895606937500000,0,0x5D,0x85,Read,ACK
3.895628656250000,0,0x5D,0x01,Read,ACK
3.895650156250000,0,0x5D,0x00,Read,ACK
3.895673812500000,0,0x5D,0x00,Read,ACK
3.895700250000000,0,0x5D,0x00,Read,ACK
3.895721718750000,0,0x5D,0x00,Read,ACK
3.895743218750000,0,0x5D,0x00,Read,ACK
3.895765968750000,0,0x5D,0x00,Read,ACK
3.895789312500000,0,0x5D,0x00,Read,ACK
3.895811562500000,0,0x5D,0x00,Read,ACK
3.895833531250000,0,0x5D,0x00,Read,ACK
3.895855000000000,0,0x5D,0x00,Read,ACK
3.895876500000000,0,0x5D,0x00,Read,ACK
3.895898281250000,0,0x5D,0x00,Read,ACK
3.895919750000000,0,0x5D,0x00,Read,ACK
3.895941250000000,0,0x5D,0x00,Read,ACK
3.895962718750000,0,0x5D,0x00,Read,ACK
3.895984187500000,0,0x5D,0x00,Read,ACK
3.896005750000000,0,0x5D,0x00,Read,ACK
3.896027218750000,0,0x5D,0x00,Read,NAK
3.901385812500000,0,0x5D,0x2F,Read,ACK
3.901412500000000,0,0x5D,0x00,Read,ACK
3.901433968750000,0,0x5D,0x04,Read,ACK
3.901455468750000,0,0x5D,0x03,Read,ACK
3.901476937500000,0,0x5D,0x94,Read,ACK
3.901498406250000,0,0x5D,0x08,Read,ACK
3.901519906250000,0,0x5D,0xED,Read,ACK
3.901541750000000,0,0x5D,0x03,Read,ACK
3.901563218750000,0,0x5D,0x03,Read,ACK
3.901584687500000,0,0x5D,0x03,Read,ACK
3.901606187500000,0,0x5D,0x20,Read,ACK
3.901627656250000,0,0x5D,0x00,Read,ACK
3.901649156250000,0,0x5D,0x00,Read,ACK
3.901670687500000,0,0x5D,0x00,Read,ACK
3.901692156250000,0,0x5D,0x00,Read,ACK
3.901713625000000,0,0x5D,0x00,Read,ACK
3.901735562500000,0,0x5D,0x00,Read,ACK
3.901757062500000,0,0x5D,0x00,Read,ACK
3.901778968750000,0,0x5D,0x00,Read,ACK
3.901800437500000,0,0x5D,0x00,Read,ACK
3.901821875000000,0,0x5D,0x00,Read,ACK
3.901843531250000,0,0x5D,0x00,Read,ACK
3.901865031250000,0,0x5D,0x00,Read,ACK
3.901886500000000,0,0x5D,0x00,Read,ACK
3.901907968750000,0,0x5D,0x00,Read,ACK
3.901929437500000,0,0x5D,0x00,Read,ACK
3.901950906250000,0,0x5D,0x00,Read,ACK
3.901972375000000,0,0x5D,0x00,Read,ACK
3.901993875000000,0,0x5D,0x00,Read,ACK
3.902015375000000,0,0x5D,0x00,Read,ACK
3.902036812500000,0,0x5D,0x00,Read,ACK
3.902058312500000,0,0x5D,0x00,Read,ACK
3.902079781250000,0,0x5D,0x00,Read,ACK
3.902101250000000,0,0x5D,0x00,Read,ACK
3.902122718750000,0,0x5D,0x00,Read,ACK
3.902145968750000,0,0x5D,0x00,Read,ACK
3.902172375000000,0,0x5D,0x00,Read,ACK
3.902193843750000,0,0x5D,0x00,Read,ACK
3.902215312500000,0,0x5D,0x00,Read,ACK
3.902238750000000,0,0x5D,0x00,Read,ACK
3.902260656250000,0,0x5D,0x00,Read,ACK
3.902283156250000,0,0x5D,0x00,Read,ACK
3.902304656250000,0,0x5D,0x00,Read,ACK
3.902326375000000,0,0x5D,0x40,Read,ACK
3.902348968750000,0,0x5D,0x86,Read,ACK
3.902370468750000,0,0x5D,0x01,Read,ACK
3.902391937500000,0,0x5D,0x00,Read,ACK
3.902413406250000,0,0x5D,0x00,Read,ACK
3.902434906250000,0,0x5D,0x00,Read,ACK
3.902456687500000,0,0x5D,0x00,Read,ACK
3.902478156250000,0,0x5D,0x00,Read,ACK
3.902500500000000,0,0x5D,0x00,Read,ACK
3.902522000000000,0,0x5D,0x00,Read,ACK
3.902543468750000,0,0x5D,0x00,Read,ACK
3.902565750000000,0,0x5D,0x00,Read,ACK
3.902587250000000,0,0x5D,0x00,Read,ACK
3.902610031250000,0,0x5D,0x00,Read,ACK
3.902631531250000,0,0x5D,0x00,Read,ACK
3.902653562500000,0,0x5D,0x00,Read,ACK
3.902676375000000,0,0x5D,0x00,Read,ACK
3.902698093750000,0,0x5D,0x00,Read,ACK
3.902720687500000,0,0x5D,0x00,Read,ACK
3.902742562500000,0,0x5D,0x00,Read,ACK
3.902764281250000,0,0x5D,0x00,Read,NAK
3.908587125000000,0,0x5D,0x2F,Read,ACK
3.908611625000000,0,0x5D,0x00,Read,ACK
3.908633125000000,0,0x5D,0x04,Read,ACK
3.908656125000000,0,0x5D,0x03,Read,ACK
3.908677593750000,0,0x5D,0xA9,Read,ACK
3.908699062500000,0,0x5D,0x08,Read,ACK
3.908720531250000,0,0x5D,0xEB,Read,ACK
3.908742031250000,0,0x5D,0x03,Read,ACK
3.908763500000000,0,0x5D,0x03,Read,ACK
3.908784968750000,0,0x5D,0x03,Read,ACK
3.908806437500000,0,0x5D,0x20,Read,ACK
3.908827968750000,0,0x5D,0x00,Read,ACK
3.908849406250000,0,0x5D,0x00,Read,ACK
3.908871875000000,0,0x5D,0x00,Read,ACK
3.908893343750000,0,0x5D,0x00,Read,ACK
3.908914812500000,0,0x5D,0x00,Read,ACK
3.908936312500000,0,0x5D,0x00,Read,ACK
3.908957781250000,0,0x5D,0x00,Read,ACK
3.908979250000000,0,0x5D,0x00,Read,ACK
3.909000906250000,0,0x5D,0x00,Read,ACK
3.909022406250000,0,0x5D,0x00,Read,ACK
3.909043875000000,0,0x5D,0x00,Read,ACK
3.909065343750000,0,0x5D,0x00,Read,ACK
3.909086812500000,0,0x5D,0x00,Read,ACK
3.909108312500000,0,0x5D,0x00,Read,ACK
3.909129781250000,0,0x5D,0x00,Read,ACK
3.909151250000000,0,0x5D,0x00,Read,ACK
3.909172718750000,0,0x5D,0x00,Read,ACK
3.909194218750000,0,0x5D,0x00,Read,ACK
3.909215687500000,0,0x5D,0x00,Read,ACK
3.909237156250000,0,0x5D,0x00,Read,ACK
3.909258968750000,0,0x5D,0x00,Read,ACK
3.909280437500000,0,0x5D,0x00,Read,ACK
3.909302031250000,0,0x5D,0x00,Read,ACK
3.909323875000000,0,0x5D,0x00,Read,ACK
3.909345531250000,0,0x5D,0x00,Read,ACK
3.909367218750000,0,0x5D,0x00,Read,ACK
3.909389281250000,0,0x5D,0x00,Read,ACK
3.909410750000000,0,0x5D,0x00,Read,ACK
3.909432625000000,0,0x5D,0x00,Read,ACK
3.909454781250000,0,0x5D,0x00,Read,ACK
3.909476843750000,0,0x5D,0x00,Read,ACK
3.909501031250000,0,0x5D,0x00,Read,ACK
3.909523031250000,0,0x5D,0x86,Read,ACK
3.909545312500000,0,0x5D,0x86,Read,ACK
3.909567500000000,0,0x5D,0x01,Read,ACK
3.909589000000000,0,0x5D,0x00,Read,ACK
3.909610468750000,0,0x5D,0x00,Read,ACK
3.909631937500000,0,0x5D,0x00,Read,ACK
3.909653406250000,0,0x5D,0x00,Read,ACK
3.909675906250000,0,0x5D,0x00,Read,ACK
3.909697781250000,0,0x5D,0x00,Read,ACK
3.909719281250000,0,0x5D,0x00,Read,ACK
3.909742000000000,0,0x5D,0x00,Read,ACK
3.909763468750000,0,0x5D,0x00,Read,ACK
3.909785250000000,0,0x5D,0x00,Read,ACK
3.909806750000000,0,0x5D,0x00,Read,ACK
3.909830187500000,0,0x5D,0x00,Read,ACK
3.909853500000000,0,0x5D,0x00,Read,ACK
3.909874968750000,0,0x5D,0x00,Read,ACK
3.909896468750000,0,0x5D,0x00,Read,ACK
3.909918812500000,0,0x5D,0x00,Read,ACK
3.909941656250000,0,0x5D,0x00,Read,ACK
3.909966031250000,0,0x5D,0x00,Read,NAK
3.915696406250000,0,0x5D,0x2F,Read,ACK
3.915720968750000,0,0x5D,0x00,Read,ACK
3.915742468750000,0,0x5D,0x04,Read,ACK
3.915765125000000,0,0x5D,0x03,Read,ACK
3.915787656250000,0,0x5D,0xBE,Read,ACK
3.915809125000000,0,0x5D,0x08,Read,ACK
3.915830625000000,0,0x5D,0xEB,Read,ACK
3.915852062500000,0,0x5D,0x03,Read,ACK
3.915874031250000,0,0x5D,0x04,Read,ACK
3.915895562500000,0,0x5D,0x03,Read,ACK
3.915917281250000,0,0x5D,0x20,Read,ACK
3.915938843750000,0,0x5D,0x00,Read,ACK
3.915960375000000,0,0x5D,0x00,Read,ACK
3.915981812500000,0,0x5D,0x00,Read,ACK
3.916003281250000,0,0x5D,0x00,Read,ACK
3.916025281250000,0,0x5D,0x00,Read,ACK
3.916046781250000,0,0x5D,0x00,Read,ACK
3.916068218750000,0,0x5D,0x00,Read,ACK
3.916089687500000,0,0x5D,0x00,Read,ACK
3.916111187500000,0,0x5D,0x00,Read,ACK
3.916132656250000,0,0x5D,0x00,Read,ACK
3.916154156250000,0,0x5D,0x00,Read,ACK
3.916175593750000,0,0x5D,0x00,Read,ACK
3.916197093750000,0,0x5D,0x00,Read,ACK
3.916218562500000,0,0x5D,0x00,Read,ACK
3.916240062500000,0,0x5D,0x00,Read,ACK
3.916261500000000,0,0x5D,0x00,Read,ACK
3.916283000000000,0,0x5D,0x00,Read,ACK
3.916304500000000,0,0x5D,0x00,Read,ACK
3.916325937500000,0,0x5D,0x00,Read,ACK
3.916347406250000,0,0x5D,0x00,Read,ACK
3.916368875000000,0,0x5D,0x00,Read,ACK
3.916390375000000,0,0x5D,0x00,Read,ACK
3.916411843750000,0,0x5D,0x00,Read,ACK
3.916433343750000,0,0x5D,0x00,Read,ACK
3.916456093750000,0,0x5D,0x00,Read,ACK
3.916477593750000,0,0x5D,0x00,Read,ACK
3.916499062500000,0,0x5D,0x00,Read,ACK
3.916521375000000,0,0x5D,0x00,Read,ACK
3.916544812500000,0,0x5D,0x00,Read,ACK
3.916566312500000,0,0x5D,0x00,Read,ACK
3.916587781250000,0,0x5D,0x00,Read,ACK
3.916609250000000,0,0x5D,0x00,Read,ACK
3.916633968750000,0,0x5D,0xCC,Read,ACK
3.916657531250000,0,0x5D,0x86,Read,ACK
3.916679968750000,0,0x5D,0x01,Read,ACK
3.916701468750000,0,0x5D,0x00,Read,ACK
3.916722937500000,0,0x5D,0x00,Read,ACK
3.916744437500000,0,0x5D,0x00,Read,ACK
3.916766656250000,0,0x5D,0x00,Read,ACK
3.916788281250000,0,0x5D,0x00,Read,ACK
3.916810156250000,0,0x5D,0x00,Read,ACK
3.916831875000000,0,0x5D,0x00,Read,ACK
3.916853375000000,0,0x5D,0x00,Read,ACK
3.916874875000000,0,0x5D,0x00,Read,ACK
3.916896718750000,0,0x5D,0x00,Read,ACK
3.916919656250000,0,0x5D,0x00,Read,ACK
3.916943093750000,0,0x5D,0x00,Read,ACK
3.916964562500000,0,0x5D,0x00,Read,ACK
3.916986468750000,0,0x5D,0x00,Read,ACK
3.917009687500000,0,0x5D,0x00,Read,ACK
3.917031187500000,0,0x5D,0x00,Read,ACK
3.917053031250000,0,0x5D,0x00,Read,ACK
3.917074906250000,0,0x5D,0x00,Read,NAK
3.922835906250000,0,0x5D,0x2F,Read,ACK
3.922861031250000,0,0x5D,0x00,Read,ACK
3.922882500000000,0,0x5D,0x04,Read,ACK
3.922903968750000,0,0x5D,0x03,Read,ACK
3.922926750000000,0,0x5D,0xD3,Read,ACK
3.922948250000000,0,0x5D,0x08,Read,ACK
3.922969687500000,0,0x5D,0xEB,Read,ACK
3.922991187500000,0,0x5D,0x03,Read,ACK
3.923012656250000,0,0x5D,0x03,Read,ACK
3.923035375000000,0,0x5D,0x03,Read,ACK
3.923056843750000,0,0x5D,0x20,Read,ACK
3.923078312500000,0,0x5D,0x00,Read,ACK
3.923099812500000,0,0x5D,0x00,Read,ACK
3.923121281250000,0,0x5D,0x00,Read,ACK
3.923144937500000,0,0x5D,0x00,Read,ACK
3.923166656250000,0,0x5D,0x00,Read,ACK
3.923188156250000,0,0x5D,0x00,Read,ACK
3.923210000000000,0,0x5D,0x00,Read,ACK
3.923231468750000,0,0x5D,0x00,Read,ACK
3.923253281250000,0,0x5D,0x00,Read,ACK
3.923274750000000,0,0x5D,0x00,Read,ACK
3.923296250000000,0,0x5D,0x00,Read,ACK
3.923317687500000,0,0x5D,0x00,Read,ACK
3.923339187500000,0,0x5D,0x00,Read,ACK
3.923360656250000,0,0x5D,0x00,Read,ACK
3.923382125000000,0,0x5D,0x00,Read,ACK
3.923403625000000,0,0x5D,0x00,Read,ACK
3.923425093750000,0,0x5D,0x00,Read,ACK
3.923446562500000,0,0x5D,0x00,Read,ACK
3.923468281250000,0,0x5D,0x00,Read,ACK
3.923489750000000,0,0x5D,0x00,Read,ACK
3.923511250000000,0,0x5D,0x00,Read,ACK
3.923534375000000,0,0x5D,0x00,Read,ACK
3.923556250000000,0,0x5D,0x00,Read,ACK
3.923578062500000,0,0x5D,0x00,Read,ACK
3.923601031250000,0,0x5D,0x00,Read,ACK
3.923622500000000,0,0x5D,0x00,Read,ACK
3.923644718750000,0,0x5D,0x00,Read,ACK
3.923667531250000,0,0x5D,0x00,Read,ACK
3.923689343750000,0,0x5D,0x00,Read,ACK
3.923711531250000,0,0x5D,0x00,Read,ACK
3.923733000000000,0,0x5D,0x00,Read,ACK
3.923754468750000,0,0x5D,0x00,Read,ACK
3.923775968750000,0,0x5D,0x12,Read,ACK
3.923797437500000,0,0x5D,0x87,Read,ACK
3.923818906250000,0,0x5D,0x01,Read,ACK
3.923840375000000,0,0x5D,0x00,Read,ACK
3.923861875000000,0,0x5D,0x00,Read,ACK
3.923884187500000,0,0x5D,0x00,Read,ACK
3.923905625000000,0,0x5D,0x00,Read,ACK
3.923927125000000,0,0x5D,0x00,Read,ACK
3.923948593750000,0,0x5D,0x00,Read,ACK
3.923970062500000,0,0x5D,0x00,Read,ACK
3.923992031250000,0,0x5D,0x00,Read,ACK
3.924013718750000,0,0x5D,0x00,Read,ACK
3.924035718750000,0,0x5D,0x00,Read,ACK
3.924057375000000,0,0x5D,0x00,Read,ACK
3.924079250000000,0,0x5D,0x00,Read,ACK
3.924100937500000,0,0x5D,0x00,Read,ACK
3.924124406250000,0,0x5D,0x00,Read,ACK
3.924146562500000,0,0x5D,0x00,Read,ACK
3.924168031250000,0,0x5D,0x00,Read,ACK
3.924189593750000,0,0x5D,0x00,Read,ACK
3.924211062500000,0,0x5D,0x00,Read,NAK
3.930501500000000,0,0x5D,0x2F,Read,ACK
3.930526187500000,0,0x5D,0x00,Read,ACK
3.930547687500000,0,0x5D,0x04,Read,ACK
3.930569156250000,0,0x5D,0x03,Read,ACK
3.930590656250000,0,0x5D,0xE6,Read,ACK
3.930612125000000,0,0x5D,0x08,Read,ACK
3.930633593750000,0,0x5D,0xEE,Read,ACK
3.930655062500000,0,0x5D,0x03,Read,ACK
3.930677312500000,0,0x5D,0x03,Read,ACK
3.930698781250000,0,0x5D,0x03,Read,ACK
3.930720625000000,0,0x5D,0x20,Read,ACK
3.930744218750000,0,0x5D,0x00,Read,ACK
3.930766562500000,0,0x5D,0x00,Read,ACK
3.930788000000000,0,0x5D,0x00,Read,ACK
3.930810125000000,0,0x5D,0x00,Read,ACK
3.930831562500000,0,0x5D,0x00,Read,ACK
3.930853781250000,0,0x5D,0x00,Read,ACK
3.930875531250000,0,0x5D,0x00,Read,ACK
3.930897125000000,0,0x5D,0x00,Read,ACK
3.930918687500000,0,0x5D,0x00,Read,ACK
3.930940156250000,0,0x5D,0x00,Read,ACK
3.930961625000000,0,0x5D,0x00,Read,ACK
3.930983093750000,0,0x5D,0x00,Read,ACK
3.931004562500000,0,0x5D,0x00,Read,ACK
3.931027656250000,0,0x5D,0x00,Read,ACK
3.931049125000000,0,0x5D,0x00,Read,ACK
3.931073187500000,0,0x5D,0x00,Read,ACK
3.931095687500000,0,0x5D,0x00,Read,ACK
3.931118218750000,0,0x5D,0x00,Read,ACK
3.931141781250000,0,0x5D,0x00,Read,ACK
3.931165343750000,0,0x5D,0x00,Read,ACK
3.931186812500000,0,0x5D,0x00,Read,ACK
3.931208281250000,0,0x5D,0x00,Read,ACK
3.931229875000000,0,0x5D,0x00,Read,ACK
3.931251593750000,0,0x5D,0x00,Read,ACK
3.931273031250000,0,0x5D,0x00,Read,ACK
3.931294812500000,0,0x5D,0x00,Read,ACK
3.931316656250000,0,0x5D,0x00,Read,ACK
3.931339937500000,0,0x5D,0x00,Read,ACK
3.931361437500000,0,0x5D,0x00,Read,ACK
3.931384093750000,0,0x5D,0x00,Read,ACK
3.931405562500000,0,0x5D,0x00,Read,ACK
3.931427031250000,0,0x5D,0x00,Read,ACK
3.931448531250000,0,0x5D,0x58,Read,ACK
3.931470000000000,0,0x5D,0x87,Read,ACK
3.931493093750000,0,0x5D,0x01,Read,ACK
3.931514562500000,0,0x5D,0x00,Read,ACK
3.931537281250000,0,0x5D,0x00,Read,ACK
3.931560312500000,0,0x5D,0x00,Read,ACK
3.931582687500000,0,0x5D,0x00,Read,ACK
3.931604406250000,0,0x5D,0x00,Read,ACK
3.931625875000000,0,0x5D,0x00,Read,ACK
3.931647343750000,0,0x5D,0x00,Read,ACK
3.931668812500000,0,0x5D,0x00,Read,ACK
3.931690500000000,0,0x5D,0x00,Read,ACK
3.931711937500000,0,0x5D,0x00,Read,ACK
3.931733437500000,0,0x5D,0x00,Read,ACK
3.931754906250000,0,0x5D,0x00,Read,ACK
3.931776781250000,0,0x5D,0x00,Read,ACK
3.931798250000000,0,0x5D,0x00,Read,ACK
3.931819718750000,0,0x5D,0x00,Read,ACK
3.931841187500000,0,0x5D,0x00,Read,ACK
3.931862843750000,0,0x5D,0x00,Read,ACK
3.931884312500000,0,0x5D,0x00,Read,NAK
3.937629718750000,0,0x5D,0x2F,Read,ACK
3.937654343750000,0,0x5D,0x00,Read,ACK
3.937677062500000,0,0x5D,0x04,Read,ACK
3.937698500000000,0,0x5D,0x03,Read,ACK
3.937719968750000,0,0x5D,0xF8,Read,ACK
3.937741468750000,0,0x5D,0x08,Read,ACK
3.937762937500000,0,0x5D,0xF1,Read,ACK
3.937784437500000,0,0x5D,0x03,Read,ACK
3.937808437500000,0,0x5D,0x03,Read,ACK
3.937829937500000,0,0x5D,0x03,Read,ACK
3.937851875000000,0,0x5D,0x20,Read,ACK
3.937874125000000,0,0x5D,0x00,Read,ACK
3.937896093750000,0,0x5D,0x00,Read,ACK
3.937917593750000,0,0x5D,0x00,Read,ACK
3.937939062500000,0,0x5D,0x00,Read,ACK
3.937960562500000,0,0x5D,0x00,Read,ACK
3.937982031250000,0,0x5D,0x00,Read,ACK
3.938004218750000,0,0x5D,0x00,Read,ACK
3.938025718750000,0,0x5D,0x00,Read,ACK
3.938048562500000,0,0x5D,0x00,Read,ACK
3.938071156250000,0,0x5D,0x00,Read,ACK
3.938092656250000,0,0x5D,0x00,Read,ACK
3.938114281250000,0,0x5D,0x00,Read,ACK
3.938135781250000,0,0x5D,0x00,Read,ACK
3.938157281250000,0,0x5D,0x00,Read,ACK
3.938179250000000,0,0x5D,0x00,Read,ACK
3.938201937500000,0,0x5D,0x00,Read,ACK
3.938224843750000,0,0x5D,0x00,Read,ACK
3.938246375000000,0,0x5D,0x00,Read,ACK
3.938267843750000,0,0x5D,0x00,Read,ACK
3.938290625000000,0,0x5D,0x00,Read,ACK
3.938313250000000,0,0x5D,0x00,Read,ACK
3.938335625000000,0,0x5D,0x00,Read,ACK
3.938357125000000,0,0x5D,0x00,Read,ACK
3.938378593750000,0,0x5D,0x00,Read,ACK
3.938400531250000,0,0x5D,0x00,Read,ACK
3.938422031250000,0,0x5D,0x00,Read,ACK
3.938444750000000,0,0x5D,0x00,Read,ACK
3.938466625000000,0,0x5D,0x00,Read,ACK
3.938488968750000,0,0x5D,0x00,Read,ACK
3.938515312500000,0,0x5D,0x00,Read,ACK
3.938536781250000,0,0x5D,0x00,Read,ACK
3.938558375000000,0,0x5D,0x00,Read,ACK
3.938579812500000,0,0x5D,0x9E,Read,ACK
3.938601312500000,0,0x5D,0x87,Read,ACK
3.938623687500000,0,0x5D,0x01,Read,ACK
3.938645562500000,0,0x5D,0x00,Read,ACK
3.938667343750000,0,0x5D,0x00,Read,ACK
3.938690156250000,0,0x5D,0x00,Read,ACK
3.938711937500000,0,0x5D,0x00,Read,ACK
3.938733468750000,0,0x5D,0x00,Read,ACK
3.938756468750000,0,0x5D,0x00,Read,ACK
3.938777968750000,0,0x5D,0x00,Read,ACK
3.938799437500000,0,0x5D,0x00,Read,ACK
3.938820937500000,0,0x5D,0x00,Read,ACK
3.938842625000000,0,0x5D,0x00,Read,ACK
3.938864281250000,0,0x5D,0x00,Read,ACK
3.938885718750000,0,0x5D,0x00,Read,ACK
3.938907187500000,0,0x5D,0x00,Read,ACK
3.938928687500000,0,0x5D,0x00,Read,ACK
3.938950312500000,0,0x5D,0x00,Read,ACK
3.938972187500000,0,0x5D,0x00,Read,ACK
3.938993718750000,0,0x5D,0x00,Read,ACK
3.939015406250000,0,0x5D,0x00,Read,NAK
3.944639750000000,0,0x5D,0x2F,Read,ACK
3.944662406250000,0,0x5D,0x00,Read,ACK
3.944684531250000,0,0x5D,0x04,Read,ACK
3.944706000000000,0,0x5D,0x03,Read,ACK
3.944727468750000,0,0x5D,0x07,Read,ACK
3.944748937500000,0,0x5D,0x09,Read,ACK
3.944770406250000,0,0x5D,0xF6,Read,ACK
3.944791875000000,0,0x5D,0x03,Read,ACK
3.944813375000000,0,0x5D,0x03,Read,ACK
3.944834843750000,0,0x5D,0x03,Read,ACK
3.944856312500000,0,0x5D,0x20,Read,ACK
3.944877812500000,0,0x5D,0x00,Read,ACK
3.944899281250000,0,0x5D,0x00,Read,ACK
3.944920750000000,0,0x5D,0x00,Read,ACK
3.944942218750000,0,0x5D,0x00,Read,ACK
3.944965437500000,0,0x5D,0x00,Read,ACK
3.944987906250000,0,0x5D,0x00,Read,ACK
3.945012687500000,0,0x5D,0x00,Read,ACK
3.945036125000000,0,0x5D,0x00,Read,ACK
3.945057593750000,0,0x5D,0x00,Read,ACK
3.945079562500000,0,0x5D,0x00,Read,ACK
3.945101062500000,0,0x5D,0x00,Read,ACK
3.945123531250000,0,0x5D,0x00,Read,ACK
3.945145000000000,0,0x5D,0x00,Read,ACK
3.945166531250000,0,0x5D,0x00,Read,ACK
3.945188093750000,0,0x5D,0x00,Read,ACK
3.945210156250000,0,0x5D,0x00,Read,ACK
3.945231656250000,0,0x5D,0x00,Read,ACK
3.945253281250000,0,0x5D,0x00,Read,ACK
3.945274718750000,0,0x5D,0x00,Read,ACK
3.945297937500000,0,0x5D,0x00,Read,ACK
3.945320718750000,0,0x5D,0x00,Read,ACK
3.945342281250000,0,0x5D,0x00,Read,ACK
3.945363750000000,0,0x5D,0x00,Read,ACK
3.945385250000000,0,0x5D,0x00,Read,ACK
3.945406937500000,0,0x5D,0x00,Read,ACK
3.945429656250000,0,0x5D,0x00,Read,ACK
3.945451187500000,0,0x5D,0x00,Read,ACK
3.945472750000000,0,0x5D,0x00,Read,ACK
3.945494625000000,0,0x5D,0x00,Read,ACK
3.945516093750000,0,0x5D,0x00,Read,ACK
3.945538125000000,0,0x5D,0x00,Read,ACK
3.945559812500000,0,0x5D,0x00,Read,ACK
3.945582562500000,0,0x5D,0xE4,Read,ACK
3.945604437500000,0,0x5D,0x87,Read,ACK
3.945626062500000,0,0x5D,0x01,Read,ACK
3.945649000000000,0,0x5D,0x00,Read,ACK
3.945670468750000,0,0x5D,0x00,Read,ACK
3.945691937500000,0,0x5D,0x00,Read,ACK
3.945713406250000,0,0x5D,0x00,Read,ACK
3.945734875000000,0,0x5D,0x00,Read,ACK
3.945757156250000,0,0x5D,0x00,Read,ACK
3.945779562500000,0,0x5D,0x00,Read,ACK
3.945801000000000,0,0x5D,0x00,Read,ACK
3.945822750000000,0,0x5D,0x00,Read,ACK
3.945844187500000,0,0x5D,0x00,Read,ACK
3.945866406250000,0,0x5D,0x00,Read,ACK
3.945887906250000,0,0x5D,0x00,Read,ACK
3.945909406250000,0,0x5D,0x00,Read,ACK
3.945931031250000,0,0x5D,0x00,Read,ACK
3.945952531250000,0,0x5D,0x00,Read,ACK
3.945974375000000,0,0x5D,0x00,Read,ACK
3.945995843750000,0,0x5D,0x00,Read,ACK
3.946017312500000,0,0x5D,0x00,Read,NAK
3.951487250000000,0,0x5D,0x2F,Read,ACK
3.951513281250000,0,0x5D,0x00,Read,ACK
3.951536062500000,0,0x5D,0x04,Read,ACK
3.951557562500000,0,0x5D,0x03,Read,ACK
3.951579062500000,0,0x5D,0x14,Read,ACK
3.951600500000000,0,0x5D,0x09,Read,ACK
3.951622000000000,0,0x5D,0xFB,Read,ACK
3.951643468750000,0,0x5D,0x03,Read,ACK
3.951664937500000,0,0x5D,0x03,Read,ACK
3.951686437500000,0,0x5D,0x03,Read,ACK
3.951707875000000,0,0x5D,0x20,Read,ACK
3.951729375000000,0,0x5D,0x00,Read,ACK
3.951752562500000,0,0x5D,0x00,Read,ACK
3.951774062500000,0,0x5D,0x00,Read,ACK
3.951795812500000,0,0x5D,0x00,Read,ACK
3.951817281250000,0,0x5D,0x00,Read,ACK
3.951838718750000,0,0x5D,0x00,Read,ACK
3.951860187500000,0,0x5D,0x00,Read,ACK
3.951881968750000,0,0x5D,0x00,Read,ACK
3.951903468750000,0,0x5D,0x00,Read,ACK
3.951924937500000,0,0x5D,0x00,Read,ACK
3.951946406250000,0,0x5D,0x00,Read,ACK
3.951967875000000,0,0x5D,0x00,Read,ACK
3.951989375000000,0,0x5D,0x00,Read,ACK
3.952010843750000,0,0x5D,0x00,Read,ACK
3.952032343750000,0,0x5D,0x00,Read,ACK
3.952053781250000,0,0x5D,0x00,Read,ACK
3.952075250000000,0,0x5D,0x00,Read,ACK
3.952096750000000,0,0x5D,0x00,Read,ACK
3.952119656250000,0,0x5D,0x00,Read,ACK
3.952144281250000,0,0x5D,0x00,Read,ACK
3.952167031250000,0,0x5D,0x00,Read,ACK
3.952188906250000,0,0x5D,0x00,Read,ACK
3.952211343750000,0,0x5D,0x00,Read,ACK
3.952234156250000,0,0x5D,0x00,Read,ACK
3.952255687500000,0,0x5D,0x00,Read,ACK
3.952277156250000,0,0x5D,0x00,Read,ACK
3.952298625000000,0,0x5D,0x00,Read,ACK
3.952320125000000,0,0x5D,0x00,Read,ACK
3.952341625000000,0,0x5D,0x00,Read,ACK
3.952364656250000,0,0x5D,0x00,Read,ACK
3.952386750000000,0,0x5D,0x00,Read,ACK
3.952408250000000,0,0x5D,0x00,Read,ACK
3.952430062500000,0,0x5D,0x2A,Read,ACK
3.952451531250000,0,0x5D,0x88,Read,ACK
3.952473031250000,0,0x5D,0x01,Read,ACK
3.952494531250000,0,0x5D,0x00,Read,ACK
3.952516000000000,0,0x5D,0x00,Read,ACK
3.952537468750000,0,0x5D,0x00,Read,ACK
3.952559625000000,0,0x5D,0x00,Read,ACK
3.952581187500000,0,0x5D,0x00,Read,ACK
3.952602687500000,0,0x5D,0x00,Read,ACK
3.952624156250000,0,0x5D,0x00,Read,ACK
3.952645593750000,0,0x5D,0x00,Read,ACK
3.952667781250000,0,0x5D,0x00,Read,ACK
3.952689250000000,0,0x5D,0x00,Read,ACK
3.952711406250000,0,0x5D,0x00,Read,ACK
3.952732875000000,0,0x5D,0x00,Read,ACK
3.952755000000000,0,0x5D,0x00,Read,ACK
3.952776968750000,0,0x5D,0x00,Read,ACK
3.952798562500000,0,0x5D,0x00,Read,ACK
3.952822781250000,0,0x5D,0x00,Read,ACK
3.952844250000000,0,0x5D,0x00,Read,ACK
3.952865718750000,0,0x5D,0x00,Read,NAK
3.958674125000000,0,0x5D,0x2F,Read,ACK
3.958700625000000,0,0x5D,0x00,Read,ACK
3.958723250000000,0,0x5D,0x04,Read,ACK
3.958744718750000,0,0x5D,0x03,Read,ACK
3.958766187500000,0,0x5D,0x1F,Read,ACK
3.958788312500000,0,0x5D,0x09,Read,ACK
3.958810281250000,0,0x5D,0x01,Read,ACK
3.958831750000000,0,0x5D,0x04,Read,ACK
3.958853312500000,0,0x5D,0x03,Read,ACK
3.958874968750000,0,0x5D,0x03,Read,ACK
3.958896500000000,0,0x5D,0x20,Read,ACK
3.958919218750000,0,0x5D,0x00,Read,ACK
3.958940687500000,0,0x5D,0x00,Read,ACK
3.958962187500000,0,0x5D,0x00,Read,ACK
3.958983656250000,0,0x5D,0x00,Read,ACK
3.959005093750000,0,0x5D,0x00,Read,ACK
3.959026593750000,0,0x5D,0x00,Read,ACK
3.959048281250000,0,0x5D,0x00,Read,ACK
3.959069781250000,0,0x5D,0x00,Read,ACK
3.959091281250000,0,0x5D,0x00,Read,ACK
3.959112750000000,0,0x5D,0x00,Read,ACK
3.959134218750000,0,0x5D,0x00,Read,ACK
3.959155687500000,0,0x5D,0x00,Read,ACK
3.959177187500000,0,0x5D,0x00,Read,ACK
3.959198656250000,0,0x5D,0x00,Read,ACK
3.959220125000000,0,0x5D,0x00,Read,ACK
3.959241593750000,0,0x5D,0x00,Read,ACK
3.959264031250000,0,0x5D,0x00,Read,ACK
3.959285875000000,0,0x5D,0x00,Read,ACK
3.959308718750000,0,0x5D,0x00,Read,ACK
3.959333250000000,0,0x5D,0x00,Read,ACK
3.959355218750000,0,0x5D,0x00,Read,ACK
3.959376687500000,0,0x5D,0x00,Read,ACK
3.959398187500000,0,0x5D,0x00,Read,ACK
3.959419656250000,0,0x5D,0x00,Read,ACK
3.959442093750000,0,0x5D,0x00,Read,ACK
3.959464125000000,0,0x5D,0x00,Read,ACK
3.959486593750000,0,0x5D,0x00,Read,ACK
3.959508062500000,0,0x5D,0x00,Read,ACK
3.959529531250000,0,0x5D,0x00,Read,ACK
3.959551000000000,0,0x5D,0x00,Read,ACK
3.959572500000000,0,0x5D,0x00,Read,ACK
3.959593968750000,0,0x5D,0x00,Read,ACK
3.959615437500000,0,0x5D,0x70,Read,ACK
3.959638312500000,0,0x5D,0x88,Read,ACK
3.959659875000000,0,0x5D,0x01,Read,ACK
3.959681406250000,0,0x5D,0x00,Read,ACK
3.959704593750000,0,0x5D,0x00,Read,ACK
3.959726062500000,0,0x5D,0x00,Read,ACK
3.959748031250000,0,0x5D,0x00,Read,ACK
3.959769531250000,0,0x5D,0x00,Read,ACK
3.959791625000000,0,0x5D,0x00,Read,ACK
3.959813093750000,0,0x5D,0x00,Read,ACK
3.959834593750000,0,0x5D,0x00,Read,ACK
3.959857468750000,0,0x5D,0x00,Read,ACK
3.959879343750000,0,0x5D,0x00,Read,ACK
3.959901062500000,0,0x5D,0x00,Read,ACK
3.959923031250000,0,0x5D,0x00,Read,ACK
3.959944750000000,0,0x5D,0x00,Read,ACK
3.959969812500000,0,0x5D,0x00,Read,ACK
3.959991281250000,0,0x5D,0x00,Read,ACK
3.960012750000000,0,0x5D,0x00,Read,ACK
3.960034218750000,0,0x5D,0x00,Read,ACK
3.960055718750000,0,0x5D,0x00,Read,NAK
3.965743375000000,0,0x5D,0x2F,Read,ACK
3.965771218750000,0,0x5D,0x00,Read,ACK
3.965794593750000,0,0x5D,0x04,Read,ACK
3.965816687500000,0,0x5D,0x03,Read,ACK
3.965838187500000,0,0x5D,0x28,Read,ACK
3.965859687500000,0,0x5D,0x09,Read,ACK
3.965881125000000,0,0x5D,0x07,Read,ACK
3.965902625000000,0,0x5D,0x04,Read,ACK
3.965924875000000,0,0x5D,0x03,Read,ACK
3.965946375000000,0,0x5D,0x02,Read,ACK
3.965968031250000,0,0x5D,0x20,Read,ACK
3.965989500000000,0,0x5D,0x00,Read,ACK
3.966010968750000,0,0x5D,0x00,Read,ACK
3.966033531250000,0,0x5D,0x00,Read,ACK
3.966055000000000,0,0x5D,0x00,Read,ACK
3.966076468750000,0,0x5D,0x00,Read,ACK
3.966098062500000,0,0x5D,0x00,Read,ACK
3.966119531250000,0,0x5D,0x00,Read,ACK
3.966141031250000,0,0x5D,0x00,Read,ACK
3.966162562500000,0,0x5D,0x00,Read,ACK
3.966184031250000,0,0x5D,0x00,Read,ACK
3.966205500000000,0,0x5D,0x00,Read,ACK
3.966227031250000,0,0x5D,0x00,Read,ACK
3.966248468750000,0,0x5D,0x00,Read,ACK
3.966269968750000,0,0x5D,0x00,Read,ACK
3.966291406250000,0,0x5D,0x00,Read,ACK
3.966313062500000,0,0x5D,0x00,Read,ACK
3.966334562500000,0,0x5D,0x00,Read,ACK
3.966356031250000,0,0x5D,0x00,Read,ACK
3.966378781250000,0,0x5D,0x00,Read,ACK
3.966403156250000,0,0x5D,0x00,Read,ACK
3.966424656250000,0,0x5D,0x00,Read,ACK
3.966446250000000,0,0x5D,0x00,Read,ACK
3.966468156250000,0,0x5D,0x00,Read,ACK
3.966490468750000,0,0x5D,0x00,Read,ACK
3.966511937500000,0,0x5D,0x00,Read,ACK
3.966533406250000,0,0x5D,0x00,Read,ACK
3.966554906250000,0,0x5D,0x00,Read,ACK
3.966576937500000,0,0x5D,0x00,Read,ACK
3.966599781250000,0,0x5D,0x00,Read,ACK
3.966621250000000,0,0x5D,0x00,Read,ACK
3.966643687500000,0,0x5D,0x00,Read,ACK
3.966666406250000,0,0x5D,0x00,Read,ACK
3.966687843750000,0,0x5D,0xB6,Read,ACK
3.966709593750000,0,0x5D,0x88,Read,ACK
3.966731062500000,0,0x5D,0x01,Read,ACK
3.966754125000000,0,0x5D,0x00,Read,ACK
3.966775562500000,0,0x5D,0x00,Read,ACK
3.966797468750000,0,0x5D,0x00,Read,ACK
3.966819531250000,0,0x5D,0x00,Read,ACK
3.966841218750000,0,0x5D,0x00,Read,ACK
3.966863093750000,0,0x5D,0x00,Read,ACK
3.966884906250000,0,0x5D,0x00,Read,ACK
3.966906375000000,0,0x5D,0x00,Read,ACK
3.966927843750000,0,0x5D,0x00,Read,ACK
3.966949343750000,0,0x5D,0x00,Read,ACK
3.966970812500000,0,0x5D,0x00,Read,ACK
3.966993093750000,0,0x5D,0x00,Read,ACK
3.967014531250000,0,0x5D,0x00,Read,ACK
3.967037125000000,0,0x5D,0x00,Read,ACK
3.967060437500000,0,0x5D,0x00,Read,ACK
3.967081906250000,0,0x5D,0x00,Read,ACK
3.967105562500000,0,0x5D,0x00,Read,ACK
3.967127468750000,0,0x5D,0x00,Read,NAK
3.972894250000000,0,0x5D,0x2F,Read,ACK
3.972923093750000,0,0x5D,0x00,Read,ACK
3.972945531250000,0,0x5D,0x04,Read,ACK
3.972967031250000,0,0x5D,0x03,Read,ACK
3.972988562500000,0,0x5D,0x2F,Read,ACK
3.973010031250000,0,0x5D,0x09,Read,ACK
3.973031718750000,0,0x5D,0x0E,Read,ACK
3.973053250000000,0,0x5D,0x04,Read,ACK
3.973074718750000,0,0x5D,0x03,Read,ACK
3.973097875000000,0,0x5D,0x02,Read,ACK
3.973119343750000,0,0x5D,0x20,Read,ACK
3.973140812500000,0,0x5D,0x00,Read,ACK
3.973163625000000,0,0x5D,0x00,Read,ACK
3.973185250000000,0,0x5D,0x00,Read,ACK
3.973206718750000,0,0x5D,0x00,Read,ACK
3.973228187500000,0,0x5D,0x00,Read,ACK
3.973249687500000,0,0x5D,0x00,Read,ACK
3.973271156250000,0,0x5D,0x00,Read,ACK
3.973292625000000,0,0x5D,0x00,Read,ACK
3.973314093750000,0,0x5D,0x00,Read,ACK
3.973335593750000,0,0x5D,0x00,Read,ACK
3.973357062500000,0,0x5D,0x00,Read,ACK
3.973378562500000,0,0x5D,0x00,Read,ACK
3.973400125000000,0,0x5D,0x00,Read,ACK
3.973421593750000,0,0x5D,0x00,Read,ACK
3.973443093750000,0,0x5D,0x00,Read,ACK
3.973464562500000,0,0x5D,0x00,Read,ACK
3.973486031250000,0,0x5D,0x00,Read,ACK
3.973507531250000,0,0x5D,0x00,Read,ACK
3.973532843750000,0,0x5D,0x00,Read,ACK
3.973554343750000,0,0x5D,0x00,Read,ACK
3.973575812500000,0,0x5D,0x00,Read,ACK
3.973597437500000,0,0x5D,0x00,Read,ACK
3.973620375000000,0,0x5D,0x00,Read,ACK
3.973641875000000,0,0x5D,0x00,Read,ACK
3.973663593750000,0,0x5D,0x00,Read,ACK
3.973685062500000,0,0x5D,0x00,Read,ACK
3.973707906250000,0,0x5D,0x00,Read,ACK
3.973730531250000,0,0x5D,0x00,Read,ACK
3.973753125000000,0,0x5D,0x00,Read,ACK
3.973775562500000,0,0x5D,0x00,Read,ACK
3.973797375000000,0,0x5D,0x00,Read,ACK
3.973818875000000,0,0x5D,0x00,Read,ACK
3.973840593750000,0,0x5D,0xFC,Read,ACK
3.973862062500000,0,0x5D,0x88,Read,ACK
3.973883531250000,0,0x5D,0x01,Read,ACK
3.973905750000000,0,0x5D,0x00,Read,ACK
3.973928718750000,0,0x5D,0x00,Read,ACK
3.973950187500000,0,0x5D,0x00,Read,ACK
3.973972187500000,0,0x5D,0x00,Read,ACK
3.973993656250000,0,0x5D,0x00,Read,ACK
3.974015125000000,0,0x5D,0x00,Read,ACK
3.974036750000000,0,0x5D,0x00,Read,ACK
3.974058281250000,0,0x5D,0x00,Read,ACK
3.974080750000000,0,0x5D,0x00,Read,ACK
3.974103156250000,0,0x5D,0x00,Read,ACK
3.974124875000000,0,0x5D,0x00,Read,ACK
3.974147187500000,0,0x5D,0x00,Read,ACK
3.974170656250000,0,0x5D,0x00,Read,ACK
3.974193000000000,0,0x5D,0x00,Read,ACK
3.974215937500000,0,0x5D,0x00,Read,ACK
3.974237437500000,0,0x5D,0x00,Read,ACK
3.974258937500000,0,0x5D,0x00,Read,ACK
3.974280406250000,0,0x5D,0x00,Read,NAK
3.980549093750000,0,0x5D,0x2F,Read,ACK
3.980573812500000,0,0x5D,0x00,Read,ACK
3.980595250000000,0,0x5D,0x04,Read,ACK
3.980616718750000,0,0x5D,0x03,Read,ACK
3.980638250000000,0,0x5D,0x34,Read,ACK
3.980659687500000,0,0x5D,0x09,Read,ACK
3.980684156250000,0,0x5D,0x15,Read,ACK
3.980708656250000,0,0x5D,0x04,Read,ACK
3.980730187500000,0,0x5D,0x03,Read,ACK
3.980753156250000,0,0x5D,0x02,Read,ACK
3.980776093750000,0,0x5D,0x20,Read,ACK
3.980797593750000,0,0x5D,0x00,Read,ACK
3.980819625000000,0,0x5D,0x00,Read,ACK
3.980841093750000,0,0x5D,0x00,Read,ACK
3.980863031250000,0,0x5D,0x00,Read,ACK
3.980885312500000,0,0x5D,0x00,Read,ACK
3.980906781250000,0,0x5D,0x00,Read,ACK
3.980929750000000,0,0x5D,0x00,Read,ACK
3.980951750000000,0,0x5D,0x00,Read,ACK
3.980973187500000,0,0x5D,0x00,Read,ACK
3.980994687500000,0,0x5D,0x00,Read,ACK
3.981016156250000,0,0x5D,0x00,Read,ACK
3.981040156250000,0,0x5D,0x00,Read,ACK
3.981063062500000,0,0x5D,0x00,Read,ACK
3.981084593750000,0,0x5D,0x00,Read,ACK
3.981106031250000,0,0x5D,0x00,Read,ACK
3.981127531250000,0,0x5D,0x00,Read,ACK
3.981149000000000,0,0x5D,0x00,Read,ACK
3.981170906250000,0,0x5D,0x00,Read,ACK
3.981192375000000,0,0x5D,0x00,Read,ACK
3.981215281250000,0,0x5D,0x00,Read,ACK
3.981237250000000,0,0x5D,0x00,Read,ACK
3.981258968750000,0,0x5D,0x00,Read,ACK
3.981280781250000,0,0x5D,0x00,Read,ACK
3.981302281250000,0,0x5D,0x00,Read,ACK
3.981323843750000,0,0x5D,0x00,Read,ACK
3.981345625000000,0,0x5D,0x00,Read,ACK
3.981373687500000,0,0x5D,0x00,Read,ACK
3.981395156250000,0,0x5D,0x00,Read,ACK
3.981416625000000,0,0x5D,0x00,Read,ACK
3.981438125000000,0,0x5D,0x00,Read,ACK
3.981459593750000,0,0x5D,0x00,Read,ACK
3.981481500000000,0,0x5D,0x00,Read,ACK
3.981503406250000,0,0x5D,0x42,Read,ACK
3.981525562500000,0,0x5D,0x89,Read,ACK
3.981547062500000,0,0x5D,0x01,Read,ACK
3.981568656250000,0,0x5D,0x00,Read,ACK
3.981592000000000,0,0x5D,0x00,Read,ACK
3.981614968750000,0,0x5D,0x00,Read,ACK
3.981636468750000,0,0x5D,0x00,Read,ACK
3.981657968750000,0,0x5D,0x00,Read,ACK
3.981679468750000,0,0x5D,0x00,Read,ACK
3.981700937500000,0,0x5D,0x00,Read,ACK
3.981723187500000,0,0x5D,0x00,Read,ACK
3.981745437500000,0,0x5D,0x00,Read,ACK
3.981766906250000,0,0x5D,0x00,Read,ACK
3.981788843750000,0,0x5D,0x00,Read,ACK
3.981810500000000,0,0x5D,0x00,Read,ACK
3.981832000000000,0,0x5D,0x00,Read,ACK
3.981854156250000,0,0x5D,0x00,Read,ACK
3.981876093750000,0,0x5D,0x00,Read,ACK
3.981898093750000,0,0x5D,0x00,Read,ACK
3.981919687500000,0,0x5D,0x00,Read,ACK
3.981941187500000,0,0x5D,0x00,Read,NAK
3.987216500000000,0,0x5D,0x2F,Read,ACK
3.987240843750000,0,0x5D,0x00,Read,ACK
3.987262375000000,0,0x5D,0x04,Read,ACK
3.987284218750000,0,0x5D,0x03,Read,ACK
3.987305718750000,0,0x5D,0x38,Read,ACK
3.987327218750000,0,0x5D,0x09,Read,ACK
3.987348687500000,0,0x5D,0x1C,Read,ACK
3.987370156250000,0,0x5D,0x04,Read,ACK
3.987391625000000,0,0x5D,0x03,Read,ACK
3.987413125000000,0,0x5D,0x02,Read,ACK
3.987434593750000,0,0x5D,0x20,Read,ACK
3.987456062500000,0,0x5D,0x00,Read,ACK
3.987477750000000,0,0x5D,0x00,Read,ACK
3.987499218750000,0,0x5D,0x00,Read,ACK
3.987520687500000,0,0x5D,0x00,Read,ACK
3.987542156250000,0,0x5D,0x00,Read,ACK
3.987563625000000,0,0x5D,0x00,Read,ACK
3.987585093750000,0,0x5D,0x00,Read,ACK
3.987606562500000,0,0x5D,0x00,Read,ACK
3.987628062500000,0,0x5D,0x00,Read,ACK
3.987649562500000,0,0x5D,0x00,Read,ACK
3.987671000000000,0,0x5D,0x00,Read,ACK
3.987692468750000,0,0x5D,0x00,Read,ACK
3.987713968750000,0,0x5D,0x00,Read,ACK
3.987735468750000,0,0x5D,0x00,Read,ACK
3.987756906250000,0,0x5D,0x00,Read,ACK
3.987778375000000,0,0x5D,0x00,Read,ACK
3.987799875000000,0,0x5D,0x00,Read,ACK
3.987821343750000,0,0x5D,0x00,Read,ACK
3.987846500000000,0,0x5D,0x00,Read,ACK
3.987869625000000,0,0x5D,0x00,Read,ACK
3.987891187500000,0,0x5D,0x00,Read,ACK
3.987917000000000,0,0x5D,0x00,Read,ACK
3.987938750000000,0,0x5D,0x00,Read,ACK
3.987961500000000,0,0x5D,0x00,Read,ACK
3.987983843750000,0,0x5D,0x00,Read,ACK
3.988005312500000,0,0x5D,0x00,Read,ACK
3.988026781250000,0,0x5D,0x00,Read,ACK
3.988049312500000,0,0x5D,0x00,Read,ACK
3.988070781250000,0,0x5D,0x00,Read,ACK
3.988092531250000,0,0x5D,0x00,Read,ACK
3.988114781250000,0,0x5D,0x00,Read,ACK
3.988136281250000,0,0x5D,0x00,Read,ACK
3.988159031250000,0,0x5D,0x88,Read,ACK
3.988180500000000,0,0x5D,0x89,Read,ACK
3.988202406250000,0,0x5D,0x01,Read,ACK
3.988223906250000,0,0x5D,0x00,Read,ACK
3.988246781250000,0,0x5D,0x00,Read,ACK
3.988268250000000,0,0x5D,0x00,Read,ACK
3.988289718750000,0,0x5D,0x00,Read,ACK
3.988311218750000,0,0x5D,0x00,Read,ACK
3.988333625000000,0,0x5D,0x00,Read,ACK
3.988355593750000,0,0x5D,0x00,Read,ACK
3.988377093750000,0,0x5D,0x00,Read,ACK
3.988398656250000,0,0x5D,0x00,Read,ACK
3.988420468750000,0,0x5D,0x00,Read,ACK
3.988442000000000,0,0x5D,0x00,Read,ACK
3.988463468750000,0,0x5D,0x00,Read,ACK
3.988485406250000,0,0x5D,0x00,Read,ACK
3.988509750000000,0,0x5D,0x00,Read,ACK
3.988538687500000,0,0x5D,0x00,Read,ACK
3.988560187500000,0,0x5D,0x00,Read,ACK
3.988581843750000,0,0x5D,0x00,Read,ACK
3.988603312500000,0,0x5D,0x00,Read,NAK
3.994320718750000,0,0x5D,0x2F,Read,ACK
3.994345812500000,0,0x5D,0x00,Read,ACK
3.994367812500000,0,0x5D,0x04,Read,ACK
3.994390218750000,0,0x5D,0x03,Read,ACK
3.994411718750000,0,0x5D,0x3C,Read,ACK
3.994433187500000,0,0x5D,0x09,Read,ACK
3.994455250000000,0,0x5D,0x25,Read,ACK
3.994478156250000,0,0x5D,0x04,Read,ACK
3.994499687500000,0,0x5D,0x03,Read,ACK
3.994522468750000,0,0x5D,0x03,Read,ACK
3.994544000000000,0,0x5D,0x20,Read,ACK
3.994565468750000,0,0x5D,0x00,Read,ACK
3.994589812500000,0,0x5D,0x00,Read,ACK
3.994611281250000,0,0x5D,0x00,Read,ACK
3.994632812500000,0,0x5D,0x00,Read,ACK
3.994654281250000,0,0x5D,0x00,Read,ACK
3.994675750000000,0,0x5D,0x00,Read,ACK
3.994697218750000,0,0x5D,0x00,Read,ACK
3.994718687500000,0,0x5D,0x00,Read,ACK
3.994740187500000,0,0x5D,0x00,Read,ACK
3.994761687500000,0,0x5D,0x00,Read,ACK
3.994783125000000,0,0x5D,0x00,Read,ACK
3.994804593750000,0,0x5D,0x00,Read,ACK
3.994826093750000,0,0x5D,0x00,Read,ACK
3.994847562500000,0,0x5D,0x00,Read,ACK
3.994869031250000,0,0x5D,0x00,Read,ACK
3.994890562500000,0,0x5D,0x00,Read,ACK
3.994912281250000,0,0x5D,0x00,Read,ACK
3.994933750000000,0,0x5D,0x00,Read,ACK
3.994955250000000,0,0x5D,0x00,Read,ACK
3.994976718750000,0,0x5D,0x00,Read,ACK
3.994998187500000,0,0x5D,0x00,Read,ACK
3.995019656250000,0,0x5D,0x00,Read,ACK
3.995041156250000,0,0x5D,0x00,Read,ACK
3.995062625000000,0,0x5D,0x00,Read,ACK
3.995084093750000,0,0x5D,0x00,Read,ACK
3.995106843750000,0,0x5D,0x00,Read,ACK
3.995129687500000,0,0x5D,0x00,Read,ACK
3.995151156250000,0,0x5D,0x00,Read,ACK
3.995172625000000,0,0x5D,0x00,Read,ACK
3.995194406250000,0,0x5D,0x00,Read,ACK
3.995216781250000,0,0x5D,0x00,Read,ACK
3.995239437500000,0,0x5D,0x00,Read,ACK
3.995262500000000,0,0x5D,0xCE,Read,ACK
3.995283968750000,0,0x5D,0x89,Read,ACK
3.995305468750000,0,0x5D,0x01,Read,ACK
3.995326937500000,0,0x5D,0x00,Read,ACK
3.995350468750000,0,0x5D,0x00,Read,ACK
3.995372937500000,0,0x5D,0x00,Read,ACK
3.995394406250000,0,0x5D,0x00,Read,ACK
3.995417406250000,0,0x5D,0x00,Read,ACK
3.995438875000000,0,0x5D,0x00,Read,ACK
3.995460812500000,0,0x5D,0x00,Read,ACK
3.995484031250000,0,0x5D,0x00,Read,ACK
3.995506000000000,0,0x5D,0x00,Read,ACK
3.995527500000000,0,0x5D,0x00,Read,ACK
3.995550125000000,0,0x5D,0x00,Read,ACK
3.995571593750000,0,0x5D,0x00,Read,ACK
3.995593593750000,0,0x5D,0x00,Read,ACK
3.995615093750000,0,0x5D,0x00,Read,ACK
3.995638656250000,0,0x5D,0x00,Read,ACK
3.995661093750000,0,0x5D,0x00,Read,ACK
3.995686968750000,0,0x5D,0x00,Read,ACK
3.995708437500000,0,0x5D,0x00,Read,NAK
4.001394812500000,0,0x5D,0x2F,Read,ACK
4.001419906250000,0,0x5D,0x00,Read,ACK
4.001441343750000,0,0x5D,0x04,Read,ACK
4.001462812500000,0,0x5D,0x03,Read,ACK
4.001484312500000,0,0x5D,0x3F,Read,ACK
4.001505781250000,0,0x5D,0x09,Read,ACK
4.001527593750000,0,0x5D,0x30,Read,ACK
4.001549812500000,0,0x5D,0x04,Read,ACK
4.001571281250000,0,0x5D,0x03,Read,ACK
4.001592750000000,0,0x5D,0x03,Read,ACK
4.001614187500000,0,0x5D,0x20,Read,ACK
4.001635687500000,0,0x5D,0x00,Read,ACK
4.001657156250000,0,0x5D,0x00,Read,ACK
4.001678625000000,0,0x5D,0x00,Read,ACK
4.001700093750000,0,0x5D,0x00,Read,ACK
4.001721593750000,0,0x5D,0x00,Read,ACK
4.001746343750000,0,0x5D,0x00,Read,ACK
4.001767843750000,0,0x5D,0x00,Read,ACK
4.001789281250000,0,0x5D,0x00,Read,ACK
4.001810781250000,0,0x5D,0x00,Read,ACK
4.001832250000000,0,0x5D,0x00,Read,ACK
4.001853718750000,0,0x5D,0x00,Read,ACK
4.001875187500000,0,0x5D,0x00,Read,ACK
4.001896656250000,0,0x5D,0x00,Read,ACK
4.001918156250000,0,0x5D,0x00,Read,ACK
4.001939625000000,0,0x5D,0x00,Read,ACK
4.001961093750000,0,0x5D,0x00,Read,ACK
4.001982562500000,0,0x5D,0x00,Read,ACK
4.002004031250000,0,0x5D,0x00,Read,ACK
4.002025531250000,0,0x5D,0x00,Read,ACK
4.002047343750000,0,0x5D,0x00,Read,ACK
4.002068812500000,0,0x5D,0x00,Read,ACK
4.002090250000000,0,0x5D,0x00,Read,ACK
4.002111718750000,0,0x5D,0x00,Read,ACK
4.002133187500000,0,0x5D,0x00,Read,ACK
4.002154656250000,0,0x5D,0x00,Read,ACK
4.002176968750000,0,0x5D,0x00,Read,ACK
4.002199375000000,0,0x5D,0x00,Read,ACK
4.002222218750000,0,0x5D,0x00,Read,ACK
4.002244906250000,0,0x5D,0x00,Read,ACK
4.002267656250000,0,0x5D,0x00,Read,ACK
4.002289156250000,0,0x5D,0x00,Read,ACK
4.002310906250000,0,0x5D,0x00,Read,ACK
4.002332562500000,0,0x5D,0x14,Read,ACK
4.002355531250000,0,0x5D,0x8A,Read,ACK
4.002377562500000,0,0x5D,0x01,Read,ACK
4.002399468750000,0,0x5D,0x00,Read,ACK
4.002420937500000,0,0x5D,0x00,Read,ACK
4.002443625000000,0,0x5D,0x00,Read,ACK
4.002465062500000,0,0x5D,0x00,Read,ACK
4.002486687500000,0,0x5D,0x00,Read,ACK
4.002508125000000,0,0x5D,0x00,Read,ACK
4.002530500000000,0,0x5D,0x00,Read,ACK
4.002552218750000,0,0x5D,0x00,Read,ACK
4.002573687500000,0,0x5D,0x00,Read,ACK
4.002596093750000,0,0x5D,0x00,Read,ACK
4.002617593750000,0,0x5D,0x00,Read,ACK
4.002640125000000,0,0x5D,0x00,Read,ACK
4.002661875000000,0,0x5D,0x00,Read,ACK
4.002683312500000,0,0x5D,0x00,Read,ACK
4.002705875000000,0,0x5D,0x00,Read,ACK
4.002727312500000,0,0x5D,0x00,Read,ACK
4.002749500000000,0,0x5D,0x00,Read,ACK
4.002772406250000,0,0x5D,0x00,Read,NAK
4.008668812500000,0,0x5D,0x2F,Read,ACK
4.008691875000000,0,0x5D,0x00,Read,ACK
4.008713375000000,0,0x5D,0x04,Read,ACK
4.008734843750000,0,0x5D,0x03,Read,ACK
4.008756625000000,0,0x5D,0x41,Read,ACK
4.008779468750000,0,0x5D,0x09,Read,ACK
4.008800937500000,0,0x5D,0x3C,Read,ACK
4.008823093750000,0,0x5D,0x04,Read,ACK
4.008844562500000,0,0x5D,0x03,Read,ACK
4.008866093750000,0,0x5D,0x03,Read,ACK
4.008887593750000,0,0x5D,0x20,Read,ACK
4.008909062500000,0,0x5D,0x00,Read,ACK
4.008930531250000,0,0x5D,0x00,Read,ACK
4.008952000000000,0,0x5D,0x00,Read,ACK
4.008973468750000,0,0x5D,0x00,Read,ACK
4.008994937500000,0,0x5D,0x00,Read,ACK
4.009016437500000,0,0x5D,0x00,Read,ACK
4.009037906250000,0,0x5D,0x00,Read,ACK
4.009059375000000,0,0x5D,0x00,Read,ACK
4.009080843750000,0,0x5D,0x00,Read,ACK
4.009102312500000,0,0x5D,0x00,Read,ACK
4.009123781250000,0,0x5D,0x00,Read,ACK
4.009145281250000,0,0x5D,0x00,Read,ACK
4.009166750000000,0,0x5D,0x00,Read,ACK
4.009188218750000,0,0x5D,0x00,Read,ACK
4.009209687500000,0,0x5D,0x00,Read,ACK
4.009231156250000,0,0x5D,0x00,Read,ACK
4.009252656250000,0,0x5D,0x00,Read,ACK
4.009274125000000,0,0x5D,0x00,Read,ACK
4.009296937500000,0,0x5D,0x00,Read,ACK
4.009321375000000,0,0x5D,0x00,Read,ACK
4.009343093750000,0,0x5D,0x00,Read,ACK
4.009367437500000,0,0x5D,0x00,Read,ACK
4.009388937500000,0,0x5D,0x00,Read,ACK
4.009410406250000,0,0x5D,0x00,Read,ACK
4.009431875000000,0,0x5D,0x00,Read,ACK
4.009453343750000,0,0x5D,0x00,Read,ACK
4.009476093750000,0,0x5D,0x00,Read,ACK
4.009497562500000,0,0x5D,0x00,Read,ACK
4.009519593750000,0,0x5D,0x00,Read,ACK
4.009541125000000,0,0x5D,0x00,Read,ACK
4.009562593750000,0,0x5D,0x00,Read,ACK
4.009584093750000,0,0x5D,0x00,Read,ACK
4.009605593750000,0,0x5D,0x5A,Read,ACK
4.009627093750000,0,0x5D,0x8A,Read,ACK
4.009648593750000,0,0x5D,0x01,Read,ACK
4.009670062500000,0,0x5D,0x00,Read,ACK
4.009691656250000,0,0x5D,0x00,Read,ACK
4.009713187500000,0,0x5D,0x00,Read,ACK
4.009734656250000,0,0x5D,0x00,Read,ACK
4.009756187500000,0,0x5D,0x00,Read,ACK
4.009777843750000,0,0x5D,0x00,Read,ACK
4.009799875000000,0,0x5D,0x00,Read,ACK
4.009821343750000,0,0x5D,0x00,Read,ACK
4.009842812500000,0,0x5D,0x00,Read,ACK
4.009864781250000,0,0x5D,0x00,Read,ACK
4.009886281250000,0,0x5D,0x00,Read,ACK
4.009907750000000,0,0x5D,0x00,Read,ACK
4.009930375000000,0,0x5D,0x00,Read,ACK
4.009952000000000,0,0x5D,0x00,Read,ACK
4.009973781250000,0,0x5D,0x00,Read,ACK
4.009996687500000,0,0x5D,0x00,Read,ACK
4.010018187500000,0,0x5D,0x00,Read,ACK
4.010039656250000,0,0x5D,0x00,Read,NAK
4.015766750000000,0,0x5D,0x2F,Read,ACK
4.015789656250000,0,0x5D,0x00,Read,ACK
4.015811875000000,0,0x5D,0x04,Read,ACK
4.015834125000000,0,0x5D,0x03,Read,ACK
4.015855562500000,0,0x5D,0x43,Read,ACK
4.015877031250000,0,0x5D,0x09,Read,ACK
4.015898718750000,0,0x5D,0x49,Read,ACK
4.015921937500000,0,0x5D,0x04,Read,ACK
4.015943406250000,0,0x5D,0x03,Read,ACK
4.015965031250000,0,0x5D,0x03,Read,ACK
4.015986531250000,0,0x5D,0x20,Read,ACK
4.016008000000000,0,0x5D,0x00,Read,ACK
4.016029593750000,0,0x5D,0x00,Read,ACK
4.016051093750000,0,0x5D,0x00,Read,ACK
4.016072656250000,0,0x5D,0x00,Read,ACK
4.016094156250000,0,0x5D,0x00,Read,ACK
4.016115625000000,0,0x5D,0x00,Read,ACK
4.016137125000000,0,0x5D,0x00,Read,ACK
4.016158562500000,0,0x5D,0x00,Read,ACK
4.016180031250000,0,0x5D,0x00,Read,ACK
4.016201500000000,0,0x5D,0x00,Read,ACK
4.016223000000000,0,0x5D,0x00,Read,ACK
4.016244531250000,0,0x5D,0x00,Read,ACK
4.016266000000000,0,0x5D,0x00,Read,ACK
4.016287468750000,0,0x5D,0x00,Read,ACK
4.016308968750000,0,0x5D,0x00,Read,ACK
4.016330406250000,0,0x5D,0x00,Read,ACK
4.016351906250000,0,0x5D,0x00,Read,ACK
4.016373375000000,0,0x5D,0x00,Read,ACK
4.016394843750000,0,0x5D,0x00,Read,ACK
4.016416312500000,0,0x5D,0x00,Read,ACK
4.016438500000000,0,0x5D,0x00,Read,ACK
4.016460281250000,0,0x5D,0x00,Read,ACK
4.016485031250000,0,0x5D,0x00,Read,ACK
4.016507750000000,0,0x5D,0x00,Read,ACK
4.016530937500000,0,0x5D,0x00,Read,ACK
4.016552406250000,0,0x5D,0x00,Read,ACK
4.016573875000000,0,0x5D,0x00,Read,ACK
4.016595593750000,0,0x5D,0x00,Read,ACK
4.016617062500000,0,0x5D,0x00,Read,ACK
4.016638812500000,0,0x5D,0x00,Read,ACK
4.016661312500000,0,0x5D,0x00,Read,ACK
4.016682750000000,0,0x5D,0x00,Read,ACK
4.016704218750000,0,0x5D,0xA0,Read,ACK
4.016725687500000,0,0x5D,0x8A,Read,ACK
4.016747187500000,0,0x5D,0x01,Read,ACK
4.016768656250000,0,0x5D,0x00,Read,ACK
4.016790750000000,0,0x5D,0x00,Read,ACK
4.016813812500000,0,0x5D,0x00,Read,ACK
4.016835875000000,0,0x5D,0x00,Read,ACK
4.016857343750000,0,0x5D,0x00,Read,ACK
4.016878812500000,0,0x5D,0x00,Read,ACK
4.016901687500000,0,0x5D,0x00,Read,ACK
4.016923125000000,0,0x5D,0x00,Read,ACK
4.016944625000000,0,0x5D,0x00,Read,ACK
4.016967062500000,0,0x5D,0x00,Read,ACK
4.016988562500000,0,0x5D,0x00,Read,ACK
4.017010531250000,0,0x5D,0x00,Read,ACK
4.017032000000000,0,0x5D,0x00,Read,ACK
4.017053937500000,0,0x5D,0x00,Read,ACK
4.017075718750000,0,0x5D,0x00,Read,ACK
4.017099937500000,0,0x5D,0x00,Read,ACK
4.017121406250000,0,0x5D,0x00,Read,ACK
4.017142875000000,0,0x5D,0x00,Read,NAK
4.023272343750000,0,0x5D,0x2F,Read,ACK
4.023299406250000,0,0x5D,0x00,Read,ACK
4.023320875000000,0,0x5D,0x04,Read,ACK
4.023342375000000,0,0x5D,0x03,Read,ACK
4.023363843750000,0,0x5D,0x43,Read,ACK
4.023385437500000,0,0x5D,0x09,Read,ACK
4.023406937500000,0,0x5D,0x58,Read,ACK
4.023428437500000,0,0x5D,0x04,Read,ACK
4.023450000000000,0,0x5D,0x03,Read,ACK
4.023471468750000,0,0x5D,0x03,Read,ACK
4.023492968750000,0,0x5D,0x20,Read,ACK
4.023516187500000,0,0x5D,0x00,Read,ACK
4.023539312500000,0,0x5D,0x00,Read,ACK
4.023560812500000,0,0x5D,0x00,Read,ACK
4.023583687500000,0,0x5D,0x00,Read,ACK
4.023608437500000,0,0x5D,0x00,Read,ACK
4.023630343750000,0,0x5D,0x00,Read,ACK
4.023652718750000,0,0x5D,0x00,Read,ACK
4.023674187500000,0,0x5D,0x00,Read,ACK
4.023695656250000,0,0x5D,0x00,Read,ACK
4.023717500000000,0,0x5D,0x00,Read,ACK
4.023739375000000,0,0x5D,0x00,Read,ACK
4.023760875000000,0,0x5D,0x00,Read,ACK
4.023782781250000,0,0x5D,0x00,Read,ACK
4.023804312500000,0,0x5D,0x00,Read,ACK
4.023825781250000,0,0x5D,0x00,Read,ACK
4.023847250000000,0,0x5D,0x00,Read,ACK
4.023868718750000,0,0x5D,0x00,Read,ACK
4.023892531250000,0,0x5D,0x00,Read,ACK
4.023915406250000,0,0x5D,0x00,Read,ACK
4.023938312500000,0,0x5D,0x00,Read,ACK
4.023961250000000,0,0x5D,0x00,Read,ACK
4.023984125000000,0,0x5D,0x00,Read,ACK
4.024007500000000,0,0x5D,0x00,Read,ACK
4.024030093750000,0,0x5D,0x00,Read,ACK
4.024051625000000,0,0x5D,0x00,Read,ACK
4.024073093750000,0,0x5D,0x00,Read,ACK
4.024095031250000,0,0x5D,0x00,Read,ACK
4.024116531250000,0,0x5D,0x00,Read,ACK
4.024139500000000,0,0x5D,0x00,Read,ACK
4.024161031250000,0,0x5D,0x00,Read,ACK
4.024184687500000,0,0x5D,0x00,Read,ACK
4.024207656250000,0,0x5D,0x00,Read,ACK
4.024234968750000,0,0x5D,0xE6,Read,ACK
4.024259437500000,0,0x5D,0x8A,Read,ACK
4.024282281250000,0,0x5D,0x01,Read,ACK
4.024303781250000,0,0x5D,0x00,Read,ACK
4.024325281250000,0,0x5D,0x00,Read,ACK
4.024346750000000,0,0x5D,0x00,Read,ACK
4.024369375000000,0,0x5D,0x00,Read,ACK
4.024392531250000,0,0x5D,0x00,Read,ACK
4.024415312500000,0,0x5D,0x00,Read,ACK
4.024436750000000,0,0x5D,0x00,Read,ACK
4.024458218750000,0,0x5D,0x00,Read,ACK
4.024480375000000,0,0x5D,0x00,Read,ACK
4.024502156250000,0,0x5D,0x00,Read,ACK
4.024523656250000,0,0x5D,0x00,Read,ACK
4.024545125000000,0,0x5D,0x00,Read,ACK
4.024567093750000,0,0x5D,0x00,Read,ACK
4.024591500000000,0,0x5D,0x00,Read,ACK
4.024612968750000,0,0x5D,0x00,Read,ACK
4.024634437500000,0,0x5D,0x00,Read,ACK
4.024656750000000,0,0x5D,0x00,Read,ACK
4.024678250000000,0,0x5D,0x00,Read,NAK
4.030618031250000,0,0x5D,0x2F,Read,ACK
4.030646656250000,0,0x5D,0x00,Read,ACK
4.030669656250000,0,0x5D,0x04,Read,ACK
4.030691125000000,0,0x5D,0x03,Read,ACK
4.030712812500000,0,0x5D,0x43,Read,ACK
4.030735593750000,0,0x5D,0x09,Read,ACK
4.030758468750000,0,0x5D,0x68,Read,ACK
4.030779968750000,0,0x5D,0x04,Read,ACK
4.030802343750000,0,0x5D,0x03,Read,ACK
4.030824843750000,0,0x5D,0x02,Read,ACK
4.030846468750000,0,0x5D,0x20,Read,ACK
4.030867906250000,0,0x5D,0x00,Read,ACK
4.030889375000000,0,0x5D,0x00,Read,ACK
4.030911406250000,0,0x5D,0x00,Read,ACK
4.030932906250000,0,0x5D,0x00,Read,ACK
4.030954375000000,0,0x5D,0x00,Read,ACK
4.030975843750000,0,0x5D,0x00,Read,ACK
4.030999000000000,0,0x5D,0x00,Read,ACK
4.031022156250000,0,0x5D,0x00,Read,ACK
4.031043656250000,0,0x5D,0x00,Read,ACK
4.031065281250000,0,0x5D,0x00,Read,ACK
4.031086718750000,0,0x5D,0x00,Read,ACK
4.031108218750000,0,0x5D,0x00,Read,ACK
4.031130125000000,0,0x5D,0x00,Read,ACK
4.031151562500000,0,0x5D,0x00,Read,ACK
4.031174375000000,0,0x5D,0x00,Read,ACK
4.031195843750000,0,0x5D,0x00,Read,ACK
4.031218437500000,0,0x5D,0x00,Read,ACK
4.031240593750000,0,0x5D,0x00,Read,ACK
4.031264062500000,0,0x5D,0x00,Read,ACK
4.031285781250000,0,0x5D,0x00,Read,ACK
4.031310750000000,0,0x5D,0x00,Read,ACK
4.031332218750000,0,0x5D,0x00,Read,ACK
4.031353718750000,0,0x5D,0x00,Read,ACK
4.031375187500000,0,0x5D,0x00,Read,ACK
4.031396656250000,0,0x5D,0x00,Read,ACK
4.031418531250000,0,0x5D,0x00,Read,ACK
4.031440375000000,0,0x5D,0x00,Read,ACK
4.031462250000000,0,0x5D,0x00,Read,ACK
4.031483718750000,0,0x5D,0x00,Read,ACK
4.031506406250000,0,0x5D,0x00,Read,ACK
4.031528781250000,0,0x5D,0x00,Read,ACK
4.031550312500000,0,0x5D,0x00,Read,ACK
4.031571937500000,0,0x5D,0x2C,Read,ACK
4.031593437500000,0,0x5D,0x8B,Read,ACK
4.031614906250000,0,0x5D,0x01,Read,ACK
4.031636562500000,0,0x5D,0x00,Read,ACK
4.031658031250000,0,0x5D,0x00,Read,ACK
4.031679593750000,0,0x5D,0x00,Read,ACK
4.031701062500000,0,0x5D,0x00,Read,ACK
4.031724437500000,0,0x5D,0x00,Read,ACK
4.031745937500000,0,0x5D,0x00,Read,ACK
4.031767406250000,0,0x5D,0x00,Read,ACK
4.031788875000000,0,0x5D,0x00,Read,ACK
4.031810656250000,0,0x5D,0x00,Read,ACK
4.031832156250000,0,0x5D,0x00,Read,ACK
4.031853656250000,0,0x5D,0x00,Read,ACK
4.031876531250000,0,0x5D,0x00,Read,ACK
4.031898718750000,0,0x5D,0x00,Read,ACK
4.031921156250000,0,0x5D,0x00,Read,ACK
4.031942937500000,0,0x5D,0x00,Read,ACK
4.031964437500000,0,0x5D,0x00,Read,ACK
4.031986250000000,0,0x5D,0x00,Read,ACK
4.032009062500000,0,0x5D,0x00,Read,NAK
4.037221687500000,0,0x5D,0x2F,Read,ACK
4.037246718750000,0,0x5D,0x00,Read,ACK
4.037268187500000,0,0x5D,0x04,Read,ACK
4.037289656250000,0,0x5D,0x03,Read,ACK
4.037311125000000,0,0x5D,0x40,Read,ACK
4.037332687500000,0,0x5D,0x09,Read,ACK
4.037354812500000,0,0x5D,0x7A,Read,ACK
4.037376312500000,0,0x5D,0x04,Read,ACK
4.037397781250000,0,0x5D,0x03,Read,ACK
4.037419250000000,0,0x5D,0x02,Read,ACK
4.037440718750000,0,0x5D,0x20,Read,ACK
4.037462218750000,0,0x5D,0x00,Read,ACK
4.037484187500000,0,0x5D,0x00,Read,ACK
4.037505656250000,0,0x5D,0x00,Read,ACK
4.037527125000000,0,0x5D,0x00,Read,ACK
4.037548593750000,0,0x5D,0x00,Read,ACK
4.037570062500000,0,0x5D,0x00,Read,ACK
4.037591562500000,0,0x5D,0x00,Read,ACK
4.037613156250000,0,0x5D,0x00,Read,ACK
4.037634625000000,0,0x5D,0x00,Read,ACK
4.037656093750000,0,0x5D,0x00,Read,ACK
4.037677593750000,0,0x5D,0x00,Read,ACK
4.037699062500000,0,0x5D,0x00,Read,ACK
4.037720562500000,0,0x5D,0x00,Read,ACK
4.037742031250000,0,0x5D,0x00,Read,ACK
4.037763468750000,0,0x5D,0x00,Read,ACK
4.037784937500000,0,0x5D,0x00,Read,ACK
4.037806437500000,0,0x5D,0x00,Read,ACK
4.037827906250000,0,0x5D,0x00,Read,ACK
4.037849375000000,0,0x5D,0x00,Read,ACK
4.037873968750000,0,0x5D,0x00,Read,ACK
4.037897625000000,0,0x5D,0x00,Read,ACK
4.037923593750000,0,0x5D,0x00,Read,ACK
4.037945093750000,0,0x5D,0x00,Read,ACK
4.037967218750000,0,0x5D,0x00,Read,ACK
4.037988843750000,0,0x5D,0x00,Read,ACK
4.038010343750000,0,0x5D,0x00,Read,ACK
4.038032031250000,0,0x5D,0x00,Read,ACK
4.038053531250000,0,0x5D,0x00,Read,ACK
4.038075812500000,0,0x5D,0x00,Read,ACK
4.038098437500000,0,0x5D,0x00,Read,ACK
4.038120593750000,0,0x5D,0x00,Read,ACK
4.038143687500000,0,0x5D,0x00,Read,ACK
4.038165156250000,0,0x5D,0x72,Read,ACK
4.038186625000000,0,0x5D,0x8B,Read,ACK
4.038208593750000,0,0x5D,0x01,Read,ACK
4.038230062500000,0,0x5D,0x00,Read,ACK
4.038252937500000,0,0x5D,0x00,Read,ACK
4.038275562500000,0,0x5D,0x00,Read,ACK
4.038297687500000,0,0x5D,0x00,Read,ACK
4.038322406250000,0,0x5D,0x00,Read,ACK
4.038343906250000,0,0x5D,0x00,Read,ACK
4.038365906250000,0,0x5D,0x00,Read,ACK
4.038389625000000,0,0x5D,0x00,Read,ACK
4.038411125000000,0,0x5D,0x00,Read,ACK
4.038432593750000,0,0x5D,0x00,Read,ACK
4.038454062500000,0,0x5D,0x00,Read,ACK
4.038475968750000,0,0x5D,0x00,Read,ACK
4.038498125000000,0,0x5D,0x00,Read,ACK
4.038523343750000,0,0x5D,0x00,Read,ACK
4.038546062500000,0,0x5D,0x00,Read,ACK
4.038567562500000,0,0x5D,0x00,Read,ACK
4.038589031250000,0,0x5D,0x00,Read,ACK
4.038610500000000,0,0x5D,0x00,Read,NAK
4.044352250000000,0,0x5D,0x2F,Read,ACK
4.044378281250000,0,0x5D,0x00,Read,ACK
4.044401093750000,0,0x5D,0x04,Read,ACK
4.044422562500000,0,0x5D,0x03,Read,ACK
4.044444031250000,0,0x5D,0x3C,Read,ACK
4.044465500000000,0,0x5D,0x09,Read,ACK
4.044487281250000,0,0x5D,0x8B,Read,ACK
4.044508781250000,0,0x5D,0x04,Read,ACK
4.044530281250000,0,0x5D,0x03,Read,ACK
4.044551781250000,0,0x5D,0x02,Read,ACK
4.044573250000000,0,0x5D,0x20,Read,ACK
4.044594750000000,0,0x5D,0x00,Read,ACK
4.044617437500000,0,0x5D,0x00,Read,ACK
4.044638937500000,0,0x5D,0x00,Read,ACK
4.044660406250000,0,0x5D,0x00,Read,ACK
4.044681906250000,0,0x5D,0x00,Read,ACK
4.044703343750000,0,0x5D,0x00,Read,ACK
4.044724968750000,0,0x5D,0x00,Read,ACK
4.044746437500000,0,0x5D,0x00,Read,ACK
4.044767906250000,0,0x5D,0x00,Read,ACK
4.044789406250000,0,0x5D,0x00,Read,ACK
4.044810906250000,0,0x5D,0x00,Read,ACK
4.044832437500000,0,0x5D,0x00,Read,ACK
4.044853937500000,0,0x5D,0x00,Read,ACK
4.044875437500000,0,0x5D,0x00,Read,ACK
4.044896937500000,0,0x5D,0x00,Read,ACK
4.044918406250000,0,0x5D,0x00,Read,ACK
4.044939906250000,0,0x5D,0x00,Read,ACK
4.044961375000000,0,0x5D,0x00,Read,ACK
4.044982843750000,0,0x5D,0x00,Read,ACK
4.045004375000000,0,0x5D,0x00,Read,ACK
4.045027343750000,0,0x5D,0x00,Read,ACK
4.045051687500000,0,0x5D,0x00,Read,ACK
4.045076812500000,0,0x5D,0x00,Read,ACK
4.045098750000000,0,0x5D,0x00,Read,ACK
4.045120250000000,0,0x5D,0x00,Read,ACK
4.045141718750000,0,0x5D,0x00,Read,ACK
4.045163218750000,0,0x5D,0x00,Read,ACK
4.045185343750000,0,0x5D,0x00,Read,ACK
4.045206843750000,0,0x5D,0x00,Read,ACK
4.045228500000000,0,0x5D,0x00,Read,ACK
4.045251718750000,0,0x5D,0x00,Read,ACK
4.045273187500000,0,0x5D,0x00,Read,ACK
4.045294656250000,0,0x5D,0xB8,Read,ACK
4.045316281250000,0,0x5D,0x8B,Read,ACK
4.045337750000000,0,0x5D,0x01,Read,ACK
4.045359218750000,0,0x5D,0x00,Read,ACK
4.045380718750000,0,0x5D,0x00,Read,ACK
4.045403875000000,0,0x5D,0x00,Read,ACK
4.045425343750000,0,0x5D,0x00,Read,ACK
4.045446843750000,0,0x5D,0x00,Read,ACK
4.045468281250000,0,0x5D,0x00,Read,ACK
4.045492187500000,0,0x5D,0x00,Read,ACK
4.045513843750000,0,0x5D,0x00,Read,ACK
4.045535375000000,0,0x5D,0x00,Read,ACK
4.045557656250000,0,0x5D,0x00,Read,ACK
4.045580062500000,0,0x5D,0x00,Read,ACK
4.045601687500000,0,0x5D,0x00,Read,ACK
4.045623562500000,0,0x5D,0x00,Read,ACK
4.045645906250000,0,0x5D,0x00,Read,ACK
4.045668218750000,0,0x5D,0x00,Read,ACK
4.045690343750000,0,0x5D,0x00,Read,ACK
4.045714343750000,0,0x5D,0x00,Read,ACK
4.045735812500000,0,0x5D,0x00,Read,NAK
4.051433500000000,0,0x5D,0x2F,Read,ACK
4.051456250000000,0,0x5D,0x00,Read,ACK
4.051477750000000,0,0x5D,0x04,Read,ACK
4.051499375000000,0,0x5D,0x03,Read,ACK
4.051521000000000,0,0x5D,0x36,Read,ACK
4.051542968750000,0,0x5D,0x09,Read,ACK
4.051564718750000,0,0x5D,0x9B,Read,ACK
4.051586156250000,0,0x5D,0x04,Read,ACK
4.051607687500000,0,0x5D,0x03,Read,ACK
4.051629187500000,0,0x5D,0x03,Read,ACK
4.051650968750000,0,0x5D,0x20,Read,ACK
4.051672468750000,0,0x5D,0x00,Read,ACK
4.051693968750000,0,0x5D,0x00,Read,ACK
4.051715437500000,0,0x5D,0x00,Read,ACK
4.051736906250000,0,0x5D,0x00,Read,ACK
4.051761968750000,0,0x5D,0x00,Read,ACK
4.051783468750000,0,0x5D,0x00,Read,ACK
4.051804937500000,0,0x5D,0x00,Read,ACK
4.051826437500000,0,0x5D,0x00,Read,ACK
4.051847906250000,0,0x5D,0x00,Read,ACK
4.051869406250000,0,0x5D,0x00,Read,ACK
4.051890875000000,0,0x5D,0x00,Read,ACK
4.051912343750000,0,0x5D,0x00,Read,ACK
4.051933812500000,0,0x5D,0x00,Read,ACK
4.051955437500000,0,0x5D,0x00,Read,ACK
4.051976875000000,0,0x5D,0x00,Read,ACK
4.051998375000000,0,0x5D,0x00,Read,ACK
4.052019843750000,0,0x5D,0x00,Read,ACK
4.052041343750000,0,0x5D,0x00,Read,ACK
4.052062906250000,0,0x5D,0x00,Read,ACK
4.052084406250000,0,0x5D,0x00,Read,ACK
4.052105906250000,0,0x5D,0x00,Read,ACK
4.052127343750000,0,0x5D,0x00,Read,ACK
4.052150375000000,0,0x5D,0x00,Read,ACK
4.052171875000000,0,0x5D,0x00,Read,ACK
4.052194125000000,0,0x5D,0x00,Read,ACK
4.052217718750000,0,0x5D,0x00,Read,ACK
4.052239406250000,0,0x5D,0x00,Read,ACK
4.052261062500000,0,0x5D,0x00,Read,ACK
4.052282562500000,0,0x5D,0x00,Read,ACK
4.052304031250000,0,0x5D,0x00,Read,ACK
4.052325718750000,0,0x5D,0x00,Read,ACK
4.052347156250000,0,0x5D,0x00,Read,ACK
4.052370281250000,0,0x5D,0xFE,Read,ACK
4.052391843750000,0,0x5D,0x8B,Read,ACK
4.052413281250000,0,0x5D,0x01,Read,ACK
4.052434781250000,0,0x5D,0x00,Read,ACK
4.052456250000000,0,0x5D,0x00,Read,ACK
4.052477906250000,0,0x5D,0x00,Read,ACK
4.052499375000000,0,0x5D,0x00,Read,ACK
4.052520843750000,0,0x5D,0x00,Read,ACK
4.052543875000000,0,0x5D,0x00,Read,ACK
4.052566968750000,0,0x5D,0x00,Read,ACK
4.052588468750000,0,0x5D,0x00,Read,ACK
4.052612125000000,0,0x5D,0x00,Read,ACK
4.052633593750000,0,0x5D,0x00,Read,ACK
4.052655968750000,0,0x5D,0x00,Read,ACK
4.052678187500000,0,0x5D,0x00,Read,ACK
4.052700656250000,0,0x5D,0x00,Read,ACK
4.052723843750000,0,0x5D,0x00,Read,ACK
4.052745593750000,0,0x5D,0x00,Read,ACK
4.052767312500000,0,0x5D,0x00,Read,ACK
4.052790687500000,0,0x5D,0x00,Read,ACK
4.052812437500000,0,0x5D,0x00,Read,NAK
4.058639312500000,0,0x5D,0x2F,Read,ACK
4.058670656250000,0,0x5D,0x00,Read,ACK
4.058694218750000,0,0x5D,0x04,Read,ACK
4.058716843750000,0,0x5D,0x03,Read,ACK
4.058738312500000,0,0x5D,0x2E,Read,ACK
4.058761031250000,0,0x5D,0x09,Read,ACK
4.058782500000000,0,0x5D,0xAB,Read,ACK
4.058804000000000,0,0x5D,0x04,Read,ACK
4.058825468750000,0,0x5D,0x03,Read,ACK
4.058846937500000,0,0x5D,0x03,Read,ACK
4.058868437500000,0,0x5D,0x20,Read,ACK
4.058890343750000,0,0x5D,0x00,Read,ACK
4.058913281250000,0,0x5D,0x00,Read,ACK
4.058934750000000,0,0x5D,0x00,Read,ACK
4.058956250000000,0,0x5D,0x00,Read,ACK
4.058977718750000,0,0x5D,0x00,Read,ACK
4.058999187500000,0,0x5D,0x00,Read,ACK
4.059020656250000,0,0x5D,0x00,Read,ACK
4.059042125000000,0,0x5D,0x00,Read,ACK
4.059063843750000,0,0x5D,0x00,Read,ACK
4.059085343750000,0,0x5D,0x00,Read,ACK
4.059106843750000,0,0x5D,0x00,Read,ACK
4.059128312500000,0,0x5D,0x00,Read,ACK
4.059149750000000,0,0x5D,0x00,Read,ACK
4.059171218750000,0,0x5D,0x00,Read,ACK
4.059192750000000,0,0x5D,0x00,Read,ACK
4.059214187500000,0,0x5D,0x00,Read,ACK
4.059235656250000,0,0x5D,0x00,Read,ACK
4.059257125000000,0,0x5D,0x00,Read,ACK
4.059278781250000,0,0x5D,0x00,Read,ACK
4.059300281250000,0,0x5D,0x00,Read,ACK
4.059321750000000,0,0x5D,0x00,Read,ACK
4.059344687500000,0,0x5D,0x00,Read,ACK
4.059368312500000,0,0x5D,0x00,Read,ACK
4.059389812500000,0,0x5D,0x00,Read,ACK
4.059412062500000,0,0x5D,0x00,Read,ACK
4.059433781250000,0,0x5D,0x00,Read,ACK
4.059455281250000,0,0x5D,0x00,Read,ACK
4.059476781250000,0,0x5D,0x00,Read,ACK
4.059498281250000,0,0x5D,0x00,Read,ACK
4.059520031250000,0,0x5D,0x00,Read,ACK
4.059543062500000,0,0x5D,0x00,Read,ACK
4.059564968750000,0,0x5D,0x00,Read,ACK
4.059590343750000,0,0x5D,0x44,Read,ACK
4.059611968750000,0,0x5D,0x8C,Read,ACK
4.059633468750000,0,0x5D,0x01,Read,ACK
4.059655937500000,0,0x5D,0x00,Read,ACK
4.059677437500000,0,0x5D,0x00,Read,ACK
4.059699250000000,0,0x5D,0x00,Read,ACK
4.059720937500000,0,0x5D,0x00,Read,ACK
4.059743812500000,0,0x5D,0x00,Read,ACK
4.059766656250000,0,0x5D,0x00,Read,ACK
4.059788625000000,0,0x5D,0x00,Read,ACK
4.059811218750000,0,0x5D,0x00,Read,ACK
4.059833375000000,0,0x5D,0x00,Read,ACK
4.059854843750000,0,0x5D,0x00,Read,ACK
4.059878375000000,0,0x5D,0x00,Read,ACK
4.059899843750000,0,0x5D,0x00,Read,ACK
4.059921437500000,0,0x5D,0x00,Read,ACK
4.059943062500000,0,0x5D,0x00,Read,ACK
4.059968125000000,0,0x5D,0x00,Read,ACK
4.059989625000000,0,0x5D,0x00,Read,ACK
4.060011218750000,0,0x5D,0x00,Read,ACK
4.060032687500000,0,0x5D,0x00,Read,NAK
4.065687218750000,0,0x5D,0x2F,Read,ACK
4.065712812500000,0,0x5D,0x00,Read,ACK
4.065734343750000,0,0x5D,0x04,Read,ACK
4.065755781250000,0,0x5D,0x03,Read,ACK
4.065777281250000,0,0x5D,0x25,Read,ACK
4.065799250000000,0,0x5D,0x09,Read,ACK
4.065822250000000,0,0x5D,0xBC,Read,ACK
4.065843750000000,0,0x5D,0x04,Read,ACK
4.065865218750000,0,0x5D,0x03,Read,ACK
4.065886750000000,0,0x5D,0x03,Read,ACK
4.065909375000000,0,0x5D,0x20,Read,ACK
4.065932031250000,0,0x5D,0x00,Read,ACK
4.065954093750000,0,0x5D,0x00,Read,ACK
4.065975562500000,0,0x5D,0x00,Read,ACK
4.065997031250000,0,0x5D,0x00,Read,ACK
4.066019156250000,0,0x5D,0x00,Read,ACK
4.066040906250000,0,0x5D,0x00,Read,ACK
4.066062531250000,0,0x5D,0x00,Read,ACK
4.066084000000000,0,0x5D,0x00,Read,ACK
4.066105468750000,0,0x5D,0x00,Read,ACK
4.066126937500000,0,0x5D,0x00,Read,ACK
4.066148406250000,0,0x5D,0x00,Read,ACK
4.066169906250000,0,0x5D,0x00,Read,ACK
4.066191375000000,0,0x5D,0x00,Read,ACK
4.066212875000000,0,0x5D,0x00,Read,ACK
4.066234375000000,0,0x5D,0x00,Read,ACK
4.066255812500000,0,0x5D,0x00,Read,ACK
4.066277281250000,0,0x5D,0x00,Read,ACK
4.066298750000000,0,0x5D,0x00,Read,ACK
4.066320218750000,0,0x5D,0x00,Read,ACK
4.066341718750000,0,0x5D,0x00,Read,ACK
4.066363218750000,0,0x5D,0x00,Read,ACK
4.066384656250000,0,0x5D,0x00,Read,ACK
4.066406156250000,0,0x5D,0x00,Read,ACK
4.066427593750000,0,0x5D,0x00,Read,ACK
4.066450281250000,0,0x5D,0x00,Read,ACK
4.066476187500000,0,0x5D,0x00,Read,ACK
4.066499218750000,0,0x5D,0x00,Read,ACK
4.066520687500000,0,0x5D,0x00,Read,ACK
4.066542656250000,0,0x5D,0x00,Read,ACK
4.066564156250000,0,0x5D,0x00,Read,ACK
4.066585625000000,0,0x5D,0x00,Read,ACK
4.066607437500000,0,0x5D,0x00,Read,ACK
4.066630656250000,0,0x5D,0x8A,Read,ACK
4.066652656250000,0,0x5D,0x8C,Read,ACK
4.066674843750000,0,0x5D,0x01,Read,ACK
4.066699406250000,0,0x5D,0x00,Read,ACK
4.066721031250000,0,0x5D,0x00,Read,ACK
4.066742500000000,0,0x5D,0x00,Read,ACK
4.066763968750000,0,0x5D,0x00,Read,ACK
4.066787218750000,0,0x5D,0x00,Read,ACK
4.066808656250000,0,0x5D,0x00,Read,ACK
4.066830125000000,0,0x5D,0x00,Read,ACK
4.066851593750000,0,0x5D,0x00,Read,ACK
4.066873468750000,0,0x5D,0x00,Read,ACK
4.066894937500000,0,0x5D,0x00,Read,ACK
4.066917281250000,0,0x5D,0x00,Read,ACK
4.066938781250000,0,0x5D,0x00,Read,ACK
4.066961968750000,0,0x5D,0x00,Read,ACK
4.066984156250000,0,0x5D,0x00,Read,ACK
4.067006906250000,0,0x5D,0x00,Read,ACK
4.067028718750000,0,0x5D,0x00,Read,ACK
4.067050218750000,0,0x5D,0x00,Read,ACK
4.067072000000000,0,0x5D,0x00,Read,NAK
4.072907625000000,0,0x5D,0x2F,Read,ACK
4.072931687500000,0,0x5D,0x00,Read,ACK
4.072953343750000,0,0x5D,0x04,Read,ACK
4.072975937500000,0,0x5D,0x03,Read,ACK
4.072997781250000,0,0x5D,0x1A,Read,ACK
4.073019281250000,0,0x5D,0x09,Read,ACK
4.073040750000000,0,0x5D,0xCC,Read,ACK
4.073062218750000,0,0x5D,0x04,Read,ACK
4.073085156250000,0,0x5D,0x03,Read,ACK
4.073106625000000,0,0x5D,0x03,Read,ACK
4.073128093750000,0,0x5D,0x20,Read,ACK
4.073149562500000,0,0x5D,0x00,Read,ACK
4.073171062500000,0,0x5D,0x00,Read,ACK
4.073194062500000,0,0x5D,0x00,Read,ACK
4.073215562500000,0,0x5D,0x00,Read,ACK
4.073237031250000,0,0x5D,0x00,Read,ACK
4.073258500000000,0,0x5D,0x00,Read,ACK
4.073280000000000,0,0x5D,0x00,Read,ACK
4.073301468750000,0,0x5D,0x00,Read,ACK
4.073322937500000,0,0x5D,0x00,Read,ACK
4.073344437500000,0,0x5D,0x00,Read,ACK
4.073365937500000,0,0x5D,0x00,Read,ACK
4.073387437500000,0,0x5D,0x00,Read,ACK
4.073408906250000,0,0x5D,0x00,Read,ACK
4.073430406250000,0,0x5D,0x00,Read,ACK
4.073451875000000,0,0x5D,0x00,Read,ACK
4.073473343750000,0,0x5D,0x00,Read,ACK
4.073495031250000,0,0x5D,0x00,Read,ACK
4.073516500000000,0,0x5D,0x00,Read,ACK
4.073538000000000,0,0x5D,0x00,Read,ACK
4.073559437500000,0,0x5D,0x00,Read,ACK
4.073582531250000,0,0x5D,0x00,Read,ACK
4.073604875000000,0,0x5D,0x00,Read,ACK
4.073629250000000,0,0x5D,0x00,Read,ACK
4.073651062500000,0,0x5D,0x00,Read,ACK
4.073673218750000,0,0x5D,0x00,Read,ACK
4.073695312500000,0,0x5D,0x00,Read,ACK
4.073716781250000,0,0x5D,0x00,Read,ACK
4.073738250000000,0,0x5D,0x00,Read,ACK
4.073760218750000,0,0x5D,0x00,Read,ACK
4.073783312500000,0,0x5D,0x00,Read,ACK
4.073805375000000,0,0x5D,0x00,Read,ACK
4.073827031250000,0,0x5D,0x00,Read,ACK
4.073848937500000,0,0x5D,0xD0,Read,ACK
4.073870531250000,0,0x5D,0x8C,Read,ACK
4.073892031250000,0,0x5D,0x01,Read,ACK
4.073913812500000,0,0x5D,0x00,Read,ACK
4.073935343750000,0,0x5D,0x00,Read,ACK
4.073958437500000,0,0x5D,0x00,Read,ACK
4.073979937500000,0,0x5D,0x00,Read,ACK
4.074002218750000,0,0x5D,0x00,Read,ACK
4.074025343750000,0,0x5D,0x00,Read,ACK
4.074046812500000,0,0x5D,0x00,Read,ACK
4.074068562500000,0,0x5D,0x00,Read,ACK
4.074090156250000,0,0x5D,0x00,Read,ACK
4.074112625000000,0,0x5D,0x00,Read,ACK
4.074134125000000,0,0x5D,0x00,Read,ACK
4.074156000000000,0,0x5D,0x00,Read,ACK
4.074177468750000,0,0x5D,0x00,Read,ACK
4.074200718750000,0,0x5D,0x00,Read,ACK
4.074222531250000,0,0x5D,0x00,Read,ACK
4.074247375000000,0,0x5D,0x00,Read,ACK
4.074268843750000,0,0x5D,0x00,Read,ACK
4.074290343750000,0,0x5D,0x00,Read,NAK
4.080668968750000,0,0x5D,0x2F,Read,ACK
4.080697500000000,0,0x5D,0x00,Read,ACK
4.080719781250000,0,0x5D,0x04,Read,ACK
4.080741281250000,0,0x5D,0x03,Read,ACK
4.080762781250000,0,0x5D,0x0E,Read,ACK
4.080784531250000,0,0x5D,0x09,Read,ACK
4.080806000000000,0,0x5D,0xDC,Read,ACK
4.080828375000000,0,0x5D,0x04,Read,ACK
4.080851156250000,0,0x5D,0x02,Read,ACK
4.080872656250000,0,0x5D,0x03,Read,ACK
4.080894093750000,0,0x5D,0x20,Read,ACK
4.080915593750000,0,0x5D,0x00,Read,ACK
4.080937531250000,0,0x5D,0x00,Read,ACK
4.080958968750000,0,0x5D,0x00,Read,ACK
4.080980437500000,0,0x5D,0x00,Read,ACK
4.081002781250000,0,0x5D,0x00,Read,ACK
4.081024281250000,0,0x5D,0x00,Read,ACK
4.081045750000000,0,0x5D,0x00,Read,ACK
4.081067218750000,0,0x5D,0x00,Read,ACK
4.081091937500000,0,0x5D,0x00,Read,ACK
4.081113406250000,0,0x5D,0x00,Read,ACK
4.081134906250000,0,0x5D,0x00,Read,ACK
4.081156562500000,0,0x5D,0x00,Read,ACK
4.081178031250000,0,0x5D,0x00,Read,ACK
4.081199781250000,0,0x5D,0x00,Read,ACK
4.081222531250000,0,0x5D,0x00,Read,ACK
4.081244968750000,0,0x5D,0x00,Read,ACK
4.081266468750000,0,0x5D,0x00,Read,ACK
4.081288031250000,0,0x5D,0x00,Read,ACK
4.081309968750000,0,0x5D,0x00,Read,ACK
4.081333281250000,0,0x5D,0x00,Read,ACK
4.081354781250000,0,0x5D,0x00,Read,ACK
4.081377468750000,0,0x5D,0x00,Read,ACK
4.081398906250000,0,0x5D,0x00,Read,ACK
4.081420375000000,0,0x5D,0x00,Read,ACK
4.081441875000000,0,0x5D,0x00,Read,ACK
4.081463750000000,0,0x5D,0x00,Read,ACK
4.081485250000000,0,0x5D,0x00,Read,ACK
4.081506718750000,0,0x5D,0x00,Read,ACK
4.081528187500000,0,0x5D,0x00,Read,ACK
4.081549687500000,0,0x5D,0x00,Read,ACK
4.081572093750000,0,0x5D,0x00,Read,ACK
4.081593812500000,0,0x5D,0x00,Read,ACK
4.081615281250000,0,0x5D,0x16,Read,ACK
4.081636781250000,0,0x5D,0x8D,Read,ACK
4.081658718750000,0,0x5D,0x01,Read,ACK
4.081680218750000,0,0x5D,0x00,Read,ACK
4.081701687500000,0,0x5D,0x00,Read,ACK
4.081723625000000,0,0x5D,0x00,Read,ACK
4.081745093750000,0,0x5D,0x00,Read,ACK
4.081766562500000,0,0x5D,0x00,Read,ACK
4.081788062500000,0,0x5D,0x00,Read,ACK
4.081809531250000,0,0x5D,0x00,Read,ACK
4.081832000000000,0,0x5D,0x00,Read,ACK
4.081853531250000,0,0x5D,0x00,Read,ACK
4.081875000000000,0,0x5D,0x00,Read,ACK
4.081897125000000,0,0x5D,0x00,Read,ACK
4.081918562500000,0,0x5D,0x00,Read,ACK
4.081940718750000,0,0x5D,0x00,Read,ACK
4.081962937500000,0,0x5D,0x00,Read,ACK
4.081984968750000,0,0x5D,0x00,Read,ACK
4.082006406250000,0,0x5D,0x00,Read,ACK
4.082027875000000,0,0x5D,0x00,Read,ACK
4.082049343750000,0,0x5D,0x00,Read,NAK
4.087620093750000,0,0x5D,0x2F,Read,ACK
4.087647375000000,0,0x5D,0x00,Read,ACK
4.087668875000000,0,0x5D,0x04,Read,ACK
4.087690343750000,0,0x5D,0x03,Read,ACK
4.087711843750000,0,0x5D,0x01,Read,ACK
4.087733281250000,0,0x5D,0x09,Read,ACK
4.087754750000000,0,0x5D,0xEB,Read,ACK
4.087776218750000,0,0x5D,0x04,Read,ACK
4.087797718750000,0,0x5D,0x03,Read,ACK
4.087819187500000,0,0x5D,0x03,Read,ACK
4.087840656250000,0,0x5D,0x20,Read,ACK
4.087862937500000,0,0x5D,0x00,Read,ACK
4.087884906250000,0,0x5D,0x00,Read,ACK
4.087906343750000,0,0x5D,0x00,Read,ACK
4.087927843750000,0,0x5D,0x00,Read,ACK
4.087949406250000,0,0x5D,0x00,Read,ACK
4.087970906250000,0,0x5D,0x00,Read,ACK
4.087993218750000,0,0x5D,0x00,Read,ACK
4.088014718750000,0,0x5D,0x00,Read,ACK
4.088036500000000,0,0x5D,0x00,Read,ACK
4.088058593750000,0,0x5D,0x00,Read,ACK
4.088081937500000,0,0x5D,0x00,Read,ACK
4.088103406250000,0,0x5D,0x00,Read,ACK
4.088125031250000,0,0x5D,0x00,Read,ACK
4.088146500000000,0,0x5D,0x00,Read,ACK
4.088168062500000,0,0x5D,0x00,Read,ACK
4.088189500000000,0,0x5D,0x00,Read,ACK
4.088210968750000,0,0x5D,0x00,Read,ACK
4.088233906250000,0,0x5D,0x00,Read,ACK
4.088256156250000,0,0x5D,0x00,Read,ACK
4.088277656250000,0,0x5D,0x00,Read,ACK
4.088299312500000,0,0x5D,0x00,Read,ACK
4.088320781250000,0,0x5D,0x00,Read,ACK
4.088342937500000,0,0x5D,0x00,Read,ACK
4.088366406250000,0,0x5D,0x00,Read,ACK
4.088387906250000,0,0x5D,0x00,Read,ACK
4.088410468750000,0,0x5D,0x00,Read,ACK
4.088431968750000,0,0x5D,0x00,Read,ACK
4.088454937500000,0,0x5D,0x00,Read,ACK
4.088476750000000,0,0x5D,0x00,Read,ACK
4.088498500000000,0,0x5D,0x00,Read,ACK
4.088519937500000,0,0x5D,0x00,Read,ACK
4.088541406250000,0,0x5D,0x00,Read,ACK
4.088562875000000,0,0x5D,0x5C,Read,ACK
4.088584343750000,0,0x5D,0x8D,Read,ACK
4.088605843750000,0,0x5D,0x01,Read,ACK
4.088627531250000,0,0x5D,0x00,Read,ACK
4.088650468750000,0,0x5D,0x00,Read,ACK
4.088671937500000,0,0x5D,0x00,Read,ACK
4.088693812500000,0,0x5D,0x00,Read,ACK
4.088715281250000,0,0x5D,0x00,Read,ACK
4.088736750000000,0,0x5D,0x00,Read,ACK
4.088758218750000,0,0x5D,0x00,Read,ACK
4.088779718750000,0,0x5D,0x00,Read,ACK
4.088801187500000,0,0x5D,0x00,Read,ACK
4.088822656250000,0,0x5D,0x00,Read,ACK
4.088844625000000,0,0x5D,0x00,Read,ACK
4.088866093750000,0,0x5D,0x00,Read,ACK
4.088887625000000,0,0x5D,0x00,Read,ACK
4.088909531250000,0,0x5D,0x00,Read,ACK
4.088931031250000,0,0x5D,0x00,Read,ACK
4.088952500000000,0,0x5D,0x00,Read,ACK
4.088973968750000,0,0x5D,0x00,Read,ACK
4.088996375000000,0,0x5D,0x00,Read,NAK
4.094355718750000,0,0x5D,0x2F,Read,ACK
4.094380843750000,0,0x5D,0x00,Read,ACK
4.094402281250000,0,0x5D,0x04,Read,ACK
4.094424812500000,0,0x5D,0x03,Read,ACK
4.094446281250000,0,0x5D,0xF3,Read,ACK
4.094467812500000,0,0x5D,0x08,Read,ACK
4.094490187500000,0,0x5D,0xF8,Read,ACK
4.094511812500000,0,0x5D,0x04,Read,ACK
4.094534562500000,0,0x5D,0x03,Read,ACK
4.094556062500000,0,0x5D,0x02,Read,ACK
4.094577531250000,0,0x5D,0x20,Read,ACK
4.094599031250000,0,0x5D,0x00,Read,ACK
4.094623937500000,0,0x5D,0x00,Read,ACK
4.094645406250000,0,0x5D,0x00,Read,ACK
4.094666906250000,0,0x5D,0x00,Read,ACK
4.094688406250000,0,0x5D,0x00,Read,ACK
4.094709875000000,0,0x5D,0x00,Read,ACK
4.094731406250000,0,0x5D,0x00,Read,ACK
4.094752906250000,0,0x5D,0x00,Read,ACK
4.094774375000000,0,0x5D,0x00,Read,ACK
4.094795875000000,0,0x5D,0x00,Read,ACK
4.094817343750000,0,0x5D,0x00,Read,ACK
4.094838812500000,0,0x5D,0x00,Read,ACK
4.094860281250000,0,0x5D,0x00,Read,ACK
4.094881750000000,0,0x5D,0x00,Read,ACK
4.094903218750000,0,0x5D,0x00,Read,ACK
4.094924718750000,0,0x5D,0x00,Read,ACK
4.094946187500000,0,0x5D,0x00,Read,ACK
4.094973000000000,0,0x5D,0x00,Read,ACK
4.094995875000000,0,0x5D,0x00,Read,ACK
4.095017375000000,0,0x5D,0x00,Read,ACK
4.095039843750000,0,0x5D,0x00,Read,ACK
4.095063531250000,0,0x5D,0x00,Read,ACK
4.095085062500000,0,0x5D,0x00,Read,ACK
4.095106656250000,0,0x5D,0x00,Read,ACK
4.095128156250000,0,0x5D,0x00,Read,ACK
4.095149656250000,0,0x5D,0x00,Read,ACK
4.095171156250000,0,0x5D,0x00,Read,ACK
4.095192656250000,0,0x5D,0x00,Read,ACK
4.095214125000000,0,0x5D,0x00,Read,ACK
4.095237593750000,0,0x5D,0x00,Read,ACK
4.095259875000000,0,0x5D,0x00,Read,ACK
4.095281375000000,0,0x5D,0x00,Read,ACK
4.095302843750000,0,0x5D,0xA2,Read,ACK
4.095324312500000,0,0x5D,0x8D,Read,ACK
4.095346375000000,0,0x5D,0x01,Read,ACK
4.095367843750000,0,0x5D,0x00,Read,ACK
4.095389343750000,0,0x5D,0x00,Read,ACK
4.095410937500000,0,0x5D,0x00,Read,ACK
4.095433468750000,0,0x5D,0x00,Read,ACK
4.095455531250000,0,0x5D,0x00,Read,ACK
4.095477062500000,0,0x5D,0x00,Read,ACK
4.095498593750000,0,0x5D,0x00,Read,ACK
4.095520031250000,0,0x5D,0x00,Read,ACK
4.095542687500000,0,0x5D,0x00,Read,ACK
4.095564406250000,0,0x5D,0x00,Read,ACK
4.095586218750000,0,0x5D,0x00,Read,ACK
4.095608437500000,0,0x5D,0x00,Read,ACK
4.095630125000000,0,0x5D,0x00,Read,ACK
4.095651843750000,0,0x5D,0x00,Read,ACK
4.095674343750000,0,0x5D,0x00,Read,ACK
4.095696218750000,0,0x5D,0x00,Read,ACK
4.095717687500000,0,0x5D,0x00,Read,ACK
4.095739156250000,0,0x5D,0x00,Read,NAK
4.101440468750000,0,0x5D,0x2F,Read,ACK
4.101466625000000,0,0x5D,0x00,Read,ACK
4.101488125000000,0,0x5D,0x04,Read,ACK
4.101509593750000,0,0x5D,0x03,Read,ACK
4.101531062500000,0,0x5D,0xE5,Read,ACK
4.101553000000000,0,0x5D,0x08,Read,ACK
4.101574468750000,0,0x5D,0x03,Read,ACK
4.101595937500000,0,0x5D,0x05,Read,ACK
4.101617406250000,0,0x5D,0x03,Read,ACK
4.101640250000000,0,0x5D,0x02,Read,ACK
4.101661750000000,0,0x5D,0x20,Read,ACK
4.101683687500000,0,0x5D,0x00,Read,ACK
4.101705187500000,0,0x5D,0x00,Read,ACK
4.101726656250000,0,0x5D,0x00,Read,ACK
4.101748125000000,0,0x5D,0x00,Read,ACK
4.101771156250000,0,0x5D,0x00,Read,ACK
4.101792656250000,0,0x5D,0x00,Read,ACK
4.101814156250000,0,0x5D,0x00,Read,ACK
4.101835593750000,0,0x5D,0x00,Read,ACK
4.101857093750000,0,0x5D,0x00,Read,ACK
4.101879281250000,0,0x5D,0x00,Read,ACK
4.101900781250000,0,0x5D,0x00,Read,ACK
4.101922250000000,0,0x5D,0x00,Read,ACK
4.101943718750000,0,0x5D,0x00,Read,ACK
4.101965218750000,0,0x5D,0x00,Read,ACK
4.101986687500000,0,0x5D,0x00,Read,ACK
4.102008156250000,0,0x5D,0x00,Read,ACK
4.102029625000000,0,0x5D,0x00,Read,ACK
4.102051093750000,0,0x5D,0x00,Read,ACK
4.102072593750000,0,0x5D,0x00,Read,ACK
4.102094062500000,0,0x5D,0x00,Read,ACK
4.102115531250000,0,0x5D,0x00,Read,ACK
4.102138500000000,0,0x5D,0x00,Read,ACK
4.102165343750000,0,0x5D,0x00,Read,ACK
4.102187468750000,0,0x5D,0x00,Read,ACK
4.102210562500000,0,0x5D,0x00,Read,ACK
4.102232281250000,0,0x5D,0x00,Read,ACK
4.102255093750000,0,0x5D,0x00,Read,ACK
4.102276781250000,0,0x5D,0x00,Read,ACK
4.102298281250000,0,0x5D,0x00,Read,ACK
4.102319781250000,0,0x5D,0x00,Read,ACK
4.102341656250000,0,0x5D,0x00,Read,ACK
4.102363437500000,0,0x5D,0x00,Read,ACK
4.102386062500000,0,0x5D,0xE8,Read,ACK
4.102407687500000,0,0x5D,0x8D,Read,ACK
4.102429156250000,0,0x5D,0x01,Read,ACK
4.102450718750000,0,0x5D,0x00,Read,ACK
4.102472156250000,0,0x5D,0x00,Read,ACK
4.102493906250000,0,0x5D,0x00,Read,ACK
4.102515343750000,0,0x5D,0x00,Read,ACK
4.102536843750000,0,0x5D,0x00,Read,ACK
4.102559093750000,0,0x5D,0x00,Read,ACK
4.102580531250000,0,0x5D,0x00,Read,ACK
4.102602031250000,0,0x5D,0x00,Read,ACK
4.102624437500000,0,0x5D,0x00,Read,ACK
4.102647093750000,0,0x5D,0x00,Read,ACK
4.102668562500000,0,0x5D,0x00,Read,ACK
4.102691031250000,0,0x5D,0x00,Read,ACK
4.102712531250000,0,0x5D,0x00,Read,ACK
4.102734000000000,0,0x5D,0x00,Read,ACK
4.102755718750000,0,0x5D,0x00,Read,ACK
4.102777187500000,0,0x5D,0x00,Read,ACK
4.102799687500000,0,0x5D,0x00,Read,ACK
4.102824562500000,0,0x5D,0x00,Read,NAK
4.108615906250000,0,0x5D,0x2F,Read,ACK
4.108641218750000,0,0x5D,0x00,Read,ACK
4.108663500000000,0,0x5D,0x04,Read,ACK
4.108686093750000,0,0x5D,0x03,Read,ACK
4.108707562500000,0,0x5D,0xD7,Read,ACK
4.108729062500000,0,0x5D,0x08,Read,ACK
4.108750562500000,0,0x5D,0x0B,Read,ACK
4.108772500000000,0,0x5D,0x05,Read,ACK
4.108795437500000,0,0x5D,0x03,Read,ACK
4.108816875000000,0,0x5D,0x02,Read,ACK
4.108838343750000,0,0x5D,0x20,Read,ACK
4.108859843750000,0,0x5D,0x00,Read,ACK
4.108881312500000,0,0x5D,0x00,Read,ACK
4.108902781250000,0,0x5D,0x00,Read,ACK
4.108924250000000,0,0x5D,0x00,Read,ACK
4.108945718750000,0,0x5D,0x00,Read,ACK
4.108967218750000,0,0x5D,0x00,Read,ACK
4.108988687500000,0,0x5D,0x00,Read,ACK
4.109010156250000,0,0x5D,0x00,Read,ACK
4.109031656250000,0,0x5D,0x00,Read,ACK
4.109053125000000,0,0x5D,0x00,Read,ACK
4.109074625000000,0,0x5D,0x00,Read,ACK
4.109096062500000,0,0x5D,0x00,Read,ACK
4.109117562500000,0,0x5D,0x00,Read,ACK
4.109139031250000,0,0x5D,0x00,Read,ACK
4.109160500000000,0,0x5D,0x00,Read,ACK
4.109182000000000,0,0x5D,0x00,Read,ACK
4.109203437500000,0,0x5D,0x00,Read,ACK
4.109224937500000,0,0x5D,0x00,Read,ACK
4.109246406250000,0,0x5D,0x00,Read,ACK
4.109267875000000,0,0x5D,0x00,Read,ACK
4.109289343750000,0,0x5D,0x00,Read,ACK
4.109310843750000,0,0x5D,0x00,Read,ACK
4.109333781250000,0,0x5D,0x00,Read,ACK
4.109356187500000,0,0x5D,0x00,Read,ACK
4.109377718750000,0,0x5D,0x00,Read,ACK
4.109399656250000,0,0x5D,0x00,Read,ACK
4.109421156250000,0,0x5D,0x00,Read,ACK
4.109442625000000,0,0x5D,0x00,Read,ACK
4.109464093750000,0,0x5D,0x00,Read,ACK
4.109485625000000,0,0x5D,0x00,Read,ACK
4.109507093750000,0,0x5D,0x00,Read,ACK
4.109528750000000,0,0x5D,0x00,Read,ACK
4.109552187500000,0,0x5D,0x2E,Read,ACK
4.109574093750000,0,0x5D,0x8E,Read,ACK
4.109595906250000,0,0x5D,0x01,Read,ACK
4.109617531250000,0,0x5D,0x00,Read,ACK
4.109639031250000,0,0x5D,0x00,Read,ACK
4.109660687500000,0,0x5D,0x00,Read,ACK
4.109682156250000,0,0x5D,0x00,Read,ACK
4.109704906250000,0,0x5D,0x00,Read,ACK
4.109726500000000,0,0x5D,0x00,Read,ACK
4.109747968750000,0,0x5D,0x00,Read,ACK
4.109769437500000,0,0x5D,0x00,Read,ACK
4.109791750000000,0,0x5D,0x00,Read,ACK
4.109813281250000,0,0x5D,0x00,Read,ACK
4.109836281250000,0,0x5D,0x00,Read,ACK
4.109857812500000,0,0x5D,0x00,Read,ACK
4.109880468750000,0,0x5D,0x00,Read,ACK
4.109902187500000,0,0x5D,0x00,Read,ACK
4.109923656250000,0,0x5D,0x00,Read,ACK
4.109945718750000,0,0x5D,0x00,Read,ACK
4.109969218750000,0,0x5D,0x00,Read,ACK
4.109991343750000,0,0x5D,0x00,Read,NAK
4.115709218750000,0,0x5D,0x2F,Read,ACK
4.115733812500000,0,0x5D,0x00,Read,ACK
4.115755281250000,0,0x5D,0x04,Read,ACK
4.115776750000000,0,0x5D,0x03,Read,ACK
4.115798218750000,0,0x5D,0xC9,Read,ACK
4.115819718750000,0,0x5D,0x08,Read,ACK
4.115841187500000,0,0x5D,0x12,Read,ACK
4.115862656250000,0,0x5D,0x05,Read,ACK
4.115884156250000,0,0x5D,0x03,Read,ACK
4.115906375000000,0,0x5D,0x02,Read,ACK
4.115929156250000,0,0x5D,0x20,Read,ACK
4.115950625000000,0,0x5D,0x00,Read,ACK
4.115972218750000,0,0x5D,0x00,Read,ACK
4.115993687500000,0,0x5D,0x00,Read,ACK
4.116015187500000,0,0x5D,0x00,Read,ACK
4.116038562500000,0,0x5D,0x00,Read,ACK
4.116060031250000,0,0x5D,0x00,Read,ACK
4.116081500000000,0,0x5D,0x00,Read,ACK
4.116102968750000,0,0x5D,0x00,Read,ACK
4.116124437500000,0,0x5D,0x00,Read,ACK
4.116145906250000,0,0x5D,0x00,Read,ACK
4.116167375000000,0,0x5D,0x00,Read,ACK
4.116188875000000,0,0x5D,0x00,Read,ACK
4.116210343750000,0,0x5D,0x00,Read,ACK
4.116231843750000,0,0x5D,0x00,Read,ACK
4.116253281250000,0,0x5D,0x00,Read,ACK
4.116274750000000,0,0x5D,0x00,Read,ACK
4.116296250000000,0,0x5D,0x00,Read,ACK
4.116317718750000,0,0x5D,0x00,Read,ACK
4.116339187500000,0,0x5D,0x00,Read,ACK
4.116360656250000,0,0x5D,0x00,Read,ACK
4.116382125000000,0,0x5D,0x00,Read,ACK
4.116403750000000,0,0x5D,0x00,Read,ACK
4.116425218750000,0,0x5D,0x00,Read,ACK
4.116448625000000,0,0x5D,0x00,Read,ACK
4.116470531250000,0,0x5D,0x00,Read,ACK
4.116492000000000,0,0x5D,0x00,Read,ACK
4.116513500000000,0,0x5D,0x00,Read,ACK
4.116535875000000,0,0x5D,0x00,Read,ACK
4.116558500000000,0,0x5D,0x00,Read,ACK
4.116579968750000,0,0x5D,0x00,Read,ACK
4.116602000000000,0,0x5D,0x00,Read,ACK
4.116623687500000,0,0x5D,0x00,Read,ACK
4.116646000000000,0,0x5D,0x74,Read,ACK
4.116668593750000,0,0x5D,0x8E,Read,ACK
4.116691593750000,0,0x5D,0x01,Read,ACK
4.116713250000000,0,0x5D,0x00,Read,ACK
4.116735968750000,0,0x5D,0x00,Read,ACK
4.116757812500000,0,0x5D,0x00,Read,ACK
4.116779312500000,0,0x5D,0x00,Read,ACK
4.116800750000000,0,0x5D,0x00,Read,ACK
4.116823468750000,0,0x5D,0x00,Read,ACK
4.116844968750000,0,0x5D,0x00,Read,ACK
4.116868218750000,0,0x5D,0x00,Read,ACK
4.116892500000000,0,0x5D,0x00,Read,ACK
4.116914250000000,0,0x5D,0x00,Read,ACK
4.116935750000000,0,0x5D,0x00,Read,ACK
4.116957687500000,0,0x5D,0x00,Read,ACK
4.116979187500000,0,0x5D,0x00,Read,ACK
4.117000718750000,0,0x5D,0x00,Read,ACK
4.117022187500000,0,0x5D,0x00,Read,ACK
4.117045187500000,0,0x5D,0x00,Read,ACK
4.117066968750000,0,0x5D,0x00,Read,ACK
4.117092812500000,0,0x5D,0x00,Read,NAK
4.122908906250000,0,0x5D,0x2F,Read,ACK
4.122933718750000,0,0x5D,0x00,Read,ACK
4.122955281250000,0,0x5D,0x04,Read,ACK
4.122977312500000,0,0x5D,0x03,Read,ACK
4.122998750000000,0,0x5D,0xB9,Read,ACK
4.123020312500000,0,0x5D,0x08,Read,ACK
4.123041781250000,0,0x5D,0x16,Read,ACK
4.123064218750000,0,0x5D,0x05,Read,ACK
4.123086375000000,0,0x5D,0x03,Read,ACK
4.123107968750000,0,0x5D,0x02,Read,ACK
4.123129437500000,0,0x5D,0x20,Read,ACK
4.123150906250000,0,0x5D,0x00,Read,ACK
4.123172375000000,0,0x5D,0x00,Read,ACK
4.123196375000000,0,0x5D,0x00,Read,ACK
4.123217843750000,0,0x5D,0x00,Read,ACK
4.123239312500000,0,0x5D,0x00,Read,ACK
4.123260781250000,0,0x5D,0x00,Read,ACK
4.123282437500000,0,0x5D,0x00,Read,ACK
4.123303906250000,0,0x5D,0x00,Read,ACK
4.123325468750000,0,0x5D,0x00,Read,ACK
4.123346937500000,0,0x5D,0x00,Read,ACK
4.123368406250000,0,0x5D,0x00,Read,ACK
4.123389875000000,0,0x5D,0x00,Read,ACK
4.123411343750000,0,0x5D,0x00,Read,ACK
4.123432843750000,0,0x5D,0x00,Read,ACK
4.123454312500000,0,0x5D,0x00,Read,ACK
4.123475781250000,0,0x5D,0x00,Read,ACK
4.123497250000000,0,0x5D,0x00,Read,ACK
4.123518718750000,0,0x5D,0x00,Read,ACK
4.123542781250000,0,0x5D,0x00,Read,ACK
4.123566656250000,0,0x5D,0x00,Read,ACK
4.123588156250000,0,0x5D,0x00,Read,ACK
4.123612406250000,0,0x5D,0x00,Read,ACK
4.123635562500000,0,0x5D,0x00,Read,ACK
4.123658218750000,0,0x5D,0x00,Read,ACK
4.123679812500000,0,0x5D,0x00,Read,ACK
4.123702250000000,0,0x5D,0x00,Read,ACK
4.123723750000000,0,0x5D,0x00,Read,ACK
4.123745218750000,0,0x5D,0x00,Read,ACK
4.123766750000000,0,0x5D,0x00,Read,ACK
4.123788437500000,0,0x5D,0x00,Read,ACK
4.123809906250000,0,0x5D,0x00,Read,ACK
4.123832468750000,0,0x5D,0x00,Read,ACK
4.123854000000000,0,0x5D,0xBA,Read,ACK
4.123875875000000,0,0x5D,0x8E,Read,ACK
4.123897312500000,0,0x5D,0x01,Read,ACK
4.123919281250000,0,0x5D,0x00,Read,ACK
4.123941000000000,0,0x5D,0x00,Read,ACK
4.123963031250000,0,0x5D,0x00,Read,ACK
4.123984468750000,0,0x5D,0x00,Read,ACK
4.124005937500000,0,0x5D,0x00,Read,ACK
4.124027406250000,0,0x5D,0x00,Read,ACK
4.124050343750000,0,0x5D,0x00,Read,ACK
4.124072562500000,0,0x5D,0x00,Read,ACK
4.124094000000000,0,0x5D,0x00,Read,ACK
4.124116656250000,0,0x5D,0x00,Read,ACK
4.124138093750000,0,0x5D,0x00,Read,ACK
4.124159562500000,0,0x5D,0x00,Read,ACK
4.124181031250000,0,0x5D,0x00,Read,ACK
4.124205031250000,0,0x5D,0x00,Read,ACK
4.124226937500000,0,0x5D,0x00,Read,ACK
4.124252593750000,0,0x5D,0x00,Read,ACK
4.124275375000000,0,0x5D,0x00,Read,ACK
4.124297812500000,0,0x5D,0x00,Read,NAK
4.130609625000000,0,0x5D,0x2F,Read,ACK
4.130636843750000,0,0x5D,0x00,Read,ACK
4.130662906250000,0,0x5D,0x04,Read,ACK
4.130688750000000,0,0x5D,0x03,Read,ACK
4.130711437500000,0,0x5D,0xA7,Read,ACK
4.130734375000000,0,0x5D,0x08,Read,ACK
4.130756437500000,0,0x5D,0x18,Read,ACK
4.130777937500000,0,0x5D,0x05,Read,ACK
4.130799406250000,0,0x5D,0x03,Read,ACK
4.130820875000000,0,0x5D,0x02,Read,ACK
4.130844187500000,0,0x5D,0x20,Read,ACK
4.130866062500000,0,0x5D,0x00,Read,ACK
4.130887562500000,0,0x5D,0x00,Read,ACK
4.130909656250000,0,0x5D,0x00,Read,ACK
4.130931125000000,0,0x5D,0x00,Read,ACK
4.130952625000000,0,0x5D,0x00,Read,ACK
4.130975375000000,0,0x5D,0x00,Read,ACK
4.130996875000000,0,0x5D,0x00,Read,ACK
4.131018343750000,0,0x5D,0x00,Read,ACK
4.131041562500000,0,0x5D,0x00,Read,ACK
4.131063937500000,0,0x5D,0x00,Read,ACK
4.131087000000000,0,0x5D,0x00,Read,ACK
4.131109750000000,0,0x5D,0x00,Read,ACK
4.131133406250000,0,0x5D,0x00,Read,ACK
4.131155187500000,0,0x5D,0x00,Read,ACK
4.131176781250000,0,0x5D,0x00,Read,ACK
4.131198281250000,0,0x5D,0x00,Read,ACK
4.131220906250000,0,0x5D,0x00,Read,ACK
4.131242781250000,0,0x5D,0x00,Read,ACK
4.131265625000000,0,0x5D,0x00,Read,ACK
4.131287125000000,0,0x5D,0x00,Read,ACK
4.131308812500000,0,0x5D,0x00,Read,ACK
4.131330718750000,0,0x5D,0x00,Read,ACK
4.131353562500000,0,0x5D,0x00,Read,ACK
4.131375031250000,0,0x5D,0x00,Read,ACK
4.131396500000000,0,0x5D,0x00,Read,ACK
4.131418000000000,0,0x5D,0x00,Read,ACK
4.131439468750000,0,0x5D,0x00,Read,ACK
4.131461531250000,0,0x5D,0x00,Read,ACK
4.131483031250000,0,0x5D,0x00,Read,ACK
4.131504500000000,0,0x5D,0x00,Read,ACK
4.131527031250000,0,0x5D,0x00,Read,ACK
4.131548531250000,0,0x5D,0x00,Read,ACK
4.131569968750000,0,0x5D,0x00,Read,ACK
4.131592000000000,0,0x5D,0x8F,Read,ACK
4.131614718750000,0,0x5D,0x01,Read,ACK
4.131636218750000,0,0x5D,0x00,Read,ACK
4.131657687500000,0,0x5D,0x00,Read,ACK
4.131679156250000,0,0x5D,0x00,Read,ACK
4.131700625000000,0,0x5D,0x00,Read,ACK
4.131722500000000,0,0x5D,0x00,Read,ACK
4.131745531250000,0,0x5D,0x00,Read,ACK
4.131768218750000,0,0x5D,0x00,Read,ACK
4.131789937500000,0,0x5D,0x00,Read,ACK
4.131811531250000,0,0x5D,0x00,Read,ACK
4.131833031250000,0,0x5D,0x00,Read,ACK
4.131854531250000,0,0x5D,0x00,Read,ACK
4.131876000000000,0,0x5D,0x00,Read,ACK
4.131898156250000,0,0x5D,0x00,Read,ACK
4.131919625000000,0,0x5D,0x00,Read,ACK
4.131941250000000,0,0x5D,0x00,Read,ACK
4.131962812500000,0,0x5D,0x00,Read,ACK
4.131984281250000,0,0x5D,0x00,Read,ACK
4.132005906250000,0,0x5D,0x00,Read,NAK
4.137622625000000,0,0x5D,0x2F,Read,ACK
4.137648093750000,0,0x5D,0x00,Read,ACK
4.137669562500000,0,0x5D,0x04,Read,ACK
4.137691000000000,0,0x5D,0x03,Read,ACK
4.137712500000000,0,0x5D,0x94,Read,ACK
4.137733968750000,0,0x5D,0x08,Read,ACK
4.137755437500000,0,0x5D,0x19,Read,ACK
4.137776937500000,0,0x5D,0x05,Read,ACK
4.137798437500000,0,0x5D,0x03,Read,ACK
4.137822968750000,0,0x5D,0x02,Read,ACK
4.137849062500000,0,0x5D,0x20,Read,ACK
4.137870562500000,0,0x5D,0x00,Read,ACK
4.137892593750000,0,0x5D,0x00,Read,ACK
4.137914562500000,0,0x5D,0x00,Read,ACK
4.137936812500000,0,0x5D,0x00,Read,ACK
4.137959718750000,0,0x5D,0x00,Read,ACK
4.137981187500000,0,0x5D,0x00,Read,ACK
4.138002656250000,0,0x5D,0x00,Read,ACK
4.138024125000000,0,0x5D,0x00,Read,ACK
4.138046812500000,0,0x5D,0x00,Read,ACK
4.138069093750000,0,0x5D,0x00,Read,ACK
4.138092937500000,0,0x5D,0x00,Read,ACK
4.138114406250000,0,0x5D,0x00,Read,ACK
4.138135875000000,0,0x5D,0x00,Read,ACK
4.138157375000000,0,0x5D,0x00,Read,ACK
4.138179218750000,0,0x5D,0x00,Read,ACK
4.138200687500000,0,0x5D,0x00,Read,ACK
4.138222156250000,0,0x5D,0x00,Read,ACK
4.138243812500000,0,0x5D,0x00,Read,ACK
4.138266875000000,0,0x5D,0x00,Read,ACK
4.138288343750000,0,0x5D,0x00,Read,ACK
4.138311718750000,0,0x5D,0x00,Read,ACK
4.138333875000000,0,0x5D,0x00,Read,ACK
4.138356187500000,0,0x5D,0x00,Read,ACK
4.138377687500000,0,0x5D,0x00,Read,ACK
4.138399843750000,0,0x5D,0x00,Read,ACK
4.138423125000000,0,0x5D,0x00,Read,ACK
4.138444593750000,0,0x5D,0x00,Read,ACK
4.138466750000000,0,0x5D,0x00,Read,ACK
4.138488468750000,0,0x5D,0x00,Read,ACK
4.138511625000000,0,0x5D,0x00,Read,ACK
4.138536656250000,0,0x5D,0x00,Read,ACK
4.138558156250000,0,0x5D,0x00,Read,ACK
4.138579625000000,0,0x5D,0x46,Read,ACK
4.138601125000000,0,0x5D,0x8F,Read,ACK
4.138622656250000,0,0x5D,0x01,Read,ACK
4.138644687500000,0,0x5D,0x00,Read,ACK
4.138666156250000,0,0x5D,0x00,Read,ACK
4.138687625000000,0,0x5D,0x00,Read,ACK
4.138711593750000,0,0x5D,0x00,Read,ACK
4.138733062500000,0,0x5D,0x00,Read,ACK
4.138754812500000,0,0x5D,0x00,Read,ACK
4.138776281250000,0,0x5D,0x00,Read,ACK
4.138797750000000,0,0x5D,0x00,Read,ACK
4.138819250000000,0,0x5D,0x00,Read,ACK
4.138840718750000,0,0x5D,0x00,Read,ACK
4.138862187500000,0,0x5D,0x00,Read,ACK
4.138885968750000,0,0x5D,0x00,Read,ACK
4.138907468750000,0,0x5D,0x00,Read,ACK
4.138929281250000,0,0x5D,0x00,Read,ACK
4.138951187500000,0,0x5D,0x00,Read,ACK
4.138972687500000,0,0x5D,0x00,Read,ACK
4.138994156250000,0,0x5D,0x00,Read,ACK
4.139015625000000,0,0x5D,0x00,Read,NAK
4.144402312500000,0,0x5D,0x2F,Read,ACK
4.144431312500000,0,0x5D,0x00,Read,ACK
4.144452812500000,0,0x5D,0x04,Read,ACK
4.144474281250000,0,0x5D,0x03,Read,ACK
4.144499250000000,0,0x5D,0x7E,Read,ACK
4.144522218750000,0,0x5D,0x08,Read,ACK
4.144543687500000,0,0x5D,0x18,Read,ACK
4.144566218750000,0,0x5D,0x05,Read,ACK
4.144587718750000,0,0x5D,0x03,Read,ACK
4.144609187500000,0,0x5D,0x02,Read,ACK
4.144632156250000,0,0x5D,0x20,Read,ACK
4.144653625000000,0,0x5D,0x00,Read,ACK
4.144675281250000,0,0x5D,0x00,Read,ACK
4.144696781250000,0,0x5D,0x00,Read,ACK
4.144718406250000,0,0x5D,0x00,Read,ACK
4.144740156250000,0,0x5D,0x00,Read,ACK
4.144762781250000,0,0x5D,0x00,Read,ACK
4.144784250000000,0,0x5D,0x00,Read,ACK
4.144805718750000,0,0x5D,0x00,Read,ACK
4.144827187500000,0,0x5D,0x00,Read,ACK
4.144848656250000,0,0x5D,0x00,Read,ACK
4.144870125000000,0,0x5D,0x00,Read,ACK
4.144891625000000,0,0x5D,0x00,Read,ACK
4.144913093750000,0,0x5D,0x00,Read,ACK
4.144934687500000,0,0x5D,0x00,Read,ACK
4.144956187500000,0,0x5D,0x00,Read,ACK
4.144978625000000,0,0x5D,0x00,Read,ACK
4.145002875000000,0,0x5D,0x00,Read,ACK
4.145025187500000,0,0x5D,0x00,Read,ACK
4.145046781250000,0,0x5D,0x00,Read,ACK
4.145070343750000,0,0x5D,0x00,Read,ACK
4.145092062500000,0,0x5D,0x00,Read,ACK
4.145113750000000,0,0x5D,0x00,Read,ACK
4.145135281250000,0,0x5D,0x00,Read,ACK
4.145156750000000,0,0x5D,0x00,Read,ACK
4.145178218750000,0,0x5D,0x00,Read,ACK
4.145201156250000,0,0x5D,0x00,Read,ACK
4.145222718750000,0,0x5D,0x00,Read,ACK
4.145245531250000,0,0x5D,0x00,Read,ACK
4.145268531250000,0,0x5D,0x00,Read,ACK
4.145290031250000,0,0x5D,0x00,Read,ACK
4.145312625000000,0,0x5D,0x00,Read,ACK
4.145334406250000,0,0x5D,0x00,Read,ACK
4.145355906250000,0,0x5D,0x8C,Read,ACK
4.145377375000000,0,0x5D,0x8F,Read,ACK
4.145401875000000,0,0x5D,0x01,Read,ACK
4.145424437500000,0,0x5D,0x00,Read,ACK
4.145446062500000,0,0x5D,0x00,Read,ACK
4.145467500000000,0,0x5D,0x00,Read,ACK
4.145489000000000,0,0x5D,0x00,Read,ACK
4.145510437500000,0,0x5D,0x00,Read,ACK
4.145531906250000,0,0x5D,0x00,Read,ACK
4.145553531250000,0,0x5D,0x00,Read,ACK
4.145575750000000,0,0x5D,0x00,Read,ACK
4.145597218750000,0,0x5D,0x00,Read,ACK
4.145619250000000,0,0x5D,0x00,Read,ACK
4.145641156250000,0,0x5D,0x00,Read,ACK
4.145663437500000,0,0x5D,0x00,Read,ACK
4.145688406250000,0,0x5D,0x00,Read,ACK
4.145709906250000,0,0x5D,0x00,Read,ACK
4.145731375000000,0,0x5D,0x00,Read,ACK
4.145752875000000,0,0x5D,0x00,Read,ACK
4.145774406250000,0,0x5D,0x00,Read,ACK
4.145795875000000,0,0x5D,0x00,Read,NAK
4.151414187500000,0,0x5D,0x2F,Read,ACK
4.151438812500000,0,0x5D,0x00,Read,ACK
4.151460312500000,0,0x5D,0x04,Read,ACK
4.151481781250000,0,0x5D,0x03,Read,ACK
4.151503250000000,0,0x5D,0x65,Read,ACK
4.151526062500000,0,0x5D,0x08,Read,ACK
4.151549125000000,0,0x5D,0x14,Read,ACK
4.151570625000000,0,0x5D,0x05,Read,ACK
4.151592093750000,0,0x5D,0x03,Read,ACK
4.151613593750000,0,0x5D,0x03,Read,ACK
4.151635531250000,0,0x5D,0x20,Read,ACK
4.151657156250000,0,0x5D,0x00,Read,ACK
4.151678625000000,0,0x5D,0x00,Read,ACK
4.151700156250000,0,0x5D,0x00,Read,ACK
4.151721656250000,0,0x5D,0x00,Read,ACK
4.151743468750000,0,0x5D,0x00,Read,ACK
4.151765156250000,0,0x5D,0x00,Read,ACK
4.151786625000000,0,0x5D,0x00,Read,ACK
4.151808093750000,0,0x5D,0x00,Read,ACK
4.151829562500000,0,0x5D,0x00,Read,ACK
4.151851062500000,0,0x5D,0x00,Read,ACK
4.151872718750000,0,0x5D,0x00,Read,ACK
4.151894187500000,0,0x5D,0x00,Read,ACK
4.151915687500000,0,0x5D,0x00,Read,ACK
4.151937125000000,0,0x5D,0x00,Read,ACK
4.151958593750000,0,0x5D,0x00,Read,ACK
4.151980062500000,0,0x5D,0x00,Read,ACK
4.152001531250000,0,0x5D,0x00,Read,ACK
4.152023031250000,0,0x5D,0x00,Read,ACK
4.152044500000000,0,0x5D,0x00,Read,ACK
4.152066125000000,0,0x5D,0x00,Read,ACK
4.152087625000000,0,0x5D,0x00,Read,ACK
4.152109093750000,0,0x5D,0x00,Read,ACK
4.152132218750000,0,0x5D,0x00,Read,ACK
4.152153687500000,0,0x5D,0x00,Read,ACK
4.152175937500000,0,0x5D,0x00,Read,ACK
4.152198718750000,0,0x5D,0x00,Read,ACK
4.152221156250000,0,0x5D,0x00,Read,ACK
4.152242625000000,0,0x5D,0x00,Read,ACK
4.152264187500000,0,0x5D,0x00,Read,ACK
4.152285656250000,0,0x5D,0x00,Read,ACK
4.152307125000000,0,0x5D,0x00,Read,ACK
4.152329062500000,0,0x5D,0x00,Read,ACK
4.152350562500000,0,0x5D,0xD2,Read,ACK
4.152372343750000,0,0x5D,0x8F,Read,ACK
4.152394437500000,0,0x5D,0x01,Read,ACK
4.152415937500000,0,0x5D,0x00,Read,ACK
4.152437406250000,0,0x5D,0x00,Read,ACK
4.152458906250000,0,0x5D,0x00,Read,ACK
4.152480375000000,0,0x5D,0x00,Read,ACK
4.152501843750000,0,0x5D,0x00,Read,ACK
4.152523312500000,0,0x5D,0x00,Read,ACK
4.152545250000000,0,0x5D,0x00,Read,ACK
4.152566843750000,0,0x5D,0x00,Read,ACK
4.152588343750000,0,0x5D,0x00,Read,ACK
4.152609843750000,0,0x5D,0x00,Read,ACK
4.152632843750000,0,0x5D,0x00,Read,ACK
4.152654500000000,0,0x5D,0x00,Read,ACK
4.152676000000000,0,0x5D,0x00,Read,ACK
4.152697875000000,0,0x5D,0x00,Read,ACK
4.152720843750000,0,0x5D,0x00,Read,ACK
4.152742437500000,0,0x5D,0x00,Read,ACK
4.152763906250000,0,0x5D,0x00,Read,ACK
4.152787125000000,0,0x5D,0x00,Read,NAK
4.158712156250000,0,0x5D,0x2F,Read,ACK
4.158740406250000,0,0x5D,0x00,Read,ACK
4.158761843750000,0,0x5D,0x04,Read,ACK
4.158783312500000,0,0x5D,0x03,Read,ACK
4.158804781250000,0,0x5D,0x4A,Read,ACK
4.158826812500000,0,0x5D,0x08,Read,ACK
4.158848250000000,0,0x5D,0x0F,Read,ACK
4.158869718750000,0,0x5D,0x05,Read,ACK
4.158891218750000,0,0x5D,0x03,Read,ACK
4.158912656250000,0,0x5D,0x03,Read,ACK
4.158934125000000,0,0x5D,0x20,Read,ACK
4.158955593750000,0,0x5D,0x00,Read,ACK
4.158977093750000,0,0x5D,0x00,Read,ACK
4.158998562500000,0,0x5D,0x00,Read,ACK
4.159020031250000,0,0x5D,0x00,Read,ACK
4.159041531250000,0,0x5D,0x00,Read,ACK
4.159063000000000,0,0x5D,0x00,Read,ACK
4.159084468750000,0,0x5D,0x00,Read,ACK
4.159105937500000,0,0x5D,0x00,Read,ACK
4.159127437500000,0,0x5D,0x00,Read,ACK
4.159148906250000,0,0x5D,0x00,Read,ACK
4.159170343750000,0,0x5D,0x00,Read,ACK
4.159191812500000,0,0x5D,0x00,Read,ACK
4.159213312500000,0,0x5D,0x00,Read,ACK
4.159234781250000,0,0x5D,0x00,Read,ACK
4.159256375000000,0,0x5D,0x00,Read,ACK
4.159277843750000,0,0x5D,0x00,Read,ACK
4.159303468750000,0,0x5D,0x00,Read,ACK
4.159326000000000,0,0x5D,0x00,Read,ACK
4.159350593750000,0,0x5D,0x00,Read,ACK
4.159374875000000,0,0x5D,0x00,Read,ACK
4.159396562500000,0,0x5D,0x00,Read,ACK
4.159418093750000,0,0x5D,0x00,Read,ACK
4.159439593750000,0,0x5D,0x00,Read,ACK
4.159461062500000,0,0x5D,0x00,Read,ACK
4.159482750000000,0,0x5D,0x00,Read,ACK
4.159504218750000,0,0x5D,0x00,Read,ACK
4.159526156250000,0,0x5D,0x00,Read,ACK
4.159548531250000,0,0x5D,0x00,Read,ACK
4.159570000000000,0,0x5D,0x00,Read,ACK
4.159591468750000,0,0x5D,0x00,Read,ACK
4.159612968750000,0,0x5D,0x00,Read,ACK
4.159634437500000,0,0x5D,0x00,Read,ACK
4.159656000000000,0,0x5D,0x18,Read,ACK
4.159677468750000,0,0x5D,0x90,Read,ACK
4.159699093750000,0,0x5D,0x01,Read,ACK
4.159721500000000,0,0x5D,0x00,Read,ACK
4.159742937500000,0,0x5D,0x00,Read,ACK
4.159764437500000,0,0x5D,0x00,Read,ACK
4.159786250000000,0,0x5D,0x00,Read,ACK
4.159809187500000,0,0x5D,0x00,Read,ACK
4.159830656250000,0,0x5D,0x00,Read,ACK
4.159852156250000,0,0x5D,0x00,Read,ACK
4.159873656250000,0,0x5D,0x00,Read,ACK
4.159896093750000,0,0x5D,0x00,Read,ACK
4.159917593750000,0,0x5D,0x00,Read,ACK
4.159939062500000,0,0x5D,0x00,Read,ACK
4.159960750000000,0,0x5D,0x00,Read,ACK
4.159982468750000,0,0x5D,0x00,Read,ACK
4.160006781250000,0,0x5D,0x00,Read,ACK
4.160028281250000,0,0x5D,0x00,Read,ACK
4.160049781250000,0,0x5D,0x00,Read,ACK
4.160071218750000,0,0x5D,0x00,Read,ACK
4.160092781250000,0,0x5D,0x00,Read,NAK
4.165792281250000,0,0x5D,0x2F,Read,ACK
4.165815875000000,0,0x5D,0x00,Read,ACK
4.165837343750000,0,0x5D,0x04,Read,ACK
4.165858812500000,0,0x5D,0x03,Read,ACK
4.165880281250000,0,0x5D,0x2C,Read,ACK
4.165901781250000,0,0x5D,0x08,Read,ACK
4.165923281250000,0,0x5D,0x08,Read,ACK
4.165946000000000,0,0x5D,0x05,Read,ACK
4.165967437500000,0,0x5D,0x02,Read,ACK
4.165988906250000,0,0x5D,0x03,Read,ACK
4.166010406250000,0,0x5D,0x20,Read,ACK
4.166031875000000,0,0x5D,0x00,Read,ACK
4.166054343750000,0,0x5D,0x00,Read,ACK
4.166075812500000,0,0x5D,0x00,Read,ACK
4.166097312500000,0,0x5D,0x00,Read,ACK
4.166118781250000,0,0x5D,0x00,Read,ACK
4.166140281250000,0,0x5D,0x00,Read,ACK
4.166161906250000,0,0x5D,0x00,Read,ACK
4.166183375000000,0,0x5D,0x00,Read,ACK
4.166204937500000,0,0x5D,0x00,Read,ACK
4.166226406250000,0,0x5D,0x00,Read,ACK
4.166247875000000,0,0x5D,0x00,Read,ACK
4.166269343750000,0,0x5D,0x00,Read,ACK
4.166290843750000,0,0x5D,0x00,Read,ACK
4.166312343750000,0,0x5D,0x00,Read,ACK
4.166333843750000,0,0x5D,0x00,Read,ACK
4.166355312500000,0,0x5D,0x00,Read,ACK
4.166376812500000,0,0x5D,0x00,Read,ACK
4.166398281250000,0,0x5D,0x00,Read,ACK
4.166419718750000,0,0x5D,0x00,Read,ACK
4.166441250000000,0,0x5D,0x00,Read,ACK
4.166462750000000,0,0x5D,0x00,Read,ACK
4.166485812500000,0,0x5D,0x00,Read,ACK
4.166509406250000,0,0x5D,0x00,Read,ACK
4.166531218750000,0,0x5D,0x00,Read,ACK
4.166553125000000,0,0x5D,0x00,Read,ACK
4.166574843750000,0,0x5D,0x00,Read,ACK
4.166596343750000,0,0x5D,0x00,Read,ACK
4.166617812500000,0,0x5D,0x00,Read,ACK
4.166639281250000,0,0x5D,0x00,Read,ACK
4.166661062500000,0,0x5D,0x00,Read,ACK
4.166683781250000,0,0x5D,0x00,Read,ACK
4.166708500000000,0,0x5D,0x00,Read,ACK
4.166730000000000,0,0x5D,0x5E,Read,ACK
4.166751500000000,0,0x5D,0x90,Read,ACK
4.166772968750000,0,0x5D,0x01,Read,ACK
4.166796000000000,0,0x5D,0x00,Read,ACK
4.166818843750000,0,0x5D,0x00,Read,ACK
4.166840437500000,0,0x5D,0x00,Read,ACK
4.166861937500000,0,0x5D,0x00,Read,ACK
4.166883718750000,0,0x5D,0x00,Read,ACK
4.166905218750000,0,0x5D,0x00,Read,ACK
4.166927406250000,0,0x5D,0x00,Read,ACK
4.166948937500000,0,0x5D,0x00,Read,ACK
4.166970406250000,0,0x5D,0x00,Read,ACK
4.166993125000000,0,0x5D,0x00,Read,ACK
4.167016531250000,0,0x5D,0x00,Read,ACK
4.167038000000000,0,0x5D,0x00,Read,ACK
4.167059468750000,0,0x5D,0x00,Read,ACK
4.167081406250000,0,0x5D,0x00,Read,ACK
4.167104687500000,0,0x5D,0x00,Read,ACK
4.167131687500000,0,0x5D,0x00,Read,ACK
4.167153125000000,0,0x5D,0x00,Read,ACK
4.167174593750000,0,0x5D,0x00,Read,NAK
4.173475125000000,0,0x5D,0x2F,Read,ACK
4.173501281250000,0,0x5D,0x00,Read,ACK
4.173524500000000,0,0x5D,0x04,Read,ACK
4.173548656250000,0,0x5D,0x03,Read,ACK
4.173572125000000,0,0x5D,0x0D,Read,ACK
4.173593750000000,0,0x5D,0x08,Read,ACK
4.173615375000000,0,0x5D,0xFF,Read,ACK
4.173638250000000,0,0x5D,0x04,Read,ACK
4.173659687500000,0,0x5D,0x03,Read,ACK
4.173681156250000,0,0x5D,0x03,Read,ACK
4.173702656250000,0,0x5D,0x20,Read,ACK
4.173724187500000,0,0x5D,0x00,Read,ACK
4.173746875000000,0,0x5D,0x00,Read,ACK
4.173768375000000,0,0x5D,0x00,Read,ACK
4.173791062500000,0,0x5D,0x00,Read,ACK
4.173812531250000,0,0x5D,0x00,Read,ACK
4.173834000000000,0,0x5D,0x00,Read,ACK
4.173855468750000,0,0x5D,0x00,Read,ACK
4.173876968750000,0,0x5D,0x00,Read,ACK
4.173899312500000,0,0x5D,0x00,Read,ACK
4.173920781250000,0,0x5D,0x00,Read,ACK
4.173942250000000,0,0x5D,0x00,Read,ACK
4.173963718750000,0,0x5D,0x00,Read,ACK
4.173986187500000,0,0x5D,0x00,Read,ACK
4.174007656250000,0,0x5D,0x00,Read,ACK
4.174029156250000,0,0x5D,0x00,Read,ACK
4.174050937500000,0,0x5D,0x00,Read,ACK
4.174072406250000,0,0x5D,0x00,Read,ACK
4.174093906250000,0,0x5D,0x00,Read,ACK
4.174116062500000,0,0x5D,0x00,Read,ACK
4.174137562500000,0,0x5D,0x00,Read,ACK
4.174159125000000,0,0x5D,0x00,Read,ACK
4.174181500000000,0,0x5D,0x00,Read,ACK
4.174205343750000,0,0x5D,0x00,Read,ACK
4.174232875000000,0,0x5D,0x00,Read,ACK
4.174254687500000,0,0x5D,0x00,Read,ACK
4.174276187500000,0,0x5D,0x00,Read,ACK
4.174297656250000,0,0x5D,0x00,Read,ACK
4.174319156250000,0,0x5D,0x00,Read,ACK
4.174340656250000,0,0x5D,0x00,Read,ACK
4.174362156250000,0,0x5D,0x00,Read,ACK
4.174383687500000,0,0x5D,0x00,Read,ACK
4.174405156250000,0,0x5D,0x00,Read,ACK
4.174427562500000,0,0x5D,0xA4,Read,ACK
4.174449968750000,0,0x5D,0x90,Read,ACK
4.174472250000000,0,0x5D,0x01,Read,ACK
4.174493750000000,0,0x5D,0x00,Read,ACK
4.174515218750000,0,0x5D,0x00,Read,ACK
4.174536687500000,0,0x5D,0x00,Read,ACK
4.174558187500000,0,0x5D,0x00,Read,ACK
4.174580031250000,0,0x5D,0x00,Read,ACK
4.174602375000000,0,0x5D,0x00,Read,ACK
4.174623875000000,0,0x5D,0x00,Read,ACK
4.174645343750000,0,0x5D,0x00,Read,ACK
4.174666812500000,0,0x5D,0x00,Read,ACK
4.174688343750000,0,0x5D,0x00,Read,ACK
4.174709843750000,0,0x5D,0x00,Read,ACK
4.174731500000000,0,0x5D,0x00,Read,ACK
4.174753187500000,0,0x5D,0x00,Read,ACK
4.174775406250000,0,0x5D,0x00,Read,ACK
4.174796843750000,0,0x5D,0x00,Read,ACK
4.174818343750000,0,0x5D,0x00,Read,ACK
4.174840750000000,0,0x5D,0x00,Read,ACK
4.174862281250000,0,0x5D,0x00,Read,NAK
4.180045187500000,0,0x5D,0x2F,Read,ACK
4.180074437500000,0,0x5D,0x00,Read,ACK
4.180097656250000,0,0x5D,0x04,Read,ACK
4.180119656250000,0,0x5D,0x03,Read,ACK
4.180141125000000,0,0x5D,0xEF,Read,ACK
4.180162593750000,0,0x5D,0x07,Read,ACK
4.180184093750000,0,0x5D,0xF5,Read,ACK
4.180206250000000,0,0x5D,0x04,Read,ACK
4.180227718750000,0,0x5D,0x03,Read,ACK
4.180249187500000,0,0x5D,0x03,Read,ACK
4.180270656250000,0,0x5D,0x20,Read,ACK
4.180292125000000,0,0x5D,0x00,Read,ACK
4.180314812500000,0,0x5D,0x00,Read,ACK
4.180336406250000,0,0x5D,0x00,Read,ACK
4.180357937500000,0,0x5D,0x00,Read,ACK
4.180379406250000,0,0x5D,0x00,Read,ACK
4.180400906250000,0,0x5D,0x00,Read,ACK
4.180422375000000,0,0x5D,0x00,Read,ACK
4.180443812500000,0,0x5D,0x00,Read,ACK
4.180465312500000,0,0x5D,0x00,Read,ACK
4.180486781250000,0,0x5D,0x00,Read,ACK
4.180508250000000,0,0x5D,0x00,Read,ACK
4.180529750000000,0,0x5D,0x00,Read,ACK
4.180551250000000,0,0x5D,0x00,Read,ACK
4.180572750000000,0,0x5D,0x00,Read,ACK
4.180594218750000,0,0x5D,0x00,Read,ACK
4.180615906250000,0,0x5D,0x00,Read,ACK
4.180637343750000,0,0x5D,0x00,Read,ACK
4.180658843750000,0,0x5D,0x00,Read,ACK
4.180680343750000,0,0x5D,0x00,Read,ACK
4.180701781250000,0,0x5D,0x00,Read,ACK
4.180723406250000,0,0x5D,0x00,Read,ACK
4.180744875000000,0,0x5D,0x00,Read,ACK
4.180767906250000,0,0x5D,0x00,Read,ACK
4.180789687500000,0,0x5D,0x00,Read,ACK
4.180811156250000,0,0x5D,0x00,Read,ACK
4.180833187500000,0,0x5D,0x00,Read,ACK
4.180855406250000,0,0x5D,0x00,Read,ACK
4.180876906250000,0,0x5D,0x00,Read,ACK
4.180898375000000,0,0x5D,0x00,Read,ACK
4.180919843750000,0,0x5D,0x00,Read,ACK
4.180942531250000,0,0x5D,0x00,Read,ACK
4.180965656250000,0,0x5D,0x00,Read,ACK
4.180989406250000,0,0x5D,0xEA,Read,ACK
4.181010875000000,0,0x5D,0x90,Read,ACK
4.181032750000000,0,0x5D,0x01,Read,ACK
4.181054218750000,0,0x5D,0x00,Read,ACK
4.181075687500000,0,0x5D,0x00,Read,ACK
4.181097156250000,0,0x5D,0x00,Read,ACK
4.181118625000000,0,0x5D,0x00,Read,ACK
4.181141875000000,0,0x5D,0x00,Read,ACK
4.181164312500000,0,0x5D,0x00,Read,ACK
4.181185812500000,0,0x5D,0x00,Read,ACK
4.181207281250000,0,0x5D,0x00,Read,ACK
4.181228750000000,0,0x5D,0x00,Read,ACK
4.181250218750000,0,0x5D,0x00,Read,ACK
4.181271687500000,0,0x5D,0x00,Read,ACK
4.181293187500000,0,0x5D,0x00,Read,ACK
4.181315312500000,0,0x5D,0x00,Read,ACK
4.181337125000000,0,0x5D,0x00,Read,ACK
4.181358843750000,0,0x5D,0x00,Read,ACK
4.181381281250000,0,0x5D,0x00,Read,ACK
4.181403156250000,0,0x5D,0x00,Read,ACK
4.181427500000000,0,0x5D,0x00,Read,NAK
4.187523875000000,0,0x5D,0x2F,Read,ACK
4.187552531250000,0,0x5D,0x00,Read,ACK
4.187574031250000,0,0x5D,0x04,Read,ACK
4.187595500000000,0,0x5D,0x03,Read,ACK
4.187616968750000,0,0x5D,0xD0,Read,ACK
4.187638500000000,0,0x5D,0x07,Read,ACK
4.187660000000000,0,0x5D,0xE9,Read,ACK
4.187681468750000,0,0x5D,0x04,Read,ACK
4.187702937500000,0,0x5D,0x03,Read,ACK
4.187724437500000,0,0x5D,0x03,Read,ACK
4.187745906250000,0,0x5D,0x20,Read,ACK
4.187767406250000,0,0x5D,0x00,Read,ACK
4.187788843750000,0,0x5D,0x00,Read,ACK
4.187810343750000,0,0x5D,0x00,Read,ACK
4.187835406250000,0,0x5D,0x00,Read,ACK
4.187860500000000,0,0x5D,0x00,Read,ACK
4.187882031250000,0,0x5D,0x00,Read,ACK
4.187903562500000,0,0x5D,0x00,Read,ACK
4.187925250000000,0,0x5D,0x00,Read,ACK
4.187946718750000,0,0x5D,0x00,Read,ACK
4.187968218750000,0,0x5D,0x00,Read,ACK
4.187990000000000,0,0x5D,0x00,Read,ACK
4.188011468750000,0,0x5D,0x00,Read,ACK
4.188033125000000,0,0x5D,0x00,Read,ACK
4.188054593750000,0,0x5D,0x00,Read,ACK
4.188076843750000,0,0x5D,0x00,Read,ACK
4.188099625000000,0,0x5D,0x00,Read,ACK
4.188121093750000,0,0x5D,0x00,Read,ACK
4.188142562500000,0,0x5D,0x00,Read,ACK
4.188164062500000,0,0x5D,0x00,Read,ACK
4.188185656250000,0,0x5D,0x00,Read,ACK
4.188207781250000,0,0x5D,0x00,Read,ACK
4.188229281250000,0,0x5D,0x00,Read,ACK
4.188251968750000,0,0x5D,0x00,Read,ACK
4.188273437500000,0,0x5D,0x00,Read,ACK
4.188294937500000,0,0x5D,0x00,Read,ACK
4.188316781250000,0,0x5D,0x00,Read,ACK
4.188338718750000,0,0x5D,0x00,Read,ACK
4.188360187500000,0,0x5D,0x00,Read,ACK
4.188382156250000,0,0x5D,0x00,Read,ACK
4.188404687500000,0,0x5D,0x00,Read,ACK
4.188426375000000,0,0x5D,0x00,Read,ACK
4.188447843750000,0,0x5D,0x00,Read,ACK
4.188469562500000,0,0x5D,0x30,Read,ACK
4.188492406250000,0,0x5D,0x91,Read,ACK
4.188514125000000,0,0x5D,0x01,Read,ACK
4.188535593750000,0,0x5D,0x00,Read,ACK
4.188557031250000,0,0x5D,0x00,Read,ACK
4.188578531250000,0,0x5D,0x00,Read,ACK
4.188600000000000,0,0x5D,0x00,Read,ACK
4.188621968750000,0,0x5D,0x00,Read,ACK
4.188643656250000,0,0x5D,0x00,Read,ACK
4.188665187500000,0,0x5D,0x00,Read,ACK
4.188688093750000,0,0x5D,0x00,Read,ACK
4.188709968750000,0,0x5D,0x00,Read,ACK
4.188732906250000,0,0x5D,0x00,Read,ACK
4.188755218750000,0,0x5D,0x00,Read,ACK
4.188776687500000,0,0x5D,0x00,Read,ACK
4.188798156250000,0,0x5D,0x00,Read,ACK
4.188820437500000,0,0x5D,0x00,Read,ACK
4.188842968750000,0,0x5D,0x00,Read,ACK
4.188864468750000,0,0x5D,0x00,Read,ACK
4.188886343750000,0,0x5D,0x00,Read,ACK
4.188907812500000,0,0x5D,0x00,Read,NAK
4.194402781250000,0,0x5D,0x2F,Read,ACK
4.194429000000000,0,0x5D,0x00,Read,ACK
4.194450468750000,0,0x5D,0x04,Read,ACK
4.194471968750000,0,0x5D,0x03,Read,ACK
4.194493468750000,0,0x5D,0xB2,Read,ACK
4.194515406250000,0,0x5D,0x07,Read,ACK
4.194538437500000,0,0x5D,0xDC,Read,ACK
4.194559937500000,0,0x5D,0x04,Read,ACK
4.194581406250000,0,0x5D,0x02,Read,ACK
4.194602875000000,0,0x5D,0x02,Read,ACK
4.194624375000000,0,0x5D,0x20,Read,ACK
4.194647250000000,0,0x5D,0x00,Read,ACK
4.194668843750000,0,0x5D,0x00,Read,ACK
4.194690343750000,0,0x5D,0x00,Read,ACK
4.194711843750000,0,0x5D,0x00,Read,ACK
4.194733312500000,0,0x5D,0x00,Read,ACK
4.194754781250000,0,0x5D,0x00,Read,ACK
4.194776281250000,0,0x5D,0x00,Read,ACK
4.194797750000000,0,0x5D,0x00,Read,ACK
4.194819218750000,0,0x5D,0x00,Read,ACK
4.194840687500000,0,0x5D,0x00,Read,ACK
4.194862187500000,0,0x5D,0x00,Read,ACK
4.194883812500000,0,0x5D,0x00,Read,ACK
4.194905250000000,0,0x5D,0x00,Read,ACK
4.194926750000000,0,0x5D,0x00,Read,ACK
4.194948250000000,0,0x5D,0x00,Read,ACK
4.194969687500000,0,0x5D,0x00,Read,ACK
4.194991187500000,0,0x5D,0x00,Read,ACK
4.195013468750000,0,0x5D,0x00,Read,ACK
4.195034937500000,0,0x5D,0x00,Read,ACK
4.195057656250000,0,0x5D,0x00,Read,ACK
4.195082968750000,0,0x5D,0x00,Read,ACK
4.195105906250000,0,0x5D,0x00,Read,ACK
4.195127437500000,0,0x5D,0x00,Read,ACK
4.195149062500000,0,0x5D,0x00,Read,ACK
4.195170562500000,0,0x5D,0x00,Read,ACK
4.195192031250000,0,0x5D,0x00,Read,ACK
4.195213500000000,0,0x5D,0x00,Read,ACK
4.195235187500000,0,0x5D,0x00,Read,ACK
4.195257875000000,0,0x5D,0x00,Read,ACK
4.195279406250000,0,0x5D,0x00,Read,ACK
4.195300906250000,0,0x5D,0x00,Read,ACK
4.195322593750000,0,0x5D,0x00,Read,ACK
4.195344125000000,0,0x5D,0x76,Read,ACK
4.195367125000000,0,0x5D,0x91,Read,ACK
4.195388656250000,0,0x5D,0x01,Read,ACK
4.195411625000000,0,0x5D,0x00,Read,ACK
4.195434250000000,0,0x5D,0x00,Read,ACK
4.195455750000000,0,0x5D,0x00,Read,ACK
4.195477781250000,0,0x5D,0x00,Read,ACK
4.195499593750000,0,0x5D,0x00,Read,ACK
4.195521031250000,0,0x5D,0x00,Read,ACK
4.195543375000000,0,0x5D,0x00,Read,ACK
4.195565156250000,0,0x5D,0x00,Read,ACK
4.195586656250000,0,0x5D,0x00,Read,ACK
4.195609343750000,0,0x5D,0x00,Read,ACK
4.195630812500000,0,0x5D,0x00,Read,ACK
4.195652843750000,0,0x5D,0x00,Read,ACK
4.195675125000000,0,0x5D,0x00,Read,ACK
4.195699468750000,0,0x5D,0x00,Read,ACK
4.195720968750000,0,0x5D,0x00,Read,ACK
4.195742437500000,0,0x5D,0x00,Read,ACK
4.195763906250000,0,0x5D,0x00,Read,ACK
4.195785375000000,0,0x5D,0x00,Read,NAK
4.201413875000000,0,0x5D,0x2F,Read,ACK
4.201438437500000,0,0x5D,0x00,Read,ACK
4.201459937500000,0,0x5D,0x04,Read,ACK
4.201481406250000,0,0x5D,0x03,Read,ACK
4.201502875000000,0,0x5D,0x96,Read,ACK
4.201526031250000,0,0x5D,0x07,Read,ACK
4.201548687500000,0,0x5D,0xCD,Read,ACK
4.201570156250000,0,0x5D,0x04,Read,ACK
4.201591656250000,0,0x5D,0x03,Read,ACK
4.201613125000000,0,0x5D,0x02,Read,ACK
4.201634781250000,0,0x5D,0x20,Read,ACK
4.201657562500000,0,0x5D,0x00,Read,ACK
4.201679062500000,0,0x5D,0x00,Read,ACK
4.201700531250000,0,0x5D,0x00,Read,ACK
4.201722000000000,0,0x5D,0x00,Read,ACK
4.201743468750000,0,0x5D,0x00,Read,ACK
4.201766875000000,0,0x5D,0x00,Read,ACK
4.201788375000000,0,0x5D,0x00,Read,ACK
4.201810906250000,0,0x5D,0x00,Read,ACK
4.201832375000000,0,0x5D,0x00,Read,ACK
4.201853875000000,0,0x5D,0x00,Read,ACK
4.201875312500000,0,0x5D,0x00,Read,ACK
4.201896812500000,0,0x5D,0x00,Read,ACK
4.201918281250000,0,0x5D,0x00,Read,ACK
4.201939750000000,0,0x5D,0x00,Read,ACK
4.201961218750000,0,0x5D,0x00,Read,ACK
4.201982687500000,0,0x5D,0x00,Read,ACK
4.202004187500000,0,0x5D,0x00,Read,ACK
4.202025656250000,0,0x5D,0x00,Read,ACK
4.202047125000000,0,0x5D,0x00,Read,ACK
4.202068625000000,0,0x5D,0x00,Read,ACK
4.202090062500000,0,0x5D,0x00,Read,ACK
4.202111531250000,0,0x5D,0x00,Read,ACK
4.202133031250000,0,0x5D,0x00,Read,ACK
4.202154500000000,0,0x5D,0x00,Read,ACK
4.202175968750000,0,0x5D,0x00,Read,ACK
4.202199593750000,0,0x5D,0x00,Read,ACK
4.202221062500000,0,0x5D,0x00,Read,ACK
4.202242875000000,0,0x5D,0x00,Read,ACK
4.202265437500000,0,0x5D,0x00,Read,ACK
4.202287843750000,0,0x5D,0x00,Read,ACK
4.2023