Time [s],Packet ID,Address,Data,Read/Write,ACK/NAK
2.757383680000000,0,0x5D,0x2F,Read,ACK
2.757410560000000,0,0x5D,0x00,Read,ACK
2.757433520000000,0,0x5D,0x04,Read,ACK
2.757454980000000,0,0x5D,0x03,Read,ACK
2.757476460000000,0,0x5D,0xB8,Read,ACK
2.757497980000000,0,0x5D,0x03,Read,ACK
2.757519480000000,0,0x5D,0x9D,Read,ACK
2.757540960000000,0,0x5D,0x04,Read,ACK
2.757562440000000,0,0x5D,0x03,Read,ACK
2.757583920000000,0,0x5D,0x04,Read,ACK
2.757605380000000,0,0x5D,0x20,Read,ACK
2.757626820000000,0,0x5D,0x00,Read,ACK
2.757648300000000,0,0x5D,0x00,Read,ACK
2.757671480000000,0,0x5D,0x00,Read,ACK
2.757694960000000,0,0x5D,0x00,Read,ACK
2.757716460000000,0,0x5D,0x00,Read,ACK
2.757737980000000,0,0x5D,0x00,Read,ACK
2.757759500000000,0,0x5D,0x00,Read,ACK
2.757780940000000,0,0x5D,0x00,Read,ACK
2.757802540000000,0,0x5D,0x00,Read,ACK
2.757824040000000,0,0x5D,0x00,Read,ACK
2.757845960000000,0,0x5D,0x00,Read,ACK
2.757867480000000,0,0x5D,0x00,Read,ACK
2.757889280000000,0,0x5D,0x00,Read,ACK
2.757910740000000,0,0x5D,0x00,Read,ACK
2.757932200000000,0,0x5D,0x00,Read,ACK
2.757953680000000,0,0x5D,0x00,Read,ACK
2.757975160000000,0,0x5D,0x00,Read,ACK
2.757996620000000,0,0x5D,0x00,Read,ACK
2.758018100000000,0,0x5D,0x00,Read,ACK
2.758039540000000,0,0x5D,0x00,Read,ACK
2.758060980000000,0,0x5D,0x00,Read,ACK
2.758082440000000,0,0x5D,0x00,Read,ACK
2.758103900000000,0,0x5D,0x00,Read,ACK
2.758125800000000,0,0x5D,0x00,Read,ACK
2.758147260000000,0,0x5D,0x00,Read,ACK
2.758168780000000,0,0x5D,0x00,Read,ACK
2.758190240000000,0,0x5D,0x00,Read,ACK
2.758211740000000,0,0x5D,0x00,Read,ACK
2.758233520000000,0,0x5D,0x00,Read,ACK
2.758254980000000,0,0x5D,0x00,Read,ACK
2.758276440000000,0,0x5D,0x00,Read,ACK
2.758297880000000,0,0x5D,0x00,Read,ACK
2.758319460000000,0,0x5D,0x9C,Read,ACK
2.758340920000000,0,0x5D,0xAE,Read,ACK
2.758362400000000,0,0x5D,0x01,Read,ACK
2.758383840000000,0,0x5D,0x00,Read,ACK
2.758405320000000,0,0x5D,0x00,Read,ACK
2.758426820000000,0,0x5D,0x00,Read,ACK
2.758448280000000,0,0x5D,0x00,Read,ACK
2.758469720000000,0,0x5D,0x00,Read,ACK
2.758491180000000,0,0x5D,0x00,Read,ACK
2.758512880000000,0,0x5D,0x00,Read,ACK
2.758534360000000,0,0x5D,0x00,Read,ACK
2.758555820000000,0,0x5D,0x00,Read,ACK
2.758577260000000,0,0x5D,0x00,Read,ACK
2.758598720000000,0,0x5D,0x00,Read,ACK
2.758620180000000,0,0x5D,0x00,Read,ACK
2.758645200000000,0,0x5D,0x00,Read,ACK
2.758668260000000,0,0x5D,0x00,Read,ACK
2.758689720000000,0,0x5D,0x00,Read,ACK
2.758711180000000,0,0x5D,0x00,Read,ACK
2.758732800000000,0,0x5D,0x00,Read,ACK
2.758755640000000,0,0x5D,0x00,Read,NAK
2.764544760000000,0,0x5D,0x2F,Read,ACK
2.764571160000000,0,0x5D,0x00,Read,ACK
2.764594600000000,0,0x5D,0x04,Read,ACK
2.764616120000000,0,0x5D,0x03,Read,ACK
2.764637580000000,0,0x5D,0xB8,Read,ACK
2.764659020000000,0,0x5D,0x03,Read,ACK
2.764680480000000,0,0x5D,0x9D,Read,ACK
2.764701940000000,0,0x5D,0x04,Read,ACK
2.764723400000000,0,0x5D,0x03,Read,ACK
2.764744920000000,0,0x5D,0x03,Read,ACK
2.764766380000000,0,0x5D,0x20,Read,ACK
2.764787840000000,0,0x5D,0x00,Read,ACK
2.764809280000000,0,0x5D,0x00,Read,ACK
2.764830740000000,0,0x5D,0x00,Read,ACK
2.764853640000000,0,0x5D,0x00,Read,ACK
2.764875100000000,0,0x5D,0x00,Read,ACK
2.764897400000000,0,0x5D,0x00,Read,ACK
2.764918880000000,0,0x5D,0x00,Read,ACK
2.764940360000000,0,0x5D,0x00,Read,ACK
2.764961860000000,0,0x5D,0x00,Read,ACK
2.764983400000000,0,0x5D,0x00,Read,ACK
2.765004880000000,0,0x5D,0x00,Read,ACK
2.765026840000000,0,0x5D,0x00,Read,ACK
2.765048580000000,0,0x5D,0x00,Read,ACK
2.765070460000000,0,0x5D,0x00,Read,ACK
2.765091940000000,0,0x5D,0x00,Read,ACK
2.765115400000000,0,0x5D,0x00,Read,ACK
2.765136920000000,0,0x5D,0x00,Read,ACK
2.765158380000000,0,0x5D,0x00,Read,ACK
2.765179840000000,0,0x5D,0x00,Read,ACK
2.765201300000000,0,0x5D,0x00,Read,ACK
2.765222740000000,0,0x5D,0x00,Read,ACK
2.765244280000000,0,0x5D,0x00,Read,ACK
2.765265720000000,0,0x5D,0x00,Read,ACK
2.765287200000000,0,0x5D,0x00,Read,ACK
2.765308700000000,0,0x5D,0x00,Read,ACK
2.765330160000000,0,0x5D,0x00,Read,ACK
2.765351620000000,0,0x5D,0x00,Read,ACK
2.765373140000000,0,0x5D,0x00,Read,ACK
2.765394600000000,0,0x5D,0x00,Read,ACK
2.765416040000000,0,0x5D,0x00,Read,ACK
2.765437500000000,0,0x5D,0x00,Read,ACK
2.765458980000000,0,0x5D,0x00,Read,ACK
2.765480480000000,0,0x5D,0xE2,Read,ACK
2.765501940000000,0,0x5D,0xAE,Read,ACK
2.765523400000000,0,0x5D,0x01,Read,ACK
2.765544840000000,0,0x5D,0x00,Read,ACK
2.765568220000000,0,0x5D,0x00,Read,ACK
2.765589700000000,0,0x5D,0x00,Read,ACK
2.765611160000000,0,0x5D,0x00,Read,ACK
2.765632860000000,0,0x5D,0x00,Read,ACK
2.765654720000000,0,0x5D,0x00,Read,ACK
2.765676220000000,0,0x5D,0x00,Read,ACK
2.765697680000000,0,0x5D,0x00,Read,ACK
2.765719120000000,0,0x5D,0x00,Read,ACK
2.765741480000000,0,0x5D,0x00,Read,ACK
2.765763520000000,0,0x5D,0x00,Read,ACK
2.765785900000000,0,0x5D,0x00,Read,ACK
2.765807580000000,0,0x5D,0x00,Read,ACK
2.765829360000000,0,0x5D,0x00,Read,ACK
2.765851380000000,0,0x5D,0x00,Read,ACK
2.765872860000000,0,0x5D,0x00,Read,ACK
2.765895700000000,0,0x5D,0x00,Read,ACK
2.765918200000000,0,0x5D,0x00,Read,NAK
2.771763960000000,0,0x5D,0x2F,Read,ACK
2.771787200000000,0,0x5D,0x00,Read,ACK
2.771808680000000,0,0x5D,0x04,Read,ACK
2.771831400000000,0,0x5D,0x03,Read,ACK
2.771852840000000,0,0x5D,0xB8,Read,ACK
2.771874300000000,0,0x5D,0x03,Read,ACK
2.771895740000000,0,0x5D,0x9D,Read,ACK
2.771917220000000,0,0x5D,0x04,Read,ACK
2.771938740000000,0,0x5D,0x03,Read,ACK
2.771960240000000,0,0x5D,0x02,Read,ACK
2.771982340000000,0,0x5D,0x20,Read,ACK
2.772003860000000,0,0x5D,0x00,Read,ACK
2.772025320000000,0,0x5D,0x00,Read,ACK
2.772046760000000,0,0x5D,0x00,Read,ACK
2.772068220000000,0,0x5D,0x00,Read,ACK
2.772090460000000,0,0x5D,0x00,Read,ACK
2.772111940000000,0,0x5D,0x00,Read,ACK
2.772133440000000,0,0x5D,0x00,Read,ACK
2.772156180000000,0,0x5D,0x00,Read,ACK
2.772177680000000,0,0x5D,0x00,Read,ACK
2.772199160000000,0,0x5D,0x00,Read,ACK
2.772220660000000,0,0x5D,0x00,Read,ACK
2.772242120000000,0,0x5D,0x00,Read,ACK
2.772263600000000,0,0x5D,0x00,Read,ACK
2.772285100000000,0,0x5D,0x00,Read,ACK
2.772306560000000,0,0x5D,0x00,Read,ACK
2.772328020000000,0,0x5D,0x00,Read,ACK
2.772349520000000,0,0x5D,0x00,Read,ACK
2.772371000000000,0,0x5D,0x00,Read,ACK
2.772392520000000,0,0x5D,0x00,Read,ACK
2.772414020000000,0,0x5D,0x00,Read,ACK
2.772435940000000,0,0x5D,0x00,Read,ACK
2.772457440000000,0,0x5D,0x00,Read,ACK
2.772478980000000,0,0x5D,0x00,Read,ACK
2.772500460000000,0,0x5D,0x00,Read,ACK
2.772521920000000,0,0x5D,0x00,Read,ACK
2.772543400000000,0,0x5D,0x00,Read,ACK
2.772564920000000,0,0x5D,0x00,Read,ACK
2.772586420000000,0,0x5D,0x00,Read,ACK
2.772607880000000,0,0x5D,0x00,Read,ACK
2.772629340000000,0,0x5D,0x00,Read,ACK
2.772650780000000,0,0x5D,0x00,Read,ACK
2.772672240000000,0,0x5D,0x00,Read,ACK
2.772696020000000,0,0x5D,0x28,Read,ACK
2.772717460000000,0,0x5D,0xAF,Read,ACK
2.772738940000000,0,0x5D,0x01,Read,ACK
2.772761260000000,0,0x5D,0x00,Read,ACK
2.772783040000000,0,0x5D,0x00,Read,ACK
2.772804540000000,0,0x5D,0x00,Read,ACK
2.772826000000000,0,0x5D,0x00,Read,ACK
2.772847720000000,0,0x5D,0x00,Read,ACK
2.772869740000000,0,0x5D,0x00,Read,ACK
2.772892220000000,0,0x5D,0x00,Read,ACK
2.772914860000000,0,0x5D,0x00,Read,ACK
2.772936340000000,0,0x5D,0x00,Read,ACK
2.772958980000000,0,0x5D,0x00,Read,ACK
2.772980440000000,0,0x5D,0x00,Read,ACK
2.773001940000000,0,0x5D,0x00,Read,ACK
2.773023420000000,0,0x5D,0x00,Read,ACK
2.773044880000000,0,0x5D,0x00,Read,ACK
2.773066320000000,0,0x5D,0x00,Read,ACK
2.773087800000000,0,0x5D,0x00,Read,ACK
2.773109420000000,0,0x5D,0x00,Read,ACK
2.773131160000000,0,0x5D,0x00,Read,NAK
2.778985660000000,0,0x5D,0x2F,Read,ACK
2.779008380000000,0,0x5D,0x00,Read,ACK
2.779029860000000,0,0x5D,0x04,Read,ACK
2.779051320000000,0,0x5D,0x03,Read,ACK
2.779072760000000,0,0x5D,0xB8,Read,ACK
2.779094360000000,0,0x5D,0x03,Read,ACK
2.779116520000000,0,0x5D,0x9D,Read,ACK
2.779138660000000,0,0x5D,0x04,Read,ACK
2.779160140000000,0,0x5D,0x03,Read,ACK
2.779182160000000,0,0x5D,0x02,Read,ACK
2.779203620000000,0,0x5D,0x20,Read,ACK
2.779225080000000,0,0x5D,0x00,Read,ACK
2.779247320000000,0,0x5D,0x00,Read,ACK
2.779268800000000,0,0x5D,0x00,Read,ACK
2.779290340000000,0,0x5D,0x00,Read,ACK
2.779311840000000,0,0x5D,0x00,Read,ACK
2.779333280000000,0,0x5D,0x00,Read,ACK
2.779354740000000,0,0x5D,0x00,Read,ACK
2.779376200000000,0,0x5D,0x00,Read,ACK
2.779397980000000,0,0x5D,0x00,Read,ACK
2.779419420000000,0,0x5D,0x00,Read,ACK
2.779441200000000,0,0x5D,0x00,Read,ACK
2.779462660000000,0,0x5D,0x00,Read,ACK
2.779484100000000,0,0x5D,0x00,Read,ACK
2.779505560000000,0,0x5D,0x00,Read,ACK
2.779527320000000,0,0x5D,0x00,Read,ACK
2.779548780000000,0,0x5D,0x00,Read,ACK
2.779570220000000,0,0x5D,0x00,Read,ACK
2.779591700000000,0,0x5D,0x00,Read,ACK
2.779613140000000,0,0x5D,0x00,Read,ACK
2.779634600000000,0,0x5D,0x00,Read,ACK
2.779656040000000,0,0x5D,0x00,Read,ACK
2.779677520000000,0,0x5D,0x00,Read,ACK
2.779698980000000,0,0x5D,0x00,Read,ACK
2.779720420000000,0,0x5D,0x00,Read,ACK
2.779741880000000,0,0x5D,0x00,Read,ACK
2.779763400000000,0,0x5D,0x00,Read,ACK
2.779784940000000,0,0x5D,0x00,Read,ACK
2.779806520000000,0,0x5D,0x00,Read,ACK
2.779828020000000,0,0x5D,0x00,Read,ACK
2.779849700000000,0,0x5D,0x00,Read,ACK
2.779872040000000,0,0x5D,0x00,Read,ACK
2.779893500000000,0,0x5D,0x00,Read,ACK
2.779916240000000,0,0x5D,0x6E,Read,ACK
2.779938040000000,0,0x5D,0xAF,Read,ACK
2.779959540000000,0,0x5D,0x01,Read,ACK
2.779981020000000,0,0x5D,0x00,Read,ACK
2.780002800000000,0,0x5D,0x00,Read,ACK
2.780025760000000,0,0x5D,0x00,Read,ACK
2.780047320000000,0,0x5D,0x00,Read,ACK
2.780068820000000,0,0x5D,0x00,Read,ACK
2.780091460000000,0,0x5D,0x00,Read,ACK
2.780112920000000,0,0x5D,0x00,Read,ACK
2.780134760000000,0,0x5D,0x00,Read,ACK
2.780156280000000,0,0x5D,0x00,Read,ACK
2.780178940000000,0,0x5D,0x00,Read,ACK
2.780200440000000,0,0x5D,0x00,Read,ACK
2.780221880000000,0,0x5D,0x00,Read,ACK
2.780243340000000,0,0x5D,0x00,Read,ACK
2.780264780000000,0,0x5D,0x00,Read,ACK
2.780286920000000,0,0x5D,0x00,Read,ACK
2.780312200000000,0,0x5D,0x00,Read,ACK
2.780335400000000,0,0x5D,0x00,Read,ACK
2.780356860000000,0,0x5D,0x00,Read,NAK
2.785833780000000,0,0x5D,0x2F,Read,ACK
2.785860120000000,0,0x5D,0x00,Read,ACK
2.785882820000000,0,0x5D,0x04,Read,ACK
2.785905900000000,0,0x5D,0x03,Read,ACK
2.785927400000000,0,0x5D,0xB8,Read,ACK
2.785949400000000,0,0x5D,0x03,Read,ACK
2.785970880000000,0,0x5D,0x9D,Read,ACK
2.785992440000000,0,0x5D,0x04,Read,ACK
2.786013920000000,0,0x5D,0x03,Read,ACK
2.786035360000000,0,0x5D,0x02,Read,ACK
2.786056820000000,0,0x5D,0x20,Read,ACK
2.786078300000000,0,0x5D,0x00,Read,ACK
2.786099820000000,0,0x5D,0x00,Read,ACK
2.786121260000000,0,0x5D,0x00,Read,ACK
2.786142720000000,0,0x5D,0x00,Read,ACK
2.786164180000000,0,0x5D,0x00,Read,ACK
2.786185640000000,0,0x5D,0x00,Read,ACK
2.786207100000000,0,0x5D,0x00,Read,ACK
2.786228540000000,0,0x5D,0x00,Read,ACK
2.786250000000000,0,0x5D,0x00,Read,ACK
2.786271460000000,0,0x5D,0x00,Read,ACK
2.786293080000000,0,0x5D,0x00,Read,ACK
2.786314620000000,0,0x5D,0x00,Read,ACK
2.786336120000000,0,0x5D,0x00,Read,ACK
2.786357620000000,0,0x5D,0x00,Read,ACK
2.786379080000000,0,0x5D,0x00,Read,ACK
2.786401020000000,0,0x5D,0x00,Read,ACK
2.786422500000000,0,0x5D,0x00,Read,ACK
2.786444000000000,0,0x5D,0x00,Read,ACK
2.786465460000000,0,0x5D,0x00,Read,ACK
2.786486900000000,0,0x5D,0x00,Read,ACK
2.786508720000000,0,0x5D,0x00,Read,ACK
2.786531400000000,0,0x5D,0x00,Read,ACK
2.786553580000000,0,0x5D,0x00,Read,ACK
2.786575040000000,0,0x5D,0x00,Read,ACK
2.786596500000000,0,0x5D,0x00,Read,ACK
2.786617980000000,0,0x5D,0x00,Read,ACK
2.786639480000000,0,0x5D,0x00,Read,ACK
2.786661360000000,0,0x5D,0x00,Read,ACK
2.786683040000000,0,0x5D,0x00,Read,ACK
2.786704520000000,0,0x5D,0x00,Read,ACK
2.786725980000000,0,0x5D,0x00,Read,ACK
2.786747440000000,0,0x5D,0x00,Read,ACK
2.786768980000000,0,0x5D,0xB4,Read,ACK
2.786790480000000,0,0x5D,0xAF,Read,ACK
2.786811940000000,0,0x5D,0x01,Read,ACK
2.786833380000000,0,0x5D,0x00,Read,ACK
2.786854840000000,0,0x5D,0x00,Read,ACK
2.786876300000000,0,0x5D,0x00,Read,ACK
2.786897760000000,0,0x5D,0x00,Read,ACK
2.786921300000000,0,0x5D,0x00,Read,ACK
2.786942800000000,0,0x5D,0x00,Read,ACK
2.786965920000000,0,0x5D,0x00,Read,ACK
2.786987740000000,0,0x5D,0x00,Read,ACK
2.787011200000000,0,0x5D,0x00,Read,ACK
2.787033640000000,0,0x5D,0x00,Read,ACK
2.787055140000000,0,0x5D,0x00,Read,ACK
2.787076600000000,0,0x5D,0x00,Read,ACK
2.787098040000000,0,0x5D,0x00,Read,ACK
2.787121560000000,0,0x5D,0x00,Read,ACK
2.787143940000000,0,0x5D,0x00,Read,ACK
2.787165480000000,0,0x5D,0x00,Read,ACK
2.787188180000000,0,0x5D,0x00,Read,ACK
2.787209640000000,0,0x5D,0x00,Read,NAK
2.793000380000000,0,0x5D,0x2F,Read,ACK
2.793026820000000,0,0x5D,0x00,Read,ACK
2.793048680000000,0,0x5D,0x04,Read,ACK
2.793070160000000,0,0x5D,0x03,Read,ACK
2.793091660000000,0,0x5D,0xB8,Read,ACK
2.793115320000000,0,0x5D,0x03,Read,ACK
2.793137060000000,0,0x5D,0x9D,Read,ACK
2.793161080000000,0,0x5D,0x04,Read,ACK
2.793182560000000,0,0x5D,0x03,Read,ACK
2.793204080000000,0,0x5D,0x02,Read,ACK
2.793225600000000,0,0x5D,0x20,Read,ACK
2.793247100000000,0,0x5D,0x00,Read,ACK
2.793268560000000,0,0x5D,0x00,Read,ACK
2.793290080000000,0,0x5D,0x00,Read,ACK
2.793311520000000,0,0x5D,0x00,Read,ACK
2.793333000000000,0,0x5D,0x00,Read,ACK
2.793354520000000,0,0x5D,0x00,Read,ACK
2.793376020000000,0,0x5D,0x00,Read,ACK
2.793397500000000,0,0x5D,0x00,Read,ACK
2.793420620000000,0,0x5D,0x00,Read,ACK
2.793442340000000,0,0x5D,0x00,Read,ACK
2.793463800000000,0,0x5D,0x00,Read,ACK
2.793486580000000,0,0x5D,0x00,Read,ACK
2.793508080000000,0,0x5D,0x00,Read,ACK
2.793530860000000,0,0x5D,0x00,Read,ACK
2.793552480000000,0,0x5D,0x00,Read,ACK
2.793573940000000,0,0x5D,0x00,Read,ACK
2.793595840000000,0,0x5D,0x00,Read,ACK
2.793617300000000,0,0x5D,0x00,Read,ACK
2.793639100000000,0,0x5D,0x00,Read,ACK
2.793661020000000,0,0x5D,0x00,Read,ACK
2.793682600000000,0,0x5D,0x00,Read,ACK
2.793704080000000,0,0x5D,0x00,Read,ACK
2.793725980000000,0,0x5D,0x00,Read,ACK
2.793747480000000,0,0x5D,0x00,Read,ACK
2.793768940000000,0,0x5D,0x00,Read,ACK
2.793790460000000,0,0x5D,0x00,Read,ACK
2.793811920000000,0,0x5D,0x00,Read,ACK
2.793833420000000,0,0x5D,0x00,Read,ACK
2.793854920000000,0,0x5D,0x00,Read,ACK
2.793876400000000,0,0x5D,0x00,Read,ACK
2.793898120000000,0,0x5D,0x00,Read,ACK
2.793919640000000,0,0x5D,0x00,Read,ACK
2.793941120000000,0,0x5D,0xFA,Read,ACK
2.793962620000000,0,0x5D,0xAF,Read,ACK
2.793984140000000,0,0x5D,0x01,Read,ACK
2.794005600000000,0,0x5D,0x00,Read,ACK
2.794027140000000,0,0x5D,0x00,Read,ACK
2.794048640000000,0,0x5D,0x00,Read,ACK
2.794070100000000,0,0x5D,0x00,Read,ACK
2.794091560000000,0,0x5D,0x00,Read,ACK
2.794114100000000,0,0x5D,0x00,Read,ACK
2.794135960000000,0,0x5D,0x00,Read,ACK
2.794157480000000,0,0x5D,0x00,Read,ACK
2.794179300000000,0,0x5D,0x00,Read,ACK
2.794201340000000,0,0x5D,0x00,Read,ACK
2.794222800000000,0,0x5D,0x00,Read,ACK
2.794245840000000,0,0x5D,0x00,Read,ACK
2.794267360000000,0,0x5D,0x00,Read,ACK
2.794288920000000,0,0x5D,0x00,Read,ACK
2.794311420000000,0,0x5D,0x00,Read,ACK
2.794334000000000,0,0x5D,0x00,Read,ACK
2.794355480000000,0,0x5D,0x00,Read,ACK
2.794377140000000,0,0x5D,0x00,Read,NAK
2.800311680000000,0,0x5D,0x2F,Read,ACK
2.800334380000000,0,0x5D,0x00,Read,ACK
2.800355840000000,0,0x5D,0x04,Read,ACK
2.800377320000000,0,0x5D,0x03,Read,ACK
2.800398820000000,0,0x5D,0xB8,Read,ACK
2.800420280000000,0,0x5D,0x03,Read,ACK
2.800441740000000,0,0x5D,0x9D,Read,ACK
2.800463180000000,0,0x5D,0x04,Read,ACK
2.800484660000000,0,0x5D,0x03,Read,ACK
2.800506120000000,0,0x5D,0x02,Read,ACK
2.800527620000000,0,0x5D,0x20,Read,ACK
2.800549500000000,0,0x5D,0x00,Read,ACK
2.800571560000000,0,0x5D,0x00,Read,ACK
2.800593060000000,0,0x5D,0x00,Read,ACK
2.800614580000000,0,0x5D,0x00,Read,ACK
2.800636020000000,0,0x5D,0x00,Read,ACK
2.800657500000000,0,0x5D,0x00,Read,ACK
2.800679200000000,0,0x5D,0x00,Read,ACK
2.800700660000000,0,0x5D,0x00,Read,ACK
2.800722100000000,0,0x5D,0x00,Read,ACK
2.800743640000000,0,0x5D,0x00,Read,ACK
2.800765160000000,0,0x5D,0x00,Read,ACK
2.800786680000000,0,0x5D,0x00,Read,ACK
2.800808180000000,0,0x5D,0x00,Read,ACK
2.800829620000000,0,0x5D,0x00,Read,ACK
2.800851280000000,0,0x5D,0x00,Read,ACK
2.800872780000000,0,0x5D,0x00,Read,ACK
2.800894320000000,0,0x5D,0x00,Read,ACK
2.800915880000000,0,0x5D,0x00,Read,ACK
2.800937320000000,0,0x5D,0x00,Read,ACK
2.800958800000000,0,0x5D,0x00,Read,ACK
2.800980260000000,0,0x5D,0x00,Read,ACK
2.801001860000000,0,0x5D,0x00,Read,ACK
2.801023360000000,0,0x5D,0x00,Read,ACK
2.801044840000000,0,0x5D,0x00,Read,ACK
2.801066320000000,0,0x5D,0x00,Read,ACK
2.801087780000000,0,0x5D,0x00,Read,ACK
2.801109240000000,0,0x5D,0x00,Read,ACK
2.801130700000000,0,0x5D,0x00,Read,ACK
2.801152160000000,0,0x5D,0x00,Read,ACK
2.801173620000000,0,0x5D,0x00,Read,ACK
2.801195140000000,0,0x5D,0x00,Read,ACK
2.801217820000000,0,0x5D,0x00,Read,ACK
2.801240660000000,0,0x5D,0x40,Read,ACK
2.801262460000000,0,0x5D,0xB0,Read,ACK
2.801283960000000,0,0x5D,0x01,Read,ACK
2.801305400000000,0,0x5D,0x00,Read,ACK
2.801326840000000,0,0x5D,0x00,Read,ACK
2.801348660000000,0,0x5D,0x00,Read,ACK
2.801371660000000,0,0x5D,0x00,Read,ACK
2.801394940000000,0,0x5D,0x00,Read,ACK
2.801417680000000,0,0x5D,0x00,Read,ACK
2.801439140000000,0,0x5D,0x00,Read,ACK
2.801460580000000,0,0x5D,0x00,Read,ACK
2.801482040000000,0,0x5D,0x00,Read,ACK
2.801503740000000,0,0x5D,0x00,Read,ACK
2.801525600000000,0,0x5D,0x00,Read,ACK
2.801547100000000,0,0x5D,0x00,Read,ACK
2.801569580000000,0,0x5D,0x00,Read,ACK
2.801591060000000,0,0x5D,0x00,Read,ACK
2.801614660000000,0,0x5D,0x00,Read,ACK
2.801636980000000,0,0x5D,0x00,Read,ACK
2.801658960000000,0,0x5D,0x00,Read,ACK
2.801684600000000,0,0x5D,0x00,Read,NAK
2.807348780000000,0,0x5D,0x2F,Read,ACK
2.807374880000000,0,0x5D,0x00,Read,ACK
2.807396420000000,0,0x5D,0x04,Read,ACK
2.807417920000000,0,0x5D,0x03,Read,ACK
2.807439400000000,0,0x5D,0xB8,Read,ACK
2.807462180000000,0,0x5D,0x03,Read,ACK
2.807483620000000,0,0x5D,0x9D,Read,ACK
2.807505080000000,0,0x5D,0x04,Read,ACK
2.807526520000000,0,0x5D,0x03,Read,ACK
2.807548000000000,0,0x5D,0x02,Read,ACK
2.807569440000000,0,0x5D,0x20,Read,ACK
2.807590880000000,0,0x5D,0x00,Read,ACK
2.807612340000000,0,0x5D,0x00,Read,ACK
2.807633800000000,0,0x5D,0x00,Read,ACK
2.807655300000000,0,0x5D,0x00,Read,ACK
2.807676800000000,0,0x5D,0x00,Read,ACK
2.807699800000000,0,0x5D,0x00,Read,ACK
2.807721980000000,0,0x5D,0x00,Read,ACK
2.807743680000000,0,0x5D,0x00,Read,ACK
2.807765160000000,0,0x5D,0x00,Read,ACK
2.807786620000000,0,0x5D,0x00,Read,ACK
2.807808480000000,0,0x5D,0x00,Read,ACK
2.807830200000000,0,0x5D,0x00,Read,ACK
2.807851660000000,0,0x5D,0x00,Read,ACK
2.807873120000000,0,0x5D,0x00,Read,ACK
2.807894640000000,0,0x5D,0x00,Read,ACK
2.807916100000000,0,0x5D,0x00,Read,ACK
2.807938880000000,0,0x5D,0x00,Read,ACK
2.807961180000000,0,0x5D,0x00,Read,ACK
2.807982880000000,0,0x5D,0x00,Read,ACK
2.808004360000000,0,0x5D,0x00,Read,ACK
2.808025820000000,0,0x5D,0x00,Read,ACK
2.808047740000000,0,0x5D,0x00,Read,ACK
2.808069500000000,0,0x5D,0x00,Read,ACK
2.808091000000000,0,0x5D,0x00,Read,ACK
2.808112480000000,0,0x5D,0x00,Read,ACK
2.808133960000000,0,0x5D,0x00,Read,ACK
2.808155480000000,0,0x5D,0x00,Read,ACK
2.808176940000000,0,0x5D,0x00,Read,ACK
2.808198400000000,0,0x5D,0x00,Read,ACK
2.808219860000000,0,0x5D,0x00,Read,ACK
2.808241340000000,0,0x5D,0x00,Read,ACK
2.808262820000000,0,0x5D,0x00,Read,ACK
2.808284300000000,0,0x5D,0x86,Read,ACK
2.808305800000000,0,0x5D,0xB0,Read,ACK
2.808330180000000,0,0x5D,0x01,Read,ACK
2.808352460000000,0,0x5D,0x00,Read,ACK
2.808373960000000,0,0x5D,0x00,Read,ACK
2.808396460000000,0,0x5D,0x00,Read,ACK
2.808418180000000,0,0x5D,0x00,Read,ACK
2.808440400000000,0,0x5D,0x00,Read,ACK
2.808461860000000,0,0x5D,0x00,Read,ACK
2.808483320000000,0,0x5D,0x00,Read,ACK
2.808504780000000,0,0x5D,0x00,Read,ACK
2.808526280000000,0,0x5D,0x00,Read,ACK
2.808547760000000,0,0x5D,0x00,Read,ACK
2.808570740000000,0,0x5D,0x00,Read,ACK
2.808593400000000,0,0x5D,0x00,Read,ACK
2.808615040000000,0,0x5D,0x00,Read,ACK
2.808636500000000,0,0x5D,0x00,Read,ACK
2.808657980000000,0,0x5D,0x00,Read,ACK
2.808679820000000,0,0x5D,0x00,Read,ACK
2.808701760000000,0,0x5D,0x00,Read,ACK
2.808723280000000,0,0x5D,0x00,Read,NAK
2.814897940000000,0,0x5D,0x2F,Read,ACK
2.814923040000000,0,0x5D,0x00,Read,ACK
2.814944480000000,0,0x5D,0x04,Read,ACK
2.814965960000000,0,0x5D,0x03,Read,ACK
2.814987460000000,0,0x5D,0xB8,Read,ACK
2.815008920000000,0,0x5D,0x03,Read,ACK
2.815030380000000,0,0x5D,0x9D,Read,ACK
2.815051960000000,0,0x5D,0x04,Read,ACK
2.815073420000000,0,0x5D,0x03,Read,ACK
2.815095000000000,0,0x5D,0x02,Read,ACK
2.815116460000000,0,0x5D,0x20,Read,ACK
2.815137940000000,0,0x5D,0x00,Read,ACK
2.815159440000000,0,0x5D,0x00,Read,ACK
2.815180880000000,0,0x5D,0x00,Read,ACK
2.815202340000000,0,0x5D,0x00,Read,ACK
2.815223800000000,0,0x5D,0x00,Read,ACK
2.815245260000000,0,0x5D,0x00,Read,ACK
2.815266720000000,0,0x5D,0x00,Read,ACK
2.815288220000000,0,0x5D,0x00,Read,ACK
2.815309700000000,0,0x5D,0x00,Read,ACK
2.815331160000000,0,0x5D,0x00,Read,ACK
2.815352620000000,0,0x5D,0x00,Read,ACK
2.815374080000000,0,0x5D,0x00,Read,ACK
2.815395540000000,0,0x5D,0x00,Read,ACK
2.815417000000000,0,0x5D,0x00,Read,ACK
2.815438500000000,0,0x5D,0x00,Read,ACK
2.815459960000000,0,0x5D,0x00,Read,ACK
2.815482220000000,0,0x5D,0x00,Read,ACK
2.815504560000000,0,0x5D,0x00,Read,ACK
2.815526020000000,0,0x5D,0x00,Read,ACK
2.815547840000000,0,0x5D,0x00,Read,ACK
2.815569340000000,0,0x5D,0x00,Read,ACK
2.815590820000000,0,0x5D,0x00,Read,ACK
2.815614300000000,0,0x5D,0x00,Read,ACK
2.815635820000000,0,0x5D,0x00,Read,ACK
2.815658140000000,0,0x5D,0x00,Read,ACK
2.815680700000000,0,0x5D,0x00,Read,ACK
2.815702680000000,0,0x5D,0x00,Read,ACK
2.815724180000000,0,0x5D,0x00,Read,ACK
2.815745920000000,0,0x5D,0x00,Read,ACK
2.815767440000000,0,0x5D,0x00,Read,ACK
2.815789900000000,0,0x5D,0x00,Read,ACK
2.815811400000000,0,0x5D,0x00,Read,ACK
2.815832860000000,0,0x5D,0xCC,Read,ACK
2.815854320000000,0,0x5D,0xB0,Read,ACK
2.815875840000000,0,0x5D,0x01,Read,ACK
2.815897580000000,0,0x5D,0x00,Read,ACK
2.815919060000000,0,0x5D,0x00,Read,ACK
2.815940520000000,0,0x5D,0x00,Read,ACK
2.815961980000000,0,0x5D,0x00,Read,ACK
2.815985880000000,0,0x5D,0x00,Read,ACK
2.816007700000000,0,0x5D,0x00,Read,ACK
2.816030880000000,0,0x5D,0x00,Read,ACK
2.816052660000000,0,0x5D,0x00,Read,ACK
2.816077200000000,0,0x5D,0x00,Read,ACK
2.816098960000000,0,0x5D,0x00,Read,ACK
2.816120840000000,0,0x5D,0x00,Read,ACK
2.816142520000000,0,0x5D,0x00,Read,ACK
2.816164020000000,0,0x5D,0x00,Read,ACK
2.816186000000000,0,0x5D,0x00,Read,ACK
2.816208460000000,0,0x5D,0x00,Read,ACK
2.816230620000000,0,0x5D,0x00,Read,ACK
2.816252900000000,0,0x5D,0x00,Read,ACK
2.816275640000000,0,0x5D,0x00,Read,NAK
2.821604480000000,0,0x5D,0x2F,Read,ACK
2.821629420000000,0,0x5D,0x00,Read,ACK
2.821652620000000,0,0x5D,0x04,Read,ACK
2.821674860000000,0,0x5D,0x03,Read,ACK
2.821698040000000,0,0x5D,0xB8,Read,ACK
2.821719500000000,0,0x5D,0x03,Read,ACK
2.821740980000000,0,0x5D,0x9D,Read,ACK
2.821762480000000,0,0x5D,0x04,Read,ACK
2.821783940000000,0,0x5D,0x03,Read,ACK
2.821805400000000,0,0x5D,0x02,Read,ACK
2.821826920000000,0,0x5D,0x20,Read,ACK
2.821848420000000,0,0x5D,0x00,Read,ACK
2.821869900000000,0,0x5D,0x00,Read,ACK
2.821891400000000,0,0x5D,0x00,Read,ACK
2.821912900000000,0,0x5D,0x00,Read,ACK
2.821934380000000,0,0x5D,0x00,Read,ACK
2.821955840000000,0,0x5D,0x00,Read,ACK
2.821977360000000,0,0x5D,0x00,Read,ACK
2.822000860000000,0,0x5D,0x00,Read,ACK
2.822022300000000,0,0x5D,0x00,Read,ACK
2.822043760000000,0,0x5D,0x00,Read,ACK
2.822065260000000,0,0x5D,0x00,Read,ACK
2.822086720000000,0,0x5D,0x00,Read,ACK
2.822108200000000,0,0x5D,0x00,Read,ACK
2.822129720000000,0,0x5D,0x00,Read,ACK
2.822151220000000,0,0x5D,0x00,Read,ACK
2.822173720000000,0,0x5D,0x00,Read,ACK
2.822195200000000,0,0x5D,0x00,Read,ACK
2.822216980000000,0,0x5D,0x00,Read,ACK
2.822239380000000,0,0x5D,0x00,Read,ACK
2.822261160000000,0,0x5D,0x00,Read,ACK
2.822282660000000,0,0x5D,0x00,Read,ACK
2.822304120000000,0,0x5D,0x00,Read,ACK
2.822325840000000,0,0x5D,0x00,Read,ACK
2.822347320000000,0,0x5D,0x00,Read,ACK
2.822368800000000,0,0x5D,0x00,Read,ACK
2.822390260000000,0,0x5D,0x00,Read,ACK
2.822411760000000,0,0x5D,0x00,Read,ACK
2.822433220000000,0,0x5D,0x00,Read,ACK
2.822454740000000,0,0x5D,0x00,Read,ACK
2.822476280000000,0,0x5D,0x00,Read,ACK
2.822497780000000,0,0x5D,0x00,Read,ACK
2.822519240000000,0,0x5D,0x00,Read,ACK
2.822540940000000,0,0x5D,0x12,Read,ACK
2.822562400000000,0,0x5D,0xB1,Read,ACK
2.822583860000000,0,0x5D,0x01,Read,ACK
2.822606800000000,0,0x5D,0x00,Read,ACK
