Time [s],Packet ID,Address,Data,Read/Write,ACK/NAK
2.042376700000000,0,0x5D,0x2F,Read,ACK
2.042402420000000,0,0x5D,0x00,Read,ACK
2.042424960000000,0,0x5D,0x04,Read,ACK
2.042446420000000,0,0x5D,0x03,Read,ACK
2.042469040000000,0,0x5D,0x4C,Read,ACK
2.042491640000000,0,0x5D,0x06,Read,ACK
2.042513840000000,0,0x5D,0x07,Read,ACK
2.042536600000000,0,0x5D,0x06,Read,ACK
2.042558100000000,0,0x5D,0x03,Read,ACK
2.042579580000000,0,0x5D,0x03,Read,ACK
2.042601040000000,0,0x5D,0x20,Read,ACK
2.042622500000000,0,0x5D,0x00,Read,ACK
2.042643960000000,0,0x5D,0x00,Read,ACK
2.042665420000000,0,0x5D,0x00,Read,ACK
2.042686920000000,0,0x5D,0x00,Read,ACK
2.042708380000000,0,0x5D,0x00,Read,ACK
2.042729860000000,0,0x5D,0x00,Read,ACK
2.042751360000000,0,0x5D,0x00,Read,ACK
2.042772840000000,0,0x5D,0x00,Read,ACK
2.042794340000000,0,0x5D,0x00,Read,ACK
2.042816260000000,0,0x5D,0x00,Read,ACK
2.042837740000000,0,0x5D,0x00,Read,ACK
2.042859200000000,0,0x5D,0x00,Read,ACK
2.042880660000000,0,0x5D,0x00,Read,ACK
2.042902440000000,0,0x5D,0x00,Read,ACK
2.042923940000000,0,0x5D,0x00,Read,ACK
2.042945400000000,0,0x5D,0x00,Read,ACK
2.042967060000000,0,0x5D,0x00,Read,ACK
2.042988560000000,0,0x5D,0x00,Read,ACK
2.043010040000000,0,0x5D,0x00,Read,ACK
2.043031520000000,0,0x5D,0x00,Read,ACK
2.043053000000000,0,0x5D,0x00,Read,ACK
2.043074460000000,0,0x5D,0x00,Read,ACK
2.043096040000000,0,0x5D,0x00,Read,ACK
2.043117480000000,0,0x5D,0x00,Read,ACK
2.043138940000000,0,0x5D,0x00,Read,ACK
2.043160400000000,0,0x5D,0x00,Read,ACK
2.043182040000000,0,0x5D,0x00,Read,ACK
2.043203560000000,0,0x5D,0x00,Read,ACK
2.043225000000000,0,0x5D,0x00,Read,ACK
2.043246460000000,0,0x5D,0x00,Read,ACK
2.043267980000000,0,0x5D,0x00,Read,ACK
2.043289440000000,0,0x5D,0x00,Read,ACK
2.043310920000000,0,0x5D,0x22,Read,ACK
2.043332420000000,0,0x5D,0x87,Read,ACK
2.043353880000000,0,0x5D,0x01,Read,ACK
2.043375320000000,0,0x5D,0x00,Read,ACK
2.043396820000000,0,0x5D,0x00,Read,ACK
2.043418300000000,0,0x5D,0x00,Read,ACK
2.043439780000000,0,0x5D,0x00,Read,ACK
2.043461280000000,0,0x5D,0x00,Read,ACK
2.043482740000000,0,0x5D,0x00,Read,ACK
2.043504200000000,0,0x5D,0x00,Read,ACK
2.043525660000000,0,0x5D,0x00,Read,ACK
2.043547120000000,0,0x5D,0x00,Read,ACK
2.043568560000000,0,0x5D,0x00,Read,ACK
2.043590040000000,0,0x5D,0x00,Read,ACK
2.043611540000000,0,0x5D,0x00,Read,ACK
2.043633220000000,0,0x5D,0x00,Read,ACK
2.043654720000000,0,0x5D,0x00,Read,ACK
2.043676180000000,0,0x5D,0x00,Read,ACK
2.043700060000000,0,0x5D,0x00,Read,ACK
2.043723100000000,0,0x5D,0x00,Read,ACK
2.043744600000000,0,0x5D,0x00,Read,NAK
2.049598160000000,0,0x5D,0x2F,Read,ACK
2.049623020000000,0,0x5D,0x00,Read,ACK
2.049645340000000,0,0x5D,0x04,Read,ACK
2.049667180000000,0,0x5D,0x03,Read,ACK
2.049688940000000,0,0x5D,0x4C,Read,ACK
2.049710420000000,0,0x5D,0x06,Read,ACK
2.049731880000000,0,0x5D,0x07,Read,ACK
2.049753340000000,0,0x5D,0x06,Read,ACK
2.049774800000000,0,0x5D,0x03,Read,ACK
2.049796280000000,0,0x5D,0x03,Read,ACK
2.049817780000000,0,0x5D,0x20,Read,ACK
2.049839240000000,0,0x5D,0x00,Read,ACK
2.049860700000000,0,0x5D,0x00,Read,ACK
2.049882160000000,0,0x5D,0x00,Read,ACK
2.049903620000000,0,0x5D,0x00,Read,ACK
2.049925220000000,0,0x5D,0x00,Read,ACK
2.049946720000000,0,0x5D,0x00,Read,ACK
2.049968180000000,0,0x5D,0x00,Read,ACK
2.049989660000000,0,0x5D,0x00,Read,ACK
2.050011160000000,0,0x5D,0x00,Read,ACK
2.050032620000000,0,0x5D,0x00,Read,ACK
2.050055780000000,0,0x5D,0x00,Read,ACK
2.050077920000000,0,0x5D,0x00,Read,ACK
2.050099400000000,0,0x5D,0x00,Read,ACK
2.050120900000000,0,0x5D,0x00,Read,ACK
2.050142420000000,0,0x5D,0x00,Read,ACK
2.050163920000000,0,0x5D,0x00,Read,ACK
2.050185760000000,0,0x5D,0x00,Read,ACK
2.050207280000000,0,0x5D,0x00,Read,ACK
2.050228740000000,0,0x5D,0x00,Read,ACK
2.050250560000000,0,0x5D,0x00,Read,ACK
2.050272000000000,0,0x5D,0x00,Read,ACK
2.050293620000000,0,0x5D,0x00,Read,ACK
2.050315120000000,0,0x5D,0x00,Read,ACK
2.050336560000000,0,0x5D,0x00,Read,ACK
2.050358020000000,0,0x5D,0x00,Read,ACK
2.050379500000000,0,0x5D,0x00,Read,ACK
2.050401000000000,0,0x5D,0x00,Read,ACK
2.050422460000000,0,0x5D,0x00,Read,ACK
2.050443920000000,0,0x5D,0x00,Read,ACK
2.050465380000000,0,0x5D,0x00,Read,ACK
2.050486840000000,0,0x5D,0x00,Read,ACK
2.050508280000000,0,0x5D,0x00,Read,ACK
2.050529740000000,0,0x5D,0x68,Read,ACK
2.050551260000000,0,0x5D,0x87,Read,ACK
2.050573180000000,0,0x5D,0x01,Read,ACK
2.050594660000000,0,0x5D,0x00,Read,ACK
2.050616140000000,0,0x5D,0x00,Read,ACK
2.050639480000000,0,0x5D,0x00,Read,ACK
2.050661360000000,0,0x5D,0x00,Read,ACK
2.050682880000000,0,0x5D,0x00,Read,ACK
2.050704900000000,0,0x5D,0x00,Read,ACK
2.050726600000000,0,0x5D,0x00,Read,ACK
2.050748100000000,0,0x5D,0x00,Read,ACK
2.050769560000000,0,0x5D,0x00,Read,ACK
2.050791040000000,0,0x5D,0x00,Read,ACK
2.050813480000000,0,0x5D,0x00,Read,ACK
2.050835120000000,0,0x5D,0x00,Read,ACK
2.050856960000000,0,0x5D,0x00,Read,ACK
2.050878460000000,0,0x5D,0x00,Read,ACK
2.050899920000000,0,0x5D,0x00,Read,ACK
2.050921400000000,0,0x5D,0x00,Read,ACK
2.050942900000000,0,0x5D,0x00,Read,ACK
2.050964800000000,0,0x5D,0x00,Read,NAK
2.056630760000000,0,0x5D,0x2F,Read,ACK
2.056656200000000,0,0x5D,0x00,Read,ACK
2.056677680000000,0,0x5D,0x04,Read,ACK
2.056699280000000,0,0x5D,0x03,Read,ACK
2.056723040000000,0,0x5D,0x4C,Read,ACK
2.056744560000000,0,0x5D,0x06,Read,ACK
2.056766060000000,0,0x5D,0x07,Read,ACK
2.056787920000000,0,0x5D,0x06,Read,ACK
2.056810660000000,0,0x5D,0x02,Read,ACK
2.056833560000000,0,0x5D,0x03,Read,ACK
2.056855080000000,0,0x5D,0x20,Read,ACK
2.056876520000000,0,0x5D,0x00,Read,ACK
2.056897980000000,0,0x5D,0x00,Read,ACK
2.056919460000000,0,0x5D,0x00,Read,ACK
2.056940960000000,0,0x5D,0x00,Read,ACK
2.056962420000000,0,0x5D,0x00,Read,ACK
2.056983880000000,0,0x5D,0x00,Read,ACK
2.057005340000000,0,0x5D,0x00,Read,ACK
2.057026840000000,0,0x5D,0x00,Read,ACK
2.057048300000000,0,0x5D,0x00,Read,ACK
2.057069780000000,0,0x5D,0x00,Read,ACK
2.057092320000000,0,0x5D,0x00,Read,ACK
2.057113780000000,0,0x5D,0x00,Read,ACK
2.057135820000000,0,0x5D,0x00,Read,ACK
2.057157320000000,0,0x5D,0x00,Read,ACK
2.057178840000000,0,0x5D,0x00,Read,ACK
2.057203480000000,0,0x5D,0x00,Read,ACK
2.057225600000000,0,0x5D,0x00,Read,ACK
2.057247080000000,0,0x5D,0x00,Read,ACK
2.057268960000000,0,0x5D,0x00,Read,ACK
2.057290420000000,0,0x5D,0x00,Read,ACK
2.057311880000000,0,0x5D,0x00,Read,ACK
2.057334740000000,0,0x5D,0x00,Read,ACK
2.057356220000000,0,0x5D,0x00,Read,ACK
2.057377680000000,0,0x5D,0x00,Read,ACK
2.057399240000000,0,0x5D,0x00,Read,ACK
2.057420700000000,0,0x5D,0x00,Read,ACK
2.057442200000000,0,0x5D,0x00,Read,ACK
2.057463680000000,0,0x5D,0x00,Read,ACK
2.057485140000000,0,0x5D,0x00,Read,ACK
2.057506600000000,0,0x5D,0x00,Read,ACK
2.057528060000000,0,0x5D,0x00,Read,ACK
2.057549600000000,0,0x5D,0x00,Read,ACK
2.057571120000000,0,0x5D,0xAE,Read,ACK
2.057592620000000,0,0x5D,0x87,Read,ACK
2.057614060000000,0,0x5D,0x01,Read,ACK
2.057635520000000,0,0x5D,0x00,Read,ACK
2.057656980000000,0,0x5D,0x00,Read,ACK
2.057678420000000,0,0x5D,0x00,Read,ACK
2.057699900000000,0,0x5D,0x00,Read,ACK
2.057721340000000,0,0x5D,0x00,Read,ACK
2.057744360000000,0,0x5D,0x00,Read,ACK
2.057765800000000,0,0x5D,0x00,Read,ACK
2.057788520000000,0,0x5D,0x00,Read,ACK
2.057810240000000,0,0x5D,0x00,Read,ACK
2.057832020000000,0,0x5D,0x00,Read,ACK
2.057853500000000,0,0x5D,0x00,Read,ACK
2.057874980000000,0,0x5D,0x00,Read,ACK
2.057896480000000,0,0x5D,0x00,Read,ACK
2.057917940000000,0,0x5D,0x00,Read,ACK
2.057940900000000,0,0x5D,0x00,Read,ACK
2.057963840000000,0,0x5D,0x00,Read,ACK
2.057987380000000,0,0x5D,0x00,Read,ACK
2.058010180000000,0,0x5D,0x00,Read,NAK
2.064205120000000,0,0x5D,0x2F,Read,ACK
2.064230040000000,0,0x5D,0x00,Read,ACK
2.064254520000000,0,0x5D,0x04,Read,ACK
2.064275980000000,0,0x5D,0x03,Read,ACK
2.064297440000000,0,0x5D,0x4C,Read,ACK
2.064318900000000,0,0x5D,0x06,Read,ACK
2.064340340000000,0,0x5D,0x07,Read,ACK
2.064362180000000,0,0x5D,0x06,Read,ACK
2.064383640000000,0,0x5D,0x02,Read,ACK
2.064405140000000,0,0x5D,0x03,Read,ACK
2.064426640000000,0,0x5D,0x20,Read,ACK
2.064448060000000,0,0x5D,0x00,Read,ACK
2.064469840000000,0,0x5D,0x00,Read,ACK
2.064491640000000,0,0x5D,0x00,Read,ACK
2.064514400000000,0,0x5D,0x00,Read,ACK
2.064535880000000,0,0x5D,0x00,Read,ACK
2.064557340000000,0,0x5D,0x00,Read,ACK
2.064578820000000,0,0x5D,0x00,Read,ACK
2.064600320000000,0,0x5D,0x00,Read,ACK
2.064621800000000,0,0x5D,0x00,Read,ACK
2.064643300000000,0,0x5D,0x00,Read,ACK
2.064664760000000,0,0x5D,0x00,Read,ACK
2.064686220000000,0,0x5D,0x00,Read,ACK
2.064707880000000,0,0x5D,0x00,Read,ACK
2.064729380000000,0,0x5D,0x00,Read,ACK
2.064750840000000,0,0x5D,0x00,Read,ACK
2.064772340000000,0,0x5D,0x00,Read,ACK
2.064793800000000,0,0x5D,0x00,Read,ACK
2.064815260000000,0,0x5D,0x00,Read,ACK
2.064836720000000,0,0x5D,0x00,Read,ACK
2.064859180000000,0,0x5D,0x00,Read,ACK
2.064880700000000,0,0x5D,0x00,Read,ACK
2.064902160000000,0,0x5D,0x00,Read,ACK
2.064923820000000,0,0x5D,0x00,Read,ACK
2.064945680000000,0,0x5D,0x00,Read,ACK
2.064967840000000,0,0x5D,0x00,Read,ACK
2.064989340000000,0,0x5D,0x00,Read,ACK
2.065010800000000,0,0x5D,0x00,Read,ACK
2.065032260000000,0,0x5D,0x00,Read,ACK
2.065053740000000,0,0x5D,0x00,Read,ACK
2.065075220000000,0,0x5D,0x00,Read,ACK
2.065097400000000,0,0x5D,0x00,Read,ACK
2.065119460000000,0,0x5D,0x00,Read,ACK
2.065140960000000,0,0x5D,0xF4,Read,ACK
2.065162420000000,0,0x5D,0x87,Read,ACK
2.065185920000000,0,0x5D,0x01,Read,ACK
2.065207580000000,0,0x5D,0x00,Read,ACK
2.065229040000000,0,0x5D,0x00,Read,ACK
2.065250480000000,0,0x5D,0x00,Read,ACK
2.065273000000000,0,0x5D,0x00,Read,ACK
2.065294460000000,0,0x5D,0x00,Read,ACK
2.065317160000000,0,0x5D,0x00,Read,ACK
2.065338840000000,0,0x5D,0x00,Read,ACK
2.065360500000000,0,0x5D,0x00,Read,ACK
2.065382160000000,0,0x5D,0x00,Read,ACK
2.065404340000000,0,0x5D,0x00,Read,ACK
2.065425980000000,0,0x5D,0x00,Read,ACK
2.065448380000000,0,0x5D,0x00,Read,ACK
2.065470040000000,0,0x5D,0x00,Read,ACK
2.065491640000000,0,0x5D,0x00,Read,ACK
2.065515100000000,0,0x5D,0x00,Read,ACK
2.065536820000000,0,0x5D,0x00,Read,ACK
2.065558320000000,0,0x5D,0x00,Read,ACK
2.065580300000000,0,0x5D,0x00,Read,NAK
2.071213820000000,0,0x5D,0x2F,Read,ACK
2.071236540000000,0,0x5D,0x00,Read,ACK
2.071258040000000,0,0x5D,0x04,Read,ACK
2.071279540000000,0,0x5D,0x03,Read,ACK
2.071301000000000,0,0x5D,0x4C,Read,ACK
2.071322440000000,0,0x5D,0x06,Read,ACK
2.071344880000000,0,0x5D,0x07,Read,ACK
2.071367040000000,0,0x5D,0x06,Read,ACK
2.071389340000000,0,0x5D,0x02,Read,ACK
2.071410820000000,0,0x5D,0x03,Read,ACK
2.071432280000000,0,0x5D,0x20,Read,ACK
2.071453740000000,0,0x5D,0x00,Read,ACK
2.071476620000000,0,0x5D,0x00,Read,ACK
2.071498080000000,0,0x5D,0x00,Read,ACK
2.071519600000000,0,0x5D,0x00,Read,ACK
2.071541060000000,0,0x5D,0x00,Read,ACK
2.071562520000000,0,0x5D,0x00,Read,ACK
2.071584120000000,0,0x5D,0x00,Read,ACK
2.071606600000000,0,0x5D,0x00,Read,ACK
2.071628300000000,0,0x5D,0x00,Read,ACK
2.071649780000000,0,0x5D,0x00,Read,ACK
2.071671300000000,0,0x5D,0x00,Read,ACK
2.071692740000000,0,0x5D,0x00,Read,ACK
2.071714200000000,0,0x5D,0x00,Read,ACK
2.071735640000000,0,0x5D,0x00,Read,ACK
2.071757540000000,0,0x5D,0x00,Read,ACK
2.071779000000000,0,0x5D,0x00,Read,ACK
2.071800460000000,0,0x5D,0x00,Read,ACK
2.071821920000000,0,0x5D,0x00,Read,ACK
2.071843360000000,0,0x5D,0x00,Read,ACK
2.071864820000000,0,0x5D,0x00,Read,ACK
2.071886280000000,0,0x5D,0x00,Read,ACK
2.071907740000000,0,0x5D,0x00,Read,ACK
2.071929200000000,0,0x5D,0x00,Read,ACK
2.071950680000000,0,0x5D,0x00,Read,ACK
2.071972160000000,0,0x5D,0x00,Read,ACK
2.071993620000000,0,0x5D,0x00,Read,ACK
2.072015080000000,0,0x5D,0x00,Read,ACK
2.072037240000000,0,0x5D,0x00,Read,ACK
2.072060340000000,0,0x5D,0x00,Read,ACK
2.072082120000000,0,0x5D,0x00,Read,ACK
2.072104200000000,0,0x5D,0x00,Read,ACK
2.072125840000000,0,0x5D,0x00,Read,ACK
2.072149800000000,0,0x5D,0x3A,Read,ACK
2.072171260000000,0,0x5D,0x88,Read,ACK
2.072192720000000,0,0x5D,0x01,Read,ACK
2.072214340000000,0,0x5D,0x00,Read,ACK
2.072236060000000,0,0x5D,0x00,Read,ACK
2.072259680000000,0,0x5D,0x00,Read,ACK
2.072281780000000,0,0x5D,0x00,Read,ACK
2.072303220000000,0,0x5D,0x00,Read,ACK
2.072325300000000,0,0x5D,0x00,Read,ACK
2.072349060000000,0,0x5D,0x00,Read,ACK
2.072370540000000,0,0x5D,0x00,Read,ACK
2.072392040000000,0,0x5D,0x00,Read,ACK
2.072413500000000,0,0x5D,0x00,Read,ACK
2.072434960000000,0,0x5D,0x00,Read,ACK
2.072456420000000,0,0x5D,0x00,Read,ACK
2.072477880000000,0,0x5D,0x00,Read,ACK
2.072499640000000,0,0x5D,0x00,Read,ACK
2.072522860000000,0,0x5D,0x00,Read,ACK
2.072545720000000,0,0x5D,0x00,Read,ACK
2.072568200000000,0,0x5D,0x00,Read,ACK
2.072589700000000,0,0x5D,0x00,Read,NAK
2.078150880000000,0,0x5D,0x2F,Read,ACK
2.078175340000000,0,0x5D,0x00,Read,ACK
2.078196840000000,0,0x5D,0x04,Read,ACK
2.078220560000000,0,0x5D,0x03,Read,ACK
2.078242260000000,0,0x5D,0x4C,Read,ACK
2.078265480000000,0,0x5D,0x06,Read,ACK
2.078286960000000,0,0x5D,0x07,Read,ACK
2.078308420000000,0,0x5D,0x06,Read,ACK
2.078329860000000,0,0x5D,0x02,Read,ACK
2.078351320000000,0,0x5D,0x03,Read,ACK
2.078372780000000,0,0x5D,0x20,Read,ACK
2.078394220000000,0,0x5D,0x00,Read,ACK
2.078415680000000,0,0x5D,0x00,Read,ACK
2.078437160000000,0,0x5D,0x00,Read,ACK
2.078458660000000,0,0x5D,0x00,Read,ACK
2.078480140000000,0,0x5D,0x00,Read,ACK
2.078502540000000,0,0x5D,0x00,Read,ACK
2.078524020000000,0,0x5D,0x00,Read,ACK
2.078545480000000,0,0x5D,0x00,Read,ACK
2.078566960000000,0,0x5D,0x00,Read,ACK
2.078588460000000,0,0x5D,0x00,Read,ACK
2.078609920000000,0,0x5D,0x00,Read,ACK
2.078631400000000,0,0x5D,0x00,Read,ACK
2.078653000000000,0,0x5D,0x00,Read,ACK
2.078674480000000,0,0x5D,0x00,Read,ACK
2.078695920000000,0,0x5D,0x00,Read,ACK
2.078717380000000,0,0x5D,0x00,Read,ACK
2.078740160000000,0,0x5D,0x00,Read,ACK
2.078761780000000,0,0x5D,0x00,Read,ACK
2.078783240000000,0,0x5D,0x00,Read,ACK
2.078804780000000,0,0x5D,0x00,Read,ACK
2.078826280000000,0,0x5D,0x00,Read,ACK
2.078847740000000,0,0x5D,0x00,Read,ACK
2.078869200000000,0,0x5D,0x00,Read,ACK
2.078890660000000,0,0x5D,0x00,Read,ACK
2.078912120000000,0,0x5D,0x00,Read,ACK
2.078933580000000,0,0x5D,0x00,Read,ACK
2.078955080000000,0,0x5D,0x00,Read,ACK
2.078976740000000,0,0x5D,0x00,Read,ACK
2.078998200000000,0,0x5D,0x00,Read,ACK
2.079019720000000,0,0x5D,0x00,Read,ACK
2.079041220000000,0,0x5D,0x00,Read,ACK
2.079062680000000,0,0x5D,0x00,Read,ACK
2.079084140000000,0,0x5D,0x80,Read,ACK
2.079105600000000,0,0x5D,0x88,Read,ACK
2.079127100000000,0,0x5D,0x01,Read,ACK
2.079148600000000,0,0x5D,0x00,Read,ACK
2.079170280000000,0,0x5D,0x00,Read,ACK
2.079191780000000,0,0x5D,0x00,Read,ACK
2.079215060000000,0,0x5D,0x00,Read,ACK
2.079236600000000,0,0x5D,0x00,Read,ACK
2.079258100000000,0,0x5D,0x00,Read,ACK
2.079280320000000,0,0x5D,0x00,Read,ACK
2.079303120000000,0,0x5D,0x00,Read,ACK
2.079324600000000,0,0x5D,0x00,Read,ACK
2.079347600000000,0,0x5D,0x00,Read,ACK
2.079369060000000,0,0x5D,0x00,Read,ACK
2.079390520000000,0,0x5D,0x00,Read,ACK
2.079412160000000,0,0x5D,0x00,Read,ACK
2.079433620000000,0,0x5D,0x00,Read,ACK
2.079455460000000,0,0x5D,0x00,Read,ACK
2.079477520000000,0,0x5D,0x00,Read,ACK
2.079499900000000,0,0x5D,0x00,Read,ACK
2.079523360000000,0,0x5D,0x00,Read,NAK
2.085263420000000,0,0x5D,0x2F,Read,ACK
2.085290700000000,0,0x5D,0x00,Read,ACK
2.085313460000000,0,0x5D,0x04,Read,ACK
2.085334920000000,0,0x5D,0x03,Read,ACK
2.085356520000000,0,0x5D,0x4C,Read,ACK
2.085378440000000,0,0x5D,0x06,Read,ACK
2.085399920000000,0,0x5D,0x07,Read,ACK
2.085423140000000,0,0x5D,0x06,Read,ACK
2.085444600000000,0,0x5D,0x02,Read,ACK
2.085466040000000,0,0x5D,0x03,Read,ACK
2.085487500000000,0,0x5D,0x20,Read,ACK
2.085508960000000,0,0x5D,0x00,Read,ACK
2.085530440000000,0,0x5D,0x00,Read,ACK
2.085551940000000,0,0x5D,0x00,Read,ACK
2.085573400000000,0,0x5D,0x00,Read,ACK
2.085594860000000,0,0x5D,0x00,Read,ACK
2.085616400000000,0,0x5D,0x00,Read,ACK
2.085637900000000,0,0x5D,0x00,Read,ACK
2.085659360000000,0,0x5D,0x00,Read,ACK
2.085681180000000,0,0x5D,0x00,Read,ACK
2.085703580000000,0,0x5D,0x00,Read,ACK
2.085725100000000,0,0x5D,0x00,Read,ACK
2.085746560000000,0,0x5D,0x00,Read,ACK
2.085768360000000,0,0x5D,0x00,Read,ACK
2.085789860000000,0,0x5D,0x00,Read,ACK
2.085811300000000,0,0x5D,0x00,Read,ACK
2.085832760000000,0,0x5D,0x00,Read,ACK
2.085854220000000,0,0x5D,0x00,Read,ACK
2.085876260000000,0,0x5D,0x00,Read,ACK
2.085897720000000,0,0x5D,0x00,Read,ACK
2.085919560000000,0,0x5D,0x00,Read,ACK
2.085941860000000,0,0x5D,0x00,Read,ACK
2.085963320000000,0,0x5D,0x00,Read,ACK
2.085984780000000,0,0x5D,0x00,Read,ACK
2.086006240000000,0,0x5D,0x00,Read,ACK
2.086027700000000,0,0x5D,0x00,Read,ACK
2.086049220000000,0,0x5D,0x00,Read,ACK
2.086070680000000,0,0x5D,0x00,Read,ACK
2.086092960000000,0,0x5D,0x00,Read,ACK
2.086115200000000,0,0x5D,0x00,Read,ACK
2.086136660000000,0,0x5D,0x00,Read,ACK
2.086158140000000,0,0x5D,0x00,Read,ACK
2.086179580000000,0,0x5D,0x00,Read,ACK
2.086201060000000,0,0x5D,0xC6,Read,ACK
2.086222600000000,0,0x5D,0x88,Read,ACK
2.086244100000000,0,0x5D,0x01,Read,ACK
2.086265620000000,0,0x5D,0x00,Read,ACK
2.086287140000000,0,0x5D,0x00,Read,ACK
2.086308640000000,0,0x5D,0x00,Read,ACK
2.086330100000000,0,0x5D,0x00,Read,ACK
2.086353400000000,0,0x5D,0x00,Read,ACK
2.086375180000000,0,0x5D,0x00,Read,ACK
2.086396660000000,0,0x5D,0x00,Read,ACK
2.086418440000000,0,0x5D,0x00,Read,ACK
2.086440280000000,0,0x5D,0x00,Read,ACK
2.086461800000000,0,0x5D,0x00,Read,ACK
2.086484320000000,0,0x5D,0x00,Read,ACK
2.086505820000000,0,0x5D,0x00,Read,ACK
2.086527840000000,0,0x5D,0x00,Read,ACK
2.086550760000000,0,0x5D,0x00,Read,ACK
2.086572280000000,0,0x5D,0x00,Read,ACK
2.086593780000000,0,0x5D,0x00,Read,ACK
2.086615480000000,0,0x5D,0x00,Read,ACK
2.086636940000000,0,0x5D,0x00,Read,NAK
2.092431060000000,0,0x5D,0x2F,Read,ACK
2.092455920000000,0,0x5D,0x00,Read,ACK
2.092477420000000,0,0x5D,0x04,Read,ACK
2.092498880000000,0,0x5D,0x03,Read,ACK
2.092520560000000,0,0x5D,0x4C,Read,ACK
2.092542560000000,0,0x5D,0x06,Read,ACK
2.092564040000000,0,0x5D,0x07,Read,ACK
2.092585500000000,0,0x5D,0x06,Read,ACK
2.092606980000000,0,0x5D,0x02,Read,ACK
2.092628460000000,0,0x5D,0x03,Read,ACK
2.092649920000000,0,0x5D,0x20,Read,ACK
2.092671380000000,0,0x5D,0x00,Read,ACK
2.092692840000000,0,0x5D,0x00,Read,ACK
2.092714300000000,0,0x5D,0x00,Read,ACK
2.092735740000000,0,0x5D,0x00,Read,ACK
2.092757200000000,0,0x5D,0x00,Read,ACK
2.092778680000000,0,0x5D,0x00,Read,ACK
2.092801400000000,0,0x5D,0x00,Read,ACK
2.092823520000000,0,0x5D,0x00,Read,ACK
2.092845040000000,0,0x5D,0x00,Read,ACK
2.092866540000000,0,0x5D,0x00,Read,ACK
2.092888000000000,0,0x5D,0x00,Read,ACK
2.092909560000000,0,0x5D,0x00,Read,ACK
2.092932460000000,0,0x5D,0x00,Read,ACK
2.092953920000000,0,0x5D,0x00,Read,ACK
2.092976160000000,0,0x5D,0x00,Read,ACK
2.092997680000000,0,0x5D,0x00,Read,ACK
2.093019160000000,0,0x5D,0x00,Read,ACK
2.093040680000000,0,0x5D,0x00,Read,ACK
2.093062140000000,0,0x5D,0x00,Read,ACK
2.093083560000000,0,0x5D,0x00,Read,ACK
2.093105040000000,0,0x5D,0x00,Read,ACK
2.093126480000000,0,0x5D,0x00,Read,ACK
2.093147940000000,0,0x5D,0x00,Read,ACK
2.093169400000000,0,0x5D,0x00,Read,ACK
2.093191540000000,0,0x5D,0x00,Read,ACK
2.093213000000000,0,0x5D,0x00,Read,ACK
2.093234460000000,0,0x5D,0x00,Read,ACK
2.093255920000000,0,0x5D,0x00,Read,ACK
2.093277420000000,0,0x5D,0x00,Read,ACK
2.093298900000000,0,0x5D,0x00,Read,ACK
2.093320420000000,0,0x5D,0x00,Read,ACK
2.093341920000000,0,0x5D,0x00,Read,ACK
2.093363400000000,0,0x5D,0x0C,Read,ACK
2.093384880000000,0,0x5D,0x89,Read,ACK
2.093406340000000,0,0x5D,0x01,Read,ACK
2.093427800000000,0,0x5D,0x00,Read,ACK
2.093449280000000,0,0x5D,0x00,Read,ACK
2.093470780000000,0,0x5D,0x00,Read,ACK
2.093493380000000,0,0x5D,0x00,Read,ACK
