Time [s],Packet ID,Address,Data,Read/Write,ACK/NAK
2.042376700000000,0,0x5D,0x2F,Read,ACK
2.042402420000000,0,0x5D,0x00,Read,ACK
2.042424960000000,0,0x5D,0x04,Read,ACK
2.042446420000000,0,0x5D,0x03,Read,ACK
2.042469040000000,0,0x5D,0x4C,Read,ACK
2.042491640000000,0,0x5D,0x06,Read,ACK
2.042513840000000,0,0x5D,0x07,Read,ACK
2.042536600000000,0,0x5D,0x06,Read,ACK
2.042558100000000,0,0x5D,0x03,Read,ACK
2.042579580000000,0,0x5D,0x03,Read,ACK
2.042601040000000,0,0x5D,0x20,Read,ACK
2.042622500000000,0,0x5D,0x00,Read,ACK
2.042643960000000,0,0x5D,0x00,Read,ACK
2.042665420000000,0,0x5D,0x00,Read,ACK
2.042686920000000,0,0x5D,0x00,Read,ACK
2.042708380000000,0,0x5D,0x00,Read,ACK
2.042729860000000,0,0x5D,0x00,Read,ACK
2.042751360000000,0,0x5D,0x00,Read,ACK
2.042772840000000,0,0x5D,0x00,Read,ACK
2.042794340000000,0,0x5D,0x00,Read,ACK
2.042816260000000,0,0x5D,0x00,Read,ACK
2.042837740000000,0,0x5D,0x00,Read,ACK
2.042859200000000,0,0x5D,0x00,Read,ACK
2.042880660000000,0,0x5D,0x00,Read,ACK
2.042902440000000,0,0x5D,0x00,Read,ACK
2.042923940000000,0,0x5D,0x00,Read,ACK
2.042945400000000,0,0x5D,0x00,Read,ACK
2.042967060000000,0,0x5D,0x00,Read,ACK
2.042988560000000,0,0x5D,0x00,Read,ACK
2.043010040000000,0,0x5D,0x00,Read,ACK
2.043031520000000,0,0x5D,0x00,Read,ACK
2.043053000000000,0,0x5D,0x00,Read,ACK
2.043074460000000,0,0x5D,0x00,Read,ACK
2.043096040000000,0,0x5D,0x00,Read,ACK
2.043117480000000,0,0x5D,0x00,Read,ACK
2.043138940000000,0,0x5D,0x00,Read,ACK
2.043160400000000,0,0x5D,0x00,Read,ACK
2.043182040000000,0,0x5D,0x00,Read,ACK
2.043203560000000,0,0x5D,0x00,Read,ACK
2.043225000000000,0,0x5D,0x00,Read,ACK
2.043246460000000,0,0x5D,0x00,Read,ACK
2.043267980000000,0,0x5D,0x00,Read,ACK
2.043289440000000,0,0x5D,0x00,Read,ACK
2.043310920000000,0,0x5D,0x22,Read,ACK
2.043332420000000,0,0x5D,0x87,Read,ACK
2.043353880000000,0,0x5D,0x01,Read,ACK
2.043375320000000,0,0x5D,0x00,Read,ACK
2.043396820000000,0,0x5D,0x00,Read,ACK
2.043418300000000,0,0x5D,0x00,Read,ACK
2.043439780000000,0,0x5D,0x00,Read,ACK
2.043461280000000,0,0x5D,0x00,Read,ACK
2.043482740000000,0,0x5D,0x00,Read,ACK
2.043504200000000,0,0x5D,0x00,Read,ACK
2.043525660000000,0,0x5D,0x00,Read,ACK
2.043547120000000,0,0x5D,0x00,Read,ACK
2.043568560000000,0,0x5D,0x00,Read,ACK
2.043590040000000,0,0x5D,0x00,Read,ACK
2.043611540000000,0,0x5D,0x00,Read,ACK
2.043633220000000,0,0x5D,0x00,Read,ACK
2.043654720000000,0,0x5D,0x00,Read,ACK
2.043676180000000,0,0x5D,0x00,Read,ACK
2.043700060000000,0,0x5D,0x00,Read,ACK
2.043723100000000,0,0x5D,0x00,Read,ACK
2.043744600000000,0,0x5D,0x00,Read,NAK
2.049598160000000,0,0x5D,0x2F,Read,ACK
2.049623020000000,0,0x5D,0x00,Read,ACK
2.049645340000000,0,0x5D,0x04,Read,ACK
2.049667180000000,0,0x5D,0x03,Read,ACK
2.049688940000000,0,0x5D,0x4C,Read,ACK
2.049710420000000,0,0x5D,0x06,Read,ACK
2.049731880000000,0,0x5D,0x07,Read,ACK
2.049753340000000,0,0x5D,0x06,Read,ACK
2.049774800000000,0,0x5D,0x03,Read,ACK
2.049796280000000,0,0x5D,0x03,Read,ACK
2.049817780000000,0,0x5D,0x20,Read,ACK
2.049839240000000,0,0x5D,0x00,Read,ACK
2.049860700000000,0,0x5D,0x00,Read,ACK
2.049882160000000,0,0x5D,0x00,Read,ACK
2.049903620000000,0,0x5D,0x00,Read,ACK
2.049925220000000,0,0x5D,0x00,Read,ACK
2.049946720000000,0,0x5D,0x00,Read,ACK
2.049968180000000,0,0x5D,0x00,Read,ACK
2.049989660000000,0,0x5D,0x00,Read,ACK
2.050011160000000,0,0x5D,0x00,Read,ACK
2.050032620000000,0,0x5D,0x00,Read,ACK
2.050055780000000,0,0x5D,0x00,Read,ACK
2.050077920000000,0,0x5D,0x00,Read,ACK
2.050099400000000,0,0x5D,0x00,Read,ACK
2.050120900000000,0,0x5D,0x00,Read,ACK
2.050142420000000,0,0x5D,0x00,Read,ACK
2.050163920000000,0,0x5D,0x00,Read,ACK
2.050185760000000,0,0x5D,0x00,Read,ACK
2.050207280000000,0,0x5D,0x00,Read,ACK
2.050228740000000,0,0x5D,0x00,Read,ACK
2.050250560000000,0,0x5D,0x00,Read,ACK
2.050272000000000,0,0x5D,0x00,Read,ACK
2.050293620000000,0,0x5D,0x00,Read,ACK
2.050315120000000,0,0x5D,0x00,Read,ACK
2.050336560000000,0,0x5D,0x00,Read,ACK
2.050358020000000,0,0x5D,0x00,Read,ACK
2.050379500000000,0,0x5D,0x00,Read,ACK
2.050401000000000,0,0x5D,0x00,Read,ACK
2.050422460000000,0,0x5D,0x00,Read,ACK
2.050443920000000,0,0x5D,0x00,Read,ACK
2.050465380000000,0,0x5D,0x00,Read,ACK
2.050486840000000,0,0x5D,0x00,Read,ACK
2.050508280000000,0,0x5D,0x00,Read,ACK
2.050529740000000,0,0x5D,0x68,Read,ACK
2.050551260000000,0,0x5D,0x87,Read,ACK
2.050573180000000,0,0x5D,0x01,Read,ACK
2.050594660000000,0,0x5D,0x00,Read,ACK
2.050616140000000,0,0x5D,0x00,Read,ACK
2.050639480000000,0,0x5D,0x00,Read,ACK
2.050661360000000,0,0x5D,0x00,Read,ACK
2.050682880000000,0,0x5D,0x00,Read,ACK
2.050704900000000,0,0x5D,0x00,Read,ACK
2.050726600000000,0,0x5D,0x00,Read,ACK
2.050748100000000,0,0x5D,0x00,Read,ACK
2.050769560000000,0,0x5D,0x00,Read,ACK
2.050791040000000,0,0x5D,0x00,Read,ACK
2.050813480000000,0,0x5D,0x00,Read,ACK
2.050835120000000,0,0x5D,0x00,Read,ACK
2.050856960000000,0,0x5D,0x00,Read,ACK
2.050878460000000,0,0x5D,0x00,Read,ACK
2.050899920000000,0,0x5D,0x00,Read,ACK
2.050921400000000,0,0x5D,0x00,Read,ACK
2.050942900000000,0,0x5D,0x00,Read,ACK
2.050964800000000,0,0x5D,0x00,Read,NAK
2.056630760000000,0,0x5D,0x2F,Read,ACK
2.056656200000000,0,0x5D,0x00,Read,ACK
2.056677680000000,0,0x5D,0x04,Read,ACK
2.056699280000000,0,0x5D,0x03,Read,ACK
2.056723040000000,0,0x5D,0x4C,Read,ACK
2.056744560000000,0,0x5D,0x06,Read,ACK
2.056766060000000,0,0x5D,0x07,Read,ACK
2.056787920000000,0,0x5D,0x06,Read,ACK
2.056810660000000,0,0x5D,0x02,Read,ACK
2.056833560000000,0,0x5D,0x03,Read,ACK
2.056855080000000,0,0x5D,0x20,Read,ACK
2.056876520000000,0,0x5D,0x00,Read,ACK
2.056897980000000,0,0x5D,0x00,Read,ACK
2.056919460000000,0,0x5D,0x00,Read,ACK
2.056940960000000,0,0x5D,0x00,Read,ACK
2.056962420000000,0,0x5D,0x00,Read,ACK
2.056983880000000,0,0x5D,0x00,Read,ACK
2.057005340000000,0,0x5D,0x00,Read,ACK
2.057026840000000,0,0x5D,0x00,Read,ACK
2.057048300000000,0,0x5D,0x00,Read,ACK
2.057069780000000,0,0x5D,0x00,Read,ACK
2.057092320000000,0,0x5D,0x00,Read,ACK
2.057113780000000,0,0x5D,0x00,Read,ACK
2.057135820000000,0,0x5D,0x00,Read,ACK
2.057157320000000,0,0x5D,0x00,Read,ACK
2.057178840000000,0,0x5D,0x00,Read,ACK
2.057203480000000,0,0x5D,0x00,Read,ACK
2.057225600000000,0,0x5D,0x00,Read,ACK
2.057247080000000,0,0x5D,0x00,Read,ACK
2.057268960000000,0,0x5D,0x00,Read,ACK
2.057290420000000,0,0x5D,0x00,Read,ACK
2.057311880000000,0,0x5D,0x00,Read,ACK
2.057334740000000,0,0x5D,0x00,Read,ACK
2.057356220000000,0,0x5D,0x00,Read,ACK
2.057377680000000,0,0x5D,0x00,Read,ACK
2.057399240000000,0,0x5D,0x00,Read,ACK
2.057420700000000,0,0x5D,0x00,Read,ACK
2.057442200000000,0,0x5D,0x00,Read,ACK
2.057463680000000,0,0x5D,0x00,Read,ACK
2.057485140000000,0,0x5D,0x00,Read,ACK
2.057506600000000,0,0x5D,0x00,Read,ACK
2.057528060000000,0,0x5D,0x00,Read,ACK
2.057549600000000,0,0x5D,0x00,Read,ACK
2.057571120000000,0,0x5D,0xAE,Read,ACK
2.057592620000000,0,0x5D,0x87,Read,ACK
2.057614060000000,0,0x5D,0x01,Read,ACK
2.057635520000000,0,0x5D,0x00,Read,ACK
2.057656980000000,0,0x5D,0x00,Read,ACK
2.057678420000000,0,0x5D,0x00,Read,ACK
2.057699900000000,0,0x5D,0x00,Read,ACK
2.057721340000000,0,0x5D,0x00,Read,ACK
2.057744360000000,0,0x5D,0x00,Read,ACK
2.057765800000000,0,0x5D,0x00,Read,ACK
2.057788520000000,0,0x5D,0x00,Read,ACK
2.057810240000000,0,0x5D,0x00,Read,ACK
2.057832020000000,0,0x5D,0x00,Read,ACK
2.057853500000000,0,0x5D,0x00,Read,ACK
2.057874980000000,0,0x5D,0x00,Read,ACK
2.057896480000000,0,0x5D,0x00,Read,ACK
2.057917940000000,0,0x5D,0x00,Read,ACK
2.057940900000000,0,0x5D,0x00,Read,ACK
2.057963840000000,0,0x5D,0x00,Read,ACK
2.057987380000000,0,0x5D,0x00,Read,ACK
2.058010180000000,0,0x5D,0x00,Read,NAK
2.064205120000000,0,0x5D,0x2F,Read,ACK
2.064230040000000,0,0x5D,0x00,Read,ACK
2.064254520000000,0,0x5D,0x04,Read,ACK
2.064275980000000,0,0x5D,0x03,Read,ACK
2.064297440000000,0,0x5D,0x4C,Read,ACK
2.064318900000000,0,0x5D,0x06,Read,ACK
2.064340340000000,0,0x5D,0x07,Read,ACK
2.064362180000000,0,0x5D,0x06,Read,ACK
2.064383640000000,0,0x5D,0x02,Read,ACK
2.064405140000000,0,0x5D,0x03,Read,ACK
2.064426640000000,0,0x5D,0x20,Read,ACK
2.064448060000000,0,0x5D,0x00,Read,ACK
2.064469840000000,0,0x5D,0x00,Read,ACK
2.064491640000000,0,0x5D,0x00,Read,ACK
2.064514400000000,0,0x5D,0x00,Read,ACK
2.064535880000000,0,0x5D,0x00,Read,ACK
2.064557340000000,0,0x5D,0x00,Read,ACK
2.064578820000000,0,0x5D,0x00,Read,ACK
2.064600320000000,0,0x5D,0x00,Read,ACK
2.064621800000000,0,0x5D,0x00,Read,ACK
2.064643300000000,0,0x5D,0x00,Read,ACK
2.064664760000000,0,0x5D,0x00,Read,ACK
2.064686220000000,0,0x5D,0x00,Read,ACK
2.064707880000000,0,0x5D,0x00,Read,ACK
2.064729380000000,0,0x5D,0x00,Read,ACK
2.064750840000000,0,0x5D,0x00,Read,ACK
2.064772340000000,0,0x5D,0x00,Read,ACK
2.064793800000000,0,0x5D,0x00,Read,ACK
2.064815260000000,0,0x5D,0x00,Read,ACK
2.064836720000000,0,0x5D,0x00,Read,ACK
2.064859180000000,0,0x5D,0x00,Read,ACK
2.064880700000000,0,0x5D,0x00,Read,ACK
2.064902160000000,0,0x5D,0x00,Read,ACK
2.064923820000000,0,0x5D,0x00,Read,ACK
2.064945680000000,0,0x5D,0x00,Read,ACK
2.064967840000000,0,0x5D,0x00,Read,ACK
2.064989340000000,0,0x5D,0x00,Read,ACK
2.065010800000000,0,0x5D,0x00,Read,ACK
2.065032260000000,0,0x5D,0x00,Read,ACK
2.065053740000000,0,0x5D,0x00,Read,ACK
2.065075220000000,0,0x5D,0x00,Read,ACK
2.065097400000000,0,0x5D,0x00,Read,ACK
2.065119460000000,0,0x5D,0x00,Read,ACK
2.065140960000000,0,0x5D,0xF4,Read,ACK
2.065162420000000,0,0x5D,0x87,Read,ACK
2.065185920000000,0,0x5D,0x01,Read,ACK
2.065207580000000,0,0x5D,0x00,Read,ACK
2.065229040000000,0,0x5D,0x00,Read,ACK
2.065250480000000,0,0x5D,0x00,Read,ACK
2.065273000000000,0,0x5D,0x00,Read,ACK
2.065294460000000,0,0x5D,0x00,Read,ACK
2.065317160000000,0,0x5D,0x00,Read,ACK
2.065338840000000,0,0x5D,0x00,Read,ACK
2.065360500000000,0,0x5D,0x00,Read,ACK
2.065382160000000,0,0x5D,0x00,Read,ACK
2.065404340000000,0,0x5D,0x00,Read,ACK
2.065425980000000,0,0x5D,0x00,Read,ACK
2.065448380000000,0,0x5D,0x00,Read,ACK
2.065470040000000,0,0x5D,0x00,Read,ACK
2.065491640000000,0,0x5D,0x00,Read,ACK
2.065515100000000,0,0x5D,0x00,Read,ACK
2.065536820000000,0,0x5D,0x00,Read,ACK
2.065558320000000,0,0x5D,0x00,Read,ACK
2.065580300000000,0,0x5D,0x00,Read,NAK
2.071213820000000,0,0x5D,0x2F,Read,ACK
2.071236540000000,0,0x5D,0x00,Read,ACK
2.071258040000000,0,0x5D,0x04,Read,ACK
2.071279540000000,0,0x5D,0x03,Read,ACK
2.071301000000000,0,0x5D,0x4C,Read,ACK
2.071322440000000,0,0x5D,0x06,Read,ACK
2.071344880000000,0,0x5D,0x07,Read,ACK
2.071367040000000,0,0x5D,0x06,Read,ACK
2.071389340000000,0,0x5D,0x02,Read,ACK
2.071410820000000,0,0x5D,0x03,Read,ACK
2.071432280000000,0,0x5D,0x20,Read,ACK
2.071453740000000,0,0x5D,0x00,Read,ACK
2.071476620000000,0,0x5D,0x00,Read,ACK
2.071498080000000,0,0x5D,0x00,Read,ACK
2.071519600000000,0,0x5D,0x00,Read,ACK
2.071541060000000,0,0x5D,0x00,Read,ACK
2.071562520000000,0,0x5D,0x00,Read,ACK
2.071584120000000,0,0x5D,0x00,Read,ACK
2.071606600000000,0,0x5D,0x00,Read,ACK
2.071628300000000,0,0x5D,0x00,Read,ACK
2.071649780000000,0,0x5D,0x00,Read,ACK
2.071671300000000,0,0x5D,0x00,Read,ACK
2.071692740000000,0,0x5D,0x00,Read,ACK
2.071714200000000,0,0x5D,0x00,Read,ACK
2.071735640000000,0,0x5D,0x00,Read,ACK
2.071757540000000,0,0x5D,0x00,Read,ACK
2.071779000000000,0,0x5D,0x00,Read,ACK
2.071800460000000,0,0x5D,0x00,Read,ACK
2.071821920000000,0,0x5D,0x00,Read,ACK
2.071843360000000,0,0x5D,0x00,Read,ACK
2.071864820000000,0,0x5D,0x00,Read,ACK
2.071886280000000,0,0x5D,0x00,Read,ACK
2.071907740000000,0,0x5D,0x00,Read,ACK
2.071929200000000,0,0x5D,0x00,Read,ACK
2.071950680000000,0,0x5D,0x00,Read,ACK
2.071972160000000,0,0x5D,0x00,Read,ACK
2.071993620000000,0,0x5D,0x00,Read,ACK
2.072015080000000,0,0x5D,0x00,Read,ACK
2.072037240000000,0,0x5D,0x00,Read,ACK
2.072060340000000,0,0x5D,0x00,Read,ACK
2.072082120000000,0,0x5D,0x00,Read,ACK
2.072104200000000,0,0x5D,0x00,Read,ACK
2.072125840000000,0,0x5D,0x00,Read,ACK
2.072149800000000,0,0x5D,0x3A,Read,ACK
2.072171260000000,0,0x5D,0x88,Read,ACK
2.072192720000000,0,0x5D,0x01,Read,ACK
2.072214340000000,0,0x5D,0x00,Read,ACK
2.072236060000000,0,0x5D,0x00,Read,ACK
2.072259680000000,0,0x5D,0x00,Read,ACK
2.072281780000000,0,0x5D,0x00,Read,ACK
2.072303220000000,0,0x5D,0x00,Read,ACK
2.072325300000000,0,0x5D,0x00,Read,ACK
2.072349060000000,0,0x5D,0x00,Read,ACK
2.072370540000000,0,0x5D,0x00,Read,ACK
2.072392040000000,0,0x5D,0x00,Read,ACK
2.072413500000000,0,0x5D,0x00,Read,ACK
2.072434960000000,0,0x5D,0x00,Read,ACK
2.072456420000000,0,0x5D,0x00,Read,ACK
2.072477880000000,0,0x5D,0x00,Read,ACK
2.072499640000000,0,0x5D,0x00,Read,ACK
2.072522860000000,0,0x5D,0x00,Read,ACK
2.072545720000000,0,0x5D,0x00,Read,ACK
2.072568200000000,0,0x5D,0x00,Read,ACK
2.072589700000000,0,0x5D,0x00,Read,NAK
2.078150880000000,0,0x5D,0x2F,Read,ACK
2.078175340000000,0,0x5D,0x00,Read,ACK
2.078196840000000,0,0x5D,0x04,Read,ACK
2.078220560000000,0,0x5D,0x03,Read,ACK
2.078242260000000,0,0x5D,0x4C,Read,ACK
2.078265480000000,0,0x5D,0x06,Read,ACK
2.078286960000000,0,0x5D,0x07,Read,ACK
2.078308420000000,0,0x5D,0x06,Read,ACK
2.078329860000000,0,0x5D,0x02,Read,ACK
2.078351320000000,0,0x5D,0x03,Read,ACK
2.078372780000000,0,0x5D,0x20,Read,ACK
2.078394220000000,0,0x5D,0x00,Read,ACK
2.078415680000000,0,0x5D,0x00,Read,ACK
2.078437160000000,0,0x5D,0x00,Read,ACK
2.078458660000000,0,0x5D,0x00,Read,ACK
2.078480140000000,0,0x5D,0x00,Read,ACK
2.078502540000000,0,0x5D,0x00,Read,ACK
2.078524020000000,0,0x5D,0x00,Read,ACK
2.078545480000000,0,0x5D,0x00,Read,ACK
2.078566960000000,0,0x5D,0x00,Read,ACK
2.078588460000000,0,0x5D,0x00,Read,ACK
2.078609920000000,0,0x5D,0x00,Read,ACK
2.078631400000000,0,0x5D,0x00,Read,ACK
2.078653000000000,0,0x5D,0x00,Read,ACK
2.078674480000000,0,0x5D,0x00,Read,ACK
2.078695920000000,0,0x5D,0x00,Read,ACK
2.078717380000000,0,0x5D,0x00,Read,ACK
2.078740160000000,0,0x5D,0x00,Read,ACK
2.078761780000000,0,0x5D,0x00,Read,ACK
2.078783240000000,0,0x5D,0x00,Read,ACK
2.078804780000000,0,0x5D,0x00,Read,ACK
2.078826280000000,0,0x5D,0x00,Read,ACK
2.078847740000000,0,0x5D,0x00,Read,ACK
2.078869200000000,0,0x5D,0x00,Read,ACK
2.078890660000000,0,0x5D,0x00,Read,ACK
2.078912120000000,0,0x5D,0x00,Read,ACK
2.078933580000000,0,0x5D,0x00,Read,ACK
2.078955080000000,0,0x5D,0x00,Read,ACK
2.078976740000000,0,0x5D,0x00,Read,ACK
2.078998200000000,0,0x5D,0x00,Read,ACK
2.079019720000000,0,0x5D,0x00,Read,ACK
2.079041220000000,0,0x5D,0x00,Read,ACK
2.079062680000000,0,0x5D,0x00,Read,ACK
2.079084140000000,0,0x5D,0x80,Read,ACK
2.079105600000000,0,0x5D,0x88,Read,ACK
2.079127100000000,0,0x5D,0x01,Read,ACK
2.079148600000000,0,0x5D,0x00,Read,ACK
2.079170280000000,0,0x5D,0x00,Read,ACK
2.079191780000000,0,0x5D,0x00,Read,ACK
2.079215060000000,0,0x5D,0x00,Read,ACK
2.079236600000000,0,0x5D,0x00,Read,ACK
2.079258100000000,0,0x5D,0x00,Read,ACK
2.079280320000000,0,0x5D,0x00,Read,ACK
2.079303120000000,0,0x5D,0x00,Read,ACK
2.079324600000000,0,0x5D,0x00,Read,ACK
2.079347600000000,0,0x5D,0x00,Read,ACK
2.079369060000000,0,0x5D,0x00,Read,ACK
2.079390520000000,0,0x5D,0x00,Read,ACK
2.079412160000000,0,0x5D,0x00,Read,ACK
2.079433620000000,0,0x5D,0x00,Read,ACK
2.079455460000000,0,0x5D,0x00,Read,ACK
2.079477520000000,0,0x5D,0x00,Read,ACK
2.079499900000000,0,0x5D,0x00,Read,ACK
2.079523360000000,0,0x5D,0x00,Read,NAK
2.085263420000000,0,0x5D,0x2F,Read,ACK
2.085290700000000,0,0x5D,0x00,Read,ACK
2.085313460000000,0,0x5D,0x04,Read,ACK
2.085334920000000,0,0x5D,0x03,Read,ACK
2.085356520000000,0,0x5D,0x4C,Read,ACK
2.085378440000000,0,0x5D,0x06,Read,ACK
2.085399920000000,0,0x5D,0x07,Read,ACK
2.085423140000000,0,0x5D,0x06,Read,ACK
2.085444600000000,0,0x5D,0x02,Read,ACK
2.085466040000000,0,0x5D,0x03,Read,ACK
2.085487500000000,0,0x5D,0x20,Read,ACK
2.085508960000000,0,0x5D,0x00,Read,ACK
2.085530440000000,0,0x5D,0x00,Read,ACK
2.085551940000000,0,0x5D,0x00,Read,ACK
2.085573400000000,0,0x5D,0x00,Read,ACK
2.085594860000000,0,0x5D,0x00,Read,ACK
2.085616400000000,0,0x5D,0x00,Read,ACK
2.085637900000000,0,0x5D,0x00,Read,ACK
2.085659360000000,0,0x5D,0x00,Read,ACK
2.085681180000000,0,0x5D,0x00,Read,ACK
2.085703580000000,0,0x5D,0x00,Read,ACK
2.085725100000000,0,0x5D,0x00,Read,ACK
2.085746560000000,0,0x5D,0x00,Read,ACK
2.085768360000000,0,0x5D,0x00,Read,ACK
2.085789860000000,0,0x5D,0x00,Read,ACK
2.085811300000000,0,0x5D,0x00,Read,ACK
2.085832760000000,0,0x5D,0x00,Read,ACK
2.085854220000000,0,0x5D,0x00,Read,ACK
2.085876260000000,0,0x5D,0x00,Read,ACK
2.085897720000000,0,0x5D,0x00,Read,ACK
2.085919560000000,0,0x5D,0x00,Read,ACK
2.085941860000000,0,0x5D,0x00,Read,ACK
2.085963320000000,0,0x5D,0x00,Read,ACK
2.085984780000000,0,0x5D,0x00,Read,ACK
2.086006240000000,0,0x5D,0x00,Read,ACK
2.086027700000000,0,0x5D,0x00,Read,ACK
2.086049220000000,0,0x5D,0x00,Read,ACK
2.086070680000000,0,0x5D,0x00,Read,ACK
2.086092960000000,0,0x5D,0x00,Read,ACK
2.086115200000000,0,0x5D,0x00,Read,ACK
2.086136660000000,0,0x5D,0x00,Read,ACK
2.086158140000000,0,0x5D,0x00,Read,ACK
2.086179580000000,0,0x5D,0x00,Read,ACK
2.086201060000000,0,0x5D,0xC6,Read,ACK
2.086222600000000,0,0x5D,0x88,Read,ACK
2.086244100000000,0,0x5D,0x01,Read,ACK
2.086265620000000,0,0x5D,0x00,Read,ACK
2.086287140000000,0,0x5D,0x00,Read,ACK
2.086308640000000,0,0x5D,0x00,Read,ACK
2.086330100000000,0,0x5D,0x00,Read,ACK
2.086353400000000,0,0x5D,0x00,Read,ACK
2.086375180000000,0,0x5D,0x00,Read,ACK
2.086396660000000,0,0x5D,0x00,Read,ACK
2.086418440000000,0,0x5D,0x00,Read,ACK
2.086440280000000,0,0x5D,0x00,Read,ACK
2.086461800000000,0,0x5D,0x00,Read,ACK
2.086484320000000,0,0x5D,0x00,Read,ACK
2.086505820000000,0,0x5D,0x00,Read,ACK
2.086527840000000,0,0x5D,0x00,Read,ACK
2.086550760000000,0,0x5D,0x00,Read,ACK
2.086572280000000,0,0x5D,0x00,Read,ACK
2.086593780000000,0,0x5D,0x00,Read,ACK
2.086615480000000,0,0x5D,0x00,Read,ACK
2.086636940000000,0,0x5D,0x00,Read,NAK
2.092431060000000,0,0x5D,0x2F,Read,ACK
2.092455920000000,0,0x5D,0x00,Read,ACK
2.092477420000000,0,0x5D,0x04,Read,ACK
2.092498880000000,0,0x5D,0x03,Read,ACK
2.092520560000000,0,0x5D,0x4C,Read,ACK
2.092542560000000,0,0x5D,0x06,Read,ACK
2.092564040000000,0,0x5D,0x07,Read,ACK
2.092585500000000,0,0x5D,0x06,Read,ACK
2.092606980000000,0,0x5D,0x02,Read,ACK
2.092628460000000,0,0x5D,0x03,Read,ACK
2.092649920000000,0,0x5D,0x20,Read,ACK
2.092671380000000,0,0x5D,0x00,Read,ACK
2.092692840000000,0,0x5D,0x00,Read,ACK
2.092714300000000,0,0x5D,0x00,Read,ACK
2.092735740000000,0,0x5D,0x00,Read,ACK
2.092757200000000,0,0x5D,0x00,Read,ACK
2.092778680000000,0,0x5D,0x00,Read,ACK
2.092801400000000,0,0x5D,0x00,Read,ACK
2.092823520000000,0,0x5D,0x00,Read,ACK
2.092845040000000,0,0x5D,0x00,Read,ACK
2.092866540000000,0,0x5D,0x00,Read,ACK
2.092888000000000,0,0x5D,0x00,Read,ACK
2.092909560000000,0,0x5D,0x00,Read,ACK
2.092932460000000,0,0x5D,0x00,Read,ACK
2.092953920000000,0,0x5D,0x00,Read,ACK
2.092976160000000,0,0x5D,0x00,Read,ACK
2.092997680000000,0,0x5D,0x00,Read,ACK
2.093019160000000,0,0x5D,0x00,Read,ACK
2.093040680000000,0,0x5D,0x00,Read,ACK
2.093062140000000,0,0x5D,0x00,Read,ACK
2.093083560000000,0,0x5D,0x00,Read,ACK
2.093105040000000,0,0x5D,0x00,Read,ACK
2.093126480000000,0,0x5D,0x00,Read,ACK
2.093147940000000,0,0x5D,0x00,Read,ACK
2.093169400000000,0,0x5D,0x00,Read,ACK
2.093191540000000,0,0x5D,0x00,Read,ACK
2.093213000000000,0,0x5D,0x00,Read,ACK
2.093234460000000,0,0x5D,0x00,Read,ACK
2.093255920000000,0,0x5D,0x00,Read,ACK
2.093277420000000,0,0x5D,0x00,Read,ACK
2.093298900000000,0,0x5D,0x00,Read,ACK
2.093320420000000,0,0x5D,0x00,Read,ACK
2.093341920000000,0,0x5D,0x00,Read,ACK
2.093363400000000,0,0x5D,0x0C,Read,ACK
2.093384880000000,0,0x5D,0x89,Read,ACK
2.093406340000000,0,0x5D,0x01,Read,ACK
2.093427800000000,0,0x5D,0x00,Read,ACK
2.093449280000000,0,0x5D,0x00,Read,ACK
2.093470780000000,0,0x5D,0x00,Read,ACK
2.093493380000000,0,0x5D,0x00,Read,ACK
2.093516280000000,0,0x5D,0x00,Read,ACK
2.093538020000000,0,0x5D,0x00,Read,ACK
2.093559460000000,0,0x5D,0x00,Read,ACK
2.093581780000000,0,0x5D,0x00,Read,ACK
2.093603540000000,0,0x5D,0x00,Read,ACK
2.093625000000000,0,0x5D,0x00,Read,ACK
2.093647380000000,0,0x5D,0x00,Read,ACK
2.093670500000000,0,0x5D,0x00,Read,ACK
2.093692240000000,0,0x5D,0x00,Read,ACK
2.093714260000000,0,0x5D,0x00,Read,ACK
2.093735720000000,0,0x5D,0x00,Read,ACK
2.093757160000000,0,0x5D,0x00,Read,ACK
2.093778620000000,0,0x5D,0x00,Read,ACK
2.093801900000000,0,0x5D,0x00,Read,NAK
2.099666520000000,0,0x5D,0x2F,Read,ACK
2.099693720000000,0,0x5D,0x00,Read,ACK
2.099715200000000,0,0x5D,0x04,Read,ACK
2.099736660000000,0,0x5D,0x03,Read,ACK
2.099758120000000,0,0x5D,0x4C,Read,ACK
2.099779620000000,0,0x5D,0x06,Read,ACK
2.099801080000000,0,0x5D,0x07,Read,ACK
2.099822580000000,0,0x5D,0x06,Read,ACK
2.099844060000000,0,0x5D,0x02,Read,ACK
2.099865520000000,0,0x5D,0x03,Read,ACK
2.099886980000000,0,0x5D,0x20,Read,ACK
2.099908420000000,0,0x5D,0x00,Read,ACK
2.099930580000000,0,0x5D,0x00,Read,ACK
2.099953040000000,0,0x5D,0x00,Read,ACK
2.099974560000000,0,0x5D,0x00,Read,ACK
2.099996080000000,0,0x5D,0x00,Read,ACK
2.100017580000000,0,0x5D,0x00,Read,ACK
2.100039840000000,0,0x5D,0x00,Read,ACK
2.100061300000000,0,0x5D,0x00,Read,ACK
2.100082780000000,0,0x5D,0x00,Read,ACK
2.100104300000000,0,0x5D,0x00,Read,ACK
2.100125820000000,0,0x5D,0x00,Read,ACK
2.100147320000000,0,0x5D,0x00,Read,ACK
2.100170060000000,0,0x5D,0x00,Read,ACK
2.100192880000000,0,0x5D,0x00,Read,ACK
2.100214360000000,0,0x5D,0x00,Read,ACK
2.100235820000000,0,0x5D,0x00,Read,ACK
2.100257280000000,0,0x5D,0x00,Read,ACK
2.100278800000000,0,0x5D,0x00,Read,ACK
2.100300300000000,0,0x5D,0x00,Read,ACK
2.100321780000000,0,0x5D,0x00,Read,ACK
2.100343280000000,0,0x5D,0x00,Read,ACK
2.100364740000000,0,0x5D,0x00,Read,ACK
2.100386240000000,0,0x5D,0x00,Read,ACK
2.100407740000000,0,0x5D,0x00,Read,ACK
2.100429200000000,0,0x5D,0x00,Read,ACK
2.100450680000000,0,0x5D,0x00,Read,ACK
2.100472180000000,0,0x5D,0x00,Read,ACK
2.100493680000000,0,0x5D,0x00,Read,ACK
2.100515160000000,0,0x5D,0x00,Read,ACK
2.100536600000000,0,0x5D,0x00,Read,ACK
2.100558080000000,0,0x5D,0x00,Read,ACK
2.100579540000000,0,0x5D,0x00,Read,ACK
2.100601040000000,0,0x5D,0x52,Read,ACK
2.100622500000000,0,0x5D,0x89,Read,ACK
2.100643960000000,0,0x5D,0x01,Read,ACK
2.100665780000000,0,0x5D,0x00,Read,ACK
2.100687700000000,0,0x5D,0x00,Read,ACK
2.100709940000000,0,0x5D,0x00,Read,ACK
2.100733780000000,0,0x5D,0x00,Read,ACK
2.100755540000000,0,0x5D,0x00,Read,ACK
2.100778020000000,0,0x5D,0x00,Read,ACK
2.100799700000000,0,0x5D,0x00,Read,ACK
2.100821160000000,0,0x5D,0x00,Read,ACK
2.100842680000000,0,0x5D,0x00,Read,ACK
2.100864500000000,0,0x5D,0x00,Read,ACK
2.100885960000000,0,0x5D,0x00,Read,ACK
2.100908980000000,0,0x5D,0x00,Read,ACK
2.100930440000000,0,0x5D,0x00,Read,ACK
2.100952140000000,0,0x5D,0x00,Read,ACK
2.100973620000000,0,0x5D,0x00,Read,ACK
2.100996680000000,0,0x5D,0x00,Read,ACK
2.101018220000000,0,0x5D,0x00,Read,ACK
2.101039700000000,0,0x5D,0x00,Read,NAK
2.106676340000000,0,0x5D,0x2F,Read,ACK
2.106701800000000,0,0x5D,0x00,Read,ACK
2.106723500000000,0,0x5D,0x04,Read,ACK
2.106745820000000,0,0x5D,0x03,Read,ACK
2.106767280000000,0,0x5D,0x4C,Read,ACK
2.106788740000000,0,0x5D,0x06,Read,ACK
2.106810220000000,0,0x5D,0x07,Read,ACK
2.106832240000000,0,0x5D,0x06,Read,ACK
2.106854020000000,0,0x5D,0x02,Read,ACK
2.106875480000000,0,0x5D,0x03,Read,ACK
2.106896940000000,0,0x5D,0x20,Read,ACK
2.106918400000000,0,0x5D,0x00,Read,ACK
2.106939840000000,0,0x5D,0x00,Read,ACK
2.106961300000000,0,0x5D,0x00,Read,ACK
2.106982760000000,0,0x5D,0x00,Read,ACK
2.107004220000000,0,0x5D,0x00,Read,ACK
2.107025680000000,0,0x5D,0x00,Read,ACK
2.107047180000000,0,0x5D,0x00,Read,ACK
2.107068640000000,0,0x5D,0x00,Read,ACK
2.107090120000000,0,0x5D,0x00,Read,ACK
2.107112480000000,0,0x5D,0x00,Read,ACK
2.107134100000000,0,0x5D,0x00,Read,ACK
2.107155600000000,0,0x5D,0x00,Read,ACK
2.107177040000000,0,0x5D,0x00,Read,ACK
2.107198520000000,0,0x5D,0x00,Read,ACK
2.107220020000000,0,0x5D,0x00,Read,ACK
2.107241500000000,0,0x5D,0x00,Read,ACK
2.107263280000000,0,0x5D,0x00,Read,ACK
2.107284860000000,0,0x5D,0x00,Read,ACK
2.107306360000000,0,0x5D,0x00,Read,ACK
2.107328300000000,0,0x5D,0x00,Read,ACK
2.107349800000000,0,0x5D,0x00,Read,ACK
2.107371840000000,0,0x5D,0x00,Read,ACK
2.107393620000000,0,0x5D,0x00,Read,ACK
2.107415120000000,0,0x5D,0x00,Read,ACK
2.107438100000000,0,0x5D,0x00,Read,ACK
2.107459620000000,0,0x5D,0x00,Read,ACK
2.107481120000000,0,0x5D,0x00,Read,ACK
2.107502580000000,0,0x5D,0x00,Read,ACK
2.107524100000000,0,0x5D,0x00,Read,ACK
2.107545700000000,0,0x5D,0x00,Read,ACK
2.107567200000000,0,0x5D,0x00,Read,ACK
2.107588720000000,0,0x5D,0x00,Read,ACK
2.107610160000000,0,0x5D,0x98,Read,ACK
2.107631740000000,0,0x5D,0x89,Read,ACK
2.107653200000000,0,0x5D,0x01,Read,ACK
2.107674660000000,0,0x5D,0x00,Read,ACK
2.107696160000000,0,0x5D,0x00,Read,ACK
2.107717640000000,0,0x5D,0x00,Read,ACK
2.107739120000000,0,0x5D,0x00,Read,ACK
2.107760620000000,0,0x5D,0x00,Read,ACK
2.107785100000000,0,0x5D,0x00,Read,ACK
2.107806920000000,0,0x5D,0x00,Read,ACK
2.107828400000000,0,0x5D,0x00,Read,ACK
2.107850320000000,0,0x5D,0x00,Read,ACK
2.107872260000000,0,0x5D,0x00,Read,ACK
2.107893700000000,0,0x5D,0x00,Read,ACK
2.107915220000000,0,0x5D,0x00,Read,ACK
2.107936680000000,0,0x5D,0x00,Read,ACK
2.107958140000000,0,0x5D,0x00,Read,ACK
2.107979940000000,0,0x5D,0x00,Read,ACK
2.108001600000000,0,0x5D,0x00,Read,ACK
2.108023960000000,0,0x5D,0x00,Read,ACK
2.108047680000000,0,0x5D,0x00,Read,NAK
2.114063360000000,0,0x5D,0x2F,Read,ACK
2.114088340000000,0,0x5D,0x00,Read,ACK
2.114109800000000,0,0x5D,0x04,Read,ACK
2.114131260000000,0,0x5D,0x03,Read,ACK
2.114152720000000,0,0x5D,0x4C,Read,ACK
2.114174180000000,0,0x5D,0x06,Read,ACK
2.114195620000000,0,0x5D,0x07,Read,ACK
2.114217080000000,0,0x5D,0x06,Read,ACK
2.114239660000000,0,0x5D,0x02,Read,ACK
2.114261180000000,0,0x5D,0x03,Read,ACK
2.114282640000000,0,0x5D,0x20,Read,ACK
2.114304080000000,0,0x5D,0x00,Read,ACK
2.114325640000000,0,0x5D,0x00,Read,ACK
2.114348180000000,0,0x5D,0x00,Read,ACK
2.114369640000000,0,0x5D,0x00,Read,ACK
2.114391080000000,0,0x5D,0x00,Read,ACK
2.114412540000000,0,0x5D,0x00,Read,ACK
2.114434000000000,0,0x5D,0x00,Read,ACK
2.114455460000000,0,0x5D,0x00,Read,ACK
2.114478680000000,0,0x5D,0x00,Read,ACK
2.114500180000000,0,0x5D,0x00,Read,ACK
2.114521640000000,0,0x5D,0x00,Read,ACK
2.114543100000000,0,0x5D,0x00,Read,ACK
2.114564540000000,0,0x5D,0x00,Read,ACK
2.114586300000000,0,0x5D,0x00,Read,ACK
2.114608580000000,0,0x5D,0x00,Read,ACK
2.114630020000000,0,0x5D,0x00,Read,ACK
2.114651480000000,0,0x5D,0x00,Read,ACK
2.114672960000000,0,0x5D,0x00,Read,ACK
2.114694460000000,0,0x5D,0x00,Read,ACK
2.114715920000000,0,0x5D,0x00,Read,ACK
2.114737360000000,0,0x5D,0x00,Read,ACK
2.114758820000000,0,0x5D,0x00,Read,ACK
2.114780280000000,0,0x5D,0x00,Read,ACK
2.114801720000000,0,0x5D,0x00,Read,ACK
2.114823180000000,0,0x5D,0x00,Read,ACK
2.114844660000000,0,0x5D,0x00,Read,ACK
2.114866160000000,0,0x5D,0x00,Read,ACK
2.114887620000000,0,0x5D,0x00,Read,ACK
2.114911240000000,0,0x5D,0x00,Read,ACK
2.114933100000000,0,0x5D,0x00,Read,ACK
2.114954600000000,0,0x5D,0x00,Read,ACK
2.114977100000000,0,0x5D,0x00,Read,ACK
2.114999480000000,0,0x5D,0xDE,Read,ACK
2.115020960000000,0,0x5D,0x89,Read,ACK
2.115042480000000,0,0x5D,0x01,Read,ACK
2.115063920000000,0,0x5D,0x00,Read,ACK
2.115086220000000,0,0x5D,0x00,Read,ACK
2.115109320000000,0,0x5D,0x00,Read,ACK
2.115131080000000,0,0x5D,0x00,Read,ACK
2.115152540000000,0,0x5D,0x00,Read,ACK
2.115174020000000,0,0x5D,0x00,Read,ACK
2.115195520000000,0,0x5D,0x00,Read,ACK
2.115216980000000,0,0x5D,0x00,Read,ACK
2.115238440000000,0,0x5D,0x00,Read,ACK
2.115259900000000,0,0x5D,0x00,Read,ACK
2.115281420000000,0,0x5D,0x00,Read,ACK
2.115302860000000,0,0x5D,0x00,Read,ACK
2.115324320000000,0,0x5D,0x00,Read,ACK
2.115347400000000,0,0x5D,0x00,Read,ACK
2.115371780000000,0,0x5D,0x00,Read,ACK
2.115393440000000,0,0x5D,0x00,Read,ACK
2.115414940000000,0,0x5D,0x00,Read,ACK
2.115436760000000,0,0x5D,0x00,Read,NAK
2.120978400000000,0,0x5D,0x2F,Read,ACK
2.121001280000000,0,0x5D,0x00,Read,ACK
2.121022700000000,0,0x5D,0x04,Read,ACK
2.121044180000000,0,0x5D,0x03,Read,ACK
2.121065640000000,0,0x5D,0x4C,Read,ACK
2.121088760000000,0,0x5D,0x06,Read,ACK
2.121110980000000,0,0x5D,0x07,Read,ACK
2.121134080000000,0,0x5D,0x06,Read,ACK
2.121155560000000,0,0x5D,0x02,Read,ACK
2.121177020000000,0,0x5D,0x03,Read,ACK
2.121198480000000,0,0x5D,0x20,Read,ACK
2.121219920000000,0,0x5D,0x00,Read,ACK
2.121241400000000,0,0x5D,0x00,Read,ACK
2.121262900000000,0,0x5D,0x00,Read,ACK
2.121284360000000,0,0x5D,0x00,Read,ACK
2.121305820000000,0,0x5D,0x00,Read,ACK
2.121327260000000,0,0x5D,0x00,Read,ACK
2.121348720000000,0,0x5D,0x00,Read,ACK
2.121370160000000,0,0x5D,0x00,Read,ACK
2.121392160000000,0,0x5D,0x00,Read,ACK
2.121414740000000,0,0x5D,0x00,Read,ACK
2.121436220000000,0,0x5D,0x00,Read,ACK
2.121457700000000,0,0x5D,0x00,Read,ACK
2.121479200000000,0,0x5D,0x00,Read,ACK
2.121501460000000,0,0x5D,0x00,Read,ACK
2.121522920000000,0,0x5D,0x00,Read,ACK
2.121544380000000,0,0x5D,0x00,Read,ACK
2.121565900000000,0,0x5D,0x00,Read,ACK
2.121587360000000,0,0x5D,0x00,Read,ACK
2.121608800000000,0,0x5D,0x00,Read,ACK
2.121630260000000,0,0x5D,0x00,Read,ACK
2.121652140000000,0,0x5D,0x00,Read,ACK
2.121673600000000,0,0x5D,0x00,Read,ACK
2.121695080000000,0,0x5D,0x00,Read,ACK
2.121716580000000,0,0x5D,0x00,Read,ACK
2.121738060000000,0,0x5D,0x00,Read,ACK
2.121760040000000,0,0x5D,0x00,Read,ACK
2.121781600000000,0,0x5D,0x00,Read,ACK
2.121803080000000,0,0x5D,0x00,Read,ACK
2.121824540000000,0,0x5D,0x00,Read,ACK
2.121846020000000,0,0x5D,0x00,Read,ACK
2.121867660000000,0,0x5D,0x00,Read,ACK
2.121889140000000,0,0x5D,0x00,Read,ACK
2.121910600000000,0,0x5D,0x24,Read,ACK
2.121932060000000,0,0x5D,0x8A,Read,ACK
2.121953500000000,0,0x5D,0x01,Read,ACK
2.121974980000000,0,0x5D,0x00,Read,ACK
2.121996500000000,0,0x5D,0x00,Read,ACK
2.122019460000000,0,0x5D,0x00,Read,ACK
2.122042200000000,0,0x5D,0x00,Read,ACK
2.122064600000000,0,0x5D,0x00,Read,ACK
2.122086800000000,0,0x5D,0x00,Read,ACK
2.122108300000000,0,0x5D,0x00,Read,ACK
2.122129760000000,0,0x5D,0x00,Read,ACK
2.122151220000000,0,0x5D,0x00,Read,ACK
2.122172680000000,0,0x5D,0x00,Read,ACK
2.122194180000000,0,0x5D,0x00,Read,ACK
2.122216140000000,0,0x5D,0x00,Read,ACK
2.122237600000000,0,0x5D,0x00,Read,ACK
2.122259140000000,0,0x5D,0x00,Read,ACK
2.122282240000000,0,0x5D,0x00,Read,ACK
2.122303960000000,0,0x5D,0x00,Read,ACK
2.122325580000000,0,0x5D,0x00,Read,ACK
2.122347040000000,0,0x5D,0x00,Read,NAK
2.128171640000000,0,0x5D,0x2F,Read,ACK
2.128194340000000,0,0x5D,0x00,Read,ACK
2.128215820000000,0,0x5D,0x04,Read,ACK
2.128238740000000,0,0x5D,0x03,Read,ACK
2.128260780000000,0,0x5D,0x4C,Read,ACK
2.128282440000000,0,0x5D,0x06,Read,ACK
2.128303940000000,0,0x5D,0x07,Read,ACK
2.128325420000000,0,0x5D,0x06,Read,ACK
2.128346920000000,0,0x5D,0x02,Read,ACK
2.128368380000000,0,0x5D,0x03,Read,ACK
2.128389820000000,0,0x5D,0x20,Read,ACK
2.128411280000000,0,0x5D,0x00,Read,ACK
2.128432760000000,0,0x5D,0x00,Read,ACK
2.128454260000000,0,0x5D,0x00,Read,ACK
2.128475700000000,0,0x5D,0x00,Read,ACK
2.128497160000000,0,0x5D,0x00,Read,ACK
2.128519840000000,0,0x5D,0x00,Read,ACK
2.128542460000000,0,0x5D,0x00,Read,ACK
2.128563960000000,0,0x5D,0x00,Read,ACK
2.128585420000000,0,0x5D,0x00,Read,ACK
2.128606960000000,0,0x5D,0x00,Read,ACK
2.128628460000000,0,0x5D,0x00,Read,ACK
2.128649980000000,0,0x5D,0x00,Read,ACK
2.128671420000000,0,0x5D,0x00,Read,ACK
2.128692880000000,0,0x5D,0x00,Read,ACK
2.128714320000000,0,0x5D,0x00,Read,ACK
2.128735800000000,0,0x5D,0x00,Read,ACK
2.128757320000000,0,0x5D,0x00,Read,ACK
2.128778780000000,0,0x5D,0x00,Read,ACK
2.128800280000000,0,0x5D,0x00,Read,ACK
2.128821820000000,0,0x5D,0x00,Read,ACK
2.128843320000000,0,0x5D,0x00,Read,ACK
2.128864820000000,0,0x5D,0x00,Read,ACK
2.128886280000000,0,0x5D,0x00,Read,ACK
2.128907800000000,0,0x5D,0x00,Read,ACK
2.128929240000000,0,0x5D,0x00,Read,ACK
2.128950960000000,0,0x5D,0x00,Read,ACK
2.128972400000000,0,0x5D,0x00,Read,ACK
2.128993860000000,0,0x5D,0x00,Read,ACK
2.129015320000000,0,0x5D,0x00,Read,ACK
2.129036820000000,0,0x5D,0x00,Read,ACK
2.129058300000000,0,0x5D,0x00,Read,ACK
2.129079820000000,0,0x5D,0x00,Read,ACK
2.129101320000000,0,0x5D,0x6A,Read,ACK
2.129122780000000,0,0x5D,0x8A,Read,ACK
2.129144240000000,0,0x5D,0x01,Read,ACK
2.129165680000000,0,0x5D,0x00,Read,ACK
2.129187140000000,0,0x5D,0x00,Read,ACK
2.129209060000000,0,0x5D,0x00,Read,ACK
2.129230840000000,0,0x5D,0x00,Read,ACK
2.129252320000000,0,0x5D,0x00,Read,ACK
2.129274280000000,0,0x5D,0x00,Read,ACK
2.129296060000000,0,0x5D,0x00,Read,ACK
2.129317560000000,0,0x5D,0x00,Read,ACK
2.129339000000000,0,0x5D,0x00,Read,ACK
2.129360460000000,0,0x5D,0x00,Read,ACK
2.129384340000000,0,0x5D,0x00,Read,ACK
2.129406940000000,0,0x5D,0x00,Read,ACK
2.129429200000000,0,0x5D,0x00,Read,ACK
2.129450760000000,0,0x5D,0x00,Read,ACK
2.129472540000000,0,0x5D,0x00,Read,ACK
2.129494100000000,0,0x5D,0x00,Read,ACK
2.129515560000000,0,0x5D,0x00,Read,ACK
2.129537440000000,0,0x5D,0x00,Read,NAK
2.135300280000000,0,0x5D,0x2F,Read,ACK
2.135323060000000,0,0x5D,0x00,Read,ACK
2.135346140000000,0,0x5D,0x04,Read,ACK
2.135368200000000,0,0x5D,0x03,Read,ACK
2.135390200000000,0,0x5D,0x4C,Read,ACK
2.135414160000000,0,0x5D,0x06,Read,ACK
2.135435700000000,0,0x5D,0x07,Read,ACK
2.135457160000000,0,0x5D,0x06,Read,ACK
2.135478620000000,0,0x5D,0x02,Read,ACK
2.135500080000000,0,0x5D,0x03,Read,ACK
2.135521540000000,0,0x5D,0x20,Read,ACK
2.135543020000000,0,0x5D,0x00,Read,ACK
2.135564520000000,0,0x5D,0x00,Read,ACK
2.135586040000000,0,0x5D,0x00,Read,ACK
2.135607580000000,0,0x5D,0x00,Read,ACK
2.135629080000000,0,0x5D,0x00,Read,ACK
2.135650520000000,0,0x5D,0x00,Read,ACK
2.135671980000000,0,0x5D,0x00,Read,ACK
2.135693440000000,0,0x5D,0x00,Read,ACK
2.135714900000000,0,0x5D,0x00,Read,ACK
2.135736360000000,0,0x5D,0x00,Read,ACK
2.135757840000000,0,0x5D,0x00,Read,ACK
2.135779320000000,0,0x5D,0x00,Read,ACK
2.135800820000000,0,0x5D,0x00,Read,ACK
2.135822300000000,0,0x5D,0x00,Read,ACK
2.135843820000000,0,0x5D,0x00,Read,ACK
2.135865320000000,0,0x5D,0x00,Read,ACK
2.135886980000000,0,0x5D,0x00,Read,ACK
2.135908440000000,0,0x5D,0x00,Read,ACK
2.135929940000000,0,0x5D,0x00,Read,ACK
2.135951420000000,0,0x5D,0x00,Read,ACK
2.135972920000000,0,0x5D,0x00,Read,ACK
2.135994380000000,0,0x5D,0x00,Read,ACK
2.136016000000000,0,0x5D,0x00,Read,ACK
2.136037480000000,0,0x5D,0x00,Read,ACK
2.136059260000000,0,0x5D,0x00,Read,ACK
2.136080760000000,0,0x5D,0x00,Read,ACK
2.136102420000000,0,0x5D,0x00,Read,ACK
2.136123920000000,0,0x5D,0x00,Read,ACK
2.136145380000000,0,0x5D,0x00,Read,ACK
2.136166840000000,0,0x5D,0x00,Read,ACK
2.136188320000000,0,0x5D,0x00,Read,ACK
2.136209820000000,0,0x5D,0x00,Read,ACK
2.136231300000000,0,0x5D,0xB0,Read,ACK
2.136252800000000,0,0x5D,0x8A,Read,ACK
2.136274300000000,0,0x5D,0x01,Read,ACK
2.136296100000000,0,0x5D,0x00,Read,ACK
2.136317600000000,0,0x5D,0x00,Read,ACK
2.136341520000000,0,0x5D,0x00,Read,ACK
2.136364460000000,0,0x5D,0x00,Read,ACK
2.136385980000000,0,0x5D,0x00,Read,ACK
2.136407480000000,0,0x5D,0x00,Read,ACK
2.136430560000000,0,0x5D,0x00,Read,ACK
2.136452340000000,0,0x5D,0x00,Read,ACK
2.136474000000000,0,0x5D,0x00,Read,ACK
2.136495480000000,0,0x5D,0x00,Read,ACK
2.136516940000000,0,0x5D,0x00,Read,ACK
2.136538400000000,0,0x5D,0x00,Read,ACK
2.136561200000000,0,0x5D,0x00,Read,ACK
2.136582820000000,0,0x5D,0x00,Read,ACK
2.136604500000000,0,0x5D,0x00,Read,ACK
2.136626560000000,0,0x5D,0x00,Read,ACK
2.136648040000000,0,0x5D,0x00,Read,ACK
2.136669500000000,0,0x5D,0x00,Read,NAK
2.142462900000000,0,0x5D,0x2F,Read,ACK
2.142487380000000,0,0x5D,0x00,Read,ACK
2.142508840000000,0,0x5D,0x04,Read,ACK
2.142532060000000,0,0x5D,0x03,Read,ACK
2.142554300000000,0,0x5D,0x4C,Read,ACK
2.142579500000000,0,0x5D,0x06,Read,ACK
2.142600960000000,0,0x5D,0x07,Read,ACK
2.142622420000000,0,0x5D,0x06,Read,ACK
2.142643880000000,0,0x5D,0x02,Read,ACK
2.142665340000000,0,0x5D,0x03,Read,ACK
2.142686780000000,0,0x5D,0x20,Read,ACK
2.142708240000000,0,0x5D,0x00,Read,ACK
2.142729700000000,0,0x5D,0x00,Read,ACK
2.142751180000000,0,0x5D,0x00,Read,ACK
2.142772680000000,0,0x5D,0x00,Read,ACK
2.142794140000000,0,0x5D,0x00,Read,ACK
2.142816420000000,0,0x5D,0x00,Read,ACK
2.142837860000000,0,0x5D,0x00,Read,ACK
2.142860520000000,0,0x5D,0x00,Read,ACK
2.142882040000000,0,0x5D,0x00,Read,ACK
2.142904920000000,0,0x5D,0x00,Read,ACK
2.142926520000000,0,0x5D,0x00,Read,ACK
2.142948660000000,0,0x5D,0x00,Read,ACK
2.142970160000000,0,0x5D,0x00,Read,ACK
2.142991660000000,0,0x5D,0x00,Read,ACK
2.143013160000000,0,0x5D,0x00,Read,ACK
2.143034640000000,0,0x5D,0x00,Read,ACK
2.143056140000000,0,0x5D,0x00,Read,ACK
2.143078800000000,0,0x5D,0x00,Read,ACK
2.143100320000000,0,0x5D,0x00,Read,ACK
2.143122300000000,0,0x5D,0x00,Read,ACK
2.143143780000000,0,0x5D,0x00,Read,ACK
2.143165240000000,0,0x5D,0x00,Read,ACK
2.143186720000000,0,0x5D,0x00,Read,ACK
2.143208200000000,0,0x5D,0x00,Read,ACK
2.143229680000000,0,0x5D,0x00,Read,ACK
2.143252760000000,0,0x5D,0x00,Read,ACK
2.143274280000000,0,0x5D,0x00,Read,ACK
2.143295800000000,0,0x5D,0x00,Read,ACK
2.143317320000000,0,0x5D,0x00,Read,ACK
2.143338800000000,0,0x5D,0x00,Read,ACK
2.143360260000000,0,0x5D,0x00,Read,ACK
2.143381740000000,0,0x5D,0x00,Read,ACK
2.143403240000000,0,0x5D,0xF6,Read,ACK
2.143424700000000,0,0x5D,0x8A,Read,ACK
2.143446160000000,0,0x5D,0x01,Read,ACK
2.143467600000000,0,0x5D,0x00,Read,ACK
2.143489080000000,0,0x5D,0x00,Read,ACK
2.143510520000000,0,0x5D,0x00,Read,ACK
2.143534940000000,0,0x5D,0x00,Read,ACK
2.143558300000000,0,0x5D,0x00,Read,ACK
2.143579820000000,0,0x5D,0x00,Read,ACK
2.143601760000000,0,0x5D,0x00,Read,ACK
2.143624080000000,0,0x5D,0x00,Read,ACK
2.143646360000000,0,0x5D,0x00,Read,ACK
2.143668420000000,0,0x5D,0x00,Read,ACK
2.143689880000000,0,0x5D,0x00,Read,ACK
2.143711360000000,0,0x5D,0x00,Read,ACK
2.143732800000000,0,0x5D,0x00,Read,ACK
2.143754300000000,0,0x5D,0x00,Read,ACK
2.143776160000000,0,0x5D,0x00,Read,ACK
2.143797720000000,0,0x5D,0x00,Read,ACK
2.143819180000000,0,0x5D,0x00,Read,ACK
2.143840880000000,0,0x5D,0x00,Read,NAK
2.149735720000000,0,0x5D,0x2F,Read,ACK
2.149760180000000,0,0x5D,0x00,Read,ACK
2.149781680000000,0,0x5D,0x04,Read,ACK
2.149803140000000,0,0x5D,0x03,Read,ACK
2.149824660000000,0,0x5D,0x4C,Read,ACK
2.149846100000000,0,0x5D,0x06,Read,ACK
2.149867560000000,0,0x5D,0x07,Read,ACK
2.149889000000000,0,0x5D,0x06,Read,ACK
2.149910480000000,0,0x5D,0x02,Read,ACK
2.149932120000000,0,0x5D,0x03,Read,ACK
2.149955140000000,0,0x5D,0x20,Read,ACK
2.149976640000000,0,0x5D,0x00,Read,ACK
2.149999340000000,0,0x5D,0x00,Read,ACK
2.150020800000000,0,0x5D,0x00,Read,ACK
2.150042600000000,0,0x5D,0x00,Read,ACK
2.150065280000000,0,0x5D,0x00,Read,ACK
2.150086720000000,0,0x5D,0x00,Read,ACK
2.150108180000000,0,0x5D,0x00,Read,ACK
2.150129680000000,0,0x5D,0x00,Read,ACK
2.150151140000000,0,0x5D,0x00,Read,ACK
2.150173620000000,0,0x5D,0x00,Read,ACK
2.150195060000000,0,0x5D,0x00,Read,ACK
2.150216720000000,0,0x5D,0x00,Read,ACK
2.150238200000000,0,0x5D,0x00,Read,ACK
2.150259680000000,0,0x5D,0x00,Read,ACK
2.150281200000000,0,0x5D,0x00,Read,ACK
2.150302760000000,0,0x5D,0x00,Read,ACK
2.150324220000000,0,0x5D,0x00,Read,ACK
2.150345700000000,0,0x5D,0x00,Read,ACK
2.150367520000000,0,0x5D,0x00,Read,ACK
2.150389080000000,0,0x5D,0x00,Read,ACK
2.150410560000000,0,0x5D,0x00,Read,ACK
2.150432060000000,0,0x5D,0x00,Read,ACK
2.150453540000000,0,0x5D,0x00,Read,ACK
2.150475060000000,0,0x5D,0x00,Read,ACK
2.150496600000000,0,0x5D,0x00,Read,ACK
2.150518060000000,0,0x5D,0x00,Read,ACK
2.150539520000000,0,0x5D,0x00,Read,ACK
2.150560960000000,0,0x5D,0x00,Read,ACK
2.150582440000000,0,0x5D,0x00,Read,ACK
2.150603940000000,0,0x5D,0x00,Read,ACK
2.150626880000000,0,0x5D,0x00,Read,ACK
2.150648660000000,0,0x5D,0x00,Read,ACK
2.150670960000000,0,0x5D,0x3C,Read,ACK
2.150692660000000,0,0x5D,0x8B,Read,ACK
2.150714320000000,0,0x5D,0x01,Read,ACK
2.150736520000000,0,0x5D,0x00,Read,ACK
2.150758000000000,0,0x5D,0x00,Read,ACK
2.150779520000000,0,0x5D,0x00,Read,ACK
2.150801100000000,0,0x5D,0x00,Read,ACK
2.150823040000000,0,0x5D,0x00,Read,ACK
2.150844500000000,0,0x5D,0x00,Read,ACK
2.150865980000000,0,0x5D,0x00,Read,ACK
2.150888440000000,0,0x5D,0x00,Read,ACK
2.150909940000000,0,0x5D,0x00,Read,ACK
2.150931460000000,0,0x5D,0x00,Read,ACK
2.150953580000000,0,0x5D,0x00,Read,ACK
2.150977240000000,0,0x5D,0x00,Read,ACK
2.150998740000000,0,0x5D,0x00,Read,ACK
2.151020260000000,0,0x5D,0x00,Read,ACK
2.151042520000000,0,0x5D,0x00,Read,ACK
2.151063980000000,0,0x5D,0x00,Read,ACK
2.151087860000000,0,0x5D,0x00,Read,ACK
2.151109960000000,0,0x5D,0x00,Read,NAK
2.156959080000000,0,0x5D,0x2F,Read,ACK
2.156983500000000,0,0x5D,0x00,Read,ACK
2.157005000000000,0,0x5D,0x04,Read,ACK
2.157026440000000,0,0x5D,0x03,Read,ACK
2.157047960000000,0,0x5D,0x4C,Read,ACK
2.157069400000000,0,0x5D,0x06,Read,ACK
2.157090880000000,0,0x5D,0x07,Read,ACK
2.157112800000000,0,0x5D,0x06,Read,ACK
2.157134280000000,0,0x5D,0x02,Read,ACK
2.157156240000000,0,0x5D,0x03,Read,ACK
2.157177740000000,0,0x5D,0x20,Read,ACK
2.157199180000000,0,0x5D,0x00,Read,ACK
2.157220680000000,0,0x5D,0x00,Read,ACK
2.157242160000000,0,0x5D,0x00,Read,ACK
2.157263620000000,0,0x5D,0x00,Read,ACK
2.157285060000000,0,0x5D,0x00,Read,ACK
2.157306540000000,0,0x5D,0x00,Read,ACK
2.157328040000000,0,0x5D,0x00,Read,ACK
2.157349500000000,0,0x5D,0x00,Read,ACK
2.157370940000000,0,0x5D,0x00,Read,ACK
2.157392420000000,0,0x5D,0x00,Read,ACK
2.157413920000000,0,0x5D,0x00,Read,ACK
2.157435380000000,0,0x5D,0x00,Read,ACK
2.157456840000000,0,0x5D,0x00,Read,ACK
2.157478360000000,0,0x5D,0x00,Read,ACK
2.157499860000000,0,0x5D,0x00,Read,ACK
2.157522180000000,0,0x5D,0x00,Read,ACK
2.157543640000000,0,0x5D,0x00,Read,ACK
2.157565140000000,0,0x5D,0x00,Read,ACK
2.157586640000000,0,0x5D,0x00,Read,ACK
2.157608140000000,0,0x5D,0x00,Read,ACK
2.157629580000000,0,0x5D,0x00,Read,ACK
2.157651040000000,0,0x5D,0x00,Read,ACK
2.157672560000000,0,0x5D,0x00,Read,ACK
2.157694000000000,0,0x5D,0x00,Read,ACK
2.157715480000000,0,0x5D,0x00,Read,ACK
2.157736980000000,0,0x5D,0x00,Read,ACK
2.157758420000000,0,0x5D,0x00,Read,ACK
2.157780060000000,0,0x5D,0x00,Read,ACK
2.157803400000000,0,0x5D,0x00,Read,ACK
2.157824860000000,0,0x5D,0x00,Read,ACK
2.157846360000000,0,0x5D,0x00,Read,ACK
2.157868780000000,0,0x5D,0x00,Read,ACK
2.157890940000000,0,0x5D,0x82,Read,ACK
2.157912420000000,0,0x5D,0x8B,Read,ACK
2.157933860000000,0,0x5D,0x01,Read,ACK
2.157956240000000,0,0x5D,0x00,Read,ACK
2.157978100000000,0,0x5D,0x00,Read,ACK
2.158001180000000,0,0x5D,0x00,Read,ACK
2.158022680000000,0,0x5D,0x00,Read,ACK
2.158044400000000,0,0x5D,0x00,Read,ACK
2.158065900000000,0,0x5D,0x00,Read,ACK
2.158087920000000,0,0x5D,0x00,Read,ACK
2.158109360000000,0,0x5D,0x00,Read,ACK
2.158130820000000,0,0x5D,0x00,Read,ACK
2.158152280000000,0,0x5D,0x00,Read,ACK
2.158173920000000,0,0x5D,0x00,Read,ACK
2.158195360000000,0,0x5D,0x00,Read,ACK
2.158216840000000,0,0x5D,0x00,Read,ACK
2.158238980000000,0,0x5D,0x00,Read,ACK
2.158261000000000,0,0x5D,0x00,Read,ACK
2.158285620000000,0,0x5D,0x00,Read,ACK
2.158307800000000,0,0x5D,0x00,Read,ACK
2.158329480000000,0,0x5D,0x00,Read,NAK
2.164040800000000,0,0x5D,0x2F,Read,ACK
2.164062260000000,0,0x5D,0x00,Read,ACK
2.164083720000000,0,0x5D,0x04,Read,ACK
2.164105160000000,0,0x5D,0x03,Read,ACK
2.164126620000000,0,0x5D,0x4B,Read,ACK
2.164148140000000,0,0x5D,0x06,Read,ACK
2.164169580000000,0,0x5D,0x07,Read,ACK
2.164191060000000,0,0x5D,0x06,Read,ACK
2.164212560000000,0,0x5D,0x02,Read,ACK
2.164234940000000,0,0x5D,0x03,Read,ACK
2.164256540000000,0,0x5D,0x20,Read,ACK
2.164278040000000,0,0x5D,0x00,Read,ACK
2.164299500000000,0,0x5D,0x00,Read,ACK
2.164321000000000,0,0x5D,0x00,Read,ACK
2.164343400000000,0,0x5D,0x00,Read,ACK
2.164364880000000,0,0x5D,0x00,Read,ACK
2.164386380000000,0,0x5D,0x00,Read,ACK
2.164407880000000,0,0x5D,0x00,Read,ACK
2.164429460000000,0,0x5D,0x00,Read,ACK
2.164450940000000,0,0x5D,0x00,Read,ACK
2.164472380000000,0,0x5D,0x00,Read,ACK
2.164494420000000,0,0x5D,0x00,Read,ACK
2.164516220000000,0,0x5D,0x00,Read,ACK
2.164537680000000,0,0x5D,0x00,Read,ACK
2.164559140000000,0,0x5D,0x00,Read,ACK
2.164580600000000,0,0x5D,0x00,Read,ACK
2.164602040000000,0,0x5D,0x00,Read,ACK
2.164623500000000,0,0x5D,0x00,Read,ACK
2.164644960000000,0,0x5D,0x00,Read,ACK
2.164666460000000,0,0x5D,0x00,Read,ACK
2.164687920000000,0,0x5D,0x00,Read,ACK
2.164709360000000,0,0x5D,0x00,Read,ACK
2.164730820000000,0,0x5D,0x00,Read,ACK
2.164752300000000,0,0x5D,0x00,Read,ACK
2.164773800000000,0,0x5D,0x00,Read,ACK
2.164795240000000,0,0x5D,0x00,Read,ACK
2.164816980000000,0,0x5D,0x00,Read,ACK
2.164838460000000,0,0x5D,0x00,Read,ACK
2.164859940000000,0,0x5D,0x00,Read,ACK
2.164881440000000,0,0x5D,0x00,Read,ACK
2.164902920000000,0,0x5D,0x00,Read,ACK
2.164924400000000,0,0x5D,0x00,Read,ACK
2.164946440000000,0,0x5D,0x00,Read,ACK
2.164969360000000,0,0x5D,0xC8,Read,ACK
2.164992120000000,0,0x5D,0x8B,Read,ACK
2.165013600000000,0,0x5D,0x01,Read,ACK
2.165037140000000,0,0x5D,0x00,Read,ACK
2.165058620000000,0,0x5D,0x00,Read,ACK
2.165080060000000,0,0x5D,0x00,Read,ACK
2.165101520000000,0,0x5D,0x00,Read,ACK
2.165123480000000,0,0x5D,0x00,Read,ACK
2.165146560000000,0,0x5D,0x00,Read,ACK
2.165168060000000,0,0x5D,0x00,Read,ACK
2.165189520000000,0,0x5D,0x00,Read,ACK
2.165211900000000,0,0x5D,0x00,Read,ACK
2.165233360000000,0,0x5D,0x00,Read,ACK
2.165255320000000,0,0x5D,0x00,Read,ACK
2.165276780000000,0,0x5D,0x00,Read,ACK
2.165299780000000,0,0x5D,0x00,Read,ACK
2.165321460000000,0,0x5D,0x00,Read,ACK
2.165342940000000,0,0x5D,0x00,Read,ACK
2.165364440000000,0,0x5D,0x00,Read,ACK
2.165386980000000,0,0x5D,0x00,Read,ACK
2.165409060000000,0,0x5D,0x00,Read,NAK
2.170976540000000,0,0x5D,0x2F,Read,ACK
2.171001240000000,0,0x5D,0x00,Read,ACK
2.171023880000000,0,0x5D,0x04,Read,ACK
2.171045360000000,0,0x5D,0x03,Read,ACK
2.171066820000000,0,0x5D,0x49,Read,ACK
2.171089900000000,0,0x5D,0x06,Read,ACK
2.171111580000000,0,0x5D,0x06,Read,ACK
2.171133340000000,0,0x5D,0x06,Read,ACK
2.171154820000000,0,0x5D,0x02,Read,ACK
2.171176280000000,0,0x5D,0x03,Read,ACK
2.171197740000000,0,0x5D,0x20,Read,ACK
2.171219200000000,0,0x5D,0x00,Read,ACK
2.171240640000000,0,0x5D,0x00,Read,ACK
2.171262120000000,0,0x5D,0x00,Read,ACK
2.171283640000000,0,0x5D,0x00,Read,ACK
2.171305140000000,0,0x5D,0x00,Read,ACK
2.171326580000000,0,0x5D,0x00,Read,ACK
2.171348060000000,0,0x5D,0x00,Read,ACK
2.171369520000000,0,0x5D,0x00,Read,ACK
2.171391140000000,0,0x5D,0x00,Read,ACK
2.171415820000000,0,0x5D,0x00,Read,ACK
2.171437320000000,0,0x5D,0x00,Read,ACK
2.171458840000000,0,0x5D,0x00,Read,ACK
2.171480320000000,0,0x5D,0x00,Read,ACK
2.171502680000000,0,0x5D,0x00,Read,ACK
2.171524440000000,0,0x5D,0x00,Read,ACK
2.171545940000000,0,0x5D,0x00,Read,ACK
2.171567400000000,0,0x5D,0x00,Read,ACK
2.171588840000000,0,0x5D,0x00,Read,ACK
2.171610300000000,0,0x5D,0x00,Read,ACK
2.171632100000000,0,0x5D,0x00,Read,ACK
2.171654200000000,0,0x5D,0x00,Read,ACK
2.171675680000000,0,0x5D,0x00,Read,ACK
2.171697160000000,0,0x5D,0x00,Read,ACK
2.171718660000000,0,0x5D,0x00,Read,ACK
2.171740100000000,0,0x5D,0x00,Read,ACK
2.171761560000000,0,0x5D,0x00,Read,ACK
2.171783020000000,0,0x5D,0x00,Read,ACK
2.171804480000000,0,0x5D,0x00,Read,ACK
2.171825920000000,0,0x5D,0x00,Read,ACK
2.171847380000000,0,0x5D,0x00,Read,ACK
2.171868840000000,0,0x5D,0x00,Read,ACK
2.171890300000000,0,0x5D,0x00,Read,ACK
2.171911800000000,0,0x5D,0x0E,Read,ACK
2.171933260000000,0,0x5D,0x8C,Read,ACK
2.171954720000000,0,0x5D,0x01,Read,ACK
2.171976180000000,0,0x5D,0x00,Read,ACK
2.171997680000000,0,0x5D,0x00,Read,ACK
2.172019160000000,0,0x5D,0x00,Read,ACK
2.172040760000000,0,0x5D,0x00,Read,ACK
2.172062240000000,0,0x5D,0x00,Read,ACK
2.172086400000000,0,0x5D,0x00,Read,ACK
2.172108100000000,0,0x5D,0x00,Read,ACK
2.172129780000000,0,0x5D,0x00,Read,ACK
2.172151240000000,0,0x5D,0x00,Read,ACK
2.172173860000000,0,0x5D,0x00,Read,ACK
2.172195340000000,0,0x5D,0x00,Read,ACK
2.172216800000000,0,0x5D,0x00,Read,ACK
2.172238280000000,0,0x5D,0x00,Read,ACK
2.172259940000000,0,0x5D,0x00,Read,ACK
2.172283480000000,0,0x5D,0x00,Read,ACK
2.172304920000000,0,0x5D,0x00,Read,ACK
2.172326440000000,0,0x5D,0x00,Read,ACK
2.172348280000000,0,0x5D,0x00,Read,NAK
2.178110220000000,0,0x5D,0x2F,Read,ACK
2.178135580000000,0,0x5D,0x00,Read,ACK
2.178160280000000,0,0x5D,0x04,Read,ACK
2.178181740000000,0,0x5D,0x03,Read,ACK
2.178203180000000,0,0x5D,0x47,Read,ACK
2.178224640000000,0,0x5D,0x06,Read,ACK
2.178246300000000,0,0x5D,0x05,Read,ACK
2.178268060000000,0,0x5D,0x06,Read,ACK
2.178291180000000,0,0x5D,0x02,Read,ACK
2.178312640000000,0,0x5D,0x03,Read,ACK
2.178334100000000,0,0x5D,0x20,Read,ACK
2.178355560000000,0,0x5D,0x00,Read,ACK
2.178377020000000,0,0x5D,0x00,Read,ACK
2.178398520000000,0,0x5D,0x00,Read,ACK
2.178419980000000,0,0x5D,0x00,Read,ACK
2.178441420000000,0,0x5D,0x00,Read,ACK
2.178462920000000,0,0x5D,0x00,Read,ACK
2.178484420000000,0,0x5D,0x00,Read,ACK
2.178505920000000,0,0x5D,0x00,Read,ACK
2.178527440000000,0,0x5D,0x00,Read,ACK
2.178549260000000,0,0x5D,0x00,Read,ACK
2.178571840000000,0,0x5D,0x00,Read,ACK
2.178594020000000,0,0x5D,0x00,Read,ACK
2.178615520000000,0,0x5D,0x00,Read,ACK
2.178637860000000,0,0x5D,0x00,Read,ACK
2.178659320000000,0,0x5D,0x00,Read,ACK
2.178682140000000,0,0x5D,0x00,Read,ACK
2.178703620000000,0,0x5D,0x00,Read,ACK
2.178725060000000,0,0x5D,0x00,Read,ACK
2.178746540000000,0,0x5D,0x00,Read,ACK
2.178768040000000,0,0x5D,0x00,Read,ACK
2.178789500000000,0,0x5D,0x00,Read,ACK
2.178811280000000,0,0x5D,0x00,Read,ACK
2.178832780000000,0,0x5D,0x00,Read,ACK
2.178854300000000,0,0x5D,0x00,Read,ACK
2.178875800000000,0,0x5D,0x00,Read,ACK
2.178897260000000,0,0x5D,0x00,Read,ACK
2.178918700000000,0,0x5D,0x00,Read,ACK
2.178940160000000,0,0x5D,0x00,Read,ACK
2.178961620000000,0,0x5D,0x00,Read,ACK
2.178983080000000,0,0x5D,0x00,Read,ACK
2.179004600000000,0,0x5D,0x00,Read,ACK
2.179026100000000,0,0x5D,0x00,Read,ACK
2.179047580000000,0,0x5D,0x54,Read,ACK
2.179069080000000,0,0x5D,0x8C,Read,ACK
2.179090520000000,0,0x5D,0x01,Read,ACK
2.179111980000000,0,0x5D,0x00,Read,ACK
2.179133440000000,0,0x5D,0x00,Read,ACK
2.179154880000000,0,0x5D,0x00,Read,ACK
2.179176320000000,0,0x5D,0x00,Read,ACK
2.179197800000000,0,0x5D,0x00,Read,ACK
2.179219240000000,0,0x5D,0x00,Read,ACK
2.179244780000000,0,0x5D,0x00,Read,ACK
2.179267820000000,0,0x5D,0x00,Read,ACK
2.179289840000000,0,0x5D,0x00,Read,ACK
2.179314120000000,0,0x5D,0x00,Read,ACK
2.179335920000000,0,0x5D,0x00,Read,ACK
2.179357380000000,0,0x5D,0x00,Read,ACK
2.179378840000000,0,0x5D,0x00,Read,ACK
2.179400300000000,0,0x5D,0x00,Read,ACK
2.179422460000000,0,0x5D,0x00,Read,ACK
2.179444420000000,0,0x5D,0x00,Read,ACK
2.179466360000000,0,0x5D,0x00,Read,ACK
2.179489540000000,0,0x5D,0x00,Read,NAK
2.185247260000000,0,0x5D,0x2F,Read,ACK
2.185272000000000,0,0x5D,0x00,Read,ACK
2.185294740000000,0,0x5D,0x04,Read,ACK
2.185316220000000,0,0x5D,0x03,Read,ACK
2.185338160000000,0,0x5D,0x46,Read,ACK
2.185359640000000,0,0x5D,0x06,Read,ACK
2.185381080000000,0,0x5D,0x04,Read,ACK
2.185403240000000,0,0x5D,0x06,Read,ACK
2.185425180000000,0,0x5D,0x02,Read,ACK
2.185448960000000,0,0x5D,0x03,Read,ACK
2.185470460000000,0,0x5D,0x20,Read,ACK
2.185491900000000,0,0x5D,0x00,Read,ACK
2.185513360000000,0,0x5D,0x00,Read,ACK
2.185534820000000,0,0x5D,0x00,Read,ACK
2.185556300000000,0,0x5D,0x00,Read,ACK
2.185577800000000,0,0x5D,0x00,Read,ACK
2.185599240000000,0,0x5D,0x00,Read,ACK
2.185620700000000,0,0x5D,0x00,Read,ACK
2.185642140000000,0,0x5D,0x00,Read,ACK
2.185663600000000,0,0x5D,0x00,Read,ACK
2.185685080000000,0,0x5D,0x00,Read,ACK
2.185707120000000,0,0x5D,0x00,Read,ACK
2.185729100000000,0,0x5D,0x00,Read,ACK
2.185750600000000,0,0x5D,0x00,Read,ACK
2.185773000000000,0,0x5D,0x00,Read,ACK
2.185794440000000,0,0x5D,0x00,Read,ACK
2.185815920000000,0,0x5D,0x00,Read,ACK
2.185837420000000,0,0x5D,0x00,Read,ACK
2.185858880000000,0,0x5D,0x00,Read,ACK
2.185881240000000,0,0x5D,0x00,Read,ACK
2.185902700000000,0,0x5D,0x00,Read,ACK
2.185924180000000,0,0x5D,0x00,Read,ACK
2.185945640000000,0,0x5D,0x00,Read,ACK
2.185968420000000,0,0x5D,0x00,Read,ACK
2.185990060000000,0,0x5D,0x00,Read,ACK
2.186011560000000,0,0x5D,0x00,Read,ACK
2.186033000000000,0,0x5D,0x00,Read,ACK
2.186054460000000,0,0x5D,0x00,Read,ACK
2.186075900000000,0,0x5D,0x00,Read,ACK
2.186097360000000,0,0x5D,0x00,Read,ACK
2.186118840000000,0,0x5D,0x00,Read,ACK
2.186140340000000,0,0x5D,0x00,Read,ACK
2.186161800000000,0,0x5D,0x00,Read,ACK
2.186183460000000,0,0x5D,0x9A,Read,ACK
2.186204960000000,0,0x5D,0x8C,Read,ACK
2.186226480000000,0,0x5D,0x01,Read,ACK
2.186248300000000,0,0x5D,0x00,Read,ACK
2.186269740000000,0,0x5D,0x00,Read,ACK
2.186291200000000,0,0x5D,0x00,Read,ACK
2.186312660000000,0,0x5D,0x00,Read,ACK
2.186334180000000,0,0x5D,0x00,Read,ACK
2.186355640000000,0,0x5D,0x00,Read,ACK
2.186377140000000,0,0x5D,0x00,Read,ACK
2.186400240000000,0,0x5D,0x00,Read,ACK
2.186421880000000,0,0x5D,0x00,Read,ACK
2.186443460000000,0,0x5D,0x00,Read,ACK
2.186464960000000,0,0x5D,0x00,Read,ACK
2.186486900000000,0,0x5D,0x00,Read,ACK
2.186508360000000,0,0x5D,0x00,Read,ACK
2.186529840000000,0,0x5D,0x00,Read,ACK
2.186551780000000,0,0x5D,0x00,Read,ACK
2.186573520000000,0,0x5D,0x00,Read,ACK
2.186595040000000,0,0x5D,0x00,Read,ACK
2.186616520000000,0,0x5D,0x00,Read,NAK
2.192435440000000,0,0x5D,0x2F,Read,ACK
2.192460800000000,0,0x5D,0x00,Read,ACK
2.192483000000000,0,0x5D,0x04,Read,ACK
2.192504500000000,0,0x5D,0x03,Read,ACK
2.192525960000000,0,0x5D,0x45,Read,ACK
2.192547680000000,0,0x5D,0x06,Read,ACK
2.192569280000000,0,0x5D,0x04,Read,ACK
2.192590760000000,0,0x5D,0x06,Read,ACK
2.192613620000000,0,0x5D,0x03,Read,ACK
2.192635100000000,0,0x5D,0x03,Read,ACK
2.192656560000000,0,0x5D,0x20,Read,ACK
2.192678020000000,0,0x5D,0x00,Read,ACK
2.192699480000000,0,0x5D,0x00,Read,ACK
2.192720940000000,0,0x5D,0x00,Read,ACK
2.192742460000000,0,0x5D,0x00,Read,ACK
2.192763960000000,0,0x5D,0x00,Read,ACK
2.192785440000000,0,0x5D,0x00,Read,ACK
2.192806920000000,0,0x5D,0x00,Read,ACK
2.192828380000000,0,0x5D,0x00,Read,ACK
2.192850660000000,0,0x5D,0x00,Read,ACK
2.192872160000000,0,0x5D,0x00,Read,ACK
2.192893620000000,0,0x5D,0x00,Read,ACK
2.192915080000000,0,0x5D,0x00,Read,ACK
2.192937440000000,0,0x5D,0x00,Read,ACK
2.192958920000000,0,0x5D,0x00,Read,ACK
2.192980380000000,0,0x5D,0x00,Read,ACK
2.193001860000000,0,0x5D,0x00,Read,ACK
2.193023360000000,0,0x5D,0x00,Read,ACK
2.193045100000000,0,0x5D,0x00,Read,ACK
2.193067020000000,0,0x5D,0x00,Read,ACK
2.193088480000000,0,0x5D,0x00,Read,ACK
2.193111280000000,0,0x5D,0x00,Read,ACK
2.193132980000000,0,0x5D,0x00,Read,ACK
2.193154440000000,0,0x5D,0x00,Read,ACK
2.193175920000000,0,0x5D,0x00,Read,ACK
2.193197420000000,0,0x5D,0x00,Read,ACK
2.193219160000000,0,0x5D,0x00,Read,ACK
2.193240640000000,0,0x5D,0x00,Read,ACK
2.193263580000000,0,0x5D,0x00,Read,ACK
2.193285060000000,0,0x5D,0x00,Read,ACK
2.193306500000000,0,0x5D,0x00,Read,ACK
2.193327960000000,0,0x5D,0x00,Read,ACK
2.193349440000000,0,0x5D,0x00,Read,ACK
2.193370940000000,0,0x5D,0xE0,Read,ACK
2.193392460000000,0,0x5D,0x8C,Read,ACK
2.193414080000000,0,0x5D,0x01,Read,ACK
2.193435560000000,0,0x5D,0x00,Read,ACK
2.193457080000000,0,0x5D,0x00,Read,ACK
2.193478600000000,0,0x5D,0x00,Read,ACK
2.193500140000000,0,0x5D,0x00,Read,ACK
2.193521640000000,0,0x5D,0x00,Read,ACK
2.193543420000000,0,0x5D,0x00,Read,ACK
2.193566840000000,0,0x5D,0x00,Read,ACK
2.193589160000000,0,0x5D,0x00,Read,ACK
2.193610640000000,0,0x5D,0x00,Read,ACK
2.193632860000000,0,0x5D,0x00,Read,ACK
2.193654360000000,0,0x5D,0x00,Read,ACK
2.193675920000000,0,0x5D,0x00,Read,ACK
2.193697540000000,0,0x5D,0x00,Read,ACK
2.193719020000000,0,0x5D,0x00,Read,ACK
2.193741300000000,0,0x5D,0x00,Read,ACK
2.193762740000000,0,0x5D,0x00,Read,ACK
2.193784300000000,0,0x5D,0x00,Read,ACK
2.193806540000000,0,0x5D,0x00,Read,NAK
2.200017740000000,0,0x5D,0x2F,Read,ACK
2.200040980000000,0,0x5D,0x00,Read,ACK
2.200062480000000,0,0x5D,0x04,Read,ACK
2.200084100000000,0,0x5D,0x03,Read,ACK
2.200105680000000,0,0x5D,0x45,Read,ACK
2.200127160000000,0,0x5D,0x06,Read,ACK
2.200148620000000,0,0x5D,0x04,Read,ACK
2.200170260000000,0,0x5D,0x06,Read,ACK
2.200191700000000,0,0x5D,0x03,Read,ACK
2.200213180000000,0,0x5D,0x03,Read,ACK
2.200234940000000,0,0x5D,0x20,Read,ACK
2.200256440000000,0,0x5D,0x00,Read,ACK
2.200277900000000,0,0x5D,0x00,Read,ACK
2.200299360000000,0,0x5D,0x00,Read,ACK
2.200320880000000,0,0x5D,0x00,Read,ACK
2.200343940000000,0,0x5D,0x00,Read,ACK
2.200365460000000,0,0x5D,0x00,Read,ACK
2.200387560000000,0,0x5D,0x00,Read,ACK
2.200409080000000,0,0x5D,0x00,Read,ACK
2.200430580000000,0,0x5D,0x00,Read,ACK
2.200452060000000,0,0x5D,0x00,Read,ACK
2.200473540000000,0,0x5D,0x00,Read,ACK
2.200495000000000,0,0x5D,0x00,Read,ACK
2.200516460000000,0,0x5D,0x00,Read,ACK
2.200537920000000,0,0x5D,0x00,Read,ACK
2.200559360000000,0,0x5D,0x00,Read,ACK
2.200580840000000,0,0x5D,0x00,Read,ACK
2.200604460000000,0,0x5D,0x00,Read,ACK
2.200627520000000,0,0x5D,0x00,Read,ACK
2.200649000000000,0,0x5D,0x00,Read,ACK
2.200670600000000,0,0x5D,0x00,Read,ACK
2.200692360000000,0,0x5D,0x00,Read,ACK
2.200715180000000,0,0x5D,0x00,Read,ACK
2.200736620000000,0,0x5D,0x00,Read,ACK
2.200758100000000,0,0x5D,0x00,Read,ACK
2.200779600000000,0,0x5D,0x00,Read,ACK
2.200801100000000,0,0x5D,0x00,Read,ACK
2.200822580000000,0,0x5D,0x00,Read,ACK
2.200844360000000,0,0x5D,0x00,Read,ACK
2.200865880000000,0,0x5D,0x00,Read,ACK
2.200887380000000,0,0x5D,0x00,Read,ACK
2.200908840000000,0,0x5D,0x00,Read,ACK
2.200930300000000,0,0x5D,0x00,Read,ACK
2.200953880000000,0,0x5D,0x26,Read,ACK
2.200975380000000,0,0x5D,0x8D,Read,ACK
2.200998400000000,0,0x5D,0x01,Read,ACK
2.201019860000000,0,0x5D,0x00,Read,ACK
2.201041880000000,0,0x5D,0x00,Read,ACK
2.201064180000000,0,0x5D,0x00,Read,ACK
2.201085640000000,0,0x5D,0x00,Read,ACK
2.201111480000000,0,0x5D,0x00,Read,ACK
2.201132920000000,0,0x5D,0x00,Read,ACK
2.201154400000000,0,0x5D,0x00,Read,ACK
2.201176080000000,0,0x5D,0x00,Read,ACK
2.201197540000000,0,0x5D,0x00,Read,ACK
2.201220480000000,0,0x5D,0x00,Read,ACK
2.201243280000000,0,0x5D,0x00,Read,ACK
2.201264980000000,0,0x5D,0x00,Read,ACK
2.201286880000000,0,0x5D,0x00,Read,ACK
2.201308560000000,0,0x5D,0x00,Read,ACK
2.201331900000000,0,0x5D,0x00,Read,ACK
2.201356060000000,0,0x5D,0x00,Read,ACK
2.201377540000000,0,0x5D,0x00,Read,ACK
2.201399020000000,0,0x5D,0x00,Read,NAK
2.206902280000000,0,0x5D,0x2F,Read,ACK
2.206925500000000,0,0x5D,0x00,Read,ACK
2.206946960000000,0,0x5D,0x04,Read,ACK
2.206968420000000,0,0x5D,0x03,Read,ACK
2.206989880000000,0,0x5D,0x45,Read,ACK
2.207011320000000,0,0x5D,0x06,Read,ACK
2.207032780000000,0,0x5D,0x04,Read,ACK
2.207054240000000,0,0x5D,0x06,Read,ACK
2.207075720000000,0,0x5D,0x03,Read,ACK
2.207097380000000,0,0x5D,0x03,Read,ACK
2.207120240000000,0,0x5D,0x20,Read,ACK
2.207142200000000,0,0x5D,0x00,Read,ACK
2.207163720000000,0,0x5D,0x00,Read,ACK
2.207185200000000,0,0x5D,0x00,Read,ACK
2.207206860000000,0,0x5D,0x00,Read,ACK
2.207228360000000,0,0x5D,0x00,Read,ACK
2.207249840000000,0,0x5D,0x00,Read,ACK
2.207271360000000,0,0x5D,0x00,Read,ACK
2.207292800000000,0,0x5D,0x00,Read,ACK
2.207314280000000,0,0x5D,0x00,Read,ACK
2.207336860000000,0,0x5D,0x00,Read,ACK
2.207358960000000,0,0x5D,0x00,Read,ACK
2.207380460000000,0,0x5D,0x00,Read,ACK
2.207401960000000,0,0x5D,0x00,Read,ACK
2.207423420000000,0,0x5D,0x00,Read,ACK
2.207444940000000,0,0x5D,0x00,Read,ACK
2.207466480000000,0,0x5D,0x00,Read,ACK
2.207488340000000,0,0x5D,0x00,Read,ACK
2.207509840000000,0,0x5D,0x00,Read,ACK
2.207531300000000,0,0x5D,0x00,Read,ACK
2.207552760000000,0,0x5D,0x00,Read,ACK
2.207574680000000,0,0x5D,0x00,Read,ACK
2.207596160000000,0,0x5D,0x00,Read,ACK
2.207617640000000,0,0x5D,0x00,Read,ACK
2.207639120000000,0,0x5D,0x00,Read,ACK
2.207660600000000,0,0x5D,0x00,Read,ACK
2.207682040000000,0,0x5D,0x00,Read,ACK
2.207703520000000,0,0x5D,0x00,Read,ACK
2.207727680000000,0,0x5D,0x00,Read,ACK
2.207749280000000,0,0x5D,0x00,Read,ACK
2.207770760000000,0,0x5D,0x00,Read,ACK
2.207792400000000,0,0x5D,0x00,Read,ACK
2.207814160000000,0,0x5D,0x00,Read,ACK
2.207835840000000,0,0x5D,0x6C,Read,ACK
2.207857500000000,0,0x5D,0x8D,Read,ACK
2.207879000000000,0,0x5D,0x01,Read,ACK
2.207900460000000,0,0x5D,0x00,Read,ACK
2.207922320000000,0,0x5D,0x00,Read,ACK
2.207944060000000,0,0x5D,0x00,Read,ACK
2.207967340000000,0,0x5D,0x00,Read,ACK
2.207989380000000,0,0x5D,0x00,Read,ACK
2.208010860000000,0,0x5D,0x00,Read,ACK
2.208032360000000,0,0x5D,0x00,Read,ACK
2.208053800000000,0,0x5D,0x00,Read,ACK
2.208076360000000,0,0x5D,0x00,Read,ACK
2.208097840000000,0,0x5D,0x00,Read,ACK
2.208120220000000,0,0x5D,0x00,Read,ACK
2.208141820000000,0,0x5D,0x00,Read,ACK
2.208163320000000,0,0x5D,0x00,Read,ACK
2.208184780000000,0,0x5D,0x00,Read,ACK
2.208206240000000,0,0x5D,0x00,Read,ACK
2.208230680000000,0,0x5D,0x00,Read,ACK
2.208254220000000,0,0x5D,0x00,Read,ACK
2.208275720000000,0,0x5D,0x00,Read,NAK
2.214063220000000,0,0x5D,0x2F,Read,ACK
2.214086400000000,0,0x5D,0x00,Read,ACK
2.214107900000000,0,0x5D,0x04,Read,ACK
2.214129380000000,0,0x5D,0x03,Read,ACK
2.214150880000000,0,0x5D,0x44,Read,ACK
2.214172340000000,0,0x5D,0x06,Read,ACK
2.214193840000000,0,0x5D,0x04,Read,ACK
2.214216540000000,0,0x5D,0x06,Read,ACK
2.214238000000000,0,0x5D,0x03,Read,ACK
2.214260800000000,0,0x5D,0x03,Read,ACK
2.214284480000000,0,0x5D,0x20,Read,ACK
2.214305980000000,0,0x5D,0x00,Read,ACK
2.214327420000000,0,0x5D,0x00,Read,ACK
2.214348880000000,0,0x5D,0x00,Read,ACK
2.214370360000000,0,0x5D,0x00,Read,ACK
2.214391880000000,0,0x5D,0x00,Read,ACK
2.214413820000000,0,0x5D,0x00,Read,ACK
2.214436500000000,0,0x5D,0x00,Read,ACK
2.214457980000000,0,0x5D,0x00,Read,ACK
2.214479420000000,0,0x5D,0x00,Read,ACK
2.214501580000000,0,0x5D,0x00,Read,ACK
2.214523940000000,0,0x5D,0x00,Read,ACK
2.214545460000000,0,0x5D,0x00,Read,ACK
2.214566920000000,0,0x5D,0x00,Read,ACK
2.214588380000000,0,0x5D,0x00,Read,ACK
2.214609860000000,0,0x5D,0x00,Read,ACK
2.214631360000000,0,0x5D,0x00,Read,ACK
2.214653080000000,0,0x5D,0x00,Read,ACK
2.214674580000000,0,0x5D,0x00,Read,ACK
2.214696040000000,0,0x5D,0x00,Read,ACK
2.214717500000000,0,0x5D,0x00,Read,ACK
2.214739180000000,0,0x5D,0x00,Read,ACK
2.214760660000000,0,0x5D,0x00,Read,ACK
2.214782120000000,0,0x5D,0x00,Read,ACK
2.214803700000000,0,0x5D,0x00,Read,ACK
2.214825220000000,0,0x5D,0x00,Read,ACK
2.214846660000000,0,0x5D,0x00,Read,ACK
2.214868120000000,0,0x5D,0x00,Read,ACK
2.214889640000000,0,0x5D,0x00,Read,ACK
2.214911160000000,0,0x5D,0x00,Read,ACK
2.214936140000000,0,0x5D,0x00,Read,ACK
2.214960060000000,0,0x5D,0x00,Read,ACK
2.214982900000000,0,0x5D,0x00,Read,ACK
2.215004380000000,0,0x5D,0xB2,Read,ACK
2.215027320000000,0,0x5D,0x8D,Read,ACK
2.215050740000000,0,0x5D,0x01,Read,ACK
2.215072240000000,0,0x5D,0x00,Read,ACK
2.215093700000000,0,0x5D,0x00,Read,ACK
2.215115440000000,0,0x5D,0x00,Read,ACK
2.215137120000000,0,0x5D,0x00,Read,ACK
2.215159160000000,0,0x5D,0x00,Read,ACK
2.215181740000000,0,0x5D,0x00,Read,ACK
2.215203220000000,0,0x5D,0x00,Read,ACK
2.215224720000000,0,0x5D,0x00,Read,ACK
2.215246360000000,0,0x5D,0x00,Read,ACK
2.215267860000000,0,0x5D,0x00,Read,ACK
2.215289360000000,0,0x5D,0x00,Read,ACK
2.215310840000000,0,0x5D,0x00,Read,ACK
2.215332340000000,0,0x5D,0x00,Read,ACK
2.215354640000000,0,0x5D,0x00,Read,ACK
2.215376140000000,0,0x5D,0x00,Read,ACK
2.215397960000000,0,0x5D,0x00,Read,ACK
2.215419440000000,0,0x5D,0x00,Read,ACK
2.215442200000000,0,0x5D,0x00,Read,NAK
2.220977300000000,0,0x5D,0x2F,Read,ACK
2.221000640000000,0,0x5D,0x00,Read,ACK
2.221022120000000,0,0x5D,0x04,Read,ACK
2.221045020000000,0,0x5D,0x03,Read,ACK
2.221067440000000,0,0x5D,0x44,Read,ACK
2.221088920000000,0,0x5D,0x06,Read,ACK
2.221110380000000,0,0x5D,0x04,Read,ACK
2.221133460000000,0,0x5D,0x06,Read,ACK
2.221155600000000,0,0x5D,0x03,Read,ACK
2.221180320000000,0,0x5D,0x03,Read,ACK
2.221201820000000,0,0x5D,0x20,Read,ACK
2.221223280000000,0,0x5D,0x00,Read,ACK
2.221244800000000,0,0x5D,0x00,Read,ACK
2.221266300000000,0,0x5D,0x00,Read,ACK
2.221287760000000,0,0x5D,0x00,Read,ACK
2.221309260000000,0,0x5D,0x00,Read,ACK
2.221330720000000,0,0x5D,0x00,Read,ACK
2.221352180000000,0,0x5D,0x00,Read,ACK
2.221373640000000,0,0x5D,0x00,Read,ACK
2.221395100000000,0,0x5D,0x00,Read,ACK
2.221416560000000,0,0x5D,0x00,Read,ACK
2.221438500000000,0,0x5D,0x00,Read,ACK
2.221460440000000,0,0x5D,0x00,Read,ACK
2.221483120000000,0,0x5D,0x00,Read,ACK
2.221504620000000,0,0x5D,0x00,Read,ACK
2.221527520000000,0,0x5D,0x00,Read,ACK
2.221550060000000,0,0x5D,0x00,Read,ACK
2.221571560000000,0,0x5D,0x00,Read,ACK
2.221593060000000,0,0x5D,0x00,Read,ACK
2.221614760000000,0,0x5D,0x00,Read,ACK
2.221636220000000,0,0x5D,0x00,Read,ACK
2.221658440000000,0,0x5D,0x00,Read,ACK
2.221679960000000,0,0x5D,0x00,Read,ACK
2.221701480000000,0,0x5D,0x00,Read,ACK
2.221722940000000,0,0x5D,0x00,Read,ACK
2.221744380000000,0,0x5D,0x00,Read,ACK
2.221765840000000,0,0x5D,0x00,Read,ACK
2.221787300000000,0,0x5D,0x00,Read,ACK
2.221808740000000,0,0x5D,0x00,Read,ACK
2.221830580000000,0,0x5D,0x00,Read,ACK
2.221852060000000,0,0x5D,0x00,Read,ACK
2.221873540000000,0,0x5D,0x00,Read,ACK
2.221895280000000,0,0x5D,0x00,Read,ACK
2.221916780000000,0,0x5D,0xF8,Read,ACK
2.221938240000000,0,0x5D,0x8D,Read,ACK
2.221959680000000,0,0x5D,0x01,Read,ACK
2.221981140000000,0,0x5D,0x00,Read,ACK
2.222002600000000,0,0x5D,0x00,Read,ACK
2.222024060000000,0,0x5D,0x00,Read,ACK
2.222045500000000,0,0x5D,0x00,Read,ACK
2.222067000000000,0,0x5D,0x00,Read,ACK
2.222088500000000,0,0x5D,0x00,Read,ACK
2.222110580000000,0,0x5D,0x00,Read,ACK
2.222132960000000,0,0x5D,0x00,Read,ACK
2.222154420000000,0,0x5D,0x00,Read,ACK
2.222175860000000,0,0x5D,0x00,Read,ACK
2.222197660000000,0,0x5D,0x00,Read,ACK
2.222219420000000,0,0x5D,0x00,Read,ACK
2.222240920000000,0,0x5D,0x00,Read,ACK
2.222262400000000,0,0x5D,0x00,Read,ACK
2.222284300000000,0,0x5D,0x00,Read,ACK
2.222306140000000,0,0x5D,0x00,Read,ACK
2.222329340000000,0,0x5D,0x00,Read,ACK
2.222351120000000,0,0x5D,0x00,Read,NAK
2.228142880000000,0,0x5D,0x2F,Read,ACK
2.228167840000000,0,0x5D,0x00,Read,ACK
2.228189880000000,0,0x5D,0x04,Read,ACK
2.228212880000000,0,0x5D,0x03,Read,ACK
2.228234340000000,0,0x5D,0x44,Read,ACK
2.228255800000000,0,0x5D,0x06,Read,ACK
2.228279020000000,0,0x5D,0x04,Read,ACK
2.228300880000000,0,0x5D,0x06,Read,ACK
2.228322360000000,0,0x5D,0x03,Read,ACK
2.228345080000000,0,0x5D,0x03,Read,ACK
2.228366560000000,0,0x5D,0x20,Read,ACK
2.228388020000000,0,0x5D,0x00,Read,ACK
2.228409480000000,0,0x5D,0x00,Read,ACK
2.228431000000000,0,0x5D,0x00,Read,ACK
2.228452440000000,0,0x5D,0x00,Read,ACK
2.228473900000000,0,0x5D,0x00,Read,ACK
2.228495360000000,0,0x5D,0x00,Read,ACK
2.228516880000000,0,0x5D,0x00,Read,ACK
2.228538320000000,0,0x5D,0x00,Read,ACK
2.228559780000000,0,0x5D,0x00,Read,ACK
2.228581280000000,0,0x5D,0x00,Read,ACK
2.228602780000000,0,0x5D,0x00,Read,ACK
2.228624300000000,0,0x5D,0x00,Read,ACK
2.228645840000000,0,0x5D,0x00,Read,ACK
2.228667300000000,0,0x5D,0x00,Read,ACK
2.228688760000000,0,0x5D,0x00,Read,ACK
2.228710520000000,0,0x5D,0x00,Read,ACK
2.228731980000000,0,0x5D,0x00,Read,ACK
2.228753940000000,0,0x5D,0x00,Read,ACK
2.228775400000000,0,0x5D,0x00,Read,ACK
2.228796860000000,0,0x5D,0x00,Read,ACK
2.228818400000000,0,0x5D,0x00,Read,ACK
2.228841240000000,0,0x5D,0x00,Read,ACK
2.228863720000000,0,0x5D,0x00,Read,ACK
2.228885200000000,0,0x5D,0x00,Read,ACK
2.228906680000000,0,0x5D,0x00,Read,ACK
2.228928140000000,0,0x5D,0x00,Read,ACK
2.228951460000000,0,0x5D,0x00,Read,ACK
2.228973080000000,0,0x5D,0x00,Read,ACK
2.228994580000000,0,0x5D,0x00,Read,ACK
2.229016040000000,0,0x5D,0x00,Read,ACK
2.229037540000000,0,0x5D,0x00,Read,ACK
2.229059000000000,0,0x5D,0x00,Read,ACK
2.229080480000000,0,0x5D,0x3E,Read,ACK
2.229101960000000,0,0x5D,0x8E,Read,ACK
2.229123420000000,0,0x5D,0x01,Read,ACK
2.229144880000000,0,0x5D,0x00,Read,ACK
2.229166340000000,0,0x5D,0x00,Read,ACK
2.229187840000000,0,0x5D,0x00,Read,ACK
2.229209300000000,0,0x5D,0x00,Read,ACK
2.229230860000000,0,0x5D,0x00,Read,ACK
2.229252340000000,0,0x5D,0x00,Read,ACK
2.229273800000000,0,0x5D,0x00,Read,ACK
2.229295500000000,0,0x5D,0x00,Read,ACK
2.229317120000000,0,0x5D,0x00,Read,ACK
2.229338600000000,0,0x5D,0x00,Read,ACK
2.229360060000000,0,0x5D,0x00,Read,ACK
2.229381560000000,0,0x5D,0x00,Read,ACK
2.229404220000000,0,0x5D,0x00,Read,ACK
2.229425720000000,0,0x5D,0x00,Read,ACK
2.229447180000000,0,0x5D,0x00,Read,ACK
2.229469500000000,0,0x5D,0x00,Read,ACK
2.229491020000000,0,0x5D,0x00,Read,ACK
2.229512480000000,0,0x5D,0x00,Read,NAK
2.235418700000000,0,0x5D,0x2F,Read,ACK
2.235442080000000,0,0x5D,0x00,Read,ACK
2.235467440000000,0,0x5D,0x04,Read,ACK
2.235488940000000,0,0x5D,0x03,Read,ACK
2.235510400000000,0,0x5D,0x44,Read,ACK
2.235531840000000,0,0x5D,0x06,Read,ACK
2.235553320000000,0,0x5D,0x04,Read,ACK
2.235574840000000,0,0x5D,0x06,Read,ACK
2.235596340000000,0,0x5D,0x03,Read,ACK
2.235617800000000,0,0x5D,0x03,Read,ACK
2.235639260000000,0,0x5D,0x20,Read,ACK
2.235660740000000,0,0x5D,0x00,Read,ACK
2.235682540000000,0,0x5D,0x00,Read,ACK
2.235704460000000,0,0x5D,0x00,Read,ACK
2.235725980000000,0,0x5D,0x00,Read,ACK
2.235747480000000,0,0x5D,0x00,Read,ACK
2.235768940000000,0,0x5D,0x00,Read,ACK
2.235790460000000,0,0x5D,0x00,Read,ACK
2.235812000000000,0,0x5D,0x00,Read,ACK
2.235833520000000,0,0x5D,0x00,Read,ACK
2.235855020000000,0,0x5D,0x00,Read,ACK
2.235876460000000,0,0x5D,0x00,Read,ACK
2.235897940000000,0,0x5D,0x00,Read,ACK
2.235919460000000,0,0x5D,0x00,Read,ACK
2.235940980000000,0,0x5D,0x00,Read,ACK
2.235963680000000,0,0x5D,0x00,Read,ACK
2.235985200000000,0,0x5D,0x00,Read,ACK
2.236006720000000,0,0x5D,0x00,Read,ACK
2.236028220000000,0,0x5D,0x00,Read,ACK
2.236049700000000,0,0x5D,0x00,Read,ACK
2.236071200000000,0,0x5D,0x00,Read,ACK
2.236092840000000,0,0x5D,0x00,Read,ACK
2.236114360000000,0,0x5D,0x00,Read,ACK
2.236135880000000,0,0x5D,0x00,Read,ACK
2.236157380000000,0,0x5D,0x00,Read,ACK
2.236178860000000,0,0x5D,0x00,Read,ACK
2.236200360000000,0,0x5D,0x00,Read,ACK
2.236221800000000,0,0x5D,0x00,Read,ACK
2.236243280000000,0,0x5D,0x00,Read,ACK
2.236264740000000,0,0x5D,0x00,Read,ACK
2.236286260000000,0,0x5D,0x00,Read,ACK
2.236307760000000,0,0x5D,0x00,Read,ACK
2.236329220000000,0,0x5D,0x00,Read,ACK
2.236350680000000,0,0x5D,0x84,Read,ACK
2.236372140000000,0,0x5D,0x8E,Read,ACK
2.236393660000000,0,0x5D,0x01,Read,ACK
2.236415100000000,0,0x5D,0x00,Read,ACK
2.236436600000000,0,0x5D,0x00,Read,ACK
2.236458080000000,0,0x5D,0x00,Read,ACK
2.236480980000000,0,0x5D,0x00,Read,ACK
2.236503800000000,0,0x5D,0x00,Read,ACK
2.236525240000000,0,0x5D,0x00,Read,ACK
2.236546700000000,0,0x5D,0x00,Read,ACK
2.236568160000000,0,0x5D,0x00,Read,ACK
2.236591040000000,0,0x5D,0x00,Read,ACK
2.236613100000000,0,0x5D,0x00,Read,ACK
2.236634940000000,0,0x5D,0x00,Read,ACK
2.236656420000000,0,0x5D,0x00,Read,ACK
2.236678440000000,0,0x5D,0x00,Read,ACK
2.236699920000000,0,0x5D,0x00,Read,ACK
2.236721440000000,0,0x5D,0x00,Read,ACK
2.236742920000000,0,0x5D,0x00,Read,ACK
2.236764400000000,0,0x5D,0x00,Read,ACK
2.236788520000000,0,0x5D,0x00,Read,NAK
2.242417240000000,0,0x5D,0x2F,Read,ACK
2.242442680000000,0,0x5D,0x00,Read,ACK
2.242464520000000,0,0x5D,0x04,Read,ACK
2.242485980000000,0,0x5D,0x03,Read,ACK
2.242507420000000,0,0x5D,0x44,Read,ACK
2.242528880000000,0,0x5D,0x06,Read,ACK
2.242550900000000,0,0x5D,0x04,Read,ACK
2.242573400000000,0,0x5D,0x06,Read,ACK
2.242596940000000,0,0x5D,0x03,Read,ACK
2.242618440000000,0,0x5D,0x03,Read,ACK
2.242639900000000,0,0x5D,0x20,Read,ACK
2.242661380000000,0,0x5D,0x00,Read,ACK
2.242682880000000,0,0x5D,0x00,Read,ACK
2.242704320000000,0,0x5D,0x00,Read,ACK
2.242727040000000,0,0x5D,0x00,Read,ACK
2.242748500000000,0,0x5D,0x00,Read,ACK
2.242770000000000,0,0x5D,0x00,Read,ACK
2.242791460000000,0,0x5D,0x00,Read,ACK
2.242812920000000,0,0x5D,0x00,Read,ACK
2.242834360000000,0,0x5D,0x00,Read,ACK
2.242857280000000,0,0x5D,0x00,Read,ACK
2.242878780000000,0,0x5D,0x00,Read,ACK
2.242900220000000,0,0x5D,0x00,Read,ACK
2.242922100000000,0,0x5D,0x00,Read,ACK
2.242943580000000,0,0x5D,0x00,Read,ACK
2.242965280000000,0,0x5D,0x00,Read,ACK
2.242986900000000,0,0x5D,0x00,Read,ACK
2.243008420000000,0,0x5D,0x00,Read,ACK
2.243031160000000,0,0x5D,0x00,Read,ACK
2.243052660000000,0,0x5D,0x00,Read,ACK
2.243074180000000,0,0x5D,0x00,Read,ACK
2.243095700000000,0,0x5D,0x00,Read,ACK
2.243117160000000,0,0x5D,0x00,Read,ACK
2.243138640000000,0,0x5D,0x00,Read,ACK
2.243161400000000,0,0x5D,0x00,Read,ACK
2.243182900000000,0,0x5D,0x00,Read,ACK
2.243204400000000,0,0x5D,0x00,Read,ACK
2.243225860000000,0,0x5D,0x00,Read,ACK
2.243247320000000,0,0x5D,0x00,Read,ACK
2.243268820000000,0,0x5D,0x00,Read,ACK
2.243290280000000,0,0x5D,0x00,Read,ACK
2.243311760000000,0,0x5D,0x00,Read,ACK
2.243333260000000,0,0x5D,0x00,Read,ACK
2.243354720000000,0,0x5D,0xCA,Read,ACK
2.243376220000000,0,0x5D,0x8E,Read,ACK
2.243397680000000,0,0x5D,0x01,Read,ACK
2.243419140000000,0,0x5D,0x00,Read,ACK
2.243440660000000,0,0x5D,0x00,Read,ACK
2.243462120000000,0,0x5D,0x00,Read,ACK
2.243483620000000,0,0x5D,0x00,Read,ACK
2.243505100000000,0,0x5D,0x00,Read,ACK
2.243526600000000,0,0x5D,0x00,Read,ACK
2.243548060000000,0,0x5D,0x00,Read,ACK
2.243570960000000,0,0x5D,0x00,Read,ACK
2.243592720000000,0,0x5D,0x00,Read,ACK
2.243614600000000,0,0x5D,0x00,Read,ACK
2.243636980000000,0,0x5D,0x00,Read,ACK
2.243658780000000,0,0x5D,0x00,Read,ACK
2.243680280000000,0,0x5D,0x00,Read,ACK
2.243701880000000,0,0x5D,0x00,Read,ACK
2.243723640000000,0,0x5D,0x00,Read,ACK
2.243746580000000,0,0x5D,0x00,Read,ACK
2.243768600000000,0,0x5D,0x00,Read,ACK
2.243790760000000,0,0x5D,0x00,Read,NAK
2.249993180000000,0,0x5D,0x2F,Read,ACK
2.250016640000000,0,0x5D,0x00,Read,ACK
2.250038160000000,0,0x5D,0x04,Read,ACK
2.250059600000000,0,0x5D,0x03,Read,ACK
2.250081340000000,0,0x5D,0x44,Read,ACK
2.250102840000000,0,0x5D,0x06,Read,ACK
2.250124280000000,0,0x5D,0x04,Read,ACK
2.250145880000000,0,0x5D,0x06,Read,ACK
2.250168600000000,0,0x5D,0x03,Read,ACK
2.250190060000000,0,0x5D,0x03,Read,ACK
2.250211540000000,0,0x5D,0x20,Read,ACK
2.250233020000000,0,0x5D,0x00,Read,ACK
2.250254500000000,0,0x5D,0x00,Read,ACK
2.250275960000000,0,0x5D,0x00,Read,ACK
2.250297420000000,0,0x5D,0x00,Read,ACK
2.250318920000000,0,0x5D,0x00,Read,ACK
2.250340780000000,0,0x5D,0x00,Read,ACK
