Time [s],Packet ID,Address,Data,Read/Write,ACK/NAK
1.174441060000000,0,0x5D,0x2F,Read,ACK
1.174470860000000,0,0x5D,0x00,Read,ACK
1.174492380000000,0,0x5D,0x04,Read,ACK
1.174513900000000,0,0x5D,0x03,Read,ACK
1.174535460000000,0,0x5D,0x00,Read,ACK
1.174556980000000,0,0x5D,0x00,Read,ACK
1.174578520000000,0,0x5D,0x97,Read,ACK
1.174600320000000,0,0x5D,0x02,Read,ACK
1.174621840000000,0,0x5D,0x01,Read,ACK
1.174643400000000,0,0x5D,0x04,Read,ACK
1.174664900000000,0,0x5D,0x20,Read,ACK
1.174686380000000,0,0x5D,0x00,Read,ACK
1.174709260000000,0,0x5D,0x00,Read,ACK
1.174732760000000,0,0x5D,0x00,Read,ACK
1.174754220000000,0,0x5D,0x00,Read,ACK
1.174775740000000,0,0x5D,0x00,Read,ACK
1.174797640000000,0,0x5D,0x00,Read,ACK
1.174819160000000,0,0x5D,0x00,Read,ACK
1.174840920000000,0,0x5D,0x00,Read,ACK
1.174862400000000,0,0x5D,0x00,Read,ACK
1.174883880000000,0,0x5D,0x00,Read,ACK
1.174905360000000,0,0x5D,0x00,Read,ACK
1.174926840000000,0,0x5D,0x00,Read,ACK
1.174948360000000,0,0x5D,0x00,Read,ACK
1.174969900000000,0,0x5D,0x00,Read,ACK
1.174991440000000,0,0x5D,0x00,Read,ACK
1.175012960000000,0,0x5D,0x00,Read,ACK
1.175034540000000,0,0x5D,0x00,Read,ACK
1.175056040000000,0,0x5D,0x00,Read,ACK
1.175077500000000,0,0x5D,0x00,Read,ACK
1.175098980000000,0,0x5D,0x00,Read,ACK
1.175120440000000,0,0x5D,0x00,Read,ACK
1.175141940000000,0,0x5D,0x00,Read,ACK
1.175163460000000,0,0x5D,0x00,Read,ACK
1.175184940000000,0,0x5D,0x00,Read,ACK
1.175206460000000,0,0x5D,0x00,Read,ACK
1.175227940000000,0,0x5D,0x00,Read,ACK
1.175249460000000,0,0x5D,0x00,Read,ACK
1.175270920000000,0,0x5D,0x00,Read,ACK
1.175292460000000,0,0x5D,0x00,Read,ACK
1.175314180000000,0,0x5D,0x00,Read,ACK
1.175336260000000,0,0x5D,0x00,Read,ACK
1.175358520000000,0,0x5D,0x00,Read,ACK
1.175380760000000,0,0x5D,0xDC,Read,ACK
1.175402260000000,0,0x5D,0x88,Read,ACK
1.175425060000000,0,0x5D,0x01,Read,ACK
1.175446660000000,0,0x5D,0x00,Read,ACK
1.175469220000000,0,0x5D,0x00,Read,ACK
1.175490720000000,0,0x5D,0x00,Read,ACK
1.175512220000000,0,0x5D,0x00,Read,ACK
1.175533720000000,0,0x5D,0x00,Read,ACK
1.175556280000000,0,0x5D,0x00,Read,ACK
1.175579900000000,0,0x5D,0x00,Read,ACK
1.175603140000000,0,0x5D,0x00,Read,ACK
1.175624620000000,0,0x5D,0x00,Read,ACK
1.175646160000000,0,0x5D,0x00,Read,ACK
1.175669120000000,0,0x5D,0x00,Read,ACK
1.175690680000000,0,0x5D,0x00,Read,ACK
1.175712260000000,0,0x5D,0x00,Read,ACK
1.175734260000000,0,0x5D,0x00,Read,ACK
1.175757020000000,0,0x5D,0x00,Read,ACK
1.175778540000000,0,0x5D,0x00,Read,ACK
1.175800400000000,0,0x5D,0x00,Read,ACK
1.175821920000000,0,0x5D,0x00,Read,NAK
1.181227640000000,0,0x5D,0x2F,Read,ACK
1.181252480000000,0,0x5D,0x00,Read,ACK
1.181275220000000,0,0x5D,0x04,Read,ACK
1.181297440000000,0,0x5D,0x03,Read,ACK
1.181319220000000,0,0x5D,0x00,Read,ACK
1.181340700000000,0,0x5D,0x00,Read,ACK
1.181362180000000,0,0x5D,0x97,Read,ACK
1.181383740000000,0,0x5D,0x02,Read,ACK
1.181405260000000,0,0x5D,0x01,Read,ACK
1.181426800000000,0,0x5D,0x03,Read,ACK
1.181448320000000,0,0x5D,0x20,Read,ACK
1.181469800000000,0,0x5D,0x00,Read,ACK
1.181491340000000,0,0x5D,0x00,Read,ACK
1.181512820000000,0,0x5D,0x00,Read,ACK
1.181534340000000,0,0x5D,0x00,Read,ACK
1.181555840000000,0,0x5D,0x00,Read,ACK
1.181577360000000,0,0x5D,0x00,Read,ACK
1.181598820000000,0,0x5D,0x00,Read,ACK
1.181622180000000,0,0x5D,0x00,Read,ACK
1.181643720000000,0,0x5D,0x00,Read,ACK
1.181665260000000,0,0x5D,0x00,Read,ACK
1.181686780000000,0,0x5D,0x00,Read,ACK
1.181708340000000,0,0x5D,0x00,Read,ACK
1.181730300000000,0,0x5D,0x00,Read,ACK
1.181751780000000,0,0x5D,0x00,Read,ACK
1.181773320000000,0,0x5D,0x00,Read,ACK
1.181795700000000,0,0x5D,0x00,Read,ACK
1.181817200000000,0,0x5D,0x00,Read,ACK
1.181838720000000,0,0x5D,0x00,Read,ACK
1.181860200000000,0,0x5D,0x00,Read,ACK
1.181882380000000,0,0x5D,0x00,Read,ACK
1.181903940000000,0,0x5D,0x00,Read,ACK
1.181925440000000,0,0x5D,0x00,Read,ACK
1.181946920000000,0,0x5D,0x00,Read,ACK
1.181968440000000,0,0x5D,0x00,Read,ACK
1.181989940000000,0,0x5D,0x00,Read,ACK
1.182011640000000,0,0x5D,0x00,Read,ACK
1.182033140000000,0,0x5D,0x00,Read,ACK
1.182054660000000,0,0x5D,0x00,Read,ACK
1.182076140000000,0,0x5D,0x00,Read,ACK
1.182097680000000,0,0x5D,0x00,Read,ACK
1.182119140000000,0,0x5D,0x00,Read,ACK
1.182140680000000,0,0x5D,0x00,Read,ACK
1.182162220000000,0,0x5D,0x22,Read,ACK
1.182183680000000,0,0x5D,0x89,Read,ACK
1.182205160000000,0,0x5D,0x01,Read,ACK
1.182226700000000,0,0x5D,0x00,Read,ACK
1.182250780000000,0,0x5D,0x00,Read,ACK
1.182272260000000,0,0x5D,0x00,Read,ACK
1.182293720000000,0,0x5D,0x00,Read,ACK
1.182315220000000,0,0x5D,0x00,Read,ACK
1.182336980000000,0,0x5D,0x00,Read,ACK
1.182359180000000,0,0x5D,0x00,Read,ACK
1.182381920000000,0,0x5D,0x00,Read,ACK
1.182403400000000,0,0x5D,0x00,Read,ACK
1.182424900000000,0,0x5D,0x00,Read,ACK
1.182448520000000,0,0x5D,0x00,Read,ACK
1.182470440000000,0,0x5D,0x00,Read,ACK
1.182493560000000,0,0x5D,0x00,Read,ACK
1.182515560000000,0,0x5D,0x00,Read,ACK
1.182538580000000,0,0x5D,0x00,Read,ACK
1.182560080000000,0,0x5D,0x00,Read,ACK
1.182581560000000,0,0x5D,0x00,Read,ACK
1.182603100000000,0,0x5D,0x00,Read,NAK
1.188377660000000,0,0x5D,0x2F,Read,ACK
1.188403300000000,0,0x5D,0x00,Read,ACK
1.188424820000000,0,0x5D,0x04,Read,ACK
1.188446520000000,0,0x5D,0x03,Read,ACK
1.188468020000000,0,0x5D,0x00,Read,ACK
1.188492180000000,0,0x5D,0x00,Read,ACK
1.188513660000000,0,0x5D,0x97,Read,ACK
1.188535180000000,0,0x5D,0x02,Read,ACK
1.188556660000000,0,0x5D,0x01,Read,ACK
1.188578140000000,0,0x5D,0x04,Read,ACK
1.188599660000000,0,0x5D,0x20,Read,ACK
1.188621140000000,0,0x5D,0x00,Read,ACK
1.188642620000000,0,0x5D,0x00,Read,ACK
1.188664140000000,0,0x5D,0x00,Read,ACK
1.188685620000000,0,0x5D,0x00,Read,ACK
1.188707160000000,0,0x5D,0x00,Read,ACK
1.188728620000000,0,0x5D,0x00,Read,ACK
1.188750100000000,0,0x5D,0x00,Read,ACK
1.188772940000000,0,0x5D,0x00,Read,ACK
1.188794420000000,0,0x5D,0x00,Read,ACK
1.188816000000000,0,0x5D,0x00,Read,ACK
1.188838160000000,0,0x5D,0x00,Read,ACK
1.188859660000000,0,0x5D,0x00,Read,ACK
1.188881340000000,0,0x5D,0x00,Read,ACK
1.188902860000000,0,0x5D,0x00,Read,ACK
1.188925000000000,0,0x5D,0x00,Read,ACK
1.188946480000000,0,0x5D,0x00,Read,ACK
1.188968000000000,0,0x5D,0x00,Read,ACK
1.188989500000000,0,0x5D,0x00,Read,ACK
1.189011060000000,0,0x5D,0x00,Read,ACK
1.189033040000000,0,0x5D,0x00,Read,ACK
1.189054560000000,0,0x5D,0x00,Read,ACK
1.189076080000000,0,0x5D,0x00,Read,ACK
1.189097600000000,0,0x5D,0x00,Read,ACK
1.189119100000000,0,0x5D,0x00,Read,ACK
1.189140600000000,0,0x5D,0x00,Read,ACK
1.189162080000000,0,0x5D,0x00,Read,ACK
1.189183620000000,0,0x5D,0x00,Read,ACK
1.189205140000000,0,0x5D,0x00,Read,ACK
1.189226640000000,0,0x5D,0x00,Read,ACK
1.189248420000000,0,0x5D,0x00,Read,ACK
1.189269940000000,0,0x5D,0x00,Read,ACK
1.189291480000000,0,0x5D,0x00,Read,ACK
1.189313020000000,0,0x5D,0x68,Read,ACK
1.189334480000000,0,0x5D,0x89,Read,ACK
1.189355980000000,0,0x5D,0x01,Read,ACK
1.189377480000000,0,0x5D,0x00,Read,ACK
1.189399000000000,0,0x5D,0x00,Read,ACK
1.189420500000000,0,0x5D,0x00,Read,ACK
1.189441980000000,0,0x5D,0x00,Read,ACK
1.189466360000000,0,0x5D,0x00,Read,ACK
1.189489560000000,0,0x5D,0x00,Read,ACK
1.189511980000000,0,0x5D,0x00,Read,ACK
1.189533840000000,0,0x5D,0x00,Read,ACK
1.189556560000000,0,0x5D,0x00,Read,ACK
1.189578280000000,0,0x5D,0x00,Read,ACK
1.189600040000000,0,0x5D,0x00,Read,ACK
1.189622020000000,0,0x5D,0x00,Read,ACK
1.189643540000000,0,0x5D,0x00,Read,ACK
1.189665200000000,0,0x5D,0x00,Read,ACK
1.189686780000000,0,0x5D,0x00,Read,ACK
1.189710020000000,0,0x5D,0x00,Read,ACK
1.189732100000000,0,0x5D,0x00,Read,ACK
1.189753580000000,0,0x5D,0x00,Read,NAK
1.195500140000000,0,0x5D,0x2F,Read,ACK
1.195524120000000,0,0x5D,0x00,Read,ACK
1.195548440000000,0,0x5D,0x04,Read,ACK
1.195569960000000,0,0x5D,0x03,Read,ACK
1.195593580000000,0,0x5D,0x00,Read,ACK
1.195615440000000,0,0x5D,0x00,Read,ACK
1.195637320000000,0,0x5D,0x97,Read,ACK
1.195658820000000,0,0x5D,0x02,Read,ACK
1.195680380000000,0,0x5D,0x01,Read,ACK
1.195701900000000,0,0x5D,0x03,Read,ACK
1.195723440000000,0,0x5D,0x20,Read,ACK
1.195744960000000,0,0x5D,0x00,Read,ACK
1.195766460000000,0,0x5D,0x00,Read,ACK
1.195787980000000,0,0x5D,0x00,Read,ACK
1.195809460000000,0,0x5D,0x00,Read,ACK
1.195830980000000,0,0x5D,0x00,Read,ACK
1.195852460000000,0,0x5D,0x00,Read,ACK
1.195873980000000,0,0x5D,0x00,Read,ACK
1.195895480000000,0,0x5D,0x00,Read,ACK
1.195917000000000,0,0x5D,0x00,Read,ACK
1.195940480000000,0,0x5D,0x00,Read,ACK
1.195962900000000,0,0x5D,0x00,Read,ACK
1.195985580000000,0,0x5D,0x00,Read,ACK
1.196007080000000,0,0x5D,0x00,Read,ACK
1.196028700000000,0,0x5D,0x00,Read,ACK
1.196051360000000,0,0x5D,0x00,Read,ACK
1.196072900000000,0,0x5D,0x00,Read,ACK
1.196094420000000,0,0x5D,0x00,Read,ACK
1.196115940000000,0,0x5D,0x00,Read,ACK
1.196137400000000,0,0x5D,0x00,Read,ACK
1.196158940000000,0,0x5D,0x00,Read,ACK
1.196180860000000,0,0x5D,0x00,Read,ACK
1.196202400000000,0,0x5D,0x00,Read,ACK
1.196223880000000,0,0x5D,0x00,Read,ACK
1.196245420000000,0,0x5D,0x00,Read,ACK
1.196266940000000,0,0x5D,0x00,Read,ACK
1.196288440000000,0,0x5D,0x00,Read,ACK
1.196309940000000,0,0x5D,0x00,Read,ACK
1.196331420000000,0,0x5D,0x00,Read,ACK
1.196352900000000,0,0x5D,0x00,Read,ACK
1.196374420000000,0,0x5D,0x00,Read,ACK
1.196395900000000,0,0x5D,0x00,Read,ACK
1.196417380000000,0,0x5D,0x00,Read,ACK
1.196438860000000,0,0x5D,0xAE,Read,ACK
1.196460380000000,0,0x5D,0x89,Read,ACK
1.196482120000000,0,0x5D,0x01,Read,ACK
1.196503660000000,0,0x5D,0x00,Read,ACK
1.196525200000000,0,0x5D,0x00,Read,ACK
1.196550520000000,0,0x5D,0x00,Read,ACK
1.196572000000000,0,0x5D,0x00,Read,ACK
1.196593540000000,0,0x5D,0x00,Read,ACK
1.196615840000000,0,0x5D,0x00,Read,ACK
1.196637580000000,0,0x5D,0x00,Read,ACK
1.196659420000000,0,0x5D,0x00,Read,ACK
1.196680920000000,0,0x5D,0x00,Read,ACK
1.196702480000000,0,0x5D,0x00,Read,ACK
1.196725160000000,0,0x5D,0x00,Read,ACK
1.196748580000000,0,0x5D,0x00,Read,ACK
1.196770740000000,0,0x5D,0x00,Read,ACK
1.196792940000000,0,0x5D,0x00,Read,ACK
1.196814440000000,0,0x5D,0x00,Read,ACK
1.196835960000000,0,0x5D,0x00,Read,ACK
1.196857440000000,0,0x5D,0x00,Read,ACK
1.196878920000000,0,0x5D,0x00,Read,NAK
1.202667520000000,0,0x5D,0x2F,Read,ACK
1.202691760000000,0,0x5D,0x00,Read,ACK
1.202713260000000,0,0x5D,0x04,Read,ACK
1.202734860000000,0,0x5D,0x03,Read,ACK
1.202756740000000,0,0x5D,0x00,Read,ACK
1.202778340000000,0,0x5D,0x00,Read,ACK
1.202799840000000,0,0x5D,0x97,Read,ACK
1.202821360000000,0,0x5D,0x02,Read,ACK
1.202842840000000,0,0x5D,0x01,Read,ACK
1.202864320000000,0,0x5D,0x03,Read,ACK
1.202885880000000,0,0x5D,0x20,Read,ACK
1.202907400000000,0,0x5D,0x00,Read,ACK
1.202928860000000,0,0x5D,0x00,Read,ACK
1.202950340000000,0,0x5D,0x00,Read,ACK
1.202971820000000,0,0x5D,0x00,Read,ACK
1.202993360000000,0,0x5D,0x00,Read,ACK
1.203014900000000,0,0x5D,0x00,Read,ACK
1.203036420000000,0,0x5D,0x00,Read,ACK
1.203057900000000,0,0x5D,0x00,Read,ACK
1.203080500000000,0,0x5D,0x00,Read,ACK
1.203102920000000,0,0x5D,0x00,Read,ACK
1.203124920000000,0,0x5D,0x00,Read,ACK
1.203146440000000,0,0x5D,0x00,Read,ACK
1.203168860000000,0,0x5D,0x00,Read,ACK
1.203190460000000,0,0x5D,0x00,Read,ACK
1.203211960000000,0,0x5D,0x00,Read,ACK
1.203233480000000,0,0x5D,0x00,Read,ACK
1.203254980000000,0,0x5D,0x00,Read,ACK
1.203276520000000,0,0x5D,0x00,Read,ACK
1.203298040000000,0,0x5D,0x00,Read,ACK
1.203321520000000,0,0x5D,0x00,Read,ACK
1.203343240000000,0,0x5D,0x00,Read,ACK
1.203364760000000,0,0x5D,0x00,Read,ACK
1.203386300000000,0,0x5D,0x00,Read,ACK
1.203407960000000,0,0x5D,0x00,Read,ACK
1.203432060000000,0,0x5D,0x00,Read,ACK
1.203453580000000,0,0x5D,0x00,Read,ACK
1.203475140000000,0,0x5D,0x00,Read,ACK
1.203496680000000,0,0x5D,0x00,Read,ACK
1.203518200000000,0,0x5D,0x00,Read,ACK
1.203539720000000,0,0x5D,0x00,Read,ACK
1.203561200000000,0,0x5D,0x00,Read,ACK
1.203582680000000,0,0x5D,0x00,Read,ACK
1.203604200000000,0,0x5D,0xF4,Read,ACK
1.203625680000000,0,0x5D,0x89,Read,ACK
1.203647160000000,0,0x5D,0x01,Read,ACK
1.203669400000000,0,0x5D,0x00,Read,ACK
1.203690920000000,0,0x5D,0x00,Read,ACK
1.203712460000000,0,0x5D,0x00,Read,ACK
1.203734340000000,0,0x5D,0x00,Read,ACK
1.203756460000000,0,0x5D,0x00,Read,ACK
1.203778160000000,0,0x5D,0x00,Read,ACK
1.203800120000000,0,0x5D,0x00,Read,ACK
1.203821620000000,0,0x5D,0x00,Read,ACK
1.203843100000000,0,0x5D,0x00,Read,ACK
1.203866100000000,0,0x5D,0x00,Read,ACK
1.203887700000000,0,0x5D,0x00,Read,ACK
1.203909200000000,0,0x5D,0x00,Read,ACK
1.203932360000000,0,0x5D,0x00,Read,ACK
1.203954540000000,0,0x5D,0x00,Read,ACK
1.203976060000000,0,0x5D,0x00,Read,ACK
1.203997940000000,0,0x5D,0x00,Read,ACK
1.204020060000000,0,0x5D,0x00,Read,ACK
1.204041700000000,0,0x5D,0x00,Read,NAK
1.209934180000000,0,0x5D,0x2F,Read,ACK
1.209955800000000,0,0x5D,0x00,Read,ACK
1.209977340000000,0,0x5D,0x04,Read,ACK
1.209998880000000,0,0x5D,0x03,Read,ACK
1.210020400000000,0,0x5D,0x00,Read,ACK
1.210041880000000,0,0x5D,0x00,Read,ACK
1.210063360000000,0,0x5D,0x97,Read,ACK
1.210084880000000,0,0x5D,0x02,Read,ACK
1.210106360000000,0,0x5D,0x01,Read,ACK
1.210127840000000,0,0x5D,0x03,Read,ACK
1.210149340000000,0,0x5D,0x20,Read,ACK
1.210171040000000,0,0x5D,0x00,Read,ACK
1.210192660000000,0,0x5D,0x00,Read,ACK
1.210214180000000,0,0x5D,0x00,Read,ACK
1.210235640000000,0,0x5D,0x00,Read,ACK
1.210257120000000,0,0x5D,0x00,Read,ACK
1.210278600000000,0,0x5D,0x00,Read,ACK
1.210300460000000,0,0x5D,0x00,Read,ACK
1.210321980000000,0,0x5D,0x00,Read,ACK
1.210343460000000,0,0x5D,0x00,Read,ACK
1.210364980000000,0,0x5D,0x00,Read,ACK
1.210386440000000,0,0x5D,0x00,Read,ACK
1.210407960000000,0,0x5D,0x00,Read,ACK
1.210429460000000,0,0x5D,0x00,Read,ACK
1.210451000000000,0,0x5D,0x00,Read,ACK
1.210472480000000,0,0x5D,0x00,Read,ACK
1.210494020000000,0,0x5D,0x00,Read,ACK
1.210515560000000,0,0x5D,0x00,Read,ACK
1.210537080000000,0,0x5D,0x00,Read,ACK
1.210559180000000,0,0x5D,0x00,Read,ACK
1.210580720000000,0,0x5D,0x00,Read,ACK
1.210602260000000,0,0x5D,0x00,Read,ACK
1.210623800000000,0,0x5D,0x00,Read,ACK
1.210645520000000,0,0x5D,0x00,Read,ACK
1.210667060000000,0,0x5D,0x00,Read,ACK
1.210688620000000,0,0x5D,0x00,Read,ACK
1.210710140000000,0,0x5D,0x00,Read,ACK
1.210731920000000,0,0x5D,0x00,Read,ACK
1.210753440000000,0,0x5D,0x00,Read,ACK
1.210774920000000,0,0x5D,0x00,Read,ACK
1.210800900000000,0,0x5D,0x00,Read,ACK
1.210822800000000,0,0x5D,0x00,Read,ACK
1.210844280000000,0,0x5D,0x00,Read,ACK
1.210865960000000,0,0x5D,0x3A,Read,ACK
1.210887460000000,0,0x5D,0x8A,Read,ACK
1.210908940000000,0,0x5D,0x01,Read,ACK
1.210930500000000,0,0x5D,0x00,Read,ACK
1.210952020000000,0,0x5D,0x00,Read,ACK
1.210974500000000,0,0x5D,0x00,Read,ACK
1.210996200000000,0,0x5D,0x00,Read,ACK
1.211017680000000,0,0x5D,0x00,Read,ACK
1.211040160000000,0,0x5D,0x00,Read,ACK
1.211062220000000,0,0x5D,0x00,Read,ACK
1.211084020000000,0,0x5D,0x00,Read,ACK
1.211105500000000,0,0x5D,0x00,Read,ACK
1.211128560000000,0,0x5D,0x00,Read,ACK
1.211151240000000,0,0x5D,0x00,Read,ACK
1.211172740000000,0,0x5D,0x00,Read,ACK
1.211194540000000,0,0x5D,0x00,Read,ACK
1.211216040000000,0,0x5D,0x00,Read,ACK
1.211237720000000,0,0x5D,0x00,Read,ACK
1.211260040000000,0,0x5D,0x00,Read,ACK
1.211283680000000,0,0x5D,0x00,Read,ACK
1.211308640000000,0,0x5D,0x00,Read,NAK
1.217011760000000,0,0x5D,0x2F,Read,ACK
1.217034580000000,0,0x5D,0x00,Read,ACK
1.217057160000000,0,0x5D,0x04,Read,ACK
1.217080420000000,0,0x5D,0x03,Read,ACK
1.217101920000000,0,0x5D,0x00,Read,ACK
1.217123460000000,0,0x5D,0x00,Read,ACK
1.217145000000000,0,0x5D,0x97,Read,ACK
1.217166520000000,0,0x5D,0x02,Read,ACK
1.217188000000000,0,0x5D,0x01,Read,ACK
1.217209480000000,0,0x5D,0x03,Read,ACK
1.217231020000000,0,0x5D,0x20,Read,ACK
1.217252540000000,0,0x5D,0x00,Read,ACK
1.217274000000000,0,0x5D,0x00,Read,ACK
1.217295480000000,0,0x5D,0x00,Read,ACK
1.217316960000000,0,0x5D,0x00,Read,ACK
1.217340020000000,0,0x5D,0x00,Read,ACK
1.217361520000000,0,0x5D,0x00,Read,ACK
1.217383000000000,0,0x5D,0x00,Read,ACK
1.217404480000000,0,0x5D,0x00,Read,ACK
1.217426000000000,0,0x5D,0x00,Read,ACK
1.217447560000000,0,0x5D,0x00,Read,ACK
1.217469080000000,0,0x5D,0x00,Read,ACK
1.217490560000000,0,0x5D,0x00,Read,ACK
1.217512080000000,0,0x5D,0x00,Read,ACK
1.217533640000000,0,0x5D,0x00,Read,ACK
1.217555160000000,0,0x5D,0x00,Read,ACK
1.217576700000000,0,0x5D,0x00,Read,ACK
1.217598220000000,0,0x5D,0x00,Read,ACK
1.217619760000000,0,0x5D,0x00,Read,ACK
1.217641300000000,0,0x5D,0x00,Read,ACK
1.217662780000000,0,0x5D,0x00,Read,ACK
1.217684300000000,0,0x5D,0x00,Read,ACK
1.217705860000000,0,0x5D,0x00,Read,ACK
1.217727380000000,0,0x5D,0x00,Read,ACK
1.217749060000000,0,0x5D,0x00,Read,ACK
1.217770560000000,0,0x5D,0x00,Read,ACK
1.217792020000000,0,0x5D,0x00,Read,ACK
1.217813520000000,0,0x5D,0x00,Read,ACK
1.217835060000000,0,0x5D,0x00,Read,ACK
1.217856580000000,0,0x5D,0x00,Read,ACK
1.217878160000000,0,0x5D,0x00,Read,ACK
1.217899660000000,0,0x5D,0x00,Read,ACK
1.217921200000000,0,0x5D,0x00,Read,ACK
1.217942660000000,0,0x5D,0x80,Read,ACK
1.217964160000000,0,0x5D,0x8A,Read,ACK
1.217985840000000,0,0x5D,0x01,Read,ACK
1.218012340000000,0,0x5D,0x00,Read,ACK
1.218034640000000,0,0x5D,0x00,Read,ACK
1.218056880000000,0,0x5D,0x00,Read,ACK
1.218079320000000,0,0x5D,0x00,Read,ACK
1.218100980000000,0,0x5D,0x00,Read,ACK
1.218122700000000,0,0x5D,0x00,Read,ACK
1.218144960000000,0,0x5D,0x00,Read,ACK
1.218166440000000,0,0x5D,0x00,Read,ACK
1.218187920000000,0,0x5D,0x00,Read,ACK
1.218210780000000,0,0x5D,0x00,Read,ACK
1.218232300000000,0,0x5D,0x00,Read,ACK
1.218254240000000,0,0x5D,0x00,Read,ACK
1.218275880000000,0,0x5D,0x00,Read,ACK
1.218297340000000,0,0x5D,0x00,Read,ACK
1.218318840000000,0,0x5D,0x00,Read,ACK
1.218340720000000,0,0x5D,0x00,Read,ACK
1.218362540000000,0,0x5D,0x00,Read,ACK
1.218385400000000,0,0x5D,0x00,Read,NAK
1.224482220000000,0,0x5D,0x2F,Read,ACK
1.224506400000000,0,0x5D,0x00,Read,ACK
1.224529220000000,0,0x5D,0x04,Read,ACK
1.224550780000000,0,0x5D,0x03,Read,ACK
1.224572300000000,0,0x5D,0x00,Read,ACK
1.224593860000000,0,0x5D,0x00,Read,ACK
1.224615360000000,0,0x5D,0x97,Read,ACK
1.224638320000000,0,0x5D,0x02,Read,ACK
1.224659800000000,0,0x5D,0x01,Read,ACK
1.224681300000000,0,0x5D,0x03,Read,ACK
1.224702920000000,0,0x5D,0x20,Read,ACK
1.224724720000000,0,0x5D,0x00,Read,ACK
1.224746180000000,0,0x5D,0x00,Read,ACK
1.224767660000000,0,0x5D,0x00,Read,ACK
1.224789420000000,0,0x5D,0x00,Read,ACK
1.224810920000000,0,0x5D,0x00,Read,ACK
1.224834560000000,0,0x5D,0x00,Read,ACK
1.224856200000000,0,0x5D,0x00,Read,ACK
1.224877720000000,0,0x5D,0x00,Read,ACK
1.224899260000000,0,0x5D,0x00,Read,ACK
1.224920800000000,0,0x5D,0x00,Read,ACK
1.224942560000000,0,0x5D,0x00,Read,ACK
1.224964180000000,0,0x5D,0x00,Read,ACK
1.224985700000000,0,0x5D,0x00,Read,ACK
1.225007160000000,0,0x5D,0x00,Read,ACK
1.225028640000000,0,0x5D,0x00,Read,ACK
1.225050300000000,0,0x5D,0x00,Read,ACK
1.225071780000000,0,0x5D,0x00,Read,ACK
1.225094920000000,0,0x5D,0x00,Read,ACK
1.225117240000000,0,0x5D,0x00,Read,ACK
1.225138940000000,0,0x5D,0x00,Read,ACK
1.225161280000000,0,0x5D,0x00,Read,ACK
1.225183660000000,0,0x5D,0x00,Read,ACK
1.225205200000000,0,0x5D,0x00,Read,ACK
1.225226740000000,0,0x5D,0x00,Read,ACK
1.225248260000000,0,0x5D,0x00,Read,ACK
1.225272480000000,0,0x5D,0x00,Read,ACK
1.225296140000000,0,0x5D,0x00,Read,ACK
1.225318640000000,0,0x5D,0x00,Read,ACK
1.225340140000000,0,0x5D,0x00,Read,ACK
1.225364380000000,0,0x5D,0x00,Read,ACK
1.225386960000000,0,0x5D,0x00,Read,ACK
1.225408480000000,0,0x5D,0x00,Read,ACK
1.225430000000000,0,0x5D,0xC6,Read,ACK
1.225454300000000,0,0x5D,0x8A,Read,ACK
1.225476720000000,0,0x5D,0x01,Read,ACK
1.225498240000000,0,0x5D,0x00,Read,ACK
1.225519700000000,0,0x5D,0x00,Read,ACK
1.225541280000000,0,0x5D,0x00,Read,ACK
1.225562780000000,0,0x5D,0x00,Read,ACK
1.225584340000000,0,0x5D,0x00,Read,ACK
1.225605860000000,0,0x5D,0x00,Read,ACK
1.225627380000000,0,0x5D,0x00,Read,ACK
1.225650320000000,0,0x5D,0x00,Read,ACK
1.225672100000000,0,0x5D,0x00,Read,ACK
1.225695740000000,0,0x5D,0x00,Read,ACK
1.225718140000000,0,0x5D,0x00,Read,ACK
1.225739640000000,0,0x5D,0x00,Read,ACK
1.225761160000000,0,0x5D,0x00,Read,ACK
1.225783300000000,0,0x5D,0x00,Read,ACK
1.225805000000000,0,0x5D,0x00,Read,ACK
1.225826920000000,0,0x5D,0x00,Read,ACK
1.225849240000000,0,0x5D,0x00,Read,ACK
1.225871660000000,0,0x5D,0x00,Read,NAK
1.231269640000000,0,0x5D,0x2F,Read,ACK
1.231294120000000,0,0x5D,0x00,Read,ACK
1.231315720000000,0,0x5D,0x04,Read,ACK
1.231337320000000,0,0x5D,0x03,Read,ACK
1.231360120000000,0,0x5D,0x00,Read,ACK
1.231381620000000,0,0x5D,0x00,Read,ACK
1.231403140000000,0,0x5D,0x97,Read,ACK
1.231424620000000,0,0x5D,0x02,Read,ACK
1.231446140000000,0,0x5D,0x01,Read,ACK
1.231467620000000,0,0x5D,0x03,Read,ACK
1.231489160000000,0,0x5D,0x20,Read,ACK
1.231510680000000,0,0x5D,0x00,Read,ACK
1.231532160000000,0,0x5D,0x00,Read,ACK
1.231553700000000,0,0x5D,0x00,Read,ACK
1.231575240000000,0,0x5D,0x00,Read,ACK
1.231596760000000,0,0x5D,0x00,Read,ACK
1.231618240000000,0,0x5D,0x00,Read,ACK
1.231640000000000,0,0x5D,0x00,Read,ACK
1.231661500000000,0,0x5D,0x00,Read,ACK
1.231683020000000,0,0x5D,0x00,Read,ACK
1.231704560000000,0,0x5D,0x00,Read,ACK
1.231726040000000,0,0x5D,0x00,Read,ACK
1.231748840000000,0,0x5D,0x00,Read,ACK
1.231770380000000,0,0x5D,0x00,Read,ACK
1.231791920000000,0,0x5D,0x00,Read,ACK
1.231813960000000,0,0x5D,0x00,Read,ACK
1.231835480000000,0,0x5D,0x00,Read,ACK
1.231857020000000,0,0x5D,0x00,Read,ACK
1.231878500000000,0,0x5D,0x00,Read,ACK
1.231900760000000,0,0x5D,0x00,Read,ACK
1.231922240000000,0,0x5D,0x00,Read,ACK
1.231943740000000,0,0x5D,0x00,Read,ACK
1.231965240000000,0,0x5D,0x00,Read,ACK
1.231986720000000,0,0x5D,0x00,Read,ACK
1.232008200000000,0,0x5D,0x00,Read,ACK
1.232030280000000,0,0x5D,0x00,Read,ACK
1.232051780000000,0,0x5D,0x00,Read,ACK
1.232073320000000,0,0x5D,0x00,Read,ACK
1.232094880000000,0,0x5D,0x00,Read,ACK
1.232116380000000,0,0x5D,0x00,Read,ACK
1.232137860000000,0,0x5D,0x00,Read,ACK
1.232159380000000,0,0x5D,0x00,Read,ACK
1.232180880000000,0,0x5D,0x00,Read,ACK
1.232202400000000,0,0x5D,0x0C,Read,ACK
1.232223940000000,0,0x5D,0x8B,Read,ACK
1.232245400000000,0,0x5D,0x01,Read,ACK
1.232268540000000,0,0x5D,0x00,Read,ACK
1.232291760000000,0,0x5D,0x00,Read,ACK
1.232313260000000,0,0x5D,0x00,Read,ACK
1.232335800000000,0,0x5D,0x00,Read,ACK
1.232357560000000,0,0x5D,0x00,Read,ACK
1.232379220000000,0,0x5D,0x00,Read,ACK
1.232400940000000,0,0x5D,0x00,Read,ACK
1.232422440000000,0,0x5D,0x00,Read,ACK
1.232443960000000,0,0x5D,0x00,Read,ACK
1.232466200000000,0,0x5D,0x00,Read,ACK
1.232487700000000,0,0x5D,0x00,Read,ACK
1.232509900000000,0,0x5D,0x00,Read,ACK
1.232532960000000,0,0x5D,0x00,Read,ACK
1.232554880000000,0,0x5D,0x00,Read,ACK
1.232576400000000,0,0x5D,0x00,Read,ACK
1.232597960000000,0,0x5D,0x00,Read,ACK
1.232620260000000,0,0x5D,0x00,Read,ACK
1.232641780000000,0,0x5D,0x00,Read,NAK
1.238378660000000,0,0x5D,0x2F,Read,ACK
1.238403360000000,0,0x5D,0x00,Read,ACK
1.238425460000000,0,0x5D,0x04,Read,ACK
1.238446960000000,0,0x5D,0x03,Read,ACK
1.238468620000000,0,0x5D,0x00,Read,ACK
1.238490740000000,0,0x5D,0x00,Read,ACK
1.238513040000000,0,0x5D,0x97,Read,ACK
1.238534520000000,0,0x5D,0x02,Read,ACK
1.238556000000000,0,0x5D,0x01,Read,ACK
1.238577480000000,0,0x5D,0x03,Read,ACK
1.238599020000000,0,0x5D,0x20,Read,ACK
1.238620520000000,0,0x5D,0x00,Read,ACK
1.238642020000000,0,0x5D,0x00,Read,ACK
1.238663540000000,0,0x5D,0x00,Read,ACK
1.238685040000000,0,0x5D,0x00,Read,ACK
1.238706540000000,0,0x5D,0x00,Read,ACK
1.238728020000000,0,0x5D,0x00,Read,ACK
1.238749520000000,0,0x5D,0x00,Read,ACK
1.238771020000000,0,0x5D,0x00,Read,ACK
1.238792560000000,0,0x5D,0x00,Read,ACK
1.238814100000000,0,0x5D,0x00,Read,ACK
1.238835640000000,0,0x5D,0x00,Read,ACK
1.238857260000000,0,0x5D,0x00,Read,ACK
1.238878780000000,0,0x5D,0x00,Read,ACK
1.238900900000000,0,0x5D,0x00,Read,ACK
1.238922400000000,0,0x5D,0x00,Read,ACK
1.238943920000000,0,0x5D,0x00,Read,ACK
1.238965440000000,0,0x5D,0x00,Read,ACK
1.238986940000000,0,0x5D,0x00,Read,ACK
1.239008460000000,0,0x5D,0x00,Read,ACK
1.239030860000000,0,0x5D,0x00,Read,ACK
1.239052340000000,0,0x5D,0x00,Read,ACK
1.239075360000000,0,0x5D,0x00,Read,ACK
1.239096920000000,0,0x5D,0x00,Read,ACK
1.239118440000000,0,0x5D,0x00,Read,ACK
1.239140080000000,0,0x5D,0x00,Read,ACK
1.239161860000000,0,0x5D,0x00,Read,ACK
1.239183360000000,0,0x5D,0x00,Read,ACK
1.239204900000000,0,0x5D,0x00,Read,ACK
1.239226420000000,0,0x5D,0x00,Read,ACK
1.239247880000000,0,0x5D,0x00,Read,ACK
1.239269360000000,0,0x5D,0x00,Read,ACK
1.239290840000000,0,0x5D,0x00,Read,ACK
1.239312380000000,0,0x5D,0x52,Read,ACK
1.239333900000000,0,0x5D,0x8B,Read,ACK
1.239355380000000,0,0x5D,0x01,Read,ACK
1.239376840000000,0,0x5D,0x00,Read,ACK
1.239398320000000,0,0x5D,0x00,Read,ACK
1.239423420000000,0,0x5D,0x00,Read,ACK
1.239444940000000,0,0x5D,0x00,Read,ACK
1.239466480000000,0,0x5D,0x00,Read,ACK
1.239490440000000,0,0x5D,0x00,Read,ACK
1.239513360000000,0,0x5D,0x00,Read,ACK
1.239535460000000,0,0x5D,0x00,Read,ACK
1.239556980000000,0,0x5D,0x00,Read,ACK
1.239578520000000,0,0x5D,0x00,Read,ACK
1.239600200000000,0,0x5D,0x00,Read,ACK
1.239621720000000,0,0x5D,0x00,Read,ACK
1.239643480000000,0,0x5D,0x00,Read,ACK
1.239664980000000,0,0x5D,0x00,Read,ACK
1.239686840000000,0,0x5D,0x00,Read,ACK
1.239708360000000,0,0x5D,0x00,Read,ACK
1.239729900000000,0,0x5D,0x00,Read,ACK
1.239751840000000,0,0x5D,0x00,Read,NAK
1.245488640000000,0,0x5D,0x2F,Read,ACK
1.245515580000000,0,0x5D,0x00,Read,ACK
1.245537100000000,0,0x5D,0x04,Read,ACK
1.245558640000000,0,0x5D,0x03,Read,ACK
1.245580160000000,0,0x5D,0x00,Read,ACK
1.245601640000000,0,0x5D,0x00,Read,ACK
1.245623600000000,0,0x5D,0x97,Read,ACK
1.245645220000000,0,0x5D,0x02,Read,ACK
1.245669380000000,0,0x5D,0x01,Read,ACK
1.245690900000000,0,0x5D,0x03,Read,ACK
1.245712420000000,0,0x5D,0x20,Read,ACK
1.245733960000000,0,0x5D,0x00,Read,ACK
1.245755440000000,0,0x5D,0x00,Read,ACK
1.245776980000000,0,0x5D,0x00,Read,ACK
1.245798460000000,0,0x5D,0x00,Read,ACK
1.245820020000000,0,0x5D,0x00,Read,ACK
1.245841520000000,0,0x5D,0x00,Read,ACK
1.245862980000000,0,0x5D,0x00,Read,ACK
1.245884460000000,0,0x5D,0x00,Read,ACK
1.245906000000000,0,0x5D,0x00,Read,ACK
1.245928040000000,0,0x5D,0x00,Read,ACK
1.245950300000000,0,0x5D,0x00,Read,ACK
1.245972180000000,0,0x5D,0x00,Read,ACK
1.245993720000000,0,0x5D,0x00,Read,ACK
1.246015280000000,0,0x5D,0x00,Read,ACK
1.246036940000000,0,0x5D,0x00,Read,ACK
1.246058440000000,0,0x5D,0x00,Read,ACK
1.246080020000000,0,0x5D,0x00,Read,ACK
1.246101940000000,0,0x5D,0x00,Read,ACK
1.246123500000000,0,0x5D,0x00,Read,ACK
1.246145020000000,0,0x5D,0x00,Read,ACK
1.246166900000000,0,0x5D,0x00,Read,ACK
1.246189120000000,0,0x5D,0x00,Read,ACK
1.246210640000000,0,0x5D,0x00,Read,ACK
1.246232200000000,0,0x5D,0x00,Read,ACK
1.246253680000000,0,0x5D,0x00,Read,ACK
1.246275160000000,0,0x5D,0x00,Read,ACK
1.246296620000000,0,0x5D,0x00,Read,ACK
1.246318280000000,0,0x5D,0x00,Read,ACK
1.246339760000000,0,0x5D,0x00,Read,ACK
1.246361240000000,0,0x5D,0x00,Read,ACK
1.246382780000000,0,0x5D,0x00,Read,ACK
1.246404300000000,0,0x5D,0x00,Read,ACK
1.246425780000000,0,0x5D,0x98,Read,ACK
1.246447300000000,0,0x5D,0x8B,Read,ACK
1.246468780000000,0,0x5D,0x01,Read,ACK
1.246490360000000,0,0x5D,0x00,Read,ACK
1.246511840000000,0,0x5D,0x00,Read,ACK
1.246533400000000,0,0x5D,0x00,Read,ACK
1.246554900000000,0,0x5D,0x00,Read,ACK
1.246576580000000,0,0x5D,0x00,Read,ACK
1.246598100000000,0,0x5D,0x00,Read,ACK
1.246620800000000,0,0x5D,0x00,Read,ACK
1.246643060000000,0,0x5D,0x00,Read,ACK
1.246664860000000,0,0x5D,0x00,Read,ACK
1.246686980000000,0,0x5D,0x00,Read,ACK
1.246708480000000,0,0x5D,0x00,Read,ACK
1.246730020000000,0,0x5D,0x00,Read,ACK
1.246751540000000,0,0x5D,0x00,Read,ACK
1.246773480000000,0,0x5D,0x00,Read,ACK
1.246794980000000,0,0x5D,0x00,Read,ACK
1.246817480000000,0,0x5D,0x00,Read,ACK
1.246839540000000,0,0x5D,0x00,Read,ACK
1.246861500000000,0,0x5D,0x00,Read,NAK
1.252607860000000,0,0x5D,0x2F,Read,ACK
1.252631460000000,0,0x5D,0x00,Read,ACK
1.252652960000000,0,0x5D,0x04,Read,ACK
1.252674500000000,0,0x5D,0x03,Read,ACK
1.252696020000000,0,0x5D,0x00,Read,ACK
1.252717600000000,0,0x5D,0x00,Read,ACK
1.252739100000000,0,0x5D,0x97,Read,ACK
1.252761480000000,0,0x5D,0x02,Read,ACK
1.252783360000000,0,0x5D,0x01,Read,ACK
1.252806380000000,0,0x5D,0x03,Read,ACK
1.252827840000000,0,0x5D,0x20,Read,ACK
1.252849320000000,0,0x5D,0x00,Read,ACK
1.252870780000000,0,0x5D,0x00,Read,ACK
1.252892280000000,0,0x5D,0x00,Read,ACK
1.252913820000000,0,0x5D,0x00,Read,ACK
1.252935280000000,0,0x5D,0x00,Read,ACK
1.252956820000000,0,0x5D,0x00,Read,ACK
1.252978360000000,0,0x5D,0x00,Read,ACK
1.252999820000000,0,0x5D,0x00,Read,ACK
1.253021300000000,0,0x5D,0x00,Read,ACK
1.253042840000000,0,0x5D,0x00,Read,ACK
1.253065160000000,0,0x5D,0x00,Read,ACK
1.253087040000000,0,0x5D,0x00,Read,ACK
1.253108560000000,0,0x5D,0x00,Read,ACK
1.253130040000000,0,0x5D,0x00,Read,ACK
1.253151580000000,0,0x5D,0x00,Read,ACK
1.253174160000000,0,0x5D,0x00,Read,ACK
1.253195640000000,0,0x5D,0x00,Read,ACK
1.253217200000000,0,0x5D,0x00,Read,ACK
1.253238700000000,0,0x5D,0x00,Read,ACK
1.253260180000000,0,0x5D,0x00,Read,ACK
1.253281680000000,0,0x5D,0x00,Read,ACK
1.253303200000000,0,0x5D,0x00,Read,ACK
1.253324720000000,0,0x5D,0x00,Read,ACK
1.253346260000000,0,0x5D,0x00,Read,ACK
1.253367740000000,0,0x5D,0x00,Read,ACK
1.253389260000000,0,0x5D,0x00,Read,ACK
1.253410740000000,0,0x5D,0x00,Read,ACK
1.253432680000000,0,0x5D,0x00,Read,ACK
1.253454180000000,0,0x5D,0x00,Read,ACK
1.253475720000000,0,0x5D,0x00,Read,ACK
1.253497760000000,0,0x5D,0x00,Read,ACK
1.253519320000000,0,0x5D,0x00,Read,ACK
1.253540840000000,0,0x5D,0xDE,Read,ACK
1.253562380000000,0,0x5D,0x8B,Read,ACK
1.253583900000000,0,0x5D,0x01,Read,ACK
1.253605400000000,0,0x5D,0x00,Read,ACK
1.253626920000000,0,0x5D,0x00,Read,ACK
1.253648460000000,0,0x5D,0x00,Read,ACK
1.253669980000000,0,0x5D,0x00,Read,ACK
1.253691560000000,0,0x5D,0x00,Read,ACK
1.253713040000000,0,0x5D,0x00,Read,ACK
1.253734520000000,0,0x5D,0x00,Read,ACK
1.253756760000000,0,0x5D,0x00,Read,ACK
1.253779800000000,0,0x5D,0x00,Read,ACK
1.253801300000000,0,0x5D,0x00,Read,ACK
1.253823100000000,0,0x5D,0x00,Read,ACK
1.253844880000000,0,0x5D,0x00,Read,ACK
1.253866380000000,0,0x5D,0x00,Read,ACK
1.253887920000000,0,0x5D,0x00,Read,ACK
1.253909460000000,0,0x5D,0x00,Read,ACK
1.253931600000000,0,0x5D,0x00,Read,ACK
1.253955180000000,0,0x5D,0x00,Read,ACK
1.253977060000000,0,0x5D,0x00,Read,NAK
1.259954420000000,0,0x5D,0x2F,Read,ACK
1.259977140000000,0,0x5D,0x00,Read,ACK
1.259998620000000,0,0x5D,0x04,Read,ACK
1.260020100000000,0,0x5D,0x03,Read,ACK
1.260041580000000,0,0x5D,0x00,Read,ACK
1.260063040000000,0,0x5D,0x00,Read,ACK
1.260084500000000,0,0x5D,0x97,Read,ACK
1.260105980000000,0,0x5D,0x02,Read,ACK
1.260127460000000,0,0x5D,0x01,Read,ACK
1.260148940000000,0,0x5D,0x03,Read,ACK
1.260170420000000,0,0x5D,0x20,Read,ACK
1.260191880000000,0,0x5D,0x00,Read,ACK
1.260214400000000,0,0x5D,0x00,Read,ACK
1.260236900000000,0,0x5D,0x00,Read,ACK
1.260258540000000,0,0x5D,0x00,Read,ACK
1.260280020000000,0,0x5D,0x00,Read,ACK
1.260301560000000,0,0x5D,0x00,Read,ACK
1.260323060000000,0,0x5D,0x00,Read,ACK
1.260344580000000,0,0x5D,0x00,Read,ACK
1.260366100000000,0,0x5D,0x00,Read,ACK
1.260387580000000,0,0x5D,0x00,Read,ACK
1.260409740000000,0,0x5D,0x00,Read,ACK
1.260431280000000,0,0x5D,0x00,Read,ACK
1.260453820000000,0,0x5D,0x00,Read,ACK
1.260475700000000,0,0x5D,0x00,Read,ACK
1.260497200000000,0,0x5D,0x00,Read,ACK
1.260518660000000,0,0x5D,0x00,Read,ACK
1.260540140000000,0,0x5D,0x00,Read,ACK
1.260561880000000,0,0x5D,0x00,Read,ACK
1.260583440000000,0,0x5D,0x00,Read,ACK
1.260604940000000,0,0x5D,0x00,Read,ACK
1.260626420000000,0,0x5D,0x00,Read,ACK
1.260647960000000,0,0x5D,0x00,Read,ACK
1.260669440000000,0,0x5D,0x00,Read,ACK
1.260690960000000,0,0x5D,0x00,Read,ACK
1.260712500000000,0,0x5D,0x00,Read,ACK
1.260734040000000,0,0x5D,0x00,Read,ACK
1.260755580000000,0,0x5D,0x00,Read,ACK
1.260777100000000,0,0x5D,0x00,Read,ACK
1.260798580000000,0,0x5D,0x00,Read,ACK
1.260820120000000,0,0x5D,0x00,Read,ACK
1.260844760000000,0,0x5D,0x00,Read,ACK
1.260868460000000,0,0x5D,0x00,Read,ACK
1.260889980000000,0,0x5D,0x24,Read,ACK
1.260912600000000,0,0x5D,0x8C,Read,ACK
1.260935420000000,0,0x5D,0x01,Read,ACK
1.260957060000000,0,0x5D,0x00,Read,ACK
1.260979000000000,0,0x5D,0x00,Read,ACK
1.261000520000000,0,0x5D,0x00,Read,ACK
1.261022060000000,0,0x5D,0x00,Read,ACK
1.261044700000000,0,0x5D,0x00,Read,ACK
1.261066200000000,0,0x5D,0x00,Read,ACK
1.261088500000000,0,0x5D,0x00,Read,ACK
1.261111620000000,0,0x5D,0x00,Read,ACK
1.261133120000000,0,0x5D,0x00,Read,ACK
1.261154640000000,0,0x5D,0x00,Read,ACK
1.261176120000000,0,0x5D,0x00,Read,ACK
1.261197660000000,0,0x5D,0x00,Read,ACK
1.261219200000000,0,0x5D,0x00,Read,ACK
1.261240720000000,0,0x5D,0x00,Read,ACK
1.261262340000000,0,0x5D,0x00,Read,ACK
1.261285720000000,0,0x5D,0x00,Read,ACK
1.261307260000000,0,0x5D,0x00,Read,ACK
1.261329200000000,0,0x5D,0x00,Read,NAK
1.267026560000000,0,0x5D,0x2F,Read,ACK
1.267051640000000,0,0x5D,0x00,Read,ACK
1.267073160000000,0,0x5D,0x04,Read,ACK
1.267097240000000,0,0x5D,0x03,Read,ACK
1.267118740000000,0,0x5D,0x00,Read,ACK
1.267140280000000,0,0x5D,0x00,Read,ACK
1.267161820000000,0,0x5D,0x97,Read,ACK
1.267183340000000,0,0x5D,0x02,Read,ACK
1.267204880000000,0,0x5D,0x01,Read,ACK
1.267226440000000,0,0x5D,0x04,Read,ACK
1.267247940000000,0,0x5D,0x20,Read,ACK
1.267269480000000,0,0x5D,0x00,Read,ACK
1.267290960000000,0,0x5D,0x00,Read,ACK
1.267312440000000,0,0x5D,0x00,Read,ACK
1.267335180000000,0,0x5D,0x00,Read,ACK
1.267356720000000,0,0x5D,0x00,Read,ACK
1.267378240000000,0,0x5D,0x00,Read,ACK
1.267399740000000,0,0x5D,0x00,Read,ACK
1.267421220000000,0,0x5D,0x00,Read,ACK
1.267442960000000,0,0x5D,0x00,Read,ACK
1.267464500000000,0,0x5D,0x00,Read,ACK
1.267486060000000,0,0x5D,0x00,Read,ACK
1.267508820000000,0,0x5D,0x00,Read,ACK
1.267530340000000,0,0x5D,0x00,Read,ACK
1.267551820000000,0,0x5D,0x00,Read,ACK
1.267573360000000,0,0x5D,0x00,Read,ACK
1.267595360000000,0,0x5D,0x00,Read,ACK
1.267616860000000,0,0x5D,0x00,Read,ACK
1.267638340000000,0,0x5D,0x00,Read,ACK
1.267659860000000,0,0x5D,0x00,Read,ACK
1.267681400000000,0,0x5D,0x00,Read,ACK
1.267702920000000,0,0x5D,0x00,Read,ACK
1.267724480000000,0,0x5D,0x00,Read,ACK
1.267746000000000,0,0x5D,0x00,Read,ACK
1.267767460000000,0,0x5D,0x00,Read,ACK
1.267788960000000,0,0x5D,0x00,Read,ACK
1.267810560000000,0,0x5D,0x00,Read,ACK
1.267832100000000,0,0x5D,0x00,Read,ACK
1.267853620000000,0,0x5D,0x00,Read,ACK
1.267875140000000,0,0x5D,0x00,Read,ACK
1.267896620000000,0,0x5D,0x00,Read,ACK
1.267918120000000,0,0x5D,0x00,Read,ACK
1.267939620000000,0,0x5D,0x00,Read,ACK
1.267962060000000,0,0x5D,0x6A,Read,ACK
1.267985520000000,0,0x5D,0x8C,Read,ACK
1.268007040000000,0,0x5D,0x01,Read,ACK
1.268028680000000,0,0x5D,0x00,Read,ACK
1.268050460000000,0,0x5D,0x00,Read,ACK
1.268072820000000,0,0x5D,0x00,Read,ACK
1.268094920000000,0,0x5D,0x00,Read,ACK
1.268116400000000,0,0x5D,0x00,Read,ACK
1.268137940000000,0,0x5D,0x00,Read,ACK
1.268159800000000,0,0x5D,0x00,Read,ACK
1.268181380000000,0,0x5D,0x00,Read,ACK
1.268203120000000,0,0x5D,0x00,Read,ACK
1.268224660000000,0,0x5D,0x00,Read,ACK
1.268246720000000,0,0x5D,0x00,Read,ACK
1.268268500000000,0,0x5D,0x00,Read,ACK
1.268290000000000,0,0x5D,0x00,Read,ACK
1.268311520000000,0,0x5D,0x00,Read,ACK
1.268333320000000,0,0x5D,0x00,Read,ACK
1.268354780000000,0,0x5D,0x00,Read,ACK
1.268376280000000,0,0x5D,0x00,Read,ACK
1.268397800000000,0,0x5D,0x00,Read,NAK
1.274498480000000,0,0x5D,0x2F,Read,ACK
1.274522900000000,0,0x5D,0x00,Read,ACK
1.274544380000000,0,0x5D,0x04,Read,ACK
1.274565920000000,0,0x5D,0x03,Read,ACK
1.274587400000000,0,0x5D,0x00,Read,ACK
1.274609060000000,0,0x5D,0x00,Read,ACK
1.274631720000000,0,0x5D,0x97,Read,ACK
1.274653200000000,0,0x5D,0x02,Read,ACK
1.274674740000000,0,0x5D,0x01,Read,ACK
1.274696300000000,0,0x5D,0x04,Read,ACK
1.274717820000000,0,0x5D,0x20,Read,ACK
1.274740840000000,0,0x5D,0x00,Read,ACK
1.274762440000000,0,0x5D,0x00,Read,ACK
1.274783960000000,0,0x5D,0x00,Read,ACK
1.274805640000000,0,0x5D,0x00,Read,ACK
1.274827160000000,0,0x5D,0x00,Read,ACK
1.274848640000000,0,0x5D,0x00,Read,ACK
1.274870240000000,0,0x5D,0x00,Read,ACK
1.274891760000000,0,0x5D,0x00,Read,ACK
1.274913300000000,0,0x5D,0x00,Read,ACK
1.274934840000000,0,0x5D,0x00,Read,ACK
1.274956320000000,0,0x5D,0x00,Read,ACK
1.274977840000000,0,0x5D,0x00,Read,ACK
1.274999380000000,0,0x5D,0x00,Read,ACK
1.275020860000000,0,0x5D,0x00,Read,ACK
1.275042400000000,0,0x5D,0x00,Read,ACK
1.275064140000000,0,0x5D,0x00,Read,ACK
1.275085960000000,0,0x5D,0x00,Read,ACK
1.275108240000000,0,0x5D,0x00,Read,ACK
1.275131100000000,0,0x5D,0x00,Read,ACK
1.275153900000000,0,0x5D,0x00,Read,ACK
1.275175460000000,0,0x5D,0x00,Read,ACK
1.275196940000000,0,0x5D,0x00,Read,ACK
1.275218420000000,0,0x5D,0x00,Read,ACK
1.275240400000000,0,0x5D,0x00,Read,ACK
1.275261920000000,0,0x5D,0x00,Read,ACK
1.275283840000000,0,0x5D,0x00,Read,ACK
1.275305900000000,0,0x5D,0x00,Read,ACK
1.275327480000000,0,0x5D,0x00,Read,ACK
1.275349000000000,0,0x5D,0x00,Read,ACK
1.275372020000000,0,0x5D,0x00,Read,ACK
1.275393940000000,0,0x5D,0x00,Read,ACK
1.275415520000000,0,0x5D,0x00,Read,ACK
1.275437040000000,0,0x5D,0xB0,Read,ACK
1.275458960000000,0,0x5D,0x8C,Read,ACK
1.275480960000000,0,0x5D,0x01,Read,ACK
1.275503780000000,0,0x5D,0x00,Read,ACK
1.275525300000000,0,0x5D,0x00,Read,ACK
1.275546880000000,0,0x5D,0x00,Read,ACK
1.275569280000000,0,0x5D,0x00,Read,ACK
1.275590780000000,0,0x5D,0x00,Read,ACK
1.275612320000000,0,0x5D,0x00,Read,ACK
1.275634920000000,0,0x5D,0x00,Read,ACK
1.275657980000000,0,0x5D,0x00,Read,ACK
1.275679660000000,0,0x5D,0x00,Read,ACK
1.275701360000000,0,0x5D,0x00,Read,ACK
1.275723560000000,0,0x5D,0x00,Read,ACK
1.275745260000000,0,0x5D,0x00,Read,ACK
1.275766800000000,0,0x5D,0x00,Read,ACK
1.275789080000000,0,0x5D,0x00,Read,ACK
1.275810760000000,0,0x5D,0x00,Read,ACK
1.275833580000000,0,0x5D,0x00,Read,ACK
1.275855440000000,0,0x5D,0x00,Read,ACK
1.275878160000000,0,0x5D,0x00,Read,NAK
1.281255480000000,0,0x5D,0x2F,Read,ACK
1.281279600000000,0,0x5D,0x00,Read,ACK
1.281301100000000,0,0x5D,0x04,Read,ACK
1.281323060000000,0,0x5D,0x03,Read,ACK
1.281345720000000,0,0x5D,0x00,Read,ACK
1.281369260000000,0,0x5D,0x00,Read,ACK
1.281390800000000,0,0x5D,0x97,Read,ACK
1.281412280000000,0,0x5D,0x02,Read,ACK
1.281433740000000,0,0x5D,0x01,Read,ACK
1.281455240000000,0,0x5D,0x04,Read,ACK
1.281476760000000,0,0x5D,0x20,Read,ACK
1.281498220000000,0,0x5D,0x00,Read,ACK
1.281519700000000,0,0x5D,0x00,Read,ACK
1.281541240000000,0,0x5D,0x00,Read,ACK
1.281562720000000,0,0x5D,0x00,Read,ACK
1.281584260000000,0,0x5D,0x00,Read,ACK
1.281605780000000,0,0x5D,0x00,Read,ACK
1.281627260000000,0,0x5D,0x00,Read,ACK
1.281648820000000,0,0x5D,0x00,Read,ACK
1.281670980000000,0,0x5D,0x00,Read,ACK
1.281692480000000,0,0x5D,0x00,Read,ACK
1.281713980000000,0,0x5D,0x00,Read,ACK
1.281735500000000,0,0x5D,0x00,Read,ACK
1.281757200000000,0,0x5D,0x00,Read,ACK
1.281778680000000,0,0x5D,0x00,Read,ACK
1.281800180000000,0,0x5D,0x00,Read,ACK
1.281821700000000,0,0x5D,0x00,Read,ACK
1.281843180000000,0,0x5D,0x00,Read,ACK
1.281864880000000,0,0x5D,0x00,Read,ACK
1.281886380000000,0,0x5D,0x00,Read,ACK
1.281908420000000,0,0x5D,0x00,Read,ACK
1.281930160000000,0,0x5D,0x00,Read,ACK
1.281951660000000,0,0x5D,0x00,Read,ACK
1.281973380000000,0,0x5D,0x00,Read,ACK
1.281994920000000,0,0x5D,0x00,Read,ACK
1.282016460000000,0,0x5D,0x00,Read,ACK
1.282038040000000,0,0x5D,0x00,Read,ACK
1.282059520000000,0,0x5D,0x00,Read,ACK
1.282081020000000,0,0x5D,0x00,Read,ACK
1.282102540000000,0,0x5D,0x00,Read,ACK
1.282124060000000,0,0x5D,0x00,Read,ACK
1.282145540000000,0,0x5D,0x00,Read,ACK
1.282167000000000,0,0x5D,0x00,Read,ACK
1.282188720000000,0,0x5D,0xF6,Read,ACK
1.282210320000000,0,0x5D,0x8C,Read,ACK
1.282231820000000,0,0x5D,0x01,Read,ACK
1.282256400000000,0,0x5D,0x00,Read,ACK
1.282278840000000,0,0x5D,0x00,Read,ACK
1.282300340000000,0,0x5D,0x00,Read,ACK
1.282322000000000,0,0x5D,0x00,Read,ACK
1.282343780000000,0,0x5D,0x00,Read,ACK
1.282365560000000,0,0x5D,0x00,Read,ACK
1.282387040000000,0,0x5D,0x00,Read,ACK
1.282408620000000,0,0x5D,0x00,Read,ACK
1.282430120000000,0,0x5D,0x00,Read,ACK
1.282452120000000,0,0x5D,0x00,Read,ACK
1.282474100000000,0,0x5D,0x00,Read,ACK
1.282496020000000,0,0x5D,0x00,Read,ACK
1.282517560000000,0,0x5D,0x00,Read,ACK
1.282539100000000,0,0x5D,0x00,Read,ACK
1.282560680000000,0,0x5D,0x00,Read,ACK
1.282582160000000,0,0x5D,0x00,Read,ACK
1.282603700000000,0,0x5D,0x00,Read,ACK
1.282625660000000,0,0x5D,0x00,Read,NAK
1.288418280000000,0,0x5D,0x2F,Read,ACK
1.288441200000000,0,0x5D,0x00,Read,ACK
1.288462920000000,0,0x5D,0x04,Read,ACK
1.288484900000000,0,0x5D,0x03,Read,ACK
1.288506920000000,0,0x5D,0x00,Read,ACK
1.288528720000000,0,0x5D,0x00,Read,ACK
1.288550200000000,0,0x5D,0x97,Read,ACK
1.288571680000000,0,0x5D,0x02,Read,ACK
1.288593160000000,0,0x5D,0x01,Read,ACK
1.288614680000000,0,0x5D,0x04,Read,ACK
1.288636220000000,0,0x5D,0x20,Read,ACK
1.288657760000000,0,0x5D,0x00,Read,ACK
1.288679220000000,0,0x5D,0x00,Read,ACK
1.288700760000000,0,0x5D,0x00,Read,ACK
1.288722240000000,0,0x5D,0x00,Read,ACK
1.288743800000000,0,0x5D,0x00,Read,ACK
1.288765320000000,0,0x5D,0x00,Read,ACK
1.288786860000000,0,0x5D,0x00,Read,ACK
1.288809460000000,0,0x5D,0x00,Read,ACK
1.288833060000000,0,0x5D,0x00,Read,ACK
1.288854580000000,0,0x5D,0x00,Read,ACK
1.288876060000000,0,0x5D,0x00,Read,ACK
1.288897600000000,0,0x5D,0x00,Read,ACK
1.288919140000000,0,0x5D,0x00,Read,ACK
1.288940660000000,0,0x5D,0x00,Read,ACK
1.288962140000000,0,0x5D,0x00,Read,ACK
1.288983660000000,0,0x5D,0x00,Read,ACK
1.289005140000000,0,0x5D,0x00,Read,ACK
1.289026640000000,0,0x5D,0x00,Read,ACK
1.289048180000000,0,0x5D,0x00,Read,ACK
1.289070040000000,0,0x5D,0x00,Read,ACK
1.289091620000000,0,0x5D,0x00,Read,ACK
1.289113140000000,0,0x5D,0x00,Read,ACK
1.289134700000000,0,0x5D,0x00,Read,ACK
1.289156220000000,0,0x5D,0x00,Read,ACK
1.289177740000000,0,0x5D,0x00,Read,ACK
1.289199220000000,0,0x5D,0x00,Read,ACK
1.289220700000000,0,0x5D,0x00,Read,ACK
1.289242160000000,0,0x5D,0x00,Read,ACK
1.289263640000000,0,0x5D,0x00,Read,ACK
1.289285200000000,0,0x5D,0x00,Read,ACK
1.289306720000000,0,0x5D,0x00,Read,ACK
1.289328240000000,0,0x5D,0x00,Read,ACK
1.289349780000000,0,0x5D,0x3C,Read,ACK
1.289371700000000,0,0x5D,0x8D,Read,ACK
1.289393220000000,0,0x5D,0x01,Read,ACK
1.289414780000000,0,0x5D,0x00,Read,ACK
1.289440000000000,0,0x5D,0x00,Read,ACK
1.289461700000000,0,0x5D,0x00,Read,ACK
1.289483160000000,0,0x5D,0x00,Read,ACK
1.289505060000000,0,0x5D,0x00,Read,ACK
1.289526860000000,0,0x5D,0x00,Read,ACK
1.289548400000000,0,0x5D,0x00,Read,ACK
1.289569940000000,0,0x5D,0x00,Read,ACK
1.289591460000000,0,0x5D,0x00,Read,ACK
1.289614300000000,0,0x5D,0x00,Read,ACK
1.289635780000000,0,0x5D,0x00,Read,ACK
1.289658440000000,0,0x5D,0x00,Read,ACK
1.289681140000000,0,0x5D,0x00,Read,ACK
1.289703920000000,0,0x5D,0x00,Read,ACK
1.289725420000000,0,0x5D,0x00,Read,ACK
1.289747020000000,0,0x5D,0x00,Read,ACK
1.289768580000000,0,0x5D,0x00,Read,ACK
1.289790440000000,0,0x5D,0x00,Read,NAK
1.295475100000000,0,0x5D,0x17,Read,NAK
1.295508160000000,0,0x5D,0x00,Read,ACK
1.295530940000000,0,0x5D,0x02,Read,ACK
1.295552480000000,0,0x5D,0x01,Read,NAK
1.295573940000000,0,0x5D,0x00,Read,ACK
1.295596800000000,0,0x5D,0x00,Read,ACK
1.295618260000000,0,0x5D,0x4B,Read,NAK
1.295640620000000,0,0x5D,0x01,Read,ACK
1.295663020000000,0,0x5D,0x00,Read,NAK
1.295684560000000,0,0x5D,0x02,Read,ACK
1.295707360000000,0,0x5D,0x10,Read,ACK
1.295728820000000,0,0x5D,0x00,Read,ACK
1.295750300000000,0,0x5D,0x00,Read,ACK
1.295771760000000,0,0x5D,0x00,Read,ACK
1.295793240000000,0,0x5D,0x00,Read,ACK
1.295814720000000,0,0x5D,0x00,Read,ACK
1.295836240000000,0,0x5D,0x00,Read,ACK
1.295857780000000,0,0x5D,0x00,Read,ACK
1.295879260000000,0,0x5D,0x00,Read,ACK
1.295900740000000,0,0x5D,0x00,Read,ACK
1.295922260000000,0,0x5D,0x00,Read,ACK
1.295943800000000,0,0x5D,0x00,Read,ACK
1.295966020000000,0,0x5D,0x00,Read,ACK
1.295989620000000,0,0x5D,0x00,Read,ACK
1.296011100000000,0,0x5D,0x00,Read,ACK
1.296032580000000,0,0x5D,0x00,Read,ACK
1.296054040000000,0,0x5D,0x00,Read,ACK
1.296075520000000,0,0x5D,0x00,Read,ACK
1.296097000000000,0,0x5D,0x00,Read,ACK
1.296118460000000,0,0x5D,0x00,Read,ACK
1.296140200000000,0,0x5D,0x00,Read,ACK
1.296162540000000,0,0x5D,0x00,Read,ACK
1.296184940000000,0,0x5D,0x00,Read,ACK
1.296206480000000,0,0x5D,0x00,Read,ACK
1.296228340000000,0,0x5D,0x00,Read,ACK
1.296249800000000,0,0x5D,0x00,Read,ACK
1.296271400000000,0,0x5D,0x00,Read,ACK
1.296292940000000,0,0x5D,0x00,Read,ACK
1.296314400000000,0,0x5D,0x00,Read,ACK
1.296335940000000,0,0x5D,0x00,Read,ACK
1.296357660000000,0,0x5D,0x00,Read,ACK
1.296379200000000,0,0x5D,0x00,Read,ACK
1.296400680000000,0,0x5D,0x00,Read,ACK
1.296422140000000,0,0x5D,0x41,Read,ACK
1.296443680000000,0,0x5D,0x46,Read,NAK
1.296465220000000,0,0x5D,0x00,Read,NAK
1.296486740000000,0,0x5D,0x00,Read,ACK
1.296508280000000,0,0x5D,0x00,Read,ACK
1.296529820000000,0,0x5D,0x00,Read,ACK
1.296551360000000,0,0x5D,0x00,Read,ACK
1.296572880000000,0,0x5D,0x00,Read,ACK
1.296594600000000,0,0x5D,0x00,Read,ACK
1.296617020000000,0,0x5D,0x00,Read,ACK
1.296638540000000,0,0x5D,0x00,Read,ACK
1.296660280000000,0,0x5D,0x00,Read,ACK
1.296683060000000,0,0x5D,0x00,Read,ACK
1.296704600000000,0,0x5D,0x00,Read,ACK
1.296726140000000,0,0x5D,0x00,Read,ACK
1.296747720000000,0,0x5D,0x00,Read,ACK
1.296769200000000,0,0x5D,0x00,Read,ACK
1.296790920000000,0,0x5D,0x00,Read,ACK
1.296812460000000,0,0x5D,0x00,Read,ACK
1.296834740000000,0,0x5D,0x00,Read,ACK
1.296857280000000,0,0x5D,0x00,Read,ACK
1.302631460000000,0,0x5D,0x2F,Read,ACK
1.302655120000000,0,0x5D,0x00,Read,ACK
1.302676620000000,0,0x5D,0x04,Read,ACK
1.302698240000000,0,0x5D,0x03,Read,ACK
1.302719740000000,0,0x5D,0x00,Read,ACK
1.302741300000000,0,0x5D,0x00,Read,ACK
1.302764000000000,0,0x5D,0x97,Read,ACK
1.302785680000000,0,0x5D,0x02,Read,ACK
1.302809120000000,0,0x5D,0x01,Read,ACK
1.302830620000000,0,0x5D,0x04,Read,ACK
1.302852160000000,0,0x5D,0x20,Read,ACK
1.302873620000000,0,0x5D,0x00,Read,ACK
1.302895080000000,0,0x5D,0x00,Read,ACK
1.302916580000000,0,0x5D,0x00,Read,ACK
1.302938040000000,0,0x5D,0x00,Read,ACK
1.302959580000000,0,0x5D,0x00,Read,ACK
1.302981080000000,0,0x5D,0x00,Read,ACK
1.303002600000000,0,0x5D,0x00,Read,ACK
1.303024060000000,0,0x5D,0x00,Read,ACK
1.303045540000000,0,0x5D,0x00,Read,ACK
1.303067100000000,0,0x5D,0x00,Read,ACK
1.303089760000000,0,0x5D,0x00,Read,ACK
1.303111280000000,0,0x5D,0x00,Read,ACK
1.303132760000000,0,0x5D,0x00,Read,ACK
1.303154280000000,0,0x5D,0x00,Read,ACK
1.303176160000000,0,0x5D,0x00,Read,ACK
1.303197860000000,0,0x5D,0x00,Read,ACK
1.303219400000000,0,0x5D,0x00,Read,ACK
1.303240920000000,0,0x5D,0x00,Read,ACK
1.303262420000000,0,0x5D,0x00,Read,ACK
1.303283960000000,0,0x5D,0x00,Read,ACK
1.303306500000000,0,0x5D,0x00,Read,ACK
1.303328540000000,0,0x5D,0x00,Read,ACK
1.303350160000000,0,0x5D,0x00,Read,ACK
1.303371760000000,0,0x5D,0x00,Read,ACK
1.303393240000000,0,0x5D,0x00,Read,ACK
1.303414800000000,0,0x5D,0x00,Read,ACK
1.303436620000000,0,0x5D,0x00,Read,ACK
1.303458180000000,0,0x5D,0x00,Read,ACK
1.303479640000000,0,0x5D,0x00,Read,ACK
1.303501120000000,0,0x5D,0x00,Read,ACK
1.303522660000000,0,0x5D,0x00,Read,ACK
1.303545220000000,0,0x5D,0x00,Read,ACK
1.303566720000000,0,0x5D,0xC8,Read,ACK
1.303588220000000,0,0x5D,0x8D,Read,ACK
1.303609720000000,0,0x5D,0x01,Read,ACK
1.303631260000000,0,0x5D,0x00,Read,ACK
1.303652740000000,0,0x5D,0x00,Read,ACK
1.303674280000000,0,0x5D,0x00,Read,ACK
1.303695800000000,0,0x5D,0x00,Read,ACK
1.303719060000000,0,0x5D,0x00,Read,ACK
1.303740560000000,0,0x5D,0x00,Read,ACK
1.303762980000000,0,0x5D,0x00,Read,ACK
1.303785220000000,0,0x5D,0x00,Read,ACK
1.303806740000000,0,0x5D,0x00,Read,ACK
1.303828280000000,0,0x5D,0x00,Read,ACK
1.303850120000000,0,0x5D,0x00,Read,ACK
1.303871620000000,0,0x5D,0x00,Read,ACK
1.303893140000000,0,0x5D,0x00,Read,ACK
1.303914660000000,0,0x5D,0x00,Read,ACK
1.303936480000000,0,0x5D,0x00,Read,ACK
1.303958520000000,0,0x5D,0x00,Read,ACK
1.303981240000000,0,0x5D,0x00,Read,ACK
1.304003160000000,0,0x5D,0x00,Read,NAK
1.309863940000000,0,0x5D,0x2F,Read,ACK
1.309888780000000,0,0x5D,0x00,Read,ACK
1.309910280000000,0,0x5D,0x04,Read,ACK
1.309933300000000,0,0x5D,0x03,Read,ACK
1.309954860000000,0,0x5D,0x00,Read,ACK
1.309976880000000,0,0x5D,0x00,Read,ACK
1.309998360000000,0,0x5D,0x97,Read,ACK
1.310019840000000,0,0x5D,0x02,Read,ACK
1.310041380000000,0,0x5D,0x01,Read,ACK
1.310062900000000,0,0x5D,0x04,Read,ACK
1.310084460000000,0,0x5D,0x20,Read,ACK
1.310105980000000,0,0x5D,0x00,Read,ACK
1.310127520000000,0,0x5D,0x00,Read,ACK
1.310149040000000,0,0x5D,0x00,Read,ACK
1.310170520000000,0,0x5D,0x00,Read,ACK
1.310192040000000,0,0x5D,0x00,Read,ACK
1.310213580000000,0,0x5D,0x00,Read,ACK
1.310235260000000,0,0x5D,0x00,Read,ACK
1.310257760000000,0,0x5D,0x00,Read,ACK
1.310279260000000,0,0x5D,0x00,Read,ACK
1.310302080000000,0,0x5D,0x00,Read,ACK
1.310323600000000,0,0x5D,0x00,Read,ACK
1.310345840000000,0,0x5D,0x00,Read,ACK
1.310367520000000,0,0x5D,0x00,Read,ACK
1.310389080000000,0,0x5D,0x00,Read,ACK
1.310410620000000,0,0x5D,0x00,Read,ACK
1.310432140000000,0,0x5D,0x00,Read,ACK
1.310453660000000,0,0x5D,0x00,Read,ACK
1.310476460000000,0,0x5D,0x00,Read,ACK
1.310498240000000,0,0x5D,0x00,Read,ACK
1.310520020000000,0,0x5D,0x00,Read,ACK
1.310541540000000,0,0x5D,0x00,Read,ACK
1.310563020000000,0,0x5D,0x00,Read,ACK
1.310584560000000,0,0x5D,0x00,Read,ACK
1.310606020000000,0,0x5D,0x00,Read,ACK
1.310627500000000,0,0x5D,0x00,Read,ACK
1.310648980000000,0,0x5D,0x00,Read,ACK
1.310670520000000,0,0x5D,0x00,Read,ACK
1.310692060000000,0,0x5D,0x00,Read,ACK
1.310713580000000,0,0x5D,0x00,Read,ACK
1.310735060000000,0,0x5D,0x00,Read,ACK
1.310756600000000,0,0x5D,0x00,Read,ACK
1.310778120000000,0,0x5D,0x00,Read,ACK
1.310799640000000,0,0x5D,0x0E,Read,ACK
1.310821140000000,0,0x5D,0x8E,Read,ACK
1.310842620000000,0,0x5D,0x01,Read,ACK
1.310864140000000,0,0x5D,0x00,Read,ACK
1.310885880000000,0,0x5D,0x00,Read,ACK
1.310907360000000,0,0x5D,0x00,Read,ACK
1.310929680000000,0,0x5D,0x00,Read,ACK
1.310952020000000,0,0x5D,0x00,Read,ACK
1.310974240000000,0,0x5D,0x00,Read,ACK
1.310995760000000,0,0x5D,0x00,Read,ACK
1.311017700000000,0,0x5D,0x00,Read,ACK
1.311039200000000,0,0x5D,0x00,Read,ACK
1.311060720000000,0,0x5D,0x00,Read,ACK
1.311082200000000,0,0x5D,0x00,Read,ACK
1.311104020000000,0,0x5D,0x00,Read,ACK
1.311126600000000,0,0x5D,0x00,Read,ACK
1.311148120000000,0,0x5D,0x00,Read,ACK
1.311169580000000,0,0x5D,0x00,Read,ACK
1.311192300000000,0,0x5D,0x00,Read,ACK
1.311213800000000,0,0x5D,0x00,Read,ACK
1.311235320000000,0,0x5D,0x00,Read,NAK
