Time [s],Packet ID,Address,Data,Read/Write,ACK/NAK
5.017341156250000,0,0x5D,0x2F,Read,ACK
5.017372406250000,0,0x5D,0x00,Read,ACK
5.017393875000000,0,0x5D,0x04,Read,ACK
5.017415343750000,0,0x5D,0x03,Read,ACK
5.017436812500000,0,0x5D,0x04,Read,ACK
5.017458281250000,0,0x5D,0x08,Read,ACK
5.017479750000000,0,0x5D,0x49,Read,ACK
5.017502500000000,0,0x5D,0x06,Read,ACK
5.017527125000000,0,0x5D,0x03,Read,ACK
5.017549937500000,0,0x5D,0x02,Read,ACK
5.017571406250000,0,0x5D,0x20,Read,ACK
5.017592875000000,0,0x5D,0x00,Read,ACK
5.017614343750000,0,0x5D,0x00,Read,ACK
5.017635812500000,0,0x5D,0x00,Read,ACK
5.017657312500000,0,0x5D,0x00,Read,ACK
5.017678750000000,0,0x5D,0x00,Read,ACK
5.017700218750000,0,0x5D,0x00,Read,ACK
5.017721656250000,0,0x5D,0x00,Read,ACK
5.017743156250000,0,0x5D,0x00,Read,ACK
5.017766031250000,0,0x5D,0x00,Read,ACK
5.017787937500000,0,0x5D,0x00,Read,ACK
5.017809406250000,0,0x5D,0x00,Read,ACK
5.017830875000000,0,0x5D,0x00,Read,ACK
5.017852343750000,0,0x5D,0x00,Read,ACK
5.017874281250000,0,0x5D,0x00,Read,ACK
5.017895781250000,0,0x5D,0x00,Read,ACK
5.017917250000000,0,0x5D,0x00,Read,ACK
5.017938718750000,0,0x5D,0x00,Read,ACK
5.017960156250000,0,0x5D,0x00,Read,ACK
5.017981656250000,0,0x5D,0x00,Read,ACK
5.018003187500000,0,0x5D,0x00,Read,ACK
5.018024687500000,0,0x5D,0x00,Read,ACK
5.018046156250000,0,0x5D,0x00,Read,ACK
5.018067625000000,0,0x5D,0x00,Read,ACK
5.018089062500000,0,0x5D,0x00,Read,ACK
5.018110562500000,0,0x5D,0x00,Read,ACK
5.018132031250000,0,0x5D,0x00,Read,ACK
5.018153500000000,0,0x5D,0x00,Read,ACK
5.018175218750000,0,0x5D,0x00,Read,ACK
5.018196656250000,0,0x5D,0x00,Read,ACK
5.018218125000000,0,0x5D,0x00,Read,ACK
5.018239625000000,0,0x5D,0x00,Read,ACK
5.018261093750000,0,0x5D,0x00,Read,ACK
5.018282656250000,0,0x5D,0x94,Read,ACK
5.018304156250000,0,0x5D,0x7A,Read,ACK
5.018325593750000,0,0x5D,0x01,Read,ACK
5.018347062500000,0,0x5D,0x01,Read,ACK
5.018368531250000,0,0x5D,0x00,Read,ACK
5.018390000000000,0,0x5D,0x00,Read,ACK
5.018411468750000,0,0x5D,0x00,Read,ACK
5.018432937500000,0,0x5D,0x00,Read,ACK
5.018454437500000,0,0x5D,0x00,Read,ACK
5.018476281250000,0,0x5D,0x00,Read,ACK
5.018497750000000,0,0x5D,0x00,Read,ACK
5.018519218750000,0,0x5D,0x00,Read,ACK
5.018540875000000,0,0x5D,0x00,Read,ACK
5.018563031250000,0,0x5D,0x00,Read,ACK
5.018584500000000,0,0x5D,0x00,Read,ACK
5.018605968750000,0,0x5D,0x00,Read,ACK
5.018627437500000,0,0x5D,0x00,Read,ACK
5.018648906250000,0,0x5D,0x00,Read,ACK
5.018670375000000,0,0x5D,0x00,Read,ACK
5.018691843750000,0,0x5D,0x00,Read,ACK
5.018713312500000,0,0x5D,0x00,Read,NAK
5.024628812500000,0,0x5D,0x2F,Read,ACK
5.024657093750000,0,0x5D,0x00,Read,ACK
5.024678593750000,0,0x5D,0x04,Read,ACK
5.024700031250000,0,0x5D,0x03,Read,ACK
5.024721500000000,0,0x5D,0x04,Read,ACK
5.024743000000000,0,0x5D,0x08,Read,ACK
5.024764468750000,0,0x5D,0x49,Read,ACK
5.024785937500000,0,0x5D,0x06,Read,ACK
5.024807375000000,0,0x5D,0x03,Read,ACK
5.024828843750000,0,0x5D,0x03,Read,ACK
5.024851843750000,0,0x5D,0x20,Read,ACK
5.024874437500000,0,0x5D,0x00,Read,ACK
5.024895875000000,0,0x5D,0x00,Read,ACK
5.024917343750000,0,0x5D,0x00,Read,ACK
5.024938812500000,0,0x5D,0x00,Read,ACK
5.024960281250000,0,0x5D,0x00,Read,ACK
5.024981750000000,0,0x5D,0x00,Read,ACK
5.025003218750000,0,0x5D,0x00,Read,ACK
5.025024687500000,0,0x5D,0x00,Read,ACK
5.025046156250000,0,0x5D,0x00,Read,ACK
5.025067625000000,0,0x5D,0x00,Read,ACK
5.025089312500000,0,0x5D,0x00,Read,ACK
5.025110750000000,0,0x5D,0x00,Read,ACK
5.025132218750000,0,0x5D,0x00,Read,ACK
5.025153656250000,0,0x5D,0x00,Read,ACK
5.025175125000000,0,0x5D,0x00,Read,ACK
5.025196593750000,0,0x5D,0x00,Read,ACK
5.025218093750000,0,0x5D,0x00,Read,ACK
5.025239531250000,0,0x5D,0x00,Read,ACK
5.025261000000000,0,0x5D,0x00,Read,ACK
5.025282468750000,0,0x5D,0x00,Read,ACK
5.025304031250000,0,0x5D,0x00,Read,ACK
5.025325468750000,0,0x5D,0x00,Read,ACK
5.025346937500000,0,0x5D,0x00,Read,ACK
5.025368625000000,0,0x5D,0x00,Read,ACK
5.025390125000000,0,0x5D,0x00,Read,ACK
5.025411593750000,0,0x5D,0x00,Read,ACK
5.025433062500000,0,0x5D,0x00,Read,ACK
5.025454562500000,0,0x5D,0x00,Read,ACK
5.025476062500000,0,0x5D,0x00,Read,ACK
5.025497531250000,0,0x5D,0x00,Read,ACK
5.025518968750000,0,0x5D,0x00,Read,ACK
5.025540437500000,0,0x5D,0x00,Read,ACK
5.025561937500000,0,0x5D,0xDA,Read,ACK
5.025583375000000,0,0x5D,0x7A,Read,ACK
5.025604843750000,0,0x5D,0x01,Read,ACK
5.025626312500000,0,0x5D,0x01,Read,ACK
5.025647812500000,0,0x5D,0x00,Read,ACK
5.025669281250000,0,0x5D,0x00,Read,ACK
5.025690718750000,0,0x5D,0x00,Read,ACK
5.025712218750000,0,0x5D,0x00,Read,ACK
5.025733812500000,0,0x5D,0x00,Read,ACK
5.025755281250000,0,0x5D,0x00,Read,ACK
5.025776718750000,0,0x5D,0x00,Read,ACK
5.025798218750000,0,0x5D,0x00,Read,ACK
5.025819656250000,0,0x5D,0x00,Read,ACK
5.025842343750000,0,0x5D,0x00,Read,ACK
5.025863781250000,0,0x5D,0x00,Read,ACK
5.025885281250000,0,0x5D,0x00,Read,ACK
5.025908250000000,0,0x5D,0x00,Read,ACK
5.025933281250000,0,0x5D,0x00,Read,ACK
5.025955312500000,0,0x5D,0x00,Read,ACK
5.025977593750000,0,0x5D,0x00,Read,ACK
5.025999093750000,0,0x5D,0x00,Read,NAK
5.031595562500000,0,0x5D,0x2F,Read,ACK
5.031622312500000,0,0x5D,0x00,Read,ACK
5.031643781250000,0,0x5D,0x04,Read,ACK
5.031665250000000,0,0x5D,0x03,Read,ACK
5.031686718750000,0,0x5D,0x04,Read,ACK
5.031708218750000,0,0x5D,0x08,Read,ACK
5.031729687500000,0,0x5D,0x49,Read,ACK
5.031751125000000,0,0x5D,0x06,Read,ACK
5.031775093750000,0,0x5D,0x03,Read,ACK
5.031796906250000,0,0x5D,0x03,Read,ACK
5.031820156250000,0,0x5D,0x20,Read,ACK
5.031842375000000,0,0x5D,0x00,Read,ACK
5.031863843750000,0,0x5D,0x00,Read,ACK
5.031885312500000,0,0x5D,0x00,Read,ACK
5.031906781250000,0,0x5D,0x00,Read,ACK
5.031928250000000,0,0x5D,0x00,Read,ACK
5.031949718750000,0,0x5D,0x00,Read,ACK
5.031971187500000,0,0x5D,0x00,Read,ACK
5.031992687500000,0,0x5D,0x00,Read,ACK
5.032014156250000,0,0x5D,0x00,Read,ACK
5.032035843750000,0,0x5D,0x00,Read,ACK
5.032057312500000,0,0x5D,0x00,Read,ACK
5.032078781250000,0,0x5D,0x00,Read,ACK
5.032100250000000,0,0x5D,0x00,Read,ACK
5.032121718750000,0,0x5D,0x00,Read,ACK
5.032144468750000,0,0x5D,0x00,Read,ACK
5.032166156250000,0,0x5D,0x00,Read,ACK
5.032187625000000,0,0x5D,0x00,Read,ACK
5.032209156250000,0,0x5D,0x00,Read,ACK
5.032230625000000,0,0x5D,0x00,Read,ACK
5.032252093750000,0,0x5D,0x00,Read,ACK
5.032273562500000,0,0x5D,0x00,Read,ACK
5.032295031250000,0,0x5D,0x00,Read,ACK
5.032316500000000,0,0x5D,0x00,Read,ACK
5.032337937500000,0,0x5D,0x00,Read,ACK
5.032359437500000,0,0x5D,0x00,Read,ACK
5.032380906250000,0,0x5D,0x00,Read,ACK
5.032402375000000,0,0x5D,0x00,Read,ACK
5.032423843750000,0,0x5D,0x00,Read,ACK
5.032445312500000,0,0x5D,0x00,Read,ACK
5.032466781250000,0,0x5D,0x00,Read,ACK
5.032488500000000,0,0x5D,0x00,Read,ACK
5.032511000000000,0,0x5D,0x00,Read,ACK
5.032532500000000,0,0x5D,0x20,Read,ACK
5.032553937500000,0,0x5D,0x7B,Read,ACK
5.032575437500000,0,0x5D,0x01,Read,ACK
5.032596875000000,0,0x5D,0x01,Read,ACK
5.032618343750000,0,0x5D,0x00,Read,ACK
5.032639843750000,0,0x5D,0x00,Read,ACK
5.032661343750000,0,0x5D,0x00,Read,ACK
5.032682937500000,0,0x5D,0x00,Read,ACK
5.032704406250000,0,0x5D,0x00,Read,ACK
5.032725875000000,0,0x5D,0x00,Read,ACK
5.032747343750000,0,0x5D,0x00,Read,ACK
5.032768812500000,0,0x5D,0x00,Read,ACK
5.032790312500000,0,0x5D,0x00,Read,ACK
5.032811750000000,0,0x5D,0x00,Read,ACK
5.032833437500000,0,0x5D,0x00,Read,ACK
5.032854875000000,0,0x5D,0x00,Read,ACK
5.032876375000000,0,0x5D,0x00,Read,ACK
5.032897812500000,0,0x5D,0x00,Read,ACK
5.032919281250000,0,0x5D,0x00,Read,ACK
5.032940750000000,0,0x5D,0x00,Read,ACK
5.032962218750000,0,0x5D,0x00,Read,NAK
5.038744531250000,0,0x5D,0x2F,Read,ACK
5.038773937500000,0,0x5D,0x00,Read,ACK
5.038796281250000,0,0x5D,0x04,Read,ACK
5.038817750000000,0,0x5D,0x03,Read,ACK
5.038839218750000,0,0x5D,0x02,Read,ACK
5.038860687500000,0,0x5D,0x08,Read,ACK
5.038882156250000,0,0x5D,0x49,Read,ACK
5.038903625000000,0,0x5D,0x06,Read,ACK
5.038926562500000,0,0x5D,0x03,Read,ACK
5.038953312500000,0,0x5D,0x03,Read,ACK
5.038974812500000,0,0x5D,0x20,Read,ACK
5.038996281250000,0,0x5D,0x00,Read,ACK
5.039017750000000,0,0x5D,0x00,Read,ACK
5.039039218750000,0,0x5D,0x00,Read,ACK
5.039060687500000,0,0x5D,0x00,Read,ACK
5.039082156250000,0,0x5D,0x00,Read,ACK
5.039103625000000,0,0x5D,0x00,Read,ACK
5.039125093750000,0,0x5D,0x00,Read,ACK
5.039146531250000,0,0x5D,0x00,Read,ACK
5.039169468750000,0,0x5D,0x00,Read,ACK
5.039191343750000,0,0x5D,0x00,Read,ACK
5.039212812500000,0,0x5D,0x00,Read,ACK
5.039234281250000,0,0x5D,0x00,Read,ACK
5.039255750000000,0,0x5D,0x00,Read,ACK
5.039277218750000,0,0x5D,0x00,Read,ACK
5.039299062500000,0,0x5D,0x00,Read,ACK
5.039320531250000,0,0x5D,0x00,Read,ACK
5.039342000000000,0,0x5D,0x00,Read,ACK
5.039363468750000,0,0x5D,0x00,Read,ACK
5.039384937500000,0,0x5D,0x00,Read,ACK
5.039406406250000,0,0x5D,0x00,Read,ACK
5.039427875000000,0,0x5D,0x00,Read,ACK
5.039449312500000,0,0x5D,0x00,Read,ACK
5.039470812500000,0,0x5D,0x00,Read,ACK
5.039492281250000,0,0x5D,0x00,Read,ACK
5.039513718750000,0,0x5D,0x00,Read,ACK
5.039535187500000,0,0x5D,0x00,Read,ACK
5.039556656250000,0,0x5D,0x00,Read,ACK
5.039578156250000,0,0x5D,0x00,Read,ACK
5.039599625000000,0,0x5D,0x00,Read,ACK
5.039621062500000,0,0x5D,0x00,Read,ACK
5.039642562500000,0,0x5D,0x00,Read,ACK
5.039664031250000,0,0x5D,0x00,Read,ACK
5.039685468750000,0,0x5D,0x66,Read,ACK
5.039706937500000,0,0x5D,0x7B,Read,ACK
5.039728406250000,0,0x5D,0x01,Read,ACK
5.039749875000000,0,0x5D,0x00,Read,ACK
5.039771343750000,0,0x5D,0x00,Read,ACK
5.039792843750000,0,0x5D,0x00,Read,ACK
5.039814406250000,0,0x5D,0x00,Read,ACK
5.039835875000000,0,0x5D,0x00,Read,ACK
5.039857343750000,0,0x5D,0x00,Read,ACK
5.039878812500000,0,0x5D,0x00,Read,ACK
5.039900281250000,0,0x5D,0x00,Read,ACK
5.039921750000000,0,0x5D,0x00,Read,ACK
5.039943218750000,0,0x5D,0x00,Read,ACK
5.039964687500000,0,0x5D,0x00,Read,ACK
5.039986156250000,0,0x5D,0x00,Read,ACK
5.040007625000000,0,0x5D,0x00,Read,ACK
5.040029093750000,0,0x5D,0x00,Read,ACK
5.040050562500000,0,0x5D,0x00,Read,ACK
5.040072000000000,0,0x5D,0x00,Read,ACK
5.040093468750000,0,0x5D,0x00,Read,ACK
5.040115906250000,0,0x5D,0x00,Read,NAK
5.045874031250000,0,0x5D,0x2F,Read,ACK
5.045903187500000,0,0x5D,0x00,Read,ACK
5.045924656250000,0,0x5D,0x04,Read,ACK
5.045946593750000,0,0x5D,0x03,Read,ACK
5.045968093750000,0,0x5D,0xFB,Read,ACK
5.045989562500000,0,0x5D,0x07,Read,ACK
5.046011531250000,0,0x5D,0x49,Read,ACK
5.046033000000000,0,0x5D,0x06,Read,ACK
5.046054468750000,0,0x5D,0x03,Read,ACK
5.046076218750000,0,0x5D,0x03,Read,ACK
5.046099656250000,0,0x5D,0x20,Read,ACK
5.046121156250000,0,0x5D,0x00,Read,ACK
5.046142625000000,0,0x5D,0x00,Read,ACK
5.046164125000000,0,0x5D,0x00,Read,ACK
5.046185593750000,0,0x5D,0x00,Read,ACK
5.046207031250000,0,0x5D,0x00,Read,ACK
5.046228531250000,0,0x5D,0x00,Read,ACK
5.046249968750000,0,0x5D,0x00,Read,ACK
5.046271437500000,0,0x5D,0x00,Read,ACK
5.046292906250000,0,0x5D,0x00,Read,ACK
5.046314375000000,0,0x5D,0x00,Read,ACK
5.046336656250000,0,0x5D,0x00,Read,ACK
5.046358125000000,0,0x5D,0x00,Read,ACK
5.046380000000000,0,0x5D,0x00,Read,ACK
5.046401468750000,0,0x5D,0x00,Read,ACK
5.046424375000000,0,0x5D,0x00,Read,ACK
5.046445843750000,0,0x5D,0x00,Read,ACK
5.046467343750000,0,0x5D,0x00,Read,ACK
5.046488781250000,0,0x5D,0x00,Read,ACK
5.046510250000000,0,0x5D,0x00,Read,ACK
5.046531718750000,0,0x5D,0x00,Read,ACK
5.046553187500000,0,0x5D,0x00,Read,ACK
5.046574656250000,0,0x5D,0x00,Read,ACK
5.046596125000000,0,0x5D,0x00,Read,ACK
5.046617625000000,0,0x5D,0x00,Read,ACK
5.046639093750000,0,0x5D,0x00,Read,ACK
5.046660562500000,0,0x5D,0x00,Read,ACK
5.046682031250000,0,0x5D,0x00,Read,ACK
5.046703500000000,0,0x5D,0x00,Read,ACK
5.046724968750000,0,0x5D,0x00,Read,ACK
5.046746468750000,0,0x5D,0x00,Read,ACK
5.046767968750000,0,0x5D,0x00,Read,ACK
5.046789437500000,0,0x5D,0x00,Read,ACK
5.046810906250000,0,0x5D,0xAC,Read,ACK
5.046832375000000,0,0x5D,0x7B,Read,ACK
5.046853843750000,0,0x5D,0x01,Read,ACK
5.046875281250000,0,0x5D,0x01,Read,ACK
5.046896781250000,0,0x5D,0x00,Read,ACK
5.046918218750000,0,0x5D,0x00,Read,ACK
5.046939687500000,0,0x5D,0x00,Read,ACK
5.046961156250000,0,0x5D,0x00,Read,ACK
5.046982625000000,0,0x5D,0x00,Read,ACK
5.047004562500000,0,0x5D,0x00,Read,ACK
5.047029875000000,0,0x5D,0x00,Read,ACK
5.047051531250000,0,0x5D,0x00,Read,ACK
5.047076156250000,0,0x5D,0x00,Read,ACK
5.047097906250000,0,0x5D,0x00,Read,ACK
5.047119531250000,0,0x5D,0x00,Read,ACK
5.047141000000000,0,0x5D,0x00,Read,ACK
5.047162468750000,0,0x5D,0x00,Read,ACK
5.047183937500000,0,0x5D,0x00,Read,ACK
5.047205406250000,0,0x5D,0x00,Read,ACK
5.047226875000000,0,0x5D,0x00,Read,ACK
5.047250000000000,0,0x5D,0x00,Read,NAK
5.052999218750000,0,0x5D,0x2F,Read,ACK
5.053027500000000,0,0x5D,0x00,Read,ACK
5.053049000000000,0,0x5D,0x04,Read,ACK
5.053070437500000,0,0x5D,0x03,Read,ACK
5.053091906250000,0,0x5D,0xF1,Read,ACK
5.053113406250000,0,0x5D,0x07,Read,ACK
5.053134968750000,0,0x5D,0x49,Read,ACK
5.053156437500000,0,0x5D,0x06,Read,ACK
5.053177906250000,0,0x5D,0x03,Read,ACK
5.053200062500000,0,0x5D,0x03,Read,ACK
5.053221531250000,0,0x5D,0x20,Read,ACK
5.053245281250000,0,0x5D,0x00,Read,ACK
5.053266781250000,0,0x5D,0x00,Read,ACK
5.053288218750000,0,0x5D,0x00,Read,ACK
5.053309687500000,0,0x5D,0x00,Read,ACK
5.053331156250000,0,0x5D,0x00,Read,ACK
5.053352656250000,0,0x5D,0x00,Read,ACK
5.053374093750000,0,0x5D,0x00,Read,ACK
5.053395562500000,0,0x5D,0x00,Read,ACK
5.053417031250000,0,0x5D,0x00,Read,ACK
5.053438500000000,0,0x5D,0x00,Read,ACK
5.053460062500000,0,0x5D,0x00,Read,ACK
5.053481531250000,0,0x5D,0x00,Read,ACK
5.053503281250000,0,0x5D,0x00,Read,ACK
5.053524750000000,0,0x5D,0x00,Read,ACK
5.053546218750000,0,0x5D,0x00,Read,ACK
5.053567750000000,0,0x5D,0x00,Read,ACK
5.053589218750000,0,0x5D,0x00,Read,ACK
5.053610812500000,0,0x5D,0x00,Read,ACK
5.053632593750000,0,0x5D,0x00,Read,ACK
5.053654093750000,0,0x5D,0x00,Read,ACK
5.053675531250000,0,0x5D,0x00,Read,ACK
5.053698906250000,0,0x5D,0x00,Read,ACK
5.053720343750000,0,0x5D,0x00,Read,ACK
5.053741843750000,0,0x5D,0x00,Read,ACK
5.053763406250000,0,0x5D,0x00,Read,ACK
5.053784875000000,0,0x5D,0x00,Read,ACK
5.053806343750000,0,0x5D,0x00,Read,ACK
5.053827812500000,0,0x5D,0x00,Read,ACK
5.053849281250000,0,0x5D,0x00,Read,ACK
5.053870750000000,0,0x5D,0x00,Read,ACK
5.053892625000000,0,0x5D,0x00,Read,ACK
5.053914125000000,0,0x5D,0x00,Read,ACK
5.053935593750000,0,0x5D,0xF2,Read,ACK
5.053957062500000,0,0x5D,0x7B,Read,ACK
5.053978687500000,0,0x5D,0x01,Read,ACK
5.054000187500000,0,0x5D,0x00,Read,ACK
5.054021656250000,0,0x5D,0x00,Read,ACK
5.054043125000000,0,0x5D,0x00,Read,ACK
5.054064593750000,0,0x5D,0x00,Read,ACK
5.054086156250000,0,0x5D,0x00,Read,ACK
5.054107687500000,0,0x5D,0x00,Read,ACK
5.054129125000000,0,0x5D,0x00,Read,ACK
5.054152593750000,0,0x5D,0x00,Read,ACK
5.054175562500000,0,0x5D,0x00,Read,ACK
5.054197031250000,0,0x5D,0x00,Read,ACK
5.054219250000000,0,0x5D,0x00,Read,ACK
5.054242718750000,0,0x5D,0x00,Read,ACK
5.054264968750000,0,0x5D,0x00,Read,ACK
5.054287000000000,0,0x5D,0x00,Read,ACK
5.054308468750000,0,0x5D,0x00,Read,ACK
5.054329937500000,0,0x5D,0x00,Read,ACK
5.054351968750000,0,0x5D,0x00,Read,ACK
5.054373437500000,0,0x5D,0x00,Read,NAK
5.060265718750000,0,0x5D,0x2F,Read,ACK
5.060293125000000,0,0x5D,0x00,Read,ACK
5.060314906250000,0,0x5D,0x04,Read,ACK
5.060337312500000,0,0x5D,0x03,Read,ACK
5.060362343750000,0,0x5D,0xE3,Read,ACK
5.060383781250000,0,0x5D,0x07,Read,ACK
5.060405281250000,0,0x5D,0x49,Read,ACK
5.060426718750000,0,0x5D,0x06,Read,ACK
5.060448187500000,0,0x5D,0x03,Read,ACK
5.060469687500000,0,0x5D,0x03,Read,ACK
5.060491125000000,0,0x5D,0x20,Read,ACK
5.060512593750000,0,0x5D,0x00,Read,ACK
5.060534062500000,0,0x5D,0x00,Read,ACK
5.060556031250000,0,0x5D,0x00,Read,ACK
5.060577500000000,0,0x5D,0x00,Read,ACK
5.060600937500000,0,0x5D,0x00,Read,ACK
5.060622437500000,0,0x5D,0x00,Read,ACK
5.060643906250000,0,0x5D,0x00,Read,ACK
5.060665375000000,0,0x5D,0x00,Read,ACK
5.060686843750000,0,0x5D,0x00,Read,ACK
5.060708312500000,0,0x5D,0x00,Read,ACK
5.060729781250000,0,0x5D,0x00,Read,ACK
5.060751218750000,0,0x5D,0x00,Read,ACK
5.060772718750000,0,0x5D,0x00,Read,ACK
5.060794156250000,0,0x5D,0x00,Read,ACK
5.060817343750000,0,0x5D,0x00,Read,ACK
5.060838781250000,0,0x5D,0x00,Read,ACK
5.060860281250000,0,0x5D,0x00,Read,ACK
5.060881750000000,0,0x5D,0x00,Read,ACK
5.060903187500000,0,0x5D,0x00,Read,ACK
5.060924687500000,0,0x5D,0x00,Read,ACK
5.060946187500000,0,0x5D,0x00,Read,ACK
5.060967656250000,0,0x5D,0x00,Read,ACK
5.060989156250000,0,0x5D,0x00,Read,ACK
5.061010812500000,0,0x5D,0x00,Read,ACK
5.061032250000000,0,0x5D,0x00,Read,ACK
5.061053750000000,0,0x5D,0x00,Read,ACK
5.061075187500000,0,0x5D,0x00,Read,ACK
5.061096656250000,0,0x5D,0x00,Read,ACK
5.061118218750000,0,0x5D,0x00,Read,ACK
5.061139656250000,0,0x5D,0x00,Read,ACK
5.061161156250000,0,0x5D,0x00,Read,ACK
5.061182593750000,0,0x5D,0x00,Read,ACK
5.061204062500000,0,0x5D,0x38,Read,ACK
5.061225562500000,0,0x5D,0x7C,Read,ACK
5.061247000000000,0,0x5D,0x01,Read,ACK
5.061273031250000,0,0x5D,0x00,Read,ACK
5.061294562500000,0,0x5D,0x00,Read,ACK
5.061316031250000,0,0x5D,0x00,Read,ACK
5.061337875000000,0,0x5D,0x00,Read,ACK
5.061360812500000,0,0x5D,0x00,Read,ACK
5.061382468750000,0,0x5D,0x00,Read,ACK
5.061404218750000,0,0x5D,0x00,Read,ACK
5.061425687500000,0,0x5D,0x00,Read,ACK
5.061447125000000,0,0x5D,0x00,Read,ACK
5.061468625000000,0,0x5D,0x00,Read,ACK
5.061490062500000,0,0x5D,0x00,Read,ACK
5.061512187500000,0,0x5D,0x00,Read,ACK
5.061534906250000,0,0x5D,0x00,Read,ACK
5.061556375000000,0,0x5D,0x00,Read,ACK
5.061577843750000,0,0x5D,0x00,Read,ACK
5.061599281250000,0,0x5D,0x00,Read,ACK
5.061621187500000,0,0x5D,0x00,Read,ACK
5.061642968750000,0,0x5D,0x00,Read,NAK
5.067337593750000,0,0x5D,0x2F,Read,ACK
5.067364125000000,0,0x5D,0x00,Read,ACK
5.067385593750000,0,0x5D,0x04,Read,ACK
5.067407093750000,0,0x5D,0x03,Read,ACK
5.067428531250000,0,0x5D,0xD4,Read,ACK
5.067450000000000,0,0x5D,0x07,Read,ACK
5.067472250000000,0,0x5D,0x49,Read,ACK
5.067496531250000,0,0x5D,0x06,Read,ACK
5.067518312500000,0,0x5D,0x03,Read,ACK
5.067539750000000,0,0x5D,0x03,Read,ACK
5.067561218750000,0,0x5D,0x20,Read,ACK
5.067582687500000,0,0x5D,0x00,Read,ACK
5.067604156250000,0,0x5D,0x00,Read,ACK
5.067625593750000,0,0x5D,0x00,Read,ACK
5.067647093750000,0,0x5D,0x00,Read,ACK
5.067668562500000,0,0x5D,0x00,Read,ACK
5.067690031250000,0,0x5D,0x00,Read,ACK
5.067711500000000,0,0x5D,0x00,Read,ACK
5.067733062500000,0,0x5D,0x00,Read,ACK
5.067755781250000,0,0x5D,0x00,Read,ACK
5.067777562500000,0,0x5D,0x00,Read,ACK
5.067799031250000,0,0x5D,0x00,Read,ACK
5.067820531250000,0,0x5D,0x00,Read,ACK
5.067842468750000,0,0x5D,0x00,Read,ACK
5.067864687500000,0,0x5D,0x00,Read,ACK
5.067886156250000,0,0x5D,0x00,Read,ACK
5.067907625000000,0,0x5D,0x00,Read,ACK
5.067929093750000,0,0x5D,0x00,Read,ACK
5.067950562500000,0,0x5D,0x00,Read,ACK
5.067972062500000,0,0x5D,0x00,Read,ACK
5.067993562500000,0,0x5D,0x00,Read,ACK
5.068015281250000,0,0x5D,0x00,Read,ACK
5.068036750000000,0,0x5D,0x00,Read,ACK
5.068058218750000,0,0x5D,0x00,Read,ACK
5.068079718750000,0,0x5D,0x00,Read,ACK
5.068101187500000,0,0x5D,0x00,Read,ACK
5.068122656250000,0,0x5D,0x00,Read,ACK
5.068144093750000,0,0x5D,0x00,Read,ACK
5.068165562500000,0,0x5D,0x00,Read,ACK
5.068187031250000,0,0x5D,0x00,Read,ACK
5.068208531250000,0,0x5D,0x00,Read,ACK
5.068230000000000,0,0x5D,0x00,Read,ACK
5.068251437500000,0,0x5D,0x00,Read,ACK
5.068272937500000,0,0x5D,0x7E,Read,ACK
5.068294406250000,0,0x5D,0x7C,Read,ACK
5.068315843750000,0,0x5D,0x01,Read,ACK
5.068337343750000,0,0x5D,0x00,Read,ACK
5.068358812500000,0,0x5D,0x00,Read,ACK
5.068380250000000,0,0x5D,0x00,Read,ACK
5.068401718750000,0,0x5D,0x00,Read,ACK
5.068424656250000,0,0x5D,0x00,Read,ACK
5.068449000000000,0,0x5D,0x00,Read,ACK
5.068471093750000,0,0x5D,0x00,Read,ACK
5.068492843750000,0,0x5D,0x00,Read,ACK
5.068515125000000,0,0x5D,0x00,Read,ACK
5.068537500000000,0,0x5D,0x00,Read,ACK
5.068558937500000,0,0x5D,0x00,Read,ACK
5.068580406250000,0,0x5D,0x00,Read,ACK
5.068601875000000,0,0x5D,0x00,Read,ACK
5.068623375000000,0,0x5D,0x00,Read,ACK
5.068644812500000,0,0x5D,0x00,Read,ACK
5.068667500000000,0,0x5D,0x00,Read,ACK
5.068690031250000,0,0x5D,0x00,Read,ACK
5.068711500000000,0,0x5D,0x00,Read,NAK
5.074536468750000,0,0x5D,0x2F,Read,ACK
5.074562062500000,0,0x5D,0x00,Read,ACK
5.074583500000000,0,0x5D,0x04,Read,ACK
5.074606343750000,0,0x5D,0x03,Read,ACK
5.074631937500000,0,0x5D,0xC4,Read,ACK
5.074653937500000,0,0x5D,0x07,Read,ACK
5.074675437500000,0,0x5D,0x47,Read,ACK
5.074696906250000,0,0x5D,0x06,Read,ACK
5.074718375000000,0,0x5D,0x03,Read,ACK
5.074739843750000,0,0x5D,0x03,Read,ACK
5.074761312500000,0,0x5D,0x20,Read,ACK
5.074782781250000,0,0x5D,0x00,Read,ACK
5.074804250000000,0,0x5D,0x00,Read,ACK
5.074825718750000,0,0x5D,0x00,Read,ACK
5.074847187500000,0,0x5D,0x00,Read,ACK
5.074869937500000,0,0x5D,0x00,Read,ACK
5.074891375000000,0,0x5D,0x00,Read,ACK
5.074912875000000,0,0x5D,0x00,Read,ACK
5.074934375000000,0,0x5D,0x00,Read,ACK
5.074955843750000,0,0x5D,0x00,Read,ACK
5.074977281250000,0,0x5D,0x00,Read,ACK
5.074998781250000,0,0x5D,0x00,Read,ACK
5.075020218750000,0,0x5D,0x00,Read,ACK
5.075041718750000,0,0x5D,0x00,Read,ACK
5.075063187500000,0,0x5D,0x00,Read,ACK
5.075084625000000,0,0x5D,0x00,Read,ACK
5.075106125000000,0,0x5D,0x00,Read,ACK
5.075127562500000,0,0x5D,0x00,Read,ACK
5.075149062500000,0,0x5D,0x00,Read,ACK
5.075170500000000,0,0x5D,0x00,Read,ACK
5.075192125000000,0,0x5D,0x00,Read,ACK
5.075213562500000,0,0x5D,0x00,Read,ACK
5.075235031250000,0,0x5D,0x00,Read,ACK
5.075256531250000,0,0x5D,0x00,Read,ACK
5.075278000000000,0,0x5D,0x00,Read,ACK
5.075299593750000,0,0x5D,0x00,Read,ACK
5.075321062500000,0,0x5D,0x00,Read,ACK
5.075342562500000,0,0x5D,0x00,Read,ACK
5.075364031250000,0,0x5D,0x00,Read,ACK
5.075385500000000,0,0x5D,0x00,Read,ACK
5.075406968750000,0,0x5D,0x00,Read,ACK
5.075428437500000,0,0x5D,0x00,Read,ACK
5.075449906250000,0,0x5D,0x00,Read,ACK
5.075471406250000,0,0x5D,0xC4,Read,ACK
5.075493125000000,0,0x5D,0x7C,Read,ACK
5.075514625000000,0,0x5D,0x01,Read,ACK
5.075537968750000,0,0x5D,0x00,Read,ACK
5.075559437500000,0,0x5D,0x00,Read,ACK
5.075582281250000,0,0x5D,0x00,Read,ACK
5.075603906250000,0,0x5D,0x00,Read,ACK
5.075625687500000,0,0x5D,0x00,Read,ACK
5.075647187500000,0,0x5D,0x00,Read,ACK
5.075668656250000,0,0x5D,0x00,Read,ACK
5.075691093750000,0,0x5D,0x00,Read,ACK
5.075712562500000,0,0x5D,0x00,Read,ACK
5.075734031250000,0,0x5D,0x00,Read,ACK
5.075757656250000,0,0x5D,0x00,Read,ACK
5.075779281250000,0,0x5D,0x00,Read,ACK
5.075800812500000,0,0x5D,0x00,Read,ACK
5.075822687500000,0,0x5D,0x00,Read,ACK
5.075844218750000,0,0x5D,0x00,Read,ACK
5.075865781250000,0,0x5D,0x00,Read,ACK
5.075888406250000,0,0x5D,0x00,Read,ACK
5.075909968750000,0,0x5D,0x00,Read,NAK
5.081597468750000,0,0x5D,0x2F,Read,ACK
5.081627375000000,0,0x5D,0x00,Read,ACK
5.081649218750000,0,0x5D,0x04,Read,ACK
5.081671750000000,0,0x5D,0x03,Read,ACK
5.081693250000000,0,0x5D,0xB3,Read,ACK
5.081714718750000,0,0x5D,0x07,Read,ACK
5.081736156250000,0,0x5D,0x45,Read,ACK
5.081757718750000,0,0x5D,0x06,Read,ACK
5.081779187500000,0,0x5D,0x03,Read,ACK
5.081804000000000,0,0x5D,0x02,Read,ACK
5.081825500000000,0,0x5D,0x20,Read,ACK
5.081846937500000,0,0x5D,0x00,Read,ACK
5.081868437500000,0,0x5D,0x00,Read,ACK
5.081889875000000,0,0x5D,0x00,Read,ACK
5.081911343750000,0,0x5D,0x00,Read,ACK
5.081932812500000,0,0x5D,0x00,Read,ACK
5.081954281250000,0,0x5D,0x00,Read,ACK
5.081975750000000,0,0x5D,0x00,Read,ACK
5.081997250000000,0,0x5D,0x00,Read,ACK
5.082018718750000,0,0x5D,0x00,Read,ACK
5.082041093750000,0,0x5D,0x00,Read,ACK
5.082063000000000,0,0x5D,0x00,Read,ACK
5.082084500000000,0,0x5D,0x00,Read,ACK
5.082105968750000,0,0x5D,0x00,Read,ACK
5.082127406250000,0,0x5D,0x00,Read,ACK
5.082150437500000,0,0x5D,0x00,Read,ACK
5.082172000000000,0,0x5D,0x00,Read,ACK
5.082193437500000,0,0x5D,0x00,Read,ACK
5.082214937500000,0,0x5D,0x00,Read,ACK
5.082236406250000,0,0x5D,0x00,Read,ACK
5.082257875000000,0,0x5D,0x00,Read,ACK
5.082279593750000,0,0x5D,0x00,Read,ACK
5.082301312500000,0,0x5D,0x00,Read,ACK
5.082322781250000,0,0x5D,0x00,Read,ACK
5.082344250000000,0,0x5D,0x00,Read,ACK
5.082365718750000,0,0x5D,0x00,Read,ACK
5.082387187500000,0,0x5D,0x00,Read,ACK
5.082408656250000,0,0x5D,0x00,Read,ACK
5.082430125000000,0,0x5D,0x00,Read,ACK
5.082451593750000,0,0x5D,0x00,Read,ACK
5.082473093750000,0,0x5D,0x00,Read,ACK
5.082494531250000,0,0x5D,0x00,Read,ACK
5.082516000000000,0,0x5D,0x00,Read,ACK
5.082537468750000,0,0x5D,0x0A,Read,ACK
5.082558937500000,0,0x5D,0x7D,Read,ACK
5.082580593750000,0,0x5D,0x01,Read,ACK
5.082602062500000,0,0x5D,0x00,Read,ACK
5.082623531250000,0,0x5D,0x00,Read,ACK
5.082645000000000,0,0x5D,0x00,Read,ACK
5.082666468750000,0,0x5D,0x00,Read,ACK
5.082687937500000,0,0x5D,0x00,Read,ACK
5.082713562500000,0,0x5D,0x00,Read,ACK
5.082737343750000,0,0x5D,0x00,Read,ACK
5.082758781250000,0,0x5D,0x00,Read,ACK
5.082780875000000,0,0x5D,0x00,Read,ACK
5.082802718750000,0,0x5D,0x00,Read,ACK
5.082825687500000,0,0x5D,0x00,Read,ACK
5.082847156250000,0,0x5D,0x00,Read,ACK
5.082868687500000,0,0x5D,0x00,Read,ACK
5.082890156250000,0,0x5D,0x00,Read,ACK
5.082912187500000,0,0x5D,0x00,Read,ACK
5.082933781250000,0,0x5D,0x00,Read,ACK
5.082956656250000,0,0x5D,0x00,Read,ACK
5.082978906250000,0,0x5D,0x00,Read,NAK
5.088784468750000,0,0x5D,0x2F,Read,ACK
5.088812656250000,0,0x5D,0x00,Read,ACK
5.088834125000000,0,0x5D,0x04,Read,ACK
5.088855593750000,0,0x5D,0x03,Read,ACK
5.088877093750000,0,0x5D,0xA0,Read,ACK
5.088899781250000,0,0x5D,0x07,Read,ACK
5.088923406250000,0,0x5D,0x41,Read,ACK
5.088945156250000,0,0x5D,0x06,Read,ACK
5.088966625000000,0,0x5D,0x03,Read,ACK
5.088988125000000,0,0x5D,0x02,Read,ACK
5.089009562500000,0,0x5D,0x20,Read,ACK
5.089031031250000,0,0x5D,0x00,Read,ACK
5.089052500000000,0,0x5D,0x00,Read,ACK
5.089073968750000,0,0x5D,0x00,Read,ACK
5.089095437500000,0,0x5D,0x00,Read,ACK
5.089116906250000,0,0x5D,0x00,Read,ACK
5.089138406250000,0,0x5D,0x00,Read,ACK
5.089160968750000,0,0x5D,0x00,Read,ACK
5.089183468750000,0,0x5D,0x00,Read,ACK
5.089204968750000,0,0x5D,0x00,Read,ACK
5.089226437500000,0,0x5D,0x00,Read,ACK
5.089247906250000,0,0x5D,0x00,Read,ACK
5.089269781250000,0,0x5D,0x00,Read,ACK
5.089291281250000,0,0x5D,0x00,Read,ACK
5.089312750000000,0,0x5D,0x00,Read,ACK
5.089334937500000,0,0x5D,0x00,Read,ACK
5.089356375000000,0,0x5D,0x00,Read,ACK
5.089377843750000,0,0x5D,0x00,Read,ACK
5.089399343750000,0,0x5D,0x00,Read,ACK
5.089422718750000,0,0x5D,0x00,Read,ACK
5.089444187500000,0,0x5D,0x00,Read,ACK
5.089465656250000,0,0x5D,0x00,Read,ACK
5.089487125000000,0,0x5D,0x00,Read,ACK
5.089508593750000,0,0x5D,0x00,Read,ACK
5.089530093750000,0,0x5D,0x00,Read,ACK
5.089551593750000,0,0x5D,0x00,Read,ACK
5.089573031250000,0,0x5D,0x00,Read,ACK
5.089594531250000,0,0x5D,0x00,Read,ACK
5.089616000000000,0,0x5D,0x00,Read,ACK
5.089637468750000,0,0x5D,0x00,Read,ACK
5.089658937500000,0,0x5D,0x00,Read,ACK
5.089680406250000,0,0x5D,0x00,Read,ACK
5.089701875000000,0,0x5D,0x00,Read,ACK
5.089723343750000,0,0x5D,0x50,Read,ACK
5.089744812500000,0,0x5D,0x7D,Read,ACK
5.089766281250000,0,0x5D,0x01,Read,ACK
5.089787718750000,0,0x5D,0x00,Read,ACK
5.089809250000000,0,0x5D,0x00,Read,ACK
5.089830750000000,0,0x5D,0x00,Read,ACK
5.089853781250000,0,0x5D,0x00,Read,ACK
5.089877156250000,0,0x5D,0x00,Read,ACK
5.089898625000000,0,0x5D,0x00,Read,ACK
5.089921562500000,0,0x5D,0x00,Read,ACK
5.089943812500000,0,0x5D,0x00,Read,ACK
5.089965281250000,0,0x5D,0x00,Read,ACK
5.089986750000000,0,0x5D,0x00,Read,ACK
5.090008250000000,0,0x5D,0x00,Read,ACK
5.090031000000000,0,0x5D,0x00,Read,ACK
5.090052875000000,0,0x5D,0x00,Read,ACK
5.090076500000000,0,0x5D,0x00,Read,ACK
5.090098968750000,0,0x5D,0x00,Read,ACK
5.090120437500000,0,0x5D,0x00,Read,ACK
5.090143281250000,0,0x5D,0x00,Read,ACK
5.090164781250000,0,0x5D,0x00,Read,NAK
5.095955281250000,0,0x5D,0x2F,Read,ACK
5.095978468750000,0,0x5D,0x00,Read,ACK
5.095999906250000,0,0x5D,0x04,Read,ACK
5.096021375000000,0,0x5D,0x03,Read,ACK
5.096042843750000,0,0x5D,0x8B,Read,ACK
5.096066031250000,0,0x5D,0x07,Read,ACK
5.096089468750000,0,0x5D,0x3C,Read,ACK
5.096110937500000,0,0x5D,0x06,Read,ACK
5.096132406250000,0,0x5D,0x03,Read,ACK
5.096153875000000,0,0x5D,0x02,Read,ACK
5.096175343750000,0,0x5D,0x20,Read,ACK
5.096196812500000,0,0x5D,0x00,Read,ACK
5.096218281250000,0,0x5D,0x00,Read,ACK
5.096239750000000,0,0x5D,0x00,Read,ACK
5.096261218750000,0,0x5D,0x00,Read,ACK
5.096282687500000,0,0x5D,0x00,Read,ACK
5.096304625000000,0,0x5D,0x00,Read,ACK
5.096326125000000,0,0x5D,0x00,Read,ACK
5.096348531250000,0,0x5D,0x00,Read,ACK
5.096370031250000,0,0x5D,0x00,Read,ACK
5.096391531250000,0,0x5D,0x00,Read,ACK
5.096413218750000,0,0x5D,0x00,Read,ACK
5.096434718750000,0,0x5D,0x00,Read,ACK
5.096456187500000,0,0x5D,0x00,Read,ACK
5.096477812500000,0,0x5D,0x00,Read,ACK
5.096499281250000,0,0x5D,0x00,Read,ACK
5.096521468750000,0,0x5D,0x00,Read,ACK
5.096543687500000,0,0x5D,0x00,Read,ACK
5.096565125000000,0,0x5D,0x00,Read,ACK
5.096586593750000,0,0x5D,0x00,Read,ACK
5.096608093750000,0,0x5D,0x00,Read,ACK
5.096629531250000,0,0x5D,0x00,Read,ACK
5.096651468750000,0,0x5D,0x00,Read,ACK
5.096672906250000,0,0x5D,0x00,Read,ACK
5.096694375000000,0,0x5D,0x00,Read,ACK
5.096715843750000,0,0x5D,0x00,Read,ACK
5.096737312500000,0,0x5D,0x00,Read,ACK
5.096758781250000,0,0x5D,0x00,Read,ACK
5.096780281250000,0,0x5D,0x00,Read,ACK
5.096801718750000,0,0x5D,0x00,Read,ACK
5.096823187500000,0,0x5D,0x00,Read,ACK
5.096844656250000,0,0x5D,0x00,Read,ACK
5.096866125000000,0,0x5D,0x00,Read,ACK
5.096887593750000,0,0x5D,0x96,Read,ACK
5.096909062500000,0,0x5D,0x7D,Read,ACK
5.096930531250000,0,0x5D,0x01,Read,ACK
5.096952000000000,0,0x5D,0x00,Read,ACK
5.096973687500000,0,0x5D,0x00,Read,ACK
5.096998187500000,0,0x5D,0x00,Read,ACK
5.097019625000000,0,0x5D,0x00,Read,ACK
5.097042687500000,0,0x5D,0x00,Read,ACK
5.097065218750000,0,0x5D,0x00,Read,ACK
5.097086937500000,0,0x5D,0x00,Read,ACK
5.097108656250000,0,0x5D,0x00,Read,ACK
5.097130125000000,0,0x5D,0x00,Read,ACK
5.097151593750000,0,0x5D,0x00,Read,ACK
5.097174093750000,0,0x5D,0x00,Read,ACK
5.097195562500000,0,0x5D,0x00,Read,ACK
5.097217062500000,0,0x5D,0x00,Read,ACK
5.097239156250000,0,0x5D,0x00,Read,ACK
5.097263406250000,0,0x5D,0x00,Read,ACK
5.097284875000000,0,0x5D,0x00,Read,ACK
5.097306375000000,0,0x5D,0x00,Read,ACK
5.097327812500000,0,0x5D,0x00,Read,NAK
5.103121812500000,0,0x5D,0x2F,Read,ACK
5.103150156250000,0,0x5D,0x00,Read,ACK
5.103171593750000,0,0x5D,0x04,Read,ACK
5.103193281250000,0,0x5D,0x03,Read,ACK
5.103217843750000,0,0x5D,0x75,Read,ACK
5.103239312500000,0,0x5D,0x07,Read,ACK
5.103260750000000,0,0x5D,0x37,Read,ACK
5.103282250000000,0,0x5D,0x06,Read,ACK
5.103303718750000,0,0x5D,0x03,Read,ACK
5.103325187500000,0,0x5D,0x02,Read,ACK
5.103346656250000,0,0x5D,0x20,Read,ACK
5.103368093750000,0,0x5D,0x00,Read,ACK
5.103389593750000,0,0x5D,0x00,Read,ACK
5.103411031250000,0,0x5D,0x00,Read,ACK
5.103432593750000,0,0x5D,0x00,Read,ACK
5.103454562500000,0,0x5D,0x00,Read,ACK
5.103476031250000,0,0x5D,0x00,Read,ACK
5.103497500000000,0,0x5D,0x00,Read,ACK
5.103518968750000,0,0x5D,0x00,Read,ACK
5.103540906250000,0,0x5D,0x00,Read,ACK
5.103563968750000,0,0x5D,0x00,Read,ACK
5.103585500000000,0,0x5D,0x00,Read,ACK
5.103607218750000,0,0x5D,0x00,Read,ACK
5.103628687500000,0,0x5D,0x00,Read,ACK
5.103650156250000,0,0x5D,0x00,Read,ACK
5.103671593750000,0,0x5D,0x00,Read,ACK
5.103693687500000,0,0x5D,0x00,Read,ACK
5.103715218750000,0,0x5D,0x00,Read,ACK
5.103736718750000,0,0x5D,0x00,Read,ACK
5.103758187500000,0,0x5D,0x00,Read,ACK
5.103779656250000,0,0x5D,0x00,Read,ACK
5.103801125000000,0,0x5D,0x00,Read,ACK
5.103822593750000,0,0x5D,0x00,Read,ACK
5.103844062500000,0,0x5D,0x00,Read,ACK
5.103865531250000,0,0x5D,0x00,Read,ACK
5.103887000000000,0,0x5D,0x00,Read,ACK
5.103908593750000,0,0x5D,0x00,Read,ACK
5.103930062500000,0,0x5D,0x00,Read,ACK
5.103951531250000,0,0x5D,0x00,Read,ACK
5.103972968750000,0,0x5D,0x00,Read,ACK
5.103994468750000,0,0x5D,0x00,Read,ACK
5.104015937500000,0,0x5D,0x00,Read,ACK
5.104037406250000,0,0x5D,0x00,Read,ACK
5.104058875000000,0,0x5D,0xDC,Read,ACK
5.104080343750000,0,0x5D,0x7D,Read,ACK
5.104101812500000,0,0x5D,0x01,Read,ACK
5.104125968750000,0,0x5D,0x00,Read,ACK
5.104151343750000,0,0x5D,0x00,Read,ACK
5.104174093750000,0,0x5D,0x00,Read,ACK
5.104196937500000,0,0x5D,0x00,Read,ACK
5.104219906250000,0,0x5D,0x00,Read,ACK
5.104241343750000,0,0x5D,0x00,Read,ACK
5.104262812500000,0,0x5D,0x00,Read,ACK
5.104284281250000,0,0x5D,0x00,Read,ACK
5.104306468750000,0,0x5D,0x00,Read,ACK
5.104327937500000,0,0x5D,0x00,Read,ACK
5.104351093750000,0,0x5D,0x00,Read,ACK
5.104373156250000,0,0x5D,0x00,Read,ACK
5.104394625000000,0,0x5D,0x00,Read,ACK
5.104416093750000,0,0x5D,0x00,Read,ACK
5.104437562500000,0,0x5D,0x00,Read,ACK
5.104459031250000,0,0x5D,0x00,Read,ACK
5.104480500000000,0,0x5D,0x00,Read,ACK
5.104503500000000,0,0x5D,0x00,Read,NAK
5.110251875000000,0,0x5D,0x2F,Read,ACK
5.110274437500000,0,0x5D,0x00,Read,ACK
5.110295906250000,0,0x5D,0x04,Read,ACK
5.110317375000000,0,0x5D,0x03,Read,ACK
5.110339125000000,0,0x5D,0x5F,Read,ACK
5.110362062500000,0,0x5D,0x07,Read,ACK
5.110383531250000,0,0x5D,0x2F,Read,ACK
5.110404968750000,0,0x5D,0x06,Read,ACK
5.110426468750000,0,0x5D,0x03,Read,ACK
5.110447906250000,0,0x5D,0x03,Read,ACK
5.110469406250000,0,0x5D,0x20,Read,ACK
5.110490843750000,0,0x5D,0x00,Read,ACK
5.110512312500000,0,0x5D,0x00,Read,ACK
5.110533781250000,0,0x5D,0x00,Read,ACK
5.110555281250000,0,0x5D,0x00,Read,ACK
5.110576718750000,0,0x5D,0x00,Read,ACK
5.110598187500000,0,0x5D,0x00,Read,ACK
5.110619656250000,0,0x5D,0x00,Read,ACK
5.110641281250000,0,0x5D,0x00,Read,ACK
5.110662781250000,0,0x5D,0x00,Read,ACK
5.110684281250000,0,0x5D,0x00,Read,ACK
5.110705750000000,0,0x5D,0x00,Read,ACK
5.110727718750000,0,0x5D,0x00,Read,ACK
5.110749156250000,0,0x5D,0x00,Read,ACK
5.110770843750000,0,0x5D,0x00,Read,ACK
5.110792343750000,0,0x5D,0x00,Read,ACK
5.110814187500000,0,0x5D,0x00,Read,ACK
5.110835656250000,0,0x5D,0x00,Read,ACK
5.110857125000000,0,0x5D,0x00,Read,ACK
5.110878812500000,0,0x5D,0x00,Read,ACK
5.110900312500000,0,0x5D,0x00,Read,ACK
5.110921781250000,0,0x5D,0x00,Read,ACK
5.110943250000000,0,0x5D,0x00,Read,ACK
5.110964968750000,0,0x5D,0x00,Read,ACK
5.110986437500000,0,0x5D,0x00,Read,ACK
5.111007906250000,0,0x5D,0x00,Read,ACK
5.111029375000000,0,0x5D,0x00,Read,ACK
5.111050843750000,0,0x5D,0x00,Read,ACK
5.111072312500000,0,0x5D,0x00,Read,ACK
5.111093781250000,0,0x5D,0x00,Read,ACK
5.111115250000000,0,0x5D,0x00,Read,ACK
5.111136875000000,0,0x5D,0x00,Read,ACK
5.111158375000000,0,0x5D,0x00,Read,ACK
5.111179843750000,0,0x5D,0x22,Read,ACK
5.111201281250000,0,0x5D,0x7E,Read,ACK
5.111222812500000,0,0x5D,0x01,Read,ACK
5.111244406250000,0,0x5D,0x00,Read,ACK
5.111265875000000,0,0x5D,0x00,Read,ACK
5.111287500000000,0,0x5D,0x00,Read,ACK
5.111308937500000,0,0x5D,0x00,Read,ACK
5.111330406250000,0,0x5D,0x00,Read,ACK
5.111355000000000,0,0x5D,0x00,Read,ACK
5.111376875000000,0,0x5D,0x00,Read,ACK
5.111398375000000,0,0x5D,0x00,Read,ACK
5.111420343750000,0,0x5D,0x00,Read,ACK
5.111441812500000,0,0x5D,0x00,Read,ACK
5.111463281250000,0,0x5D,0x00,Read,ACK
5.111485906250000,0,0x5D,0x00,Read,ACK
5.111507406250000,0,0x5D,0x00,Read,ACK
5.111529375000000,0,0x5D,0x00,Read,ACK
5.111550843750000,0,0x5D,0x00,Read,ACK
5.111572750000000,0,0x5D,0x00,Read,ACK
5.111594625000000,0,0x5D,0x00,Read,ACK
5.111616281250000,0,0x5D,0x00,Read,NAK
5.117343812500000,0,0x5D,0x2F,Read,ACK
5.117370375000000,0,0x5D,0x00,Read,ACK
5.117391843750000,0,0x5D,0x04,Read,ACK
5.117413312500000,0,0x5D,0x03,Read,ACK
5.117434781250000,0,0x5D,0x48,Read,ACK
5.117456281250000,0,0x5D,0x07,Read,ACK
5.117478343750000,0,0x5D,0x25,Read,ACK
5.117501968750000,0,0x5D,0x06,Read,ACK
5.117525687500000,0,0x5D,0x03,Read,ACK
5.117547187500000,0,0x5D,0x03,Read,ACK
5.117568656250000,0,0x5D,0x20,Read,ACK
5.117590125000000,0,0x5D,0x00,Read,ACK
5.117611593750000,0,0x5D,0x00,Read,ACK
5.117633062500000,0,0x5D,0x00,Read,ACK
5.117654531250000,0,0x5D,0x00,Read,ACK
5.117676000000000,0,0x5D,0x00,Read,ACK
5.117697468750000,0,0x5D,0x00,Read,ACK
5.117718937500000,0,0x5D,0x00,Read,ACK
5.117740406250000,0,0x5D,0x00,Read,ACK
5.117761875000000,0,0x5D,0x00,Read,ACK
5.117783343750000,0,0x5D,0x00,Read,ACK
5.117805000000000,0,0x5D,0x00,Read,ACK
5.117826468750000,0,0x5D,0x00,Read,ACK
5.117848093750000,0,0x5D,0x00,Read,ACK
5.117869593750000,0,0x5D,0x00,Read,ACK
5.117891062500000,0,0x5D,0x00,Read,ACK
5.117912500000000,0,0x5D,0x00,Read,ACK
5.117934000000000,0,0x5D,0x00,Read,ACK
5.117955437500000,0,0x5D,0x00,Read,ACK
5.117977875000000,0,0x5D,0x00,Read,ACK
5.117999343750000,0,0x5D,0x00,Read,ACK
5.118020781250000,0,0x5D,0x00,Read,ACK
5.118042281250000,0,0x5D,0x00,Read,ACK
5.118063718750000,0,0x5D,0x00,Read,ACK
5.118085187500000,0,0x5D,0x00,Read,ACK
5.118106687500000,0,0x5D,0x00,Read,ACK
5.118128125000000,0,0x5D,0x00,Read,ACK
5.118149593750000,0,0x5D,0x00,Read,ACK
5.118171093750000,0,0x5D,0x00,Read,ACK
5.118192531250000,0,0x5D,0x00,Read,ACK
5.118214000000000,0,0x5D,0x00,Read,ACK
5.118235468750000,0,0x5D,0x00,Read,ACK
5.118256937500000,0,0x5D,0x00,Read,ACK
5.118278406250000,0,0x5D,0x68,Read,ACK
5.118299875000000,0,0x5D,0x7E,Read,ACK
5.118321343750000,0,0x5D,0x01,Read,ACK
5.118342812500000,0,0x5D,0x00,Read,ACK
5.118364281250000,0,0x5D,0x00,Read,ACK
5.118385750000000,0,0x5D,0x00,Read,ACK
5.118407250000000,0,0x5D,0x00,Read,ACK
5.118433187500000,0,0x5D,0x00,Read,ACK
5.118454656250000,0,0x5D,0x00,Read,ACK
5.118477343750000,0,0x5D,0x00,Read,ACK
5.118500781250000,0,0x5D,0x00,Read,ACK
5.118522593750000,0,0x5D,0x00,Read,ACK
5.118545406250000,0,0x5D,0x00,Read,ACK
5.118566875000000,0,0x5D,0x00,Read,ACK
5.118588312500000,0,0x5D,0x00,Read,ACK
5.118609781250000,0,0x5D,0x00,Read,ACK
5.118631750000000,0,0x5D,0x00,Read,ACK
5.118653750000000,0,0x5D,0x00,Read,ACK
5.118675343750000,0,0x5D,0x00,Read,ACK
5.118698500000000,0,0x5D,0x00,Read,ACK
5.118720250000000,0,0x5D,0x00,Read,NAK
5.124487812500000,0,0x5D,0x2F,Read,ACK
5.124512812500000,0,0x5D,0x00,Read,ACK
5.124534312500000,0,0x5D,0x04,Read,ACK
5.124555781250000,0,0x5D,0x03,Read,ACK
5.124577218750000,0,0x5D,0x32,Read,ACK
5.124598718750000,0,0x5D,0x07,Read,ACK
5.124620593750000,0,0x5D,0x19,Read,ACK
5.124642062500000,0,0x5D,0x06,Read,ACK
5.124666375000000,0,0x5D,0x03,Read,ACK
5.124687843750000,0,0x5D,0x03,Read,ACK
5.124709281250000,0,0x5D,0x20,Read,ACK
5.124730750000000,0,0x5D,0x00,Read,ACK
5.124752218750000,0,0x5D,0x00,Read,ACK
5.124773687500000,0,0x5D,0x00,Read,ACK
5.124795156250000,0,0x5D,0x00,Read,ACK
5.124816625000000,0,0x5D,0x00,Read,ACK
5.124838093750000,0,0x5D,0x00,Read,ACK
5.124859562500000,0,0x5D,0x00,Read,ACK
5.124881343750000,0,0x5D,0x00,Read,ACK
5.124903875000000,0,0x5D,0x00,Read,ACK
5.124925312500000,0,0x5D,0x00,Read,ACK
5.124946781250000,0,0x5D,0x00,Read,ACK
5.124968281250000,0,0x5D,0x00,Read,ACK
5.124989875000000,0,0x5D,0x00,Read,ACK
5.125011531250000,0,0x5D,0x00,Read,ACK
5.125033500000000,0,0x5D,0x00,Read,ACK
5.125055343750000,0,0x5D,0x00,Read,ACK
5.125076781250000,0,0x5D,0x00,Read,ACK
5.125098250000000,0,0x5D,0x00,Read,ACK
5.125119718750000,0,0x5D,0x00,Read,ACK
5.125142312500000,0,0x5D,0x00,Read,ACK
5.125163781250000,0,0x5D,0x00,Read,ACK
5.125185250000000,0,0x5D,0x00,Read,ACK
5.125206750000000,0,0x5D,0x00,Read,ACK
5.125228250000000,0,0x5D,0x00,Read,ACK
5.125249718750000,0,0x5D,0x00,Read,ACK
5.125271156250000,0,0x5D,0x00,Read,ACK
5.125292625000000,0,0x5D,0x00,Read,ACK
5.125314437500000,0,0x5D,0x00,Read,ACK
5.125335937500000,0,0x5D,0x00,Read,ACK
5.125357406250000,0,0x5D,0x00,Read,ACK
5.125378875000000,0,0x5D,0x00,Read,ACK
5.125400343750000,0,0x5D,0x00,Read,ACK
5.125421812500000,0,0x5D,0xAE,Read,ACK
5.125443281250000,0,0x5D,0x7E,Read,ACK
5.125464750000000,0,0x5D,0x01,Read,ACK
5.125486187500000,0,0x5D,0x00,Read,ACK
5.125507718750000,0,0x5D,0x00,Read,ACK
5.125529187500000,0,0x5D,0x00,Read,ACK
5.125550687500000,0,0x5D,0x00,Read,ACK
5.125572156250000,0,0x5D,0x00,Read,ACK
5.125593593750000,0,0x5D,0x00,Read,ACK
5.125616968750000,0,0x5D,0x00,Read,ACK
5.125638656250000,0,0x5D,0x00,Read,ACK
5.125661812500000,0,0x5D,0x00,Read,ACK
5.125684312500000,0,0x5D,0x00,Read,ACK
5.125705781250000,0,0x5D,0x00,Read,ACK
5.125727250000000,0,0x5D,0x00,Read,ACK
5.125750687500000,0,0x5D,0x00,Read,ACK
5.125773250000000,0,0x5D,0x00,Read,ACK
5.125795718750000,0,0x5D,0x00,Read,ACK
5.125817468750000,0,0x5D,0x00,Read,ACK
5.125840593750000,0,0x5D,0x00,Read,ACK
5.125862062500000,0,0x5D,0x00,Read,NAK
5.131685031250000,0,0x5D,0x2F,Read,ACK
5.131709656250000,0,0x5D,0x00,Read,ACK
5.131731156250000,0,0x5D,0x04,Read,ACK
5.131752625000000,0,0x5D,0x03,Read,ACK
5.131775000000000,0,0x5D,0x1C,Read,ACK
5.131798750000000,0,0x5D,0x07,Read,ACK
5.131820218750000,0,0x5D,0x0C,Read,ACK
5.131841687500000,0,0x5D,0x06,Read,ACK
5.131863156250000,0,0x5D,0x04,Read,ACK
5.131884625000000,0,0x5D,0x03,Read,ACK
5.131906125000000,0,0x5D,0x20,Read,ACK
5.131927562500000,0,0x5D,0x00,Read,ACK
5.131949031250000,0,0x5D,0x00,Read,ACK
5.131970531250000,0,0x5D,0x00,Read,ACK
5.131992031250000,0,0x5D,0x00,Read,ACK
5.132014437500000,0,0x5D,0x00,Read,ACK
5.132036937500000,0,0x5D,0x00,Read,ACK
5.132058437500000,0,0x5D,0x00,Read,ACK
5.132079906250000,0,0x5D,0x00,Read,ACK
5.132101375000000,0,0x5D,0x00,Read,ACK
5.132122968750000,0,0x5D,0x00,Read,ACK
5.132146125000000,0,0x5D,0x00,Read,ACK
5.132167812500000,0,0x5D,0x00,Read,ACK
5.132189437500000,0,0x5D,0x00,Read,ACK
5.132210875000000,0,0x5D,0x00,Read,ACK
5.132232343750000,0,0x5D,0x00,Read,ACK
5.132253812500000,0,0x5D,0x00,Read,ACK
5.132275750000000,0,0x5D,0x00,Read,ACK
5.132297187500000,0,0x5D,0x00,Read,ACK
5.132318656250000,0,0x5D,0x00,Read,ACK
5.132340125000000,0,0x5D,0x00,Read,ACK
5.132361625000000,0,0x5D,0x00,Read,ACK
5.132383062500000,0,0x5D,0x00,Read,ACK
5.132404531250000,0,0x5D,0x00,Read,ACK
5.132426000000000,0,0x5D,0x00,Read,ACK
5.132447437500000,0,0x5D,0x00,Read,ACK
5.132468906250000,0,0x5D,0x00,Read,ACK
5.132490375000000,0,0x5D,0x00,Read,ACK
5.132511843750000,0,0x5D,0x00,Read,ACK
5.132533312500000,0,0x5D,0x00,Read,ACK
5.132554781250000,0,0x5D,0x00,Read,ACK
5.132576250000000,0,0x5D,0x00,Read,ACK
5.132597718750000,0,0x5D,0x00,Read,ACK
5.132619187500000,0,0x5D,0xF4,Read,ACK
5.132640687500000,0,0x5D,0x7E,Read,ACK
5.132662125000000,0,0x5D,0x01,Read,ACK
5.132683593750000,0,0x5D,0x00,Read,ACK
5.132705062500000,0,0x5D,0x00,Read,ACK
5.132727875000000,0,0x5D,0x00,Read,ACK
5.132752437500000,0,0x5D,0x00,Read,ACK
5.132773906250000,0,0x5D,0x00,Read,ACK
5.132800218750000,0,0x5D,0x00,Read,ACK
5.132822187500000,0,0x5D,0x00,Read,ACK
5.132843906250000,0,0x5D,0x00,Read,ACK
5.132865406250000,0,0x5D,0x00,Read,ACK
5.132886843750000,0,0x5D,0x00,Read,ACK
5.132908875000000,0,0x5D,0x00,Read,ACK
5.132931718750000,0,0x5D,0x00,Read,ACK
5.132953625000000,0,0x5D,0x00,Read,ACK
5.132975250000000,0,0x5D,0x00,Read,ACK
5.132997218750000,0,0x5D,0x00,Read,ACK
5.133018656250000,0,0x5D,0x00,Read,ACK
5.133040406250000,0,0x5D,0x00,Read,ACK
5.133066250000000,0,0x5D,0x00,Read,NAK
5.138733718750000,0,0x5D,0x2F,Read,ACK
5.138763156250000,0,0x5D,0x00,Read,ACK
5.138785062500000,0,0x5D,0x04,Read,ACK
5.138808031250000,0,0x5D,0x03,Read,ACK
5.138829531250000,0,0x5D,0x07,Read,ACK
5.138850968750000,0,0x5D,0x07,Read,ACK
5.138872468750000,0,0x5D,0xFC,Read,ACK
5.138893906250000,0,0x5D,0x05,Read,ACK
5.138916281250000,0,0x5D,0x03,Read,ACK
5.138938281250000,0,0x5D,0x03,Read,ACK
5.138963343750000,0,0x5D,0x20,Read,ACK
5.138984781250000,0,0x5D,0x00,Read,ACK
5.139006250000000,0,0x5D,0x00,Read,ACK
5.139027687500000,0,0x5D,0x00,Read,ACK
5.139049156250000,0,0x5D,0x00,Read,ACK
5.139070656250000,0,0x5D,0x00,Read,ACK
5.139092093750000,0,0x5D,0x00,Read,ACK
5.139113562500000,0,0x5D,0x00,Read,ACK
5.139135062500000,0,0x5D,0x00,Read,ACK
5.139156500000000,0,0x5D,0x00,Read,ACK
5.139178875000000,0,0x5D,0x00,Read,ACK
5.139201375000000,0,0x5D,0x00,Read,ACK
5.139222875000000,0,0x5D,0x00,Read,ACK
5.139244312500000,0,0x5D,0x00,Read,ACK
5.139265906250000,0,0x5D,0x00,Read,ACK
5.139288562500000,0,0x5D,0x00,Read,ACK
5.139310031250000,0,0x5D,0x00,Read,ACK
5.139331500000000,0,0x5D,0x00,Read,ACK
5.139352968750000,0,0x5D,0x00,Read,ACK
5.139374406250000,0,0x5D,0x00,Read,ACK
5.139397250000000,0,0x5D,0x00,Read,ACK
5.139419281250000,0,0x5D,0x00,Read,ACK
5.139440875000000,0,0x5D,0x00,Read,ACK
5.139462375000000,0,0x5D,0x00,Read,ACK
5.139483812500000,0,0x5D,0x00,Read,ACK
5.139505281250000,0,0x5D,0x00,Read,ACK
5.139526781250000,0,0x5D,0x00,Read,ACK
5.139548281250000,0,0x5D,0x00,Read,ACK
5.139569750000000,0,0x5D,0x00,Read,ACK
5.139591218750000,0,0x5D,0x00,Read,ACK
5.139612718750000,0,0x5D,0x00,Read,ACK
5.139634218750000,0,0x5D,0x00,Read,ACK
5.139655687500000,0,0x5D,0x00,Read,ACK
5.139677156250000,0,0x5D,0x3A,Read,ACK
5.139698625000000,0,0x5D,0x7F,Read,ACK
5.139720531250000,0,0x5D,0x01,Read,ACK
5.139741968750000,0,0x5D,0x00,Read,ACK
5.139763468750000,0,0x5D,0x00,Read,ACK
5.139784906250000,0,0x5D,0x00,Read,ACK
5.139806375000000,0,0x5D,0x00,Read,ACK
5.139827843750000,0,0x5D,0x00,Read,ACK
5.139850531250000,0,0x5D,0x00,Read,ACK
5.139874250000000,0,0x5D,0x00,Read,ACK
5.139895718750000,0,0x5D,0x00,Read,ACK
5.139919531250000,0,0x5D,0x00,Read,ACK
5.139941906250000,0,0x5D,0x00,Read,ACK
5.139963406250000,0,0x5D,0x00,Read,ACK
5.139984875000000,0,0x5D,0x00,Read,ACK
5.140006343750000,0,0x5D,0x00,Read,ACK
5.140029156250000,0,0x5D,0x00,Read,ACK
5.140051875000000,0,0x5D,0x00,Read,ACK
5.140074312500000,0,0x5D,0x00,Read,ACK
5.140095750000000,0,0x5D,0x00,Read,ACK
5.140117218750000,0,0x5D,0x00,Read,NAK
5.145919343750000,0,0x5D,0x2F,Read,ACK
5.145947937500000,0,0x5D,0x00,Read,ACK
5.145969437500000,0,0x5D,0x04,Read,ACK
5.145991625000000,0,0x5D,0x03,Read,ACK
5.146013125000000,0,0x5D,0xF4,Read,ACK
5.146034593750000,0,0x5D,0x06,Read,ACK
5.146056062500000,0,0x5D,0xEC,Read,ACK
5.146079906250000,0,0x5D,0x05,Read,ACK
5.146101375000000,0,0x5D,0x03,Read,ACK
5.146122875000000,0,0x5D,0x03,Read,ACK
5.146144312500000,0,0x5D,0x20,Read,ACK
5.146165781250000,0,0x5D,0x00,Read,ACK
5.146187250000000,0,0x5D,0x00,Read,ACK
5.146208718750000,0,0x5D,0x00,Read,ACK
5.146230187500000,0,0x5D,0x00,Read,ACK
5.146251656250000,0,0x5D,0x00,Read,ACK
5.146273125000000,0,0x5D,0x00,Read,ACK
5.146294593750000,0,0x5D,0x00,Read,ACK
5.146317625000000,0,0x5D,0x00,Read,ACK
5.146339218750000,0,0x5D,0x00,Read,ACK
5.146360687500000,0,0x5D,0x00,Read,ACK
5.146382156250000,0,0x5D,0x00,Read,ACK
5.146403656250000,0,0x5D,0x00,Read,ACK
5.146426437500000,0,0x5D,0x00,Read,ACK
5.146447875000000,0,0x5D,0x00,Read,ACK
5.146469343750000,0,0x5D,0x00,Read,ACK
5.146491968750000,0,0x5D,0x00,Read,ACK
5.146513500000000,0,0x5D,0x00,Read,ACK
5.146535000000000,0,0x5D,0x00,Read,ACK
5.146556468750000,0,0x5D,0x00,Read,ACK
5.146577937500000,0,0x5D,0x00,Read,ACK
5.146599406250000,0,0x5D,0x00,Read,ACK
5.146620875000000,0,0x5D,0x00,Read,ACK
5.146642343750000,0,0x5D,0x00,Read,ACK
5.146663812500000,0,0x5D,0x00,Read,ACK
5.146685281250000,0,0x5D,0x00,Read,ACK
5.146706750000000,0,0x5D,0x00,Read,ACK
5.146728218750000,0,0x5D,0x00,Read,ACK
5.146749687500000,0,0x5D,0x00,Read,ACK
5.146771156250000,0,0x5D,0x00,Read,ACK
5.146792625000000,0,0x5D,0x00,Read,ACK
5.146814093750000,0,0x5D,0x00,Read,ACK
5.146835562500000,0,0x5D,0x00,Read,ACK
5.146857031250000,0,0x5D,0x80,Read,ACK
5.146878500000000,0,0x5D,0x7F,Read,ACK
5.146899968750000,0,0x5D,0x01,Read,ACK
5.146921437500000,0,0x5D,0x00,Read,ACK
5.146942906250000,0,0x5D,0x00,Read,ACK
5.146964781250000,0,0x5D,0x00,Read,ACK
5.146986281250000,0,0x5D,0x00,Read,ACK
5.147012531250000,0,0x5D,0x00,Read,ACK
5.147035500000000,0,0x5D,0x00,Read,ACK
5.147056968750000,0,0x5D,0x00,Read,ACK
5.147078593750000,0,0x5D,0x00,Read,ACK
5.147100281250000,0,0x5D,0x00,Read,ACK
5.147121750000000,0,0x5D,0x00,Read,ACK
5.147143218750000,0,0x5D,0x00,Read,ACK
5.147164812500000,0,0x5D,0x00,Read,ACK
5.147187406250000,0,0x5D,0x00,Read,ACK
5.147210031250000,0,0x5D,0x00,Read,ACK
5.147232687500000,0,0x5D,0x00,Read,ACK
5.147254187500000,0,0x5D,0x00,Read,ACK
5.147275656250000,0,0x5D,0x00,Read,ACK
5.147297125000000,0,0x5D,0x00,Read,NAK
5.153183531250000,0,0x5D,0x2F,Read,ACK
5.153215593750000,0,0x5D,0x00,Read,ACK
5.153239250000000,0,0x5D,0x04,Read,ACK
5.153260750000000,0,0x5D,0x03,Read,ACK
5.153282218750000,0,0x5D,0xE4,Read,ACK
5.153303656250000,0,0x5D,0x06,Read,ACK
5.153325125000000,0,0x5D,0xDB,Read,ACK
5.153346593750000,0,0x5D,0x05,Read,ACK
5.153368062500000,0,0x5D,0x03,Read,ACK
5.153389562500000,0,0x5D,0x02,Read,ACK
5.153411000000000,0,0x5D,0x20,Read,ACK
5.153432468750000,0,0x5D,0x00,Read,ACK
5.153455531250000,0,0x5D,0x00,Read,ACK
5.153477000000000,0,0x5D,0x00,Read,ACK
5.153498500000000,0,0x5D,0x00,Read,ACK
5.153520000000000,0,0x5D,0x00,Read,ACK
5.153541437500000,0,0x5D,0x00,Read,ACK
5.153562906250000,0,0x5D,0x00,Read,ACK
5.153584468750000,0,0x5D,0x00,Read,ACK
5.153607218750000,0,0x5D,0x00,Read,ACK
5.153628687500000,0,0x5D,0x00,Read,ACK
5.153650156250000,0,0x5D,0x00,Read,ACK
5.153673375000000,0,0x5D,0x00,Read,ACK
5.153694875000000,0,0x5D,0x00,Read,ACK
5.153716312500000,0,0x5D,0x00,Read,ACK
5.153737781250000,0,0x5D,0x00,Read,ACK
5.153759250000000,0,0x5D,0x00,Read,ACK
5.153780718750000,0,0x5D,0x00,Read,ACK
5.153802437500000,0,0x5D,0x00,Read,ACK
5.153823906250000,0,0x5D,0x00,Read,ACK
5.153845406250000,0,0x5D,0x00,Read,ACK
5.153866843750000,0,0x5D,0x00,Read,ACK
5.153888375000000,0,0x5D,0x00,Read,ACK
5.153909843750000,0,0x5D,0x00,Read,ACK
5.153931343750000,0,0x5D,0x00,Read,ACK
5.153952781250000,0,0x5D,0x00,Read,ACK
5.153974281250000,0,0x5D,0x00,Read,ACK
5.153995718750000,0,0x5D,0x00,Read,ACK
5.154017187500000,0,0x5D,0x00,Read,ACK
5.154038656250000,0,0x5D,0x00,Read,ACK
5.154060125000000,0,0x5D,0x00,Read,ACK
5.154082062500000,0,0x5D,0x00,Read,ACK
5.154103500000000,0,0x5D,0x00,Read,ACK
5.154126781250000,0,0x5D,0xC6,Read,ACK
5.154151687500000,0,0x5D,0x7F,Read,ACK
5.154173156250000,0,0x5D,0x01,Read,ACK
5.154196875000000,0,0x5D,0x00,Read,ACK
5.154219250000000,0,0x5D,0x00,Read,ACK
5.154240968750000,0,0x5D,0x00,Read,ACK
5.154262468750000,0,0x5D,0x00,Read,ACK
5.154283937500000,0,0x5D,0x00,Read,ACK
5.154305406250000,0,0x5D,0x00,Read,ACK
5.154326875000000,0,0x5D,0x00,Read,ACK
5.154348343750000,0,0x5D,0x00,Read,ACK
5.154370125000000,0,0x5D,0x00,Read,ACK
5.154392187500000,0,0x5D,0x00,Read,ACK
5.154415468750000,0,0x5D,0x00,Read,ACK
5.154437187500000,0,0x5D,0x00,Read,ACK
5.154461687500000,0,0x5D,0x00,Read,ACK
5.154483312500000,0,0x5D,0x00,Read,ACK
5.154504781250000,0,0x5D,0x00,Read,ACK
5.154528000000000,0,0x5D,0x00,Read,ACK
5.154549531250000,0,0x5D,0x00,Read,ACK
5.154571000000000,0,0x5D,0x00,Read,NAK
5.157121500000000,0,0x5D,0x05,Write,ACK
5.157144312500000,0,0x5D,0x00,Write,ACK
5.157171593750000,0,0x5D,0x00,Write,ACK
5.157197781250000,0,0x5D,0x08,Write,ACK
5.159007656250000,0,0x5D,0x05,Write,ACK
5.159029000000000,0,0x5D,0x00,Write,ACK
5.159052781250000,0,0x5D,0x37,Write,ACK
5.159074250000000,0,0x5D,0x03,Write,ACK
5.159097562500000,0,0x5D,0x06,Write,ACK
5.159120218750000,0,0x5D,0x00,Write,ACK
5.159145906250000,0,0x5D,0x05,Write,ACK
5.159167375000000,0,0x5D,0x00,Write,ACK
5.159188843750000,0,0x5D,0x07,Write,ACK
5.159210343750000,0,0x5D,0x00,Write,ACK
5.159231812500000,0,0x5D,0x00,Write,ACK
5.160786656250000,0,0x5D,0x05,Write,ACK
5.160808031250000,0,0x5D,0x00,Write,ACK
5.160829750000000,0,0x5D,0x33,Write,ACK
5.160851187500000,0,0x5D,0x03,Write,ACK
5.160872812500000,0,0x5D,0x06,Write,ACK
5.160895531250000,0,0x5D,0x00,Write,ACK
5.160917250000000,0,0x5D,0x05,Write,ACK
5.160938687500000,0,0x5D,0x00,Write,ACK
5.160960156250000,0,0x5D,0x03,Write,ACK
5.160981625000000,0,0x5D,0x03,Write,ACK
5.161003093750000,0,0x5D,0x00,Write,ACK
5.162735937500000,0,0x5D,0x05,Write,ACK
5.162757375000000,0,0x5D,0x00,Write,ACK
5.162785281250000,0,0x5D,0x35,Write,ACK
5.162808531250000,0,0x5D,0x03,Write,ACK
5.162834000000000,0,0x5D,0x06,Write,ACK
5.162859062500000,0,0x5D,0x00,Write,ACK
5.162886281250000,0,0x5D,0x05,Write,ACK
5.162907781250000,0,0x5D,0x00,Write,ACK
5.162929468750000,0,0x5D,0x05,Write,ACK
5.162951375000000,0,0x5D,0x03,Write,ACK
5.162973062500000,0,0x5D,0x00,Write,ACK
5.221935281250000,0,0x5D,0x2F,Read,ACK
5.221965562500000,0,0x5D,0x00,Read,ACK
5.221988375000000,0,0x5D,0x04,Read,ACK
5.222010875000000,0,0x5D,0x03,Read,ACK
5.222033562500000,0,0x5D,0xD0,Read,ACK
5.222055375000000,0,0x5D,0x06,Read,ACK
5.222076843750000,0,0x5D,0x85,Read,ACK
5.222098312500000,0,0x5D,0x05,Read,ACK
5.222119750000000,0,0x5D,0x03,Read,ACK
5.222141906250000,0,0x5D,0x03,Read,ACK
5.222163375000000,0,0x5D,0x20,Read,ACK
5.222185312500000,0,0x5D,0x00,Read,ACK
5.222206750000000,0,0x5D,0x00,Read,ACK
5.222228218750000,0,0x5D,0x00,Read,ACK
5.222249687500000,0,0x5D,0x00,Read,ACK
5.222271156250000,0,0x5D,0x00,Read,ACK
5.222292625000000,0,0x5D,0x00,Read,ACK
5.222314093750000,0,0x5D,0x00,Read,ACK
5.222335562500000,0,0x5D,0x00,Read,ACK
5.222357062500000,0,0x5D,0x00,Read,ACK
5.222379031250000,0,0x5D,0x00,Read,ACK
5.222400531250000,0,0x5D,0x00,Read,ACK
5.222422000000000,0,0x5D,0x00,Read,ACK
5.222443468750000,0,0x5D,0x00,Read,ACK
5.222464937500000,0,0x5D,0x00,Read,ACK
5.222486406250000,0,0x5D,0x00,Read,ACK
5.222507875000000,0,0x5D,0x00,Read,ACK
5.222529343750000,0,0x5D,0x00,Read,ACK
5.222550781250000,0,0x5D,0x00,Read,ACK
5.222572250000000,0,0x5D,0x00,Read,ACK
5.222593718750000,0,0x5D,0x00,Read,ACK
5.222615187500000,0,0x5D,0x00,Read,ACK
5.222636656250000,0,0x5D,0x00,Read,ACK
5.222658156250000,0,0x5D,0x00,Read,ACK
5.222679625000000,0,0x5D,0x00,Read,ACK
5.222701062500000,0,0x5D,0x00,Read,ACK
5.222722562500000,0,0x5D,0x00,Read,ACK
5.222744031250000,0,0x5D,0x00,Read,ACK
5.222765468750000,0,0x5D,0x00,Read,ACK
5.222786968750000,0,0x5D,0x00,Read,ACK
5.222808406250000,0,0x5D,0x00,Read,ACK
5.222829875000000,0,0x5D,0x00,Read,ACK
5.222851343750000,0,0x5D,0x00,Read,ACK
5.222872812500000,0,0x5D,0x6A,Read,ACK
5.222898625000000,0,0x5D,0x81,Read,ACK
5.222923343750000,0,0x5D,0x01,Read,ACK
5.222945593750000,0,0x5D,0x00,Read,ACK
5.222967500000000,0,0x5D,0x00,Read,ACK
5.222988968750000,0,0x5D,0x00,Read,ACK
5.223010437500000,0,0x5D,0x00,Read,ACK
5.223032406250000,0,0x5D,0x00,Read,ACK
5.223053937500000,0,0x5D,0x00,Read,ACK
5.223075375000000,0,0x5D,0x00,Read,ACK
5.223096843750000,0,0x5D,0x00,Read,ACK
5.223119312500000,0,0x5D,0x00,Read,ACK
5.223140781250000,0,0x5D,0x00,Read,ACK
5.223162468750000,0,0x5D,0x00,Read,ACK
5.223183906250000,0,0x5D,0x00,Read,ACK
5.223205531250000,0,0x5D,0x00,Read,ACK
5.223226968750000,0,0x5D,0x00,Read,ACK
5.223249250000000,0,0x5D,0x00,Read,ACK
5.223270750000000,0,0x5D,0x00,Read,ACK
5.223292718750000,0,0x5D,0x00,Read,ACK
5.223314187500000,0,0x5D,0x00,Read,NAK
5.223507968750000,0,0x5D,0x2F,Read,ACK
5.223532812500000,0,0x5D,0x00,Read,ACK
5.223554250000000,0,0x5D,0x04,Read,ACK
5.223575750000000,0,0x5D,0x03,Read,ACK
5.223597625000000,0,0x5D,0xD0,Read,ACK
5.223619093750000,0,0x5D,0x06,Read,ACK
5.223640687500000,0,0x5D,0x85,Read,ACK
5.223662156250000,0,0x5D,0x05,Read,ACK
5.223685187500000,0,0x5D,0x03,Read,ACK
5.223706968750000,0,0x5D,0x03,Read,ACK
5.223730000000000,0,0x5D,0x20,Read,ACK
5.223755218750000,0,0x5D,0x00,Read,ACK
5.223779937500000,0,0x5D,0x00,Read,ACK
5.223801406250000,0,0x5D,0x00,Read,ACK
5.223824937500000,0,0x5D,0x00,Read,ACK
5.223846843750000,0,0x5D,0x00,Read,ACK
5.223871718750000,0,0x5D,0x00,Read,ACK
5.223894093750000,0,0x5D,0x00,Read,ACK
5.223915750000000,0,0x5D,0x00,Read,ACK
5.223937187500000,0,0x5D,0x00,Read,ACK
5.223960562500000,0,0x5D,0x00,Read,ACK
5.223982375000000,0,0x5D,0x00,Read,ACK
5.224003843750000,0,0x5D,0x00,Read,ACK
5.224026687500000,0,0x5D,0x00,Read,ACK
5.224048656250000,0,0x5D,0x00,Read,ACK
5.224070375000000,0,0x5D,0x00,Read,ACK
5.224092156250000,0,0x5D,0x00,Read,ACK
5.224115843750000,0,0x5D,0x00,Read,ACK
5.224139843750000,0,0x5D,0x00,Read,ACK
5.224161312500000,0,0x5D,0x00,Read,ACK
5.224182781250000,0,0x5D,0x00,Read,ACK
5.224204656250000,0,0x5D,0x00,Read,ACK
5.224229187500000,0,0x5D,0x00,Read,ACK
5.224250656250000,0,0x5D,0x00,Read,ACK
5.224272125000000,0,0x5D,0x00,Read,ACK
5.224297750000000,0,0x5D,0x00,Read,ACK
5.224320812500000,0,0x5D,0x00,Read,ACK
5.224342281250000,0,0x5D,0x00,Read,ACK
5.224363750000000,0,0x5D,0x00,Read,ACK
5.224388000000000,0,0x5D,0x00,Read,ACK
5.224411906250000,0,0x5D,0x00,Read,ACK
5.224433843750000,0,0x5D,0x00,Read,ACK
5.224455750000000,0,0x5D,0x00,Read,ACK
5.224477625000000,0,0x5D,0x6A,Read,ACK
5.224500500000000,0,0x5D,0x81,Read,ACK
5.224521968750000,0,0x5D,0x01,Read,ACK
5.224544375000000,0,0x5D,0x00,Read,ACK
5.224565812500000,0,0x5D,0x00,Read,ACK
5.224588718750000,0,0x5D,0x00,Read,ACK
5.224611468750000,0,0x5D,0x00,Read,ACK
5.224635062500000,0,0x5D,0x00,Read,ACK
5.224656531250000,0,0x5D,0x00,Read,ACK
5.224678031250000,0,0x5D,0x00,Read,ACK
5.224699500000000,0,0x5D,0x00,Read,ACK
5.224720968750000,0,0x5D,0x00,Read,ACK
5.224743250000000,0,0x5D,0x00,Read,ACK
5.224765718750000,0,0x5D,0x00,Read,ACK
5.224788781250000,0,0x5D,0x00,Read,ACK
5.224810656250000,0,0x5D,0x00,Read,ACK
5.224833125000000,0,0x5D,0x00,Read,ACK
5.224856250000000,0,0x5D,0x00,Read,ACK
5.224877687500000,0,0x5D,0x00,Read,ACK
5.224899156250000,0,0x5D,0x00,Read,ACK
5.224920625000000,0,0x5D,0x00,Read,NAK
5.225083718750000,0,0x5D,0x2F,Read,ACK
5.225105312500000,0,0x5D,0x00,Read,ACK
5.225127000000000,0,0x5D,0x04,Read,ACK
5.225148968750000,0,0x5D,0x03,Read,ACK
5.225170437500000,0,0x5D,0xD6,Read,ACK
5.225192218750000,0,0x5D,0x06,Read,ACK
5.225214000000000,0,0x5D,0x6B,Read,ACK
5.225235468750000,0,0x5D,0x05,Read,ACK
5.225256937500000,0,0x5D,0x04,Read,ACK
5.225278406250000,0,0x5D,0x02,Read,ACK
5.225299906250000,0,0x5D,0x20,Read,ACK
5.225321375000000,0,0x5D,0x00,Read,ACK
5.225342843750000,0,0x5D,0x00,Read,ACK
5.225366250000000,0,0x5D,0x00,Read,ACK
5.225391093750000,0,0x5D,0x00,Read,ACK
5.225412593750000,0,0x5D,0x00,Read,ACK
5.225434062500000,0,0x5D,0x00,Read,ACK
5.225455531250000,0,0x5D,0x00,Read,ACK
5.225477000000000,0,0x5D,0x00,Read,ACK
5.225498500000000,0,0x5D,0x00,Read,ACK
5.225519937500000,0,0x5D,0x00,Read,ACK
5.225541437500000,0,0x5D,0x00,Read,ACK
5.225562875000000,0,0x5D,0x00,Read,ACK
5.225585187500000,0,0x5D,0x00,Read,ACK
5.225607437500000,0,0x5D,0x00,Read,ACK
5.225628906250000,0,0x5D,0x00,Read,ACK
5.225650625000000,0,0x5D,0x00,Read,ACK
5.225672062500000,0,0x5D,0x00,Read,ACK
5.225694187500000,0,0x5D,0x00,Read,ACK
5.225716968750000,0,0x5D,0x00,Read,ACK
5.225740125000000,0,0x5D,0x00,Read,ACK
5.225761812500000,0,0x5D,0x00,Read,ACK
5.225783281250000,0,0x5D,0x00,Read,ACK
5.225804750000000,0,0x5D,0x00,Read,ACK
5.225826218750000,0,0x5D,0x00,Read,ACK
5.225847687500000,0,0x5D,0x00,Read,ACK
5.225869937500000,0,0x5D,0x00,Read,ACK
5.225892218750000,0,0x5D,0x00,Read,ACK
5.225913718750000,0,0x5D,0x00,Read,ACK
5.225935187500000,0,0x5D,0x00,Read,ACK
5.225956656250000,0,0x5D,0x00,Read,ACK
5.225978156250000,0,0x5D,0x00,Read,ACK
5.225999593750000,0,0x5D,0x00,Read,ACK
5.226021062500000,0,0x5D,0xB0,Read,ACK
5.226042500000000,0,0x5D,0x81,Read,ACK
5.226064000000000,0,0x5D,0x01,Read,ACK
5.226085468750000,0,0x5D,0x00,Read,ACK
5.226107093750000,0,0x5D,0x00,Read,ACK
5.226128593750000,0,0x5D,0x00,Read,ACK
5.226150281250000,0,0x5D,0x00,Read,ACK
5.226171750000000,0,0x5D,0x00,Read,ACK
5.226193437500000,0,0x5D,0x00,Read,ACK
5.226214937500000,0,0x5D,0x00,Read,ACK
5.226236406250000,0,0x5D,0x00,Read,ACK
5.226258093750000,0,0x5D,0x00,Read,ACK
5.226279531250000,0,0x5D,0x00,Read,ACK
5.226301031250000,0,0x5D,0x00,Read,ACK
5.226322468750000,0,0x5D,0x00,Read,ACK
5.226343937500000,0,0x5D,0x00,Read,ACK
5.226365500000000,0,0x5D,0x00,Read,ACK
5.226386968750000,0,0x5D,0x00,Read,ACK
5.226409750000000,0,0x5D,0x00,Read,ACK
5.226436281250000,0,0x5D,0x00,Read,ACK
5.226457781250000,0,0x5D,0x00,Read,NAK
5.226598625000000,0,0x5D,0x2F,Read,ACK
5.226620781250000,0,0x5D,0x00,Read,ACK
5.226642250000000,0,0x5D,0x04,Read,ACK
5.226664875000000,0,0x5D,0x03,Read,ACK
5.226686531250000,0,0x5D,0xD6,Read,ACK
5.226707968750000,0,0x5D,0x06,Read,ACK
5.226731437500000,0,0x5D,0x6B,Read,ACK
5.226753531250000,0,0x5D,0x05,Read,ACK
5.226775000000000,0,0x5D,0x04,Read,ACK
5.226796468750000,0,0x5D,0x02,Read,ACK
5.226818406250000,0,0x5D,0x20,Read,ACK
5.226839906250000,0,0x5D,0x00,Read,ACK
5.226861375000000,0,0x5D,0x00,Read,ACK
5.226882843750000,0,0x5D,0x00,Read,ACK
5.226904312500000,0,0x5D,0x00,Read,ACK
5.226926562500000,0,0x5D,0x00,Read,ACK
5.226948062500000,0,0x5D,0x00,Read,ACK
5.226970656250000,0,0x5D,0x00,Read,ACK
5.226992125000000,0,0x5D,0x00,Read,ACK
5.227014781250000,0,0x5D,0x00,Read,ACK
5.227037312500000,0,0x5D,0x00,Read,ACK
5.227060437500000,0,0x5D,0x00,Read,ACK
5.227082906250000,0,0x5D,0x00,Read,ACK
5.227104406250000,0,0x5D,0x00,Read,ACK
5.227126125000000,0,0x5D,0x00,Read,ACK
5.227147656250000,0,0x5D,0x00,Read,ACK
5.227169093750000,0,0x5D,0x00,Read,ACK
5.227190593750000,0,0x5D,0x00,Read,ACK
5.227212062500000,0,0x5D,0x00,Read,ACK
5.227233500000000,0,0x5D,0x00,Read,ACK
5.227254968750000,0,0x5D,0x00,Read,ACK
5.227278125000000,0,0x5D,0x00,Read,ACK
5.227300968750000,0,0x5D,0x00,Read,ACK
5.227322468750000,0,0x5D,0x00,Read,ACK
5.227343906250000,0,0x5D,0x00,Read,ACK
5.227365375000000,0,0x5D,0x00,Read,ACK
5.227386843750000,0,0x5D,0x00,Read,ACK
5.227408312500000,0,0x5D,0x00,Read,ACK
5.227430562500000,0,0x5D,0x00,Read,ACK
5.227452000000000,0,0x5D,0x00,Read,ACK
5.227473500000000,0,0x5D,0x00,Read,ACK
5.227494937500000,0,0x5D,0x00,Read,ACK
5.227516406250000,0,0x5D,0x00,Read,ACK
5.227538218750000,0,0x5D,0xB0,Read,ACK
5.227559718750000,0,0x5D,0x81,Read,ACK
5.227581187500000,0,0x5D,0x01,Read,ACK
5.227602656250000,0,0x5D,0x00,Read,ACK
5.227624125000000,0,0x5D,0x00,Read,ACK
5.227646406250000,0,0x5D,0x00,Read,ACK
5.227668031250000,0,0x5D,0x00,Read,ACK
5.227690062500000,0,0x5D,0x00,Read,ACK
5.227713031250000,0,0x5D,0x00,Read,ACK
5.227734531250000,0,0x5D,0x00,Read,ACK
5.227756312500000,0,0x5D,0x00,Read,ACK
5.227778218750000,0,0x5D,0x00,Read,ACK
5.227801062500000,0,0x5D,0x00,Read,ACK
5.227822531250000,0,0x5D,0x00,Read,ACK
5.227845375000000,0,0x5D,0x00,Read,ACK
5.227867718750000,0,0x5D,0x00,Read,ACK
5.227889937500000,0,0x5D,0x00,Read,ACK
5.227911468750000,0,0x5D,0x00,Read,ACK
5.227935281250000,0,0x5D,0x00,Read,ACK
5.227959750000000,0,0x5D,0x00,Read,ACK
5.227981250000000,0,0x5D,0x00,Read,NAK
5.228209406250000,0,0x5D,0x2F,Read,ACK
5.228237062500000,0,0x5D,0x00,Read,ACK
5.228258500000000,0,0x5D,0x04,Read,ACK
5.228280062500000,0,0x5D,0x03,Read,ACK
5.228301500000000,0,0x5D,0xD6,Read,ACK
5.228324375000000,0,0x5D,0x06,Read,ACK
5.228346062500000,0,0x5D,0x6B,Read,ACK
5.228368531250000,0,0x5D,0x05,Read,ACK
5.228393343750000,0,0x5D,0x04,Read,ACK
5.228414968750000,0,0x5D,0x02,Read,ACK
5.228436500000000,0,0x5D,0x20,Read,ACK
5.228458000000000,0,0x5D,0x00,Read,ACK
5.228481750000000,0,0x5D,0x00,Read,ACK
5.228504031250000,0,0x5D,0x00,Read,ACK
5.228528000000000,0,0x5D,0x00,Read,ACK
5.228549500000000,0,0x5D,0x00,Read,ACK
5.228570937500000,0,0x5D,0x00,Read,ACK
5.228592937500000,0,0x5D,0x00,Read,ACK
5.228614468750000,0,0x5D,0x00,Read,ACK
5.228635906250000,0,0x5D,0x00,Read,ACK
5.228657375000000,0,0x5D,0x00,Read,ACK
5.228678843750000,0,0x5D,0x00,Read,ACK
5.228700343750000,0,0x5D,0x00,Read,ACK
5.228722343750000,0,0x5D,0x00,Read,ACK
5.228743812500000,0,0x5D,0x00,Read,ACK
5.228765281250000,0,0x5D,0x00,Read,ACK
5.228786781250000,0,0x5D,0x00,Read,ACK
5.228809625000000,0,0x5D,0x00,Read,ACK
5.228831125000000,0,0x5D,0x00,Read,ACK
5.228853968750000,0,0x5D,0x00,Read,ACK
5.228875437500000,0,0x5D,0x00,Read,ACK
5.228897093750000,0,0x5D,0x00,Read,ACK
5.228918593750000,0,0x5D,0x00,Read,ACK
5.228940218750000,0,0x5D,0x00,Read,ACK
5.228961718750000,0,0x5D,0x00,Read,ACK
5.228983156250000,0,0x5D,0x00,Read,ACK
5.229004906250000,0,0x5D,0x00,Read,ACK
5.229026375000000,0,0x5D,0x00,Read,ACK
5.229047843750000,0,0x5D,0x00,Read,ACK
5.229069375000000,0,0x5D,0x00,Read,ACK
5.229090843750000,0,0x5D,0x00,Read,ACK
5.229112343750000,0,0x5D,0x00,Read,ACK
5.229133812500000,0,0x5D,0x00,Read,ACK
5.229155312500000,0,0x5D,0xB0,Read,ACK
5.229176781250000,0,0x5D,0x81,Read,ACK
5.229198250000000,0,0x5D,0x01,Read,ACK
5.229219718750000,0,0x5D,0x00,Read,ACK
5.229241187500000,0,0x5D,0x00,Read,ACK
5.229262656250000,0,0x5D,0x00,Read,ACK
5.229284125000000,0,0x5D,0x00,Read,ACK
5.229305593750000,0,0x5D,0x00,Read,ACK
5.229327062500000,0,0x5D,0x00,Read,ACK
5.229348968750000,0,0x5D,0x00,Read,ACK
5.229370437500000,0,0x5D,0x00,Read,ACK
5.229391906250000,0,0x5D,0x00,Read,ACK
5.229413687500000,0,0x5D,0x00,Read,ACK
5.229435187500000,0,0x5D,0x00,Read,ACK
5.229456812500000,0,0x5D,0x00,Read,ACK
5.229478875000000,0,0x5D,0x00,Read,ACK
5.229500281250000,0,0x5D,0x00,Read,ACK
5.229521750000000,0,0x5D,0x00,Read,ACK
5.229543250000000,0,0x5D,0x00,Read,ACK
5.229564718750000,0,0x5D,0x00,Read,ACK
5.229586312500000,0,0x5D,0x00,Read,NAK
5.232248906250000,0,0x5D,0x2F,Read,ACK
5.232275156250000,0,0x5D,0x00,Read,ACK
5.232296656250000,0,0x5D,0x04,Read,ACK
5.232318125000000,0,0x5D,0x03,Read,ACK
5.232339593750000,0,0x5D,0xDF,Read,ACK
5.232361062500000,0,0x5D,0x06,Read,ACK
5.232382687500000,0,0x5D,0x4F,Read,ACK
5.232405125000000,0,0x5D,0x05,Read,ACK
5.232429718750000,0,0x5D,0x04,Read,ACK
5.232451187500000,0,0x5D,0x02,Read,ACK
5.232472656250000,0,0x5D,0x20,Read,ACK
5.232494125000000,0,0x5D,0x00,Read,ACK
5.232515593750000,0,0x5D,0x00,Read,ACK
5.232537062500000,0,0x5D,0x00,Read,ACK
5.232558531250000,0,0x5D,0x00,Read,ACK
5.232580000000000,0,0x5D,0x00,Read,ACK
5.232601468750000,0,0x5D,0x00,Read,ACK
5.232622937500000,0,0x5D,0x00,Read,ACK
5.232644406250000,0,0x5D,0x00,Read,ACK
5.232667250000000,0,0x5D,0x00,Read,ACK
5.232688718750000,0,0x5D,0x00,Read,ACK
5.232710187500000,0,0x5D,0x00,Read,ACK
5.232731750000000,0,0x5D,0x00,Read,ACK
5.232753250000000,0,0x5D,0x00,Read,ACK
5.232774937500000,0,0x5D,0x00,Read,ACK
5.232796437500000,0,0x5D,0x00,Read,ACK
5.232817906250000,0,0x5D,0x00,Read,ACK
5.232839781250000,0,0x5D,0x00,Read,ACK
5.232861281250000,0,0x5D,0x00,Read,ACK
5.232882750000000,0,0x5D,0x00,Read,ACK
5.232904218750000,0,0x5D,0x00,Read,ACK
5.232926156250000,0,0x5D,0x00,Read,ACK
5.232947656250000,0,0x5D,0x00,Read,ACK
5.232969125000000,0,0x5D,0x00,Read,ACK
5.232990718750000,0,0x5D,0x00,Read,ACK
5.233012187500000,0,0x5D,0x00,Read,ACK
5.233033656250000,0,0x5D,0x00,Read,ACK
5.233055125000000,0,0x5D,0x00,Read,ACK
5.233076593750000,0,0x5D,0x00,Read,ACK
5.233098468750000,0,0x5D,0x00,Read,ACK
5.233119968750000,0,0x5D,0x00,Read,ACK
5.233141437500000,0,0x5D,0x00,Read,ACK
5.233162906250000,0,0x5D,0x00,Read,ACK
5.233184375000000,0,0x5D,0xF6,Read,ACK
5.233206000000000,0,0x5D,0x81,Read,ACK
5.233227437500000,0,0x5D,0x01,Read,ACK
5.233248906250000,0,0x5D,0x00,Read,ACK
5.233270406250000,0,0x5D,0x00,Read,ACK
5.233291843750000,0,0x5D,0x00,Read,ACK
5.233313406250000,0,0x5D,0x00,Read,ACK
5.233334906250000,0,0x5D,0x00,Read,ACK
5.233360750000000,0,0x5D,0x00,Read,ACK
5.233382593750000,0,0x5D,0x00,Read,ACK
5.233406156250000,0,0x5D,0x00,Read,ACK
5.233428156250000,0,0x5D,0x00,Read,ACK
5.233450562500000,0,0x5D,0x00,Read,ACK
5.233472031250000,0,0x5D,0x00,Read,ACK
5.233493500000000,0,0x5D,0x00,Read,ACK
5.233514968750000,0,0x5D,0x00,Read,ACK
5.233536531250000,0,0x5D,0x00,Read,ACK
5.233558406250000,0,0x5D,0x00,Read,ACK
5.233581406250000,0,0x5D,0x00,Read,ACK
5.233602937500000,0,0x5D,0x00,Read,ACK
5.233624718750000,0,0x5D,0x00,Read,NAK
5.239570968750000,0,0x5D,0x2F,Read,ACK
5.239597656250000,0,0x5D,0x00,Read,ACK
5.239621656250000,0,0x5D,0x04,Read,ACK
5.239643156250000,0,0x5D,0x03,Read,ACK
5.239664625000000,0,0x5D,0xEC,Read,ACK
5.239686093750000,0,0x5D,0x06,Read,ACK
5.239707562500000,0,0x5D,0x37,Read,ACK
5.239729031250000,0,0x5D,0x05,Read,ACK
5.239750500000000,0,0x5D,0x03,Read,ACK
5.239771968750000,0,0x5D,0x03,Read,ACK
5.239793437500000,0,0x5D,0x20,Read,ACK
5.239814906250000,0,0x5D,0x00,Read,ACK
5.239836406250000,0,0x5D,0x00,Read,ACK
5.239857843750000,0,0x5D,0x00,Read,ACK
5.239879312500000,0,0x5D,0x00,Read,ACK
5.239900781250000,0,0x5D,0x00,Read,ACK
5.239924312500000,0,0x5D,0x00,Read,ACK
5.239946062500000,0,0x5D,0x00,Read,ACK
5.239967562500000,0,0x5D,0x00,Read,ACK
5.239989031250000,0,0x5D,0x00,Read,ACK
5.240010500000000,0,0x5D,0x00,Read,ACK
5.240031968750000,0,0x5D,0x00,Read,ACK
5.240053437500000,0,0x5D,0x00,Read,ACK
5.240074906250000,0,0x5D,0x00,Read,ACK
5.240096375000000,0,0x5D,0x00,Read,ACK
5.240117843750000,0,0x5D,0x00,Read,ACK
5.240139312500000,0,0x5D,0x00,Read,ACK
5.240160781250000,0,0x5D,0x00,Read,ACK
5.240182250000000,0,0x5D,0x00,Read,ACK
5.240203687500000,0,0x5D,0x00,Read,ACK
5.240225187500000,0,0x5D,0x00,Read,ACK
5.240246656250000,0,0x5D,0x00,Read,ACK
5.240268093750000,0,0x5D,0x00,Read,ACK
5.240289562500000,0,0x5D,0x00,Read,ACK
5.240311062500000,0,0x5D,0x00,Read,ACK
5.240332500000000,0,0x5D,0x00,Read,ACK
5.240354218750000,0,0x5D,0x00,Read,ACK
5.240375687500000,0,0x5D,0x00,Read,ACK
5.240397156250000,0,0x5D,0x00,Read,ACK
5.240418625000000,0,0x5D,0x00,Read,ACK
5.240440093750000,0,0x5D,0x00,Read,ACK
5.240461562500000,0,0x5D,0x00,Read,ACK
5.240483031250000,0,0x5D,0x00,Read,ACK
5.240507156250000,0,0x5D,0x3C,Read,ACK
5.240528687500000,0,0x5D,0x82,Read,ACK
5.240550125000000,0,0x5D,0x01,Read,ACK
5.240574531250000,0,0x5D,0x00,Read,ACK
5.240596968750000,0,0x5D,0x00,Read,ACK
5.240619093750000,0,0x5D,0x00,Read,ACK
5.240640562500000,0,0x5D,0x00,Read,ACK
5.240662031250000,0,0x5D,0x00,Read,ACK
5.240683500000000,0,0x5D,0x00,Read,ACK
5.240707031250000,0,0x5D,0x00,Read,ACK
5.240728468750000,0,0x5D,0x00,Read,ACK
5.240750437500000,0,0x5D,0x00,Read,ACK
5.240772437500000,0,0x5D,0x00,Read,ACK
5.240793875000000,0,0x5D,0x00,Read,ACK
5.240815437500000,0,0x5D,0x00,Read,ACK
5.240836875000000,0,0x5D,0x00,Read,ACK
5.240859937500000,0,0x5D,0x00,Read,ACK
5.240881375000000,0,0x5D,0x00,Read,ACK
5.240902843750000,0,0x5D,0x00,Read,ACK
5.240924781250000,0,0x5D,0x00,Read,ACK
5.240946281250000,0,0x5D,0x00,Read,NAK
5.246577656250000,0,0x5D,0x2F,Read,ACK
5.246605687500000,0,0x5D,0x00,Read,ACK
5.246627187500000,0,0x5D,0x04,Read,ACK
5.246648656250000,0,0x5D,0x03,Read,ACK
5.246670125000000,0,0x5D,0xF9,Read,ACK
5.246691625000000,0,0x5D,0x06,Read,ACK
5.246713062500000,0,0x5D,0x24,Read,ACK
5.246738250000000,0,0x5D,0x05,Read,ACK
5.246759687500000,0,0x5D,0x03,Read,ACK
5.246781156250000,0,0x5D,0x03,Read,ACK
5.246802625000000,0,0x5D,0x20,Read,ACK
5.246824093750000,0,0x5D,0x00,Read,ACK
5.246845562500000,0,0x5D,0x00,Read,ACK
5.246867031250000,0,0x5D,0x00,Read,ACK
5.246888500000000,0,0x5D,0x00,Read,ACK
5.246909968750000,0,0x5D,0x00,Read,ACK
5.246931437500000,0,0x5D,0x00,Read,ACK
5.246952906250000,0,0x5D,0x00,Read,ACK
5.246975562500000,0,0x5D,0x00,Read,ACK
5.246997031250000,0,0x5D,0x00,Read,ACK
5.247019156250000,0,0x5D,0x00,Read,ACK
5.247040656250000,0,0x5D,0x00,Read,ACK
5.247063468750000,0,0x5D,0x00,Read,ACK
5.247084968750000,0,0x5D,0x00,Read,ACK
5.247106437500000,0,0x5D,0x00,Read,ACK
5.247127906250000,0,0x5D,0x00,Read,ACK
5.247149625000000,0,0x5D,0x00,Read,ACK
5.247171062500000,0,0x5D,0x00,Read,ACK
5.247194750000000,0,0x5D,0x00,Read,ACK
5.247216250000000,0,0x5D,0x00,Read,ACK
5.247237718750000,0,0x5D,0x00,Read,ACK
5.247259187500000,0,0x5D,0x00,Read,ACK
5.247280656250000,0,0x5D,0x00,Read,ACK
5.247302125000000,0,0x5D,0x00,Read,ACK
5.247323562500000,0,0x5D,0x00,Read,ACK
5.247345062500000,0,0x5D,0x00,Read,ACK
5.247366656250000,0,0x5D,0x00,Read,ACK
5.247388250000000,0,0x5D,0x00,Read,ACK
5.247409687500000,0,0x5D,0x00,Read,ACK
5.247431187500000,0,0x5D,0x00,Read,ACK
5.247452625000000,0,0x5D,0x00,Read,ACK
5.247474093750000,0,0x5D,0x00,Read,ACK
5.247495656250000,0,0x5D,0x00,Read,ACK
5.247517187500000,0,0x5D,0x82,Read,ACK
5.247538625000000,0,0x5D,0x82,Read,ACK
5.247560093750000,0,0x5D,0x01,Read,ACK
5.247581562500000,0,0x5D,0x00,Read,ACK
5.247603062500000,0,0x5D,0x00,Read,ACK
5.247624500000000,0,0x5D,0x00,Read,ACK
5.247649937500000,0,0x5D,0x00,Read,ACK
5.247673843750000,0,0x5D,0x00,Read,ACK
5.247695312500000,0,0x5D,0x00,Read,ACK
5.247718968750000,0,0x5D,0x00,Read,ACK
5.247741750000000,0,0x5D,0x00,Read,ACK
5.247763593750000,0,0x5D,0x00,Read,ACK
5.247785062500000,0,0x5D,0x00,Read,ACK
5.247806531250000,0,0x5D,0x00,Read,ACK
5.247828000000000,0,0x5D,0x00,Read,ACK
5.247849468750000,0,0x5D,0x00,Read,ACK
5.247871031250000,0,0x5D,0x00,Read,ACK
5.247893125000000,0,0x5D,0x00,Read,ACK
5.247915125000000,0,0x5D,0x00,Read,ACK
5.247936593750000,0,0x5D,0x00,Read,ACK
5.247959906250000,0,0x5D,0x00,Read,NAK
5.253689125000000,0,0x5D,0x2F,Read,ACK
5.253717062500000,0,0x5D,0x00,Read,ACK
5.253740000000000,0,0x5D,0x04,Read,ACK
5.253761468750000,0,0x5D,0x03,Read,ACK
5.253782937500000,0,0x5D,0x07,Read,ACK
5.253804406250000,0,0x5D,0x07,Read,ACK
5.253825875000000,0,0x5D,0x14,Read,ACK
5.253848218750000,0,0x5D,0x05,Read,ACK
5.253872343750000,0,0x5D,0x03,Read,ACK
5.253896156250000,0,0x5D,0x03,Read,ACK
5.253917656250000,0,0x5D,0x20,Read,ACK
5.253939156250000,0,0x5D,0x00,Read,ACK
5.253960656250000,0,0x5D,0x00,Read,ACK
5.253982125000000,0,0x5D,0x00,Read,ACK
5.254003593750000,0,0x5D,0x00,Read,ACK
5.254025062500000,0,0x5D,0x00,Read,ACK
5.254046531250000,0,0x5D,0x00,Read,ACK
5.254068000000000,0,0x5D,0x00,Read,ACK
5.254089468750000,0,0x5D,0x00,Read,ACK
5.254111593750000,0,0x5D,0x00,Read,ACK
5.254133156250000,0,0x5D,0x00,Read,ACK
5.254154656250000,0,0x5D,0x00,Read,ACK
5.254176156250000,0,0x5D,0x00,Read,ACK
5.254197625000000,0,0x5D,0x00,Read,ACK
5.254219125000000,0,0x5D,0x00,Read,ACK
5.254240562500000,0,0x5D,0x00,Read,ACK
5.254262062500000,0,0x5D,0x00,Read,ACK
5.254283500000000,0,0x5D,0x00,Read,ACK
5.254304968750000,0,0x5D,0x00,Read,ACK
5.254326437500000,0,0x5D,0x00,Read,ACK
5.254347906250000,0,0x5D,0x00,Read,ACK
5.254369375000000,0,0x5D,0x00,Read,ACK
5.254390843750000,0,0x5D,0x00,Read,ACK
5.254412343750000,0,0x5D,0x00,Read,ACK
5.254433781250000,0,0x5D,0x00,Read,ACK
5.254455250000000,0,0x5D,0x00,Read,ACK
5.254476718750000,0,0x5D,0x00,Read,ACK
5.254498187500000,0,0x5D,0x00,Read,ACK
5.254519656250000,0,0x5D,0x00,Read,ACK
5.254541156250000,0,0x5D,0x00,Read,ACK
5.254562656250000,0,0x5D,0x00,Read,ACK
5.254584125000000,0,0x5D,0x00,Read,ACK
5.254605562500000,0,0x5D,0x00,Read,ACK
5.254627062500000,0,0x5D,0xC8,Read,ACK
5.254648500000000,0,0x5D,0x82,Read,ACK
5.254670000000000,0,0x5D,0x01,Read,ACK
5.254691468750000,0,0x5D,0x00,Read,ACK
5.254712937500000,0,0x5D,0x00,Read,ACK
5.254734375000000,0,0x5D,0x00,Read,ACK
5.254755843750000,0,0x5D,0x00,Read,ACK
5.254779687500000,0,0x5D,0x00,Read,ACK
5.254804093750000,0,0x5D,0x00,Read,ACK
5.254828562500000,0,0x5D,0x00,Read,ACK
5.254850062500000,0,0x5D,0x00,Read,ACK
5.254872562500000,0,0x5D,0x00,Read,ACK
5.254894468750000,0,0x5D,0x00,Read,ACK
5.254915937500000,0,0x5D,0x00,Read,ACK
5.254937437500000,0,0x5D,0x00,Read,ACK
5.254959375000000,0,0x5D,0x00,Read,ACK
5.254980843750000,0,0x5D,0x00,Read,ACK
5.255002406250000,0,0x5D,0x00,Read,ACK
5.255024062500000,0,0x5D,0x00,Read,ACK
5.255047875000000,0,0x5D,0x00,Read,ACK
5.255069562500000,0,0x5D,0x00,Read,NAK
5.260823093750000,0,0x5D,0x2F,Read,ACK
5.260847468750000,0,0x5D,0x00,Read,ACK
5.260868968750000,0,0x5D,0x04,Read,ACK
5.260890406250000,0,0x5D,0x03,Read,ACK
5.260911875000000,0,0x5D,0x14,Read,ACK
5.260933343750000,0,0x5D,0x07,Read,ACK
5.260954812500000,0,0x5D,0x09,Read,ACK
5.260976937500000,0,0x5D,0x05,Read,ACK
5.260998437500000,0,0x5D,0x03,Read,ACK
5.261027812500000,0,0x5D,0x03,Read,ACK
5.261049718750000,0,0x5D,0x20,Read,ACK
5.261071218750000,0,0x5D,0x00,Read,ACK
5.261092687500000,0,0x5D,0x00,Read,ACK
5.261114156250000,0,0x5D,0x00,Read,ACK
5.261135625000000,0,0x5D,0x00,Read,ACK
5.261157062500000,0,0x5D,0x00,Read,ACK
5.261178531250000,0,0x5D,0x00,Read,ACK
5.261200000000000,0,0x5D,0x00,Read,ACK
5.261221500000000,0,0x5D,0x00,Read,ACK
5.261242937500000,0,0x5D,0x00,Read,ACK
5.261265718750000,0,0x5D,0x00,Read,ACK
5.261287781250000,0,0x5D,0x00,Read,ACK
5.261309281250000,0,0x5D,0x00,Read,ACK
5.261330750000000,0,0x5D,0x00,Read,ACK
5.261352218750000,0,0x5D,0x00,Read,ACK
5.261373687500000,0,0x5D,0x00,Read,ACK
5.261396687500000,0,0x5D,0x00,Read,ACK
5.261418187500000,0,0x5D,0x00,Read,ACK
5.261439656250000,0,0x5D,0x00,Read,ACK
5.261461093750000,0,0x5D,0x00,Read,ACK
5.261482562500000,0,0x5D,0x00,Read,ACK
5.261504406250000,0,0x5D,0x00,Read,ACK
5.261525875000000,0,0x5D,0x00,Read,ACK
5.261547343750000,0,0x5D,0x00,Read,ACK
5.261568812500000,0,0x5D,0x00,Read,ACK
5.261590312500000,0,0x5D,0x00,Read,ACK
5.261611781250000,0,0x5D,0x00,Read,ACK
5.261633250000000,0,0x5D,0x00,Read,ACK
5.261654718750000,0,0x5D,0x00,Read,ACK
5.261676156250000,0,0x5D,0x00,Read,ACK
5.261697875000000,0,0x5D,0x00,Read,ACK
5.261719343750000,0,0x5D,0x00,Read,ACK
5.261740843750000,0,0x5D,0x00,Read,ACK
5.261762312500000,0,0x5D,0x0E,Read,ACK
5.261783750000000,0,0x5D,0x83,Read,ACK
5.261805250000000,0,0x5D,0x01,Read,ACK
5.261826687500000,0,0x5D,0x00,Read,ACK
5.261848156250000,0,0x5D,0x00,Read,ACK
5.261869625000000,0,0x5D,0x00,Read,ACK
5.261891125000000,0,0x5D,0x00,Read,ACK
5.261912750000000,0,0x5D,0x00,Read,ACK
5.261934250000000,0,0x5D,0x00,Read,ACK
5.261959218750000,0,0x5D,0x00,Read,ACK
5.261982125000000,0,0x5D,0x00,Read,ACK
5.262005156250000,0,0x5D,0x00,Read,ACK
5.262028312500000,0,0x5D,0x00,Read,ACK
5.262050000000000,0,0x5D,0x00,Read,ACK
5.262072656250000,0,0x5D,0x00,Read,ACK
5.262094312500000,0,0x5D,0x00,Read,ACK
5.262115781250000,0,0x5D,0x00,Read,ACK
5.262137250000000,0,0x5D,0x00,Read,ACK
5.262158687500000,0,0x5D,0x00,Read,ACK
5.262180187500000,0,0x5D,0x00,Read,ACK
5.262201781250000,0,0x5D,0x00,Read,NAK
5.267971093750000,0,0x5D,0x2F,Read,ACK
5.267996906250000,0,0x5D,0x00,Read,ACK
5.268020125000000,0,0x5D,0x04,Read,ACK
5.268041593750000,0,0x5D,0x03,Read,ACK
5.268063062500000,0,0x5D,0x20,Read,ACK
5.268084500000000,0,0x5D,0x07,Read,ACK
5.268106000000000,0,0x5D,0x00,Read,ACK
5.268127437500000,0,0x5D,0x05,Read,ACK
5.268148906250000,0,0x5D,0x03,Read,ACK
5.268170750000000,0,0x5D,0x03,Read,ACK
5.268195281250000,0,0x5D,0x20,Read,ACK
5.268216781250000,0,0x5D,0x00,Read,ACK
5.268238218750000,0,0x5D,0x00,Read,ACK
5.268259687500000,0,0x5D,0x00,Read,ACK
5.268281156250000,0,0x5D,0x00,Read,ACK
5.268302625000000,0,0x5D,0x00,Read,ACK
5.268324093750000,0,0x5D,0x00,Read,ACK
5.268345562500000,0,0x5D,0x00,Read,ACK
5.268367000000000,0,0x5D,0x00,Read,ACK
5.268388468750000,0,0x5D,0x00,Read,ACK
5.268409937500000,0,0x5D,0x00,Read,ACK
5.268431406250000,0,0x5D,0x00,Read,ACK
5.268452875000000,0,0x5D,0x00,Read,ACK
5.268474375000000,0,0x5D,0x00,Read,ACK
5.268495843750000,0,0x5D,0x00,Read,ACK
5.268517281250000,0,0x5D,0x00,Read,ACK
5.268539093750000,0,0x5D,0x00,Read,ACK
5.268561406250000,0,0x5D,0x00,Read,ACK
5.268584250000000,0,0x5D,0x00,Read,ACK
5.268605718750000,0,0x5D,0x00,Read,ACK
5.268627187500000,0,0x5D,0x00,Read,ACK
5.268648656250000,0,0x5D,0x00,Read,ACK
5.268670125000000,0,0x5D,0x00,Read,ACK
5.268691593750000,0,0x5D,0x00,Read,ACK
5.268713093750000,0,0x5D,0x00,Read,ACK
5.268734593750000,0,0x5D,0x00,Read,ACK
5.268756031250000,0,0x5D,0x00,Read,ACK
5.268777625000000,0,0x5D,0x00,Read,ACK
5.268799125000000,0,0x5D,0x00,Read,ACK
5.268820593750000,0,0x5D,0x00,Read,ACK
5.268842031250000,0,0x5D,0x00,Read,ACK
5.268863843750000,0,0x5D,0x00,Read,ACK
5.268885281250000,0,0x5D,0x00,Read,ACK
5.268906750000000,0,0x5D,0x54,Read,ACK
5.268928218750000,0,0x5D,0x83,Read,ACK
5.268949750000000,0,0x5D,0x01,Read,ACK
5.268971218750000,0,0x5D,0x00,Read,ACK
5.268992687500000,0,0x5D,0x00,Read,ACK
5.269014156250000,0,0x5D,0x00,Read,ACK
5.269035625000000,0,0x5D,0x00,Read,ACK
5.269057593750000,0,0x5D,0x00,Read,ACK
5.269079062500000,0,0x5D,0x00,Read,ACK
5.269104937500000,0,0x5D,0x00,Read,ACK
5.269126437500000,0,0x5D,0x00,Read,ACK
5.269149156250000,0,0x5D,0x00,Read,ACK
5.269173500000000,0,0x5D,0x00,Read,ACK
5.269195437500000,0,0x5D,0x00,Read,ACK
5.269216937500000,0,0x5D,0x00,Read,ACK
5.269239406250000,0,0x5D,0x00,Read,ACK
5.269260875000000,0,0x5D,0x00,Read,ACK
5.269282343750000,0,0x5D,0x00,Read,ACK
5.269303968750000,0,0x5D,0x00,Read,ACK
5.269325625000000,0,0x5D,0x00,Read,ACK
5.269347343750000,0,0x5D,0x00,Read,NAK
5.275112187500000,0,0x5D,0x2F,Read,ACK
5.275138062500000,0,0x5D,0x00,Read,ACK
5.275159562500000,0,0x5D,0x04,Read,ACK
5.275181031250000,0,0x5D,0x03,Read,ACK
5.275202500000000,0,0x5D,0x2D,Read,ACK
5.275223968750000,0,0x5D,0x07,Read,ACK
5.275245437500000,0,0x5D,0xF9,Read,ACK
5.275266906250000,0,0x5D,0x04,Read,ACK
5.275288375000000,0,0x5D,0x03,Read,ACK
5.275310187500000,0,0x5D,0x03,Read,ACK
5.275334625000000,0,0x5D,0x20,Read,ACK
5.275357843750000,0,0x5D,0x00,Read,ACK
5.275379312500000,0,0x5D,0x00,Read,ACK
5.275400750000000,0,0x5D,0x00,Read,ACK
5.275422218750000,0,0x5D,0x00,Read,ACK
5.275443687500000,0,0x5D,0x00,Read,ACK
5.275465187500000,0,0x5D,0x00,Read,ACK
5.275486625000000,0,0x5D,0x00,Read,ACK
5.275508093750000,0,0x5D,0x00,Read,ACK
5.275529593750000,0,0x5D,0x00,Read,ACK
5.275551031250000,0,0x5D,0x00,Read,ACK
5.275572718750000,0,0x5D,0x00,Read,ACK
5.275594687500000,0,0x5D,0x00,Read,ACK
5.275617187500000,0,0x5D,0x00,Read,ACK
5.275638687500000,0,0x5D,0x00,Read,ACK
5.275660125000000,0,0x5D,0x00,Read,ACK
5.275681593750000,0,0x5D,0x00,Read,ACK
5.275704406250000,0,0x5D,0x00,Read,ACK
5.275725906250000,0,0x5D,0x00,Read,ACK
5.275747375000000,0,0x5D,0x00,Read,ACK
5.275768843750000,0,0x5D,0x00,Read,ACK
5.275790312500000,0,0x5D,0x00,Read,ACK
5.275813375000000,0,0x5D,0x00,Read,ACK
5.275834812500000,0,0x5D,0x00,Read,ACK
5.275856312500000,0,0x5D,0x00,Read,ACK
5.275877750000000,0,0x5D,0x00,Read,ACK
5.275899187500000,0,0x5D,0x00,Read,ACK
5.275920687500000,0,0x5D,0x00,Read,ACK
5.275942156250000,0,0x5D,0x00,Read,ACK
5.275963625000000,0,0x5D,0x00,Read,ACK
5.275985093750000,0,0x5D,0x00,Read,ACK
5.276006562500000,0,0x5D,0x00,Read,ACK
5.276028281250000,0,0x5D,0x00,Read,ACK
5.276049718750000,0,0x5D,0x9A,Read,ACK
5.276071187500000,0,0x5D,0x83,Read,ACK
5.276092812500000,0,0x5D,0x01,Read,ACK
5.276114250000000,0,0x5D,0x00,Read,ACK
5.276135781250000,0,0x5D,0x00,Read,ACK
5.276157281250000,0,0x5D,0x00,Read,ACK
5.276178718750000,0,0x5D,0x00,Read,ACK
5.276200218750000,0,0x5D,0x00,Read,ACK
5.276221687500000,0,0x5D,0x00,Read,ACK
5.276243156250000,0,0x5D,0x00,Read,ACK
5.276266062500000,0,0x5D,0x00,Read,ACK
5.276287562500000,0,0x5D,0x00,Read,ACK
5.276310250000000,0,0x5D,0x00,Read,ACK
5.276332718750000,0,0x5D,0x00,Read,ACK
5.276354593750000,0,0x5D,0x00,Read,ACK
5.276376062500000,0,0x5D,0x00,Read,ACK
5.276397531250000,0,0x5D,0x00,Read,ACK
5.276419000000000,0,0x5D,0x00,Read,ACK
5.276442406250000,0,0x5D,0x00,Read,ACK
5.276464593750000,0,0x5D,0x00,Read,ACK
5.276486062500000,0,0x5D,0x00,Read,NAK
5.282257968750000,0,0x5D,0x2F,Read,ACK
5.282284093750000,0,0x5D,0x00,Read,ACK
5.282306000000000,0,0x5D,0x04,Read,ACK
5.282327593750000,0,0x5D,0x03,Read,ACK
5.282350093750000,0,0x5D,0x3B,Read,ACK
5.282371562500000,0,0x5D,0x07,Read,ACK
5.282393062500000,0,0x5D,0xF3,Read,ACK
5.282414500000000,0,0x5D,0x04,Read,ACK
5.282436375000000,0,0x5D,0x03,Read,ACK
5.282458437500000,0,0x5D,0x03,Read,ACK
5.282480062500000,0,0x5D,0x20,Read,ACK
5.282501531250000,0,0x5D,0x00,Read,ACK
5.282522968750000,0,0x5D,0x00,Read,ACK
5.282544437500000,0,0x5D,0x00,Read,ACK
5.282565906250000,0,0x5D,0x00,Read,ACK
5.282587406250000,0,0x5D,0x00,Read,ACK
5.282608843750000,0,0x5D,0x00,Read,ACK
5.282630312500000,0,0x5D,0x00,Read,ACK
5.282651812500000,0,0x5D,0x00,Read,ACK
5.282673281250000,0,0x5D,0x00,Read,ACK
5.282695125000000,0,0x5D,0x00,Read,ACK
5.282716656250000,0,0x5D,0x00,Read,ACK
5.282739000000000,0,0x5D,0x00,Read,ACK
5.282760437500000,0,0x5D,0x00,Read,ACK
5.282781906250000,0,0x5D,0x00,Read,ACK
5.282803375000000,0,0x5D,0x00,Read,ACK
5.282826000000000,0,0x5D,0x00,Read,ACK
5.282848343750000,0,0x5D,0x00,Read,ACK
5.282869843750000,0,0x5D,0x00,Read,ACK
5.282891312500000,0,0x5D,0x00,Read,ACK
5.282912781250000,0,0x5D,0x00,Read,ACK
5.282934250000000,0,0x5D,0x00,Read,ACK
5.282957062500000,0,0x5D,0x00,Read,ACK
5.282978687500000,0,0x5D,0x00,Read,ACK
5.283000156250000,0,0x5D,0x00,Read,ACK
5.283021625000000,0,0x5D,0x00,Read,ACK
5.283043093750000,0,0x5D,0x00,Read,ACK
5.283064562500000,0,0x5D,0x00,Read,ACK
5.283086000000000,0,0x5D,0x00,Read,ACK
5.283107500000000,0,0x5D,0x00,Read,ACK
5.283128968750000,0,0x5D,0x00,Read,ACK
5.283150437500000,0,0x5D,0x00,Read,ACK
5.283171875000000,0,0x5D,0x00,Read,ACK
5.283193343750000,0,0x5D,0xE0,Read,ACK
5.283214812500000,0,0x5D,0x83,Read,ACK
5.283236281250000,0,0x5D,0x01,Read,ACK
5.283257968750000,0,0x5D,0x00,Read,ACK
5.283279406250000,0,0x5D,0x00,Read,ACK
5.283300875000000,0,0x5D,0x00,Read,ACK
5.283322343750000,0,0x5D,0x00,Read,ACK
5.283343812500000,0,0x5D,0x00,Read,ACK
5.283365281250000,0,0x5D,0x00,Read,ACK
5.283389937500000,0,0x5D,0x00,Read,ACK
5.283412781250000,0,0x5D,0x00,Read,ACK
5.283435531250000,0,0x5D,0x00,Read,ACK
5.283457531250000,0,0x5D,0x00,Read,ACK
5.283479906250000,0,0x5D,0x00,Read,ACK
5.283501406250000,0,0x5D,0x00,Read,ACK
5.283522906250000,0,0x5D,0x00,Read,ACK
5.283544750000000,0,0x5D,0x00,Read,ACK
5.283566593750000,0,0x5D,0x00,Read,ACK
5.283588062500000,0,0x5D,0x00,Read,ACK
5.283609531250000,0,0x5D,0x00,Read,ACK
5.283631250000000,0,0x5D,0x00,Read,NAK
5.289601875000000,0,0x5D,0x2F,Read,ACK
5.289625000000000,0,0x5D,0x00,Read,ACK
5.289646468750000,0,0x5D,0x04,Read,ACK
5.289667906250000,0,0x5D,0x03,Read,ACK
5.289689406250000,0,0x5D,0x4A,Read,ACK
5.289710875000000,0,0x5D,0x07,Read,ACK
5.289732343750000,0,0x5D,0xF0,Read,ACK
5.289753781250000,0,0x5D,0x04,Read,ACK
5.289775250000000,0,0x5D,0x04,Read,ACK
5.289796718750000,0,0x5D,0x03,Read,ACK
5.289818187500000,0,0x5D,0x20,Read,ACK
5.289840625000000,0,0x5D,0x00,Read,ACK
5.289862375000000,0,0x5D,0x00,Read,ACK
5.289883843750000,0,0x5D,0x00,Read,ACK
5.289905312500000,0,0x5D,0x00,Read,ACK
5.289926781250000,0,0x5D,0x00,Read,ACK
5.289948906250000,0,0x5D,0x00,Read,ACK
5.289970406250000,0,0x5D,0x00,Read,ACK
5.289991875000000,0,0x5D,0x00,Read,ACK
5.290013343750000,0,0x5D,0x00,Read,ACK
5.290034812500000,0,0x5D,0x00,Read,ACK
5.290056281250000,0,0x5D,0x00,Read,ACK
5.290077750000000,0,0x5D,0x00,Read,ACK
5.290099218750000,0,0x5D,0x00,Read,ACK
5.290120687500000,0,0x5D,0x00,Read,ACK
5.290142156250000,0,0x5D,0x00,Read,ACK
5.290163625000000,0,0x5D,0x00,Read,ACK
5.290185062500000,0,0x5D,0x00,Read,ACK
5.290206562500000,0,0x5D,0x00,Read,ACK
5.290228000000000,0,0x5D,0x00,Read,ACK
5.290249875000000,0,0x5D,0x00,Read,ACK
5.290271375000000,0,0x5D,0x00,Read,ACK
5.290292875000000,0,0x5D,0x00,Read,ACK
5.290314312500000,0,0x5D,0x00,Read,ACK
5.290335781250000,0,0x5D,0x00,Read,ACK
5.290357281250000,0,0x5D,0x00,Read,ACK
5.290378812500000,0,0x5D,0x00,Read,ACK
5.290400312500000,0,0x5D,0x00,Read,ACK
5.290421812500000,0,0x5D,0x00,Read,ACK
5.290443281250000,0,0x5D,0x00,Read,ACK
5.290464718750000,0,0x5D,0x00,Read,ACK
5.290486187500000,0,0x5D,0x00,Read,ACK
5.290510156250000,0,0x5D,0x00,Read,ACK
5.290533468750000,0,0x5D,0x26,Read,ACK
5.290554937500000,0,0x5D,0x84,Read,ACK
5.290578500000000,0,0x5D,0x01,Read,ACK
5.290600406250000,0,0x5D,0x00,Read,ACK
5.290621843750000,0,0x5D,0x00,Read,ACK
5.290643343750000,0,0x5D,0x00,Read,ACK
5.290664968750000,0,0x5D,0x00,Read,ACK
5.290686437500000,0,0x5D,0x00,Read,ACK
5.290709812500000,0,0x5D,0x00,Read,ACK
5.290731250000000,0,0x5D,0x00,Read,ACK
5.290753312500000,0,0x5D,0x00,Read,ACK
5.290775531250000,0,0x5D,0x00,Read,ACK
5.290796968750000,0,0x5D,0x00,Read,ACK
5.290818437500000,0,0x5D,0x00,Read,ACK
5.290840031250000,0,0x5D,0x00,Read,ACK
5.290861500000000,0,0x5D,0x00,Read,ACK
5.290882968750000,0,0x5D,0x00,Read,ACK
5.290904437500000,0,0x5D,0x00,Read,ACK
5.290927687500000,0,0x5D,0x00,Read,ACK
5.290949187500000,0,0x5D,0x00,Read,ACK
5.290972031250000,0,0x5D,0x00,Read,NAK
5.296622312500000,0,0x5D,0x2F,Read,ACK
5.296649968750000,0,0x5D,0x00,Read,ACK
5.296671468750000,0,0x5D,0x04,Read,ACK
5.296693093750000,0,0x5D,0x03,Read,ACK
5.296715968750000,0,0x5D,0x5B,Read,ACK
5.296741468750000,0,0x5D,0x07,Read,ACK
5.296762937500000,0,0x5D,0xEE,Read,ACK
5.296784406250000,0,0x5D,0x04,Read,ACK
5.296805875000000,0,0x5D,0x03,Read,ACK
5.296827375000000,0,0x5D,0x03,Read,ACK
5.296848812500000,0,0x5D,0x20,Read,ACK
5.296870312500000,0,0x5D,0x00,Read,ACK
5.296891750000000,0,0x5D,0x00,Read,ACK
5.296913218750000,0,0x5D,0x00,Read,ACK
5.296934687500000,0,0x5D,0x00,Read,ACK
5.296957968750000,0,0x5D,0x00,Read,ACK
5.296979968750000,0,0x5D,0x00,Read,ACK
5.297001437500000,0,0x5D,0x00,Read,ACK
5.297022906250000,0,0x5D,0x00,Read,ACK
5.297044437500000,0,0x5D,0x00,Read,ACK
5.297065906250000,0,0x5D,0x00,Read,ACK
5.297088093750000,0,0x5D,0x00,Read,ACK
5.297109531250000,0,0x5D,0x00,Read,ACK
5.297131031250000,0,0x5D,0x00,Read,ACK
5.297152531250000,0,0x5D,0x00,Read,ACK
5.297173968750000,0,0x5D,0x00,Read,ACK
5.297195437500000,0,0x5D,0x00,Read,ACK
5.297218125000000,0,0x5D,0x00,Read,ACK
5.297239593750000,0,0x5D,0x00,Read,ACK
5.297261093750000,0,0x5D,0x00,Read,ACK
5.297282562500000,0,0x5D,0x00,Read,ACK
5.297304031250000,0,0x5D,0x00,Read,ACK
5.297325468750000,0,0x5D,0x00,Read,ACK
5.297346937500000,0,0x5D,0x00,Read,ACK
5.297368406250000,0,0x5D,0x00,Read,ACK
5.297389875000000,0,0x5D,0x00,Read,ACK
5.297411343750000,0,0x5D,0x00,Read,ACK
5.297432843750000,0,0x5D,0x00,Read,ACK
5.297454343750000,0,0x5D,0x00,Read,ACK
5.297475843750000,0,0x5D,0x00,Read,ACK
5.297497281250000,0,0x5D,0x00,Read,ACK
5.297518750000000,0,0x5D,0x00,Read,ACK
5.297540218750000,0,0x5D,0x00,Read,ACK
5.297561687500000,0,0x5D,0x6C,Read,ACK
5.297583156250000,0,0x5D,0x84,Read,ACK
5.297604625000000,0,0x5D,0x01,Read,ACK
5.297626093750000,0,0x5D,0x00,Read,ACK
5.297651625000000,0,0x5D,0x00,Read,ACK
5.297673062500000,0,0x5D,0x00,Read,ACK
5.297696500000000,0,0x5D,0x00,Read,ACK
5.297719093750000,0,0x5D,0x00,Read,ACK
5.297742062500000,0,0x5D,0x00,Read,ACK
5.297764250000000,0,0x5D,0x00,Read,ACK
5.297785718750000,0,0x5D,0x00,Read,ACK
5.297807187500000,0,0x5D,0x00,Read,ACK
5.297828656250000,0,0x5D,0x00,Read,ACK
5.297852125000000,0,0x5D,0x00,Read,ACK
5.297875125000000,0,0x5D,0x00,Read,ACK
5.297896750000000,0,0x5D,0x00,Read,ACK
5.297918281250000,0,0x5D,0x00,Read,ACK
5.297939718750000,0,0x5D,0x00,Read,ACK
5.297961375000000,0,0x5D,0x00,Read,ACK
5.297982937500000,0,0x5D,0x00,Read,ACK
5.298005281250000,0,0x5D,0x00,Read,NAK
5.303667343750000,0,0x5D,0x2F,Read,ACK
5.303694250000000,0,0x5D,0x00,Read,ACK
5.303715750000000,0,0x5D,0x04,Read,ACK
5.303738218750000,0,0x5D,0x03,Read,ACK
5.303759687500000,0,0x5D,0x6E,Read,ACK
5.303781156250000,0,0x5D,0x07,Read,ACK
5.303803718750000,0,0x5D,0xED,Read,ACK
5.303825218750000,0,0x5D,0x04,Read,ACK
5.303846687500000,0,0x5D,0x03,Read,ACK
5.303869093750000,0,0x5D,0x03,Read,ACK
5.303892187500000,0,0x5D,0x20,Read,ACK
5.303913843750000,0,0x5D,0x00,Read,ACK
5.303935281250000,0,0x5D,0x00,Read,ACK
5.303956750000000,0,0x5D,0x00,Read,ACK
5.303978218750000,0,0x5D,0x00,Read,ACK
5.303999687500000,0,0x5D,0x00,Read,ACK
5.304021156250000,0,0x5D,0x00,Read,ACK
5.304042625000000,0,0x5D,0x00,Read,ACK
5.304064093750000,0,0x5D,0x00,Read,ACK
5.304085562500000,0,0x5D,0x00,Read,ACK
5.304107156250000,0,0x5D,0x00,Read,ACK
5.304129031250000,0,0x5D,0x00,Read,ACK
5.304150531250000,0,0x5D,0x00,Read,ACK
5.304172000000000,0,0x5D,0x00,Read,ACK
5.304193468750000,0,0x5D,0x00,Read,ACK
5.304214937500000,0,0x5D,0x00,Read,ACK
5.304236406250000,0,0x5D,0x00,Read,ACK
5.304259343750000,0,0x5D,0x00,Read,ACK
5.304281812500000,0,0x5D,0x00,Read,ACK
5.304303468750000,0,0x5D,0x00,Read,ACK
5.304324937500000,0,0x5D,0x00,Read,ACK
5.304346406250000,0,0x5D,0x00,Read,ACK
5.304367906250000,0,0x5D,0x00,Read,ACK
5.304389343750000,0,0x5D,0x00,Read,ACK
5.304410875000000,0,0x5D,0x00,Read,ACK
5.304432343750000,0,0x5D,0x00,Read,ACK
5.304453812500000,0,0x5D,0x00,Read,ACK
5.304475281250000,0,0x5D,0x00,Read,ACK
5.304496750000000,0,0x5D,0x00,Read,ACK
5.304518218750000,0,0x5D,0x00,Read,ACK
5.304539687500000,0,0x5D,0x00,Read,ACK
5.304561156250000,0,0x5D,0x00,Read,ACK
5.304582656250000,0,0x5D,0x00,Read,ACK
5.304604125000000,0,0x5D,0xB2,Read,ACK
5.304625562500000,0,0x5D,0x84,Read,ACK
5.304647031250000,0,0x5D,0x01,Read,ACK
5.304668531250000,0,0x5D,0x00,Read,ACK
5.304689968750000,0,0x5D,0x00,Read,ACK
5.304711437500000,0,0x5D,0x00,Read,ACK
5.304732906250000,0,0x5D,0x00,Read,ACK
5.304754375000000,0,0x5D,0x00,Read,ACK
5.304775843750000,0,0x5D,0x00,Read,ACK
5.304797312500000,0,0x5D,0x00,Read,ACK
5.304823343750000,0,0x5D,0x00,Read,ACK
5.304846718750000,0,0x5D,0x00,Read,ACK
5.304869062500000,0,0x5D,0x00,Read,ACK
5.304893468750000,0,0x5D,0x00,Read,ACK
5.304915375000000,0,0x5D,0x00,Read,ACK
5.304937937500000,0,0x5D,0x00,Read,ACK
5.304960093750000,0,0x5D,0x00,Read,ACK
5.304981593750000,0,0x5D,0x00,Read,ACK
5.305003062500000,0,0x5D,0x00,Read,ACK
5.305024625000000,0,0x5D,0x00,Read,ACK
5.305046656250000,0,0x5D,0x00,Read,NAK
5.310837656250000,0,0x5D,0x2F,Read,ACK
5.310864156250000,0,0x5D,0x00,Read,ACK
5.310885593750000,0,0x5D,0x04,Read,ACK
5.310907093750000,0,0x5D,0x03,Read,ACK
5.310928562500000,0,0x5D,0x84,Read,ACK
5.310950187500000,0,0x5D,0x07,Read,ACK
5.310971656250000,0,0x5D,0xF0,Read,ACK
5.310993125000000,0,0x5D,0x04,Read,ACK
5.311015750000000,0,0x5D,0x03,Read,ACK
5.311037218750000,0,0x5D,0x03,Read,ACK
5.311058656250000,0,0x5D,0x20,Read,ACK
5.311080125000000,0,0x5D,0x00,Read,ACK
5.311101593750000,0,0x5D,0x00,Read,ACK
5.311123062500000,0,0x5D,0x00,Read,ACK
5.311144562500000,0,0x5D,0x00,Read,ACK
5.311166000000000,0,0x5D,0x00,Read,ACK
5.311187468750000,0,0x5D,0x00,Read,ACK
5.311208968750000,0,0x5D,0x00,Read,ACK
5.311230406250000,0,0x5D,0x00,Read,ACK
5.311251906250000,0,0x5D,0x00,Read,ACK
5.311274031250000,0,0x5D,0x00,Read,ACK
5.311295562500000,0,0x5D,0x00,Read,ACK
5.311317031250000,0,0x5D,0x00,Read,ACK
5.311338500000000,0,0x5D,0x00,Read,ACK
5.311359968750000,0,0x5D,0x00,Read,ACK
5.311381437500000,0,0x5D,0x00,Read,ACK
5.311402937500000,0,0x5D,0x00,Read,ACK
5.311424406250000,0,0x5D,0x00,Read,ACK
5.311445843750000,0,0x5D,0x00,Read,ACK
5.311467312500000,0,0x5D,0x00,Read,ACK
5.311488781250000,0,0x5D,0x00,Read,ACK
5.311511187500000,0,0x5D,0x00,Read,ACK
5.311532656250000,0,0x5D,0x00,Read,ACK
5.311554125000000,0,0x5D,0x00,Read,ACK
5.311575593750000,0,0x5D,0x00,Read,ACK
5.311597062500000,0,0x5D,0x00,Read,ACK
5.311618937500000,0,0x5D,0x00,Read,ACK
5.311640406250000,0,0x5D,0x00,Read,ACK
5.311661906250000,0,0x5D,0x00,Read,ACK
5.311683343750000,0,0x5D,0x00,Read,ACK
5.311704843750000,0,0x5D,0x00,Read,ACK
5.311726281250000,0,0x5D,0x00,Read,ACK
5.311747750000000,0,0x5D,0x00,Read,ACK
5.311769250000000,0,0x5D,0xF8,Read,ACK
5.311790687500000,0,0x5D,0x84,Read,ACK
5.311812156250000,0,0x5D,0x01,Read,ACK
5.311833625000000,0,0x5D,0x00,Read,ACK
5.311855093750000,0,0x5D,0x00,Read,ACK
5.311876562500000,0,0x5D,0x00,Read,ACK
5.311898062500000,0,0x5D,0x00,Read,ACK
5.311919562500000,0,0x5D,0x00,Read,ACK
5.311943187500000,0,0x5D,0x00,Read,ACK
5.311970656250000,0,0x5D,0x00,Read,ACK
5.311992187500000,0,0x5D,0x00,Read,ACK
5.312013656250000,0,0x5D,0x00,Read,ACK
5.312035968750000,0,0x5D,0x00,Read,ACK
5.312057468750000,0,0x5D,0x00,Read,ACK
5.312078937500000,0,0x5D,0x00,Read,ACK
5.312100406250000,0,0x5D,0x00,Read,ACK
5.312122156250000,0,0x5D,0x00,Read,ACK
5.312145187500000,0,0x5D,0x00,Read,ACK
5.312166687500000,0,0x5D,0x00,Read,ACK
5.312188625000000,0,0x5D,0x00,Read,ACK
5.312210125000000,0,0x5D,0x00,Read,NAK
5.318012406250000,0,0x5D,0x2F,Read,ACK
5.318037375000000,0,0x5D,0x00,Read,ACK
5.318058843750000,0,0x5D,0x04,Read,ACK
5.318080312500000,0,0x5D,0x03,Read,ACK
5.318101781250000,0,0x5D,0x9B,Read,ACK
5.318124031250000,0,0x5D,0x07,Read,ACK
5.318147125000000,0,0x5D,0xF6,Read,ACK
5.318170750000000,0,0x5D,0x04,Read,ACK
5.318192218750000,0,0x5D,0x03,Read,ACK
5.318213687500000,0,0x5D,0x03,Read,ACK
5.318235156250000,0,0x5D,0x20,Read,ACK
5.318256625000000,0,0x5D,0x00,Read,ACK
5.318278062500000,0,0x5D,0x00,Read,ACK
5.318299562500000,0,0x5D,0x00,Read,ACK
5.318321031250000,0,0x5D,0x00,Read,ACK
5.318342500000000,0,0x5D,0x00,Read,ACK
5.318363937500000,0,0x5D,0x00,Read,ACK
5.318385406250000,0,0x5D,0x00,Read,ACK
5.318407812500000,0,0x5D,0x00,Read,ACK
5.318429343750000,0,0x5D,0x00,Read,ACK
5.318450843750000,0,0x5D,0x00,Read,ACK
5.318472281250000,0,0x5D,0x00,Read,ACK
5.318493750000000,0,0x5D,0x00,Read,ACK
5.318515625000000,0,0x5D,0x00,Read,ACK
5.318537062500000,0,0x5D,0x00,Read,ACK
5.318558531250000,0,0x5D,0x00,Read,ACK
5.318580375000000,0,0x5D,0x00,Read,ACK
5.318601843750000,0,0x5D,0x00,Read,ACK
5.318623312500000,0,0x5D,0x00,Read,ACK
5.318646062500000,0,0x5D,0x00,Read,ACK
5.318669500000000,0,0x5D,0x00,Read,ACK
5.318690968750000,0,0x5D,0x00,Read,ACK
5.318712406250000,0,0x5D,0x00,Read,ACK
5.318733906250000,0,0x5D,0x00,Read,ACK
5.318755343750000,0,0x5D,0x00,Read,ACK
5.318776875000000,0,0x5D,0x00,Read,ACK
5.318798343750000,0,0x5D,0x00,Read,ACK
5.318819812500000,0,0x5D,0x00,Read,ACK
5.318842937500000,0,0x5D,0x00,Read,ACK
5.318864375000000,0,0x5D,0x00,Read,ACK
5.318885843750000,0,0x5D,0x00,Read,ACK
5.318907312500000,0,0x5D,0x00,Read,ACK
5.318928812500000,0,0x5D,0x00,Read,ACK
5.318950312500000,0,0x5D,0x3E,Read,ACK
5.318971843750000,0,0x5D,0x85,Read,ACK
5.318993312500000,0,0x5D,0x01,Read,ACK
5.319014781250000,0,0x5D,0x00,Read,ACK
5.319036468750000,0,0x5D,0x00,Read,ACK
5.319057968750000,0,0x5D,0x00,Read,ACK
5.319079437500000,0,0x5D,0x00,Read,ACK
5.319105218750000,0,0x5D,0x00,Read,ACK
5.319128593750000,0,0x5D,0x00,Read,ACK
5.319150062500000,0,0x5D,0x00,Read,ACK
5.319172593750000,0,0x5D,0x00,Read,ACK
5.319194312500000,0,0x5D,0x00,Read,ACK
5.319215781250000,0,0x5D,0x00,Read,ACK
5.319237281250000,0,0x5D,0x00,Read,ACK
5.319260218750000,0,0x5D,0x00,Read,ACK
5.319283687500000,0,0x5D,0x00,Read,ACK
5.319305156250000,0,0x5D,0x00,Read,ACK
5.319327062500000,0,0x5D,0x00,Read,ACK
5.319348531250000,0,0x5D,0x00,Read,ACK
5.319370000000000,0,0x5D,0x00,Read,ACK
5.319391593750000,0,0x5D,0x00,Read,NAK
5.325118437500000,0,0x5D,0x2F,Read,ACK
5.325143156250000,0,0x5D,0x00,Read,ACK
5.325164625000000,0,0x5D,0x04,Read,ACK
5.325186781250000,0,0x5D,0x03,Read,ACK
5.325208562500000,0,0x5D,0xB4,Read,ACK
5.325230000000000,0,0x5D,0x07,Read,ACK
5.325251468750000,0,0x5D,0xFF,Read,ACK
5.325273375000000,0,0x5D,0x04,Read,ACK
5.325297968750000,0,0x5D,0x04,Read,ACK
5.325322312500000,0,0x5D,0x02,Read,ACK
5.325343781250000,0,0x5D,0x20,Read,ACK
5.325365250000000,0,0x5D,0x00,Read,ACK
5.325386718750000,0,0x5D,0x00,Read,ACK
5.325408218750000,0,0x5D,0x00,Read,ACK
5.325429656250000,0,0x5D,0x00,Read,ACK
5.325451125000000,0,0x5D,0x00,Read,ACK
5.325472593750000,0,0x5D,0x00,Read,ACK
5.325494062500000,0,0x5D,0x00,Read,ACK
5.325515531250000,0,0x5D,0x00,Read,ACK
5.325537000000000,0,0x5D,0x00,Read,ACK
5.325558781250000,0,0x5D,0x00,Read,ACK
5.325580250000000,0,0x5D,0x00,Read,ACK
5.325602812500000,0,0x5D,0x00,Read,ACK
5.325624312500000,0,0x5D,0x00,Read,ACK
5.325645781250000,0,0x5D,0x00,Read,ACK
5.325667250000000,0,0x5D,0x00,Read,ACK
5.325688718750000,0,0x5D,0x00,Read,ACK
5.325710187500000,0,0x5D,0x00,Read,ACK
5.325731843750000,0,0x5D,0x00,Read,ACK
5.325753468750000,0,0x5D,0x00,Read,ACK
5.325774968750000,0,0x5D,0x00,Read,ACK
5.325796437500000,0,0x5D,0x00,Read,ACK
5.325819125000000,0,0x5D,0x00,Read,ACK
5.325840750000000,0,0x5D,0x00,Read,ACK
5.325862218750000,0,0x5D,0x00,Read,ACK
5.325883687500000,0,0x5D,0x00,Read,ACK
5.325905125000000,0,0x5D,0x00,Read,ACK
5.325926625000000,0,0x5D,0x00,Read,ACK
5.325948062500000,0,0x5D,0x00,Read,ACK
5.325969562500000,0,0x5D,0x00,Read,ACK
5.325991000000000,0,0x5D,0x00,Read,ACK
5.326012468750000,0,0x5D,0x00,Read,ACK
5.326033937500000,0,0x5D,0x00,Read,ACK
5.326055406250000,0,0x5D,0x84,Read,ACK
5.326076875000000,0,0x5D,0x85,Read,ACK
5.326098343750000,0,0x5D,0x01,Read,ACK
5.326119812500000,0,0x5D,0x00,Read,ACK
5.326141281250000,0,0x5D,0x00,Read,ACK
5.326162781250000,0,0x5D,0x00,Read,ACK
5.326184218750000,0,0x5D,0x00,Read,ACK
5.326205718750000,0,0x5D,0x00,Read,ACK
5.326227156250000,0,0x5D,0x00,Read,ACK
5.326253437500000,0,0x5D,0x00,Read,ACK
5.326274968750000,0,0x5D,0x00,Read,ACK
5.326296437500000,0,0x5D,0x00,Read,ACK
5.326318125000000,0,0x5D,0x00,Read,ACK
5.326341156250000,0,0x5D,0x00,Read,ACK
5.326362625000000,0,0x5D,0x00,Read,ACK
5.326384125000000,0,0x5D,0x00,Read,ACK
5.326405562500000,0,0x5D,0x00,Read,ACK
5.326427906250000,0,0x5D,0x00,Read,ACK
5.326451031250000,0,0x5D,0x00,Read,ACK
5.326472500000000,0,0x5D,0x00,Read,ACK
5.326493937500000,0,0x5D,0x00,Read,NAK
5.332234250000000,0,0x5D,0x2F,Read,ACK
5.332260718750000,0,0x5D,0x00,Read,ACK
5.332282187500000,0,0x5D,0x04,Read,ACK
5.332303750000000,0,0x5D,0x03,Read,ACK
5.332325250000000,0,0x5D,0xCE,Read,ACK
5.332346718750000,0,0x5D,0x07,Read,ACK
5.332368156250000,0,0x5D,0x0C,Read,ACK
5.332389625000000,0,0x5D,0x05,Read,ACK
5.332411125000000,0,0x5D,0x03,Read,ACK
5.332433562500000,0,0x5D,0x02,Read,ACK
5.332458375000000,0,0x5D,0x20,Read,ACK
5.332480187500000,0,0x5D,0x00,Read,ACK
5.332501656250000,0,0x5D,0x00,Read,ACK
5.332523125000000,0,0x5D,0x00,Read,ACK
5.332544593750000,0,0x5D,0x00,Read,ACK
5.332566062500000,0,0x5D,0x00,Read,ACK
5.332587531250000,0,0x5D,0x00,Read,ACK
5.332609000000000,0,0x5D,0x00,Read,ACK
5.332630468750000,0,0x5D,0x00,Read,ACK
5.332651937500000,0,0x5D,0x00,Read,ACK
5.332673406250000,0,0x5D,0x00,Read,ACK
5.332695281250000,0,0x5D,0x00,Read,ACK
5.332718156250000,0,0x5D,0x00,Read,ACK
5.332740031250000,0,0x5D,0x00,Read,ACK
5.332761531250000,0,0x5D,0x00,Read,ACK
5.332783000000000,0,0x5D,0x00,Read,ACK
5.332804500000000,0,0x5D,0x00,Read,ACK
5.332828031250000,0,0x5D,0x00,Read,ACK
5.332849750000000,0,0x5D,0x00,Read,ACK
5.332871250000000,0,0x5D,0x00,Read,ACK
5.332892718750000,0,0x5D,0x00,Read,ACK
5.332914187500000,0,0x5D,0x00,Read,ACK
5.332936906250000,0,0x5D,0x00,Read,ACK
5.332958375000000,0,0x5D,0x00,Read,ACK
5.332979812500000,0,0x5D,0x00,Read,ACK
5.333001312500000,0,0x5D,0x00,Read,ACK
5.333022750000000,0,0x5D,0x00,Read,ACK
5.333044250000000,0,0x5D,0x00,Read,ACK
5.333065687500000,0,0x5D,0x00,Read,ACK
5.333087187500000,0,0x5D,0x00,Read,ACK
5.333108625000000,0,0x5D,0x00,Read,ACK
5.333130093750000,0,0x5D,0x00,Read,ACK
5.333151562500000,0,0x5D,0x00,Read,ACK
5.333173156250000,0,0x5D,0xCA,Read,ACK
5.333194656250000,0,0x5D,0x85,Read,ACK
5.333216125000000,0,0x5D,0x01,Read,ACK
5.333237593750000,0,0x5D,0x00,Read,ACK
5.333259062500000,0,0x5D,0x00,Read,ACK
5.333280531250000,0,0x5D,0x00,Read,ACK
5.333302000000000,0,0x5D,0x00,Read,ACK
5.333323468750000,0,0x5D,0x00,Read,ACK
5.333344937500000,0,0x5D,0x00,Read,ACK
5.333366406250000,0,0x5D,0x00,Read,ACK
5.333389031250000,0,0x5D,0x00,Read,ACK
5.333412500000000,0,0x5D,0x00,Read,ACK
5.333434125000000,0,0x5D,0x00,Read,ACK
5.333456375000000,0,0x5D,0x00,Read,ACK
5.333478062500000,0,0x5D,0x00,Read,ACK
5.333499687500000,0,0x5D,0x00,Read,ACK
5.333521593750000,0,0x5D,0x00,Read,ACK
5.333544187500000,0,0x5D,0x00,Read,ACK
5.333566062500000,0,0x5D,0x00,Read,ACK
5.333587562500000,0,0x5D,0x00,Read,ACK
5.333609062500000,0,0x5D,0x00,Read,NAK
5.339482750000000,0,0x5D,0x2F,Read,ACK
5.339511218750000,0,0x5D,0x00,Read,ACK
5.339532656250000,0,0x5D,0x04,Read,ACK
5.339554125000000,0,0x5D,0x03,Read,ACK
5.339575593750000,0,0x5D,0xE9,Read,ACK
5.339598093750000,0,0x5D,0x07,Read,ACK
5.339621125000000,0,0x5D,0x1B,Read,ACK
5.339644531250000,0,0x5D,0x05,Read,ACK
5.339666062500000,0,0x5D,0x03,Read,ACK
5.339687500000000,0,0x5D,0x03,Read,ACK
5.339708968750000,0,0x5D,0x20,Read,ACK
5.339730437500000,0,0x5D,0x00,Read,ACK
5.339751906250000,0,0x5D,0x00,Read,ACK
5.339773375000000,0,0x5D,0x00,Read,ACK
5.339794812500000,0,0x5D,0x00,Read,ACK
5.339816375000000,0,0x5D,0x00,Read,ACK
5.339837906250000,0,0x5D,0x00,Read,ACK
5.339859375000000,0,0x5D,0x00,Read,ACK
5.339880843750000,0,0x5D,0x00,Read,ACK
5.339902312500000,0,0x5D,0x00,Read,ACK
5.339923875000000,0,0x5D,0x00,Read,ACK
5.339945375000000,0,0x5D,0x00,Read,ACK
5.339966843750000,0,0x5D,0x00,Read,ACK
5.339988468750000,0,0x5D,0x00,Read,ACK
5.340009937500000,0,0x5D,0x00,Read,ACK
5.340031406250000,0,0x5D,0x00,Read,ACK
5.340052906250000,0,0x5D,0x00,Read,ACK
5.340074375000000,0,0x5D,0x00,Read,ACK
5.340096093750000,0,0x5D,0x00,Read,ACK
5.340117531250000,0,0x5D,0x00,Read,ACK
5.340139000000000,0,0x5D,0x00,Read,ACK
5.340160500000000,0,0x5D,0x00,Read,ACK
5.340181937500000,0,0x5D,0x00,Read,ACK
5.340203406250000,0,0x5D,0x00,Read,ACK
5.340224875000000,0,0x5D,0x00,Read,ACK
5.340246343750000,0,0x5D,0x00,Read,ACK
5.340267812500000,0,0x5D,0x00,Read,ACK
5.340289312500000,0,0x5D,0x00,Read,ACK
5.340310781250000,0,0x5D,0x00,Read,ACK
5.340332250000000,0,0x5D,0x00,Read,ACK
5.340353718750000,0,0x5D,0x00,Read,ACK
5.340375187500000,0,0x5D,0x00,Read,ACK
5.340396625000000,0,0x5D,0x00,Read,ACK
5.340418125000000,0,0x5D,0x10,Read,ACK
5.340439562500000,0,0x5D,0x86,Read,ACK
5.340461031250000,0,0x5D,0x01,Read,ACK
5.340482531250000,0,0x5D,0x00,Read,ACK
5.340504000000000,0,0x5D,0x00,Read,ACK
5.340525468750000,0,0x5D,0x00,Read,ACK
5.340547218750000,0,0x5D,0x00,Read,ACK
5.340569031250000,0,0x5D,0x00,Read,ACK
5.340592500000000,0,0x5D,0x00,Read,ACK
5.340615125000000,0,0x5D,0x00,Read,ACK
5.340637781250000,0,0x5D,0x00,Read,ACK
5.340659406250000,0,0x5D,0x00,Read,ACK
5.340680875000000,0,0x5D,0x00,Read,ACK
5.340703250000000,0,0x5D,0x00,Read,ACK
5.340724750000000,0,0x5D,0x00,Read,ACK
5.340746187500000,0,0x5D,0x00,Read,ACK
5.340767718750000,0,0x5D,0x00,Read,ACK
5.340790718750000,0,0x5D,0x00,Read,ACK
5.340812187500000,0,0x5D,0x00,Read,ACK
5.340833875000000,0,0x5D,0x00,Read,ACK
5.340856062500000,0,0x5D,0x00,Read,NAK
5.346539812500000,0,0x5D,0x2F,Read,ACK
5.346570250000000,0,0x5D,0x00,Read,ACK
5.346591718750000,0,0x5D,0x04,Read,ACK
5.346613187500000,0,0x5D,0x03,Read,ACK
5.346634656250000,0,0x5D,0x04,Read,ACK
5.346656125000000,0,0x5D,0x08,Read,ACK
5.346677593750000,0,0x5D,0x2F,Read,ACK
5.346699062500000,0,0x5D,0x05,Read,ACK
5.346721281250000,0,0x5D,0x03,Read,ACK
5.346742750000000,0,0x5D,0x03,Read,ACK
5.346765812500000,0,0x5D,0x20,Read,ACK
5.346787250000000,0,0x5D,0x00,Read,ACK
5.346808718750000,0,0x5D,0x00,Read,ACK
5.346830187500000,0,0x5D,0x00,Read,ACK
5.346851656250000,0,0x5D,0x00,Read,ACK
5.346873125000000,0,0x5D,0x00,Read,ACK
5.346894593750000,0,0x5D,0x00,Read,ACK
5.346916062500000,0,0x5D,0x00,Read,ACK
5.346937531250000,0,0x5D,0x00,Read,ACK
5.346959000000000,0,0x5D,0x00,Read,ACK
5.346980531250000,0,0x5D,0x00,Read,ACK
5.347003312500000,0,0x5D,0x00,Read,ACK
5.347024781250000,0,0x5D,0x00,Read,ACK
5.347046281250000,0,0x5D,0x00,Read,ACK
5.347067718750000,0,0x5D,0x00,Read,ACK
5.347089875000000,0,0x5D,0x00,Read,ACK
5.347111375000000,0,0x5D,0x00,Read,ACK
5.347132812500000,0,0x5D,0x00,Read,ACK
5.347154281250000,0,0x5D,0x00,Read,ACK
5.347175750000000,0,0x5D,0x00,Read,ACK
5.347197218750000,0,0x5D,0x00,Read,ACK
5.347218687500000,0,0x5D,0x00,Read,ACK
5.347240156250000,0,0x5D,0x00,Read,ACK
5.347261625000000,0,0x5D,0x00,Read,ACK
5.347283125000000,0,0x5D,0x00,Read,ACK
5.347304562500000,0,0x5D,0x00,Read,ACK
5.347326031250000,0,0x5D,0x00,Read,ACK
5.347347531250000,0,0x5D,0x00,Read,ACK
5.347369000000000,0,0x5D,0x00,Read,ACK
5.347390437500000,0,0x5D,0x00,Read,ACK
5.347411906250000,0,0x5D,0x00,Read,ACK
5.347433375000000,0,0x5D,0x00,Read,ACK
5.347454843750000,0,0x5D,0x00,Read,ACK
5.347476312500000,0,0x5D,0x56,Read,ACK
5.347497781250000,0,0x5D,0x86,Read,ACK
5.347519281250000,0,0x5D,0x01,Read,ACK
5.347540718750000,0,0x5D,0x00,Read,ACK
5.347562187500000,0,0x5D,0x00,Read,ACK
5.347583656250000,0,0x5D,0x00,Read,ACK
5.347605125000000,0,0x5D,0x00,Read,ACK
5.347626593750000,0,0x5D,0x00,Read,ACK
5.347648062500000,0,0x5D,0x00,Read,ACK
5.347669531250000,0,0x5D,0x00,Read,ACK
5.347691000000000,0,0x5D,0x00,Read,ACK
5.347712468750000,0,0x5D,0x00,Read,ACK
5.347734218750000,0,0x5D,0x00,Read,ACK
5.347756531250000,0,0x5D,0x00,Read,ACK
5.347778000000000,0,0x5D,0x00,Read,ACK
5.347799468750000,0,0x5D,0x00,Read,ACK
5.347820937500000,0,0x5D,0x00,Read,ACK
5.347842750000000,0,0x5D,0x00,Read,ACK
5.347864906250000,0,0x5D,0x00,Read,ACK
5.347888406250000,0,0x5D,0x00,Read,ACK
5.347909875000000,0,0x5D,0x00,Read,NAK
5.353817875000000,0,0x5D,0x2F,Read,ACK
5.353846531250000,0,0x5D,0x00,Read,ACK
5.353870968750000,0,0x5D,0x04,Read,ACK
5.353892437500000,0,0x5D,0x03,Read,ACK
5.353913906250000,0,0x5D,0x1E,Read,ACK
5.353935375000000,0,0x5D,0x08,Read,ACK
5.353956843750000,0,0x5D,0x46,Read,ACK
5.353978312500000,0,0x5D,0x05,Read,ACK
5.353999750000000,0,0x5D,0x03,Read,ACK
5.354021250000000,0,0x5D,0x03,Read,ACK
5.354042718750000,0,0x5D,0x20,Read,ACK
5.354064187500000,0,0x5D,0x00,Read,ACK
5.354085656250000,0,0x5D,0x00,Read,ACK
5.354107125000000,0,0x5D,0x00,Read,ACK
5.354128593750000,0,0x5D,0x00,Read,ACK
5.354150062500000,0,0x5D,0x00,Read,ACK
5.354171750000000,0,0x5D,0x00,Read,ACK
5.354193218750000,0,0x5D,0x00,Read,ACK
5.354214781250000,0,0x5D,0x00,Read,ACK
5.354236250000000,0,0x5D,0x00,Read,ACK
5.354257718750000,0,0x5D,0x00,Read,ACK
5.354279625000000,0,0x5D,0x00,Read,ACK
5.354301093750000,0,0x5D,0x00,Read,ACK
5.354322562500000,0,0x5D,0x00,Read,ACK
5.354344031250000,0,0x5D,0x00,Read,ACK
5.354365500000000,0,0x5D,0x00,Read,ACK
5.354386968750000,0,0x5D,0x00,Read,ACK
5.354408437500000,0,0x5D,0x00,Read,ACK
5.354429906250000,0,0x5D,0x00,Read,ACK
5.354451343750000,0,0x5D,0x00,Read,ACK
5.354472812500000,0,0x5D,0x00,Read,ACK
5.354494281250000,0,0x5D,0x00,Read,ACK
5.354515781250000,0,0x5D,0x00,Read,ACK
5.354537218750000,0,0x5D,0x00,Read,ACK
5.354558718750000,0,0x5D,0x00,Read,ACK
5.354580187500000,0,0x5D,0x00,Read,ACK
5.354601656250000,0,0x5D,0x00,Read,ACK
5.354623125000000,0,0x5D,0x00,Read,ACK
5.354644593750000,0,0x5D,0x00,Read,ACK
5.354666062500000,0,0x5D,0x00,Read,ACK
5.354687531250000,0,0x5D,0x00,Read,ACK
5.354709000000000,0,0x5D,0x00,Read,ACK
5.354730718750000,0,0x5D,0x00,Read,ACK
5.354752187500000,0,0x5D,0x9C,Read,ACK
5.354778281250000,0,0x5D,0x86,Read,ACK
5.354801906250000,0,0x5D,0x01,Read,ACK
5.354823406250000,0,0x5D,0x00,Read,ACK
5.354846625000000,0,0x5D,0x00,Read,ACK
5.354868906250000,0,0x5D,0x00,Read,ACK
5.354891781250000,0,0x5D,0x00,Read,ACK
5.354913250000000,0,0x5D,0x00,Read,ACK
5.354934750000000,0,0x5D,0x00,Read,ACK
5.354956218750000,0,0x5D,0x00,Read,ACK
5.354980687500000,0,0x5D,0x00,Read,ACK
5.355002156250000,0,0x5D,0x00,Read,ACK
5.355023593750000,0,0x5D,0x00,Read,ACK
5.355045812500000,0,0x5D,0x00,Read,ACK
5.355067281250000,0,0x5D,0x00,Read,ACK
5.355088750000000,0,0x5D,0x00,Read,ACK
5.355110218750000,0,0x5D,0x00,Read,ACK
5.355131906250000,0,0x5D,0x00,Read,ACK
5.355153375000000,0,0x5D,0x00,Read,ACK
5.355174968750000,0,0x5D,0x00,Read,ACK
5.355196406250000,0,0x5D,0x00,Read,NAK
5.360946562500000,0,0x5D,0x2F,Read,ACK
5.360972718750000,0,0x5D,0x00,Read,ACK
5.360994562500000,0,0x5D,0x04,Read,ACK
5.361016093750000,0,0x5D,0x03,Read,ACK
5.361042218750000,0,0x5D,0x37,Read,ACK
5.361063687500000,0,0x5D,0x08,Read,ACK
5.361085156250000,0,0x5D,0x61,Read,ACK
5.361106593750000,0,0x5D,0x05,Read,ACK
5.361128062500000,0,0x5D,0x03,Read,ACK
5.361149562500000,0,0x5D,0x02,Read,ACK
5.361171031250000,0,0x5D,0x20,Read,ACK
5.361192468750000,0,0x5D,0x00,Read,ACK
5.361213937500000,0,0x5D,0x00,Read,ACK
5.361235437500000,0,0x5D,0x00,Read,ACK
5.361257281250000,0,0x5D,0x00,Read,ACK
5.361279875000000,0,0x5D,0x00,Read,ACK
5.361301718750000,0,0x5D,0x00,Read,ACK
5.361323187500000,0,0x5D,0x00,Read,ACK
5.361344656250000,0,0x5D,0x00,Read,ACK
5.361366531250000,0,0x5D,0x00,Read,ACK
5.361388781250000,0,0x5D,0x00,Read,ACK
5.361410250000000,0,0x5D,0x00,Read,ACK
5.361431875000000,0,0x5D,0x00,Read,ACK
5.361453375000000,0,0x5D,0x00,Read,ACK
5.361474843750000,0,0x5D,0x00,Read,ACK
5.361496781250000,0,0x5D,0x00,Read,ACK
5.361518375000000,0,0x5D,0x00,Read,ACK
5.361539843750000,0,0x5D,0x00,Read,ACK
5.361561312500000,0,0x5D,0x00,Read,ACK
5.361582781250000,0,0x5D,0x00,Read,ACK
5.361604250000000,0,0x5D,0x00,Read,ACK
5.361625718750000,0,0x5D,0x00,Read,ACK
5.361647187500000,0,0x5D,0x00,Read,ACK
5.361668687500000,0,0x5D,0x00,Read,ACK
5.361690125000000,0,0x5D,0x00,Read,ACK
5.361711625000000,0,0x5D,0x00,Read,ACK
5.361733062500000,0,0x5D,0x00,Read,ACK
5.361754562500000,0,0x5D,0x00,Read,ACK
5.361776000000000,0,0x5D,0x00,Read,ACK
5.361797656250000,0,0x5D,0x00,Read,ACK
5.361819156250000,0,0x5D,0x00,Read,ACK
5.361840625000000,0,0x5D,0x00,Read,ACK
5.361862062500000,0,0x5D,0x00,Read,ACK
5.361883531250000,0,0x5D,0xE2,Read,ACK
5.361905000000000,0,0x5D,0x86,Read,ACK
5.361926468750000,0,0x5D,0x01,Read,ACK
5.361949687500000,0,0x5D,0x00,Read,ACK
5.361971156250000,0,0x5D,0x00,Read,ACK
5.361993281250000,0,0x5D,0x00,Read,ACK
5.362018562500000,0,0x5D,0x00,Read,ACK
5.362041375000000,0,0x5D,0x00,Read,ACK
5.362062843750000,0,0x5D,0x00,Read,ACK
5.362084593750000,0,0x5D,0x00,Read,ACK
5.362106031250000,0,0x5D,0x00,Read,ACK
5.362127500000000,0,0x5D,0x00,Read,ACK
5.362149812500000,0,0x5D,0x00,Read,ACK
5.362171250000000,0,0x5D,0x00,Read,ACK
5.362193781250000,0,0x5D,0x00,Read,ACK
5.362217562500000,0,0x5D,0x00,Read,ACK
5.362239031250000,0,0x5D,0x00,Read,ACK
5.362262437500000,0,0x5D,0x00,Read,ACK
5.362283875000000,0,0x5D,0x00,Read,ACK
5.362305343750000,0,0x5D,0x00,Read,ACK
5.362326843750000,0,0x5D,0x00,Read,NAK
5.368066812500000,0,0x5D,0x2F,Read,ACK
5.368092531250000,0,0x5D,0x00,Read,ACK
5.368114031250000,0,0x5D,0x04,Read,ACK
5.368135468750000,0,0x5D,0x03,Read,ACK
5.368156937500000,0,0x5D,0x4E,Read,ACK
5.368179062500000,0,0x5D,0x08,Read,ACK
5.368200500000000,0,0x5D,0x7F,Read,ACK
5.368225843750000,0,0x5D,0x05,Read,ACK
5.368247312500000,0,0x5D,0x03,Read,ACK
5.368268781250000,0,0x5D,0x02,Read,ACK
5.368290250000000,0,0x5D,0x20,Read,ACK
5.368311718750000,0,0x5D,0x00,Read,ACK
5.368333187500000,0,0x5D,0x00,Read,ACK
5.368354656250000,0,0x5D,0x00,Read,ACK
5.368376125000000,0,0x5D,0x00,Read,ACK
5.368397593750000,0,0x5D,0x00,Read,ACK
5.368420156250000,0,0x5D,0x00,Read,ACK
5.368442218750000,0,0x5D,0x00,Read,ACK
5.368464875000000,0,0x5D,0x00,Read,ACK
5.368486375000000,0,0x5D,0x00,Read,ACK
5.368507906250000,0,0x5D,0x00,Read,ACK
5.368529437500000,0,0x5D,0x00,Read,ACK
5.368551062500000,0,0x5D,0x00,Read,ACK
5.368572562500000,0,0x5D,0x00,Read,ACK
5.368594031250000,0,0x5D,0x00,Read,ACK
5.368615500000000,0,0x5D,0x00,Read,ACK
5.368637093750000,0,0x5D,0x00,Read,ACK
5.368660312500000,0,0x5D,0x00,Read,ACK
5.368681781250000,0,0x5D,0x00,Read,ACK
5.368703250000000,0,0x5D,0x00,Read,ACK
5.368724718750000,0,0x5D,0x00,Read,ACK
5.368746187500000,0,0x5D,0x00,Read,ACK
5.368767656250000,0,0x5D,0x00,Read,ACK
5.368789281250000,0,0x5D,0x00,Read,ACK
5.368810781250000,0,0x5D,0x00,Read,ACK
5.368832250000000,0,0x5D,0x00,Read,ACK
5.368853718750000,0,0x5D,0x00,Read,ACK
5.368875187500000,0,0x5D,0x00,Read,ACK
5.368896656250000,0,0x5D,0x00,Read,ACK
5.368918125000000,0,0x5D,0x00,Read,ACK
5.368939625000000,0,0x5D,0x00,Read,ACK
5.368961062500000,0,0x5D,0x00,Read,ACK
5.368982781250000,0,0x5D,0x00,Read,ACK
5.369004250000000,0,0x5D,0x28,Read,ACK
5.369025718750000,0,0x5D,0x87,Read,ACK
5.369047187500000,0,0x5D,0x01,Read,ACK
5.369068656250000,0,0x5D,0x00,Read,ACK
5.369090125000000,0,0x5D,0x00,Read,ACK
5.369111625000000,0,0x5D,0x00,Read,ACK
5.369133062500000,0,0x5D,0x00,Read,ACK
5.369154500000000,0,0x5D,0x00,Read,ACK
5.369177312500000,0,0x5D,0x00,Read,ACK
5.369200531250000,0,0x5D,0x00,Read,ACK
5.369222062500000,0,0x5D,0x00,Read,ACK
5.369243500000000,0,0x5D,0x00,Read,ACK
5.369265437500000,0,0x5D,0x00,Read,ACK
5.369286875000000,0,0x5D,0x00,Read,ACK
5.369308343750000,0,0x5D,0x00,Read,ACK
5.369329968750000,0,0x5D,0x00,Read,ACK
5.369351406250000,0,0x5D,0x00,Read,ACK
5.369374125000000,0,0x5D,0x00,Read,ACK
5.369395781250000,0,0x5D,0x00,Read,ACK
5.369418375000000,0,0x5D,0x00,Read,ACK
5.369441468750000,0,0x5D,0x00,Read,NAK
5.375123093750000,0,0x5D,0x2F,Read,ACK
5.375151906250000,0,0x5D,0x00,Read,ACK
5.375174718750000,0,0x5D,0x04,Read,ACK
5.375197468750000,0,0x5D,0x03,Read,ACK
5.375218937500000,0,0x5D,0x61,Read,ACK
5.375240406250000,0,0x5D,0x08,Read,ACK
5.375261875000000,0,0x5D,0x9D,Read,ACK
5.375283937500000,0,0x5D,0x05,Read,ACK
5.375305437500000,0,0x5D,0x03,Read,ACK
5.375330562500000,0,0x5D,0x03,Read,ACK
5.375352500000000,0,0x5D,0x20,Read,ACK
5.375373968750000,0,0x5D,0x00,Read,ACK
5.375395437500000,0,0x5D,0x00,Read,ACK
5.375416875000000,0,0x5D,0x00,Read,ACK
5.375438343750000,0,0x5D,0x00,Read,ACK
5.375459843750000,0,0x5D,0x00,Read,ACK
5.375481312500000,0,0x5D,0x00,Read,ACK
5.375502781250000,0,0x5D,0x00,Read,ACK
5.375524218750000,0,0x5D,0x00,Read,ACK
5.375545687500000,0,0x5D,0x00,Read,ACK
5.375568437500000,0,0x5D,0x00,Read,ACK
5.375590468750000,0,0x5D,0x00,Read,ACK
5.375611968750000,0,0x5D,0x00,Read,ACK
5.375633437500000,0,0x5D,0x00,Read,ACK
5.375654906250000,0,0x5D,0x00,Read,ACK
5.375676375000000,0,0x5D,0x00,Read,ACK
5.375700187500000,0,0x5D,0x00,Read,ACK
5.375721625000000,0,0x5D,0x00,Read,ACK
5.375743375000000,0,0x5D,0x00,Read,ACK
5.375764812500000,0,0x5D,0x00,Read,ACK
5.375786312500000,0,0x5D,0x00,Read,ACK
5.375808031250000,0,0x5D,0x00,Read,ACK
5.375830687500000,0,0x5D,0x00,Read,ACK
5.375852156250000,0,0x5D,0x00,Read,ACK
5.375873593750000,0,0x5D,0x00,Read,ACK
5.375895062500000,0,0x5D,0x00,Read,ACK
5.375916531250000,0,0x5D,0x00,Read,ACK
5.375938031250000,0,0x5D,0x00,Read,ACK
5.375959500000000,0,0x5D,0x00,Read,ACK
5.375980937500000,0,0x5D,0x00,Read,ACK
5.376002437500000,0,0x5D,0x00,Read,ACK
5.376023937500000,0,0x5D,0x00,Read,ACK
5.376046875000000,0,0x5D,0x00,Read,ACK
5.376068375000000,0,0x5D,0x6E,Read,ACK
5.376089875000000,0,0x5D,0x87,Read,ACK
5.376111343750000,0,0x5D,0x01,Read,ACK
5.376133187500000,0,0x5D,0x00,Read,ACK
5.376154625000000,0,0x5D,0x00,Read,ACK
5.376176093750000,0,0x5D,0x00,Read,ACK
5.376197562500000,0,0x5D,0x00,Read,ACK
5.376219031250000,0,0x5D,0x00,Read,ACK
5.376240500000000,0,0x5D,0x00,Read,ACK
5.376262000000000,0,0x5D,0x00,Read,ACK
5.376285937500000,0,0x5D,0x00,Read,ACK
5.376307406250000,0,0x5D,0x00,Read,ACK
5.376328875000000,0,0x5D,0x00,Read,ACK
5.376352125000000,0,0x5D,0x00,Read,ACK
5.376373906250000,0,0x5D,0x00,Read,ACK
5.376395375000000,0,0x5D,0x00,Read,ACK
5.376416812500000,0,0x5D,0x00,Read,ACK
5.376438281250000,0,0x5D,0x00,Read,ACK
5.376459750000000,0,0x5D,0x00,Read,ACK
5.376481718750000,0,0x5D,0x00,Read,ACK
5.376503187500000,0,0x5D,0x00,Read,NAK
5.382283281250000,0,0x5D,0x2F,Read,ACK
5.382310281250000,0,0x5D,0x00,Read,ACK
5.382332562500000,0,0x5D,0x04,Read,ACK
5.382354000000000,0,0x5D,0x03,Read,ACK
5.382375593750000,0,0x5D,0x6F,Read,ACK
5.382397062500000,0,0x5D,0x08,Read,ACK
5.382418531250000,0,0x5D,0xB9,Read,ACK
5.382440062500000,0,0x5D,0x05,Read,ACK
5.382461937500000,0,0x5D,0x03,Read,ACK
5.382483375000000,0,0x5D,0x03,Read,ACK
5.382504843750000,0,0x5D,0x20,Read,ACK
5.382526312500000,0,0x5D,0x00,Read,ACK
5.382547781250000,0,0x5D,0x00,Read,ACK
5.382569250000000,0,0x5D,0x00,Read,ACK
5.382590718750000,0,0x5D,0x00,Read,ACK
5.382612156250000,0,0x5D,0x00,Read,ACK
5.382633656250000,0,0x5D,0x00,Read,ACK
5.382655093750000,0,0x5D,0x00,Read,ACK
5.382676562500000,0,0x5D,0x00,Read,ACK
5.382698031250000,0,0x5D,0x00,Read,ACK
5.382720156250000,0,0x5D,0x00,Read,ACK
5.382741656250000,0,0x5D,0x00,Read,ACK
5.382763968750000,0,0x5D,0x00,Read,ACK
5.382785500000000,0,0x5D,0x00,Read,ACK
5.382806968750000,0,0x5D,0x00,Read,ACK
5.382828437500000,0,0x5D,0x00,Read,ACK
5.382850875000000,0,0x5D,0x00,Read,ACK
5.382872343750000,0,0x5D,0x00,Read,ACK
5.382893812500000,0,0x5D,0x00,Read,ACK
5.382915281250000,0,0x5D,0x00,Read,ACK
5.382936750000000,0,0x5D,0x00,Read,ACK
5.382958968750000,0,0x5D,0x00,Read,ACK
5.382980437500000,0,0x5D,0x00,Read,ACK
5.383001906250000,0,0x5D,0x00,Read,ACK
5.383023375000000,0,0x5D,0x00,Read,ACK
5.383044843750000,0,0x5D,0x00,Read,ACK
5.383066312500000,0,0x5D,0x00,Read,ACK
5.383087781250000,0,0x5D,0x00,Read,ACK
5.383109250000000,0,0x5D,0x00,Read,ACK
5.383130718750000,0,0x5D,0x00,Read,ACK
5.383152156250000,0,0x5D,0x00,Read,ACK
5.383173656250000,0,0x5D,0x00,Read,ACK
5.383195093750000,0,0x5D,0x00,Read,ACK
5.383216562500000,0,0x5D,0xB4,Read,ACK
5.383238031250000,0,0x5D,0x87,Read,ACK
5.383259500000000,0,0x5D,0x01,Read,ACK
5.383281000000000,0,0x5D,0x00,Read,ACK
5.383302468750000,0,0x5D,0x00,Read,ACK
5.383323906250000,0,0x5D,0x00,Read,ACK
5.383345750000000,0,0x5D,0x00,Read,ACK
5.383367250000000,0,0x5D,0x00,Read,ACK
5.383389656250000,0,0x5D,0x00,Read,ACK
5.383415437500000,0,0x5D,0x00,Read,ACK
5.383438343750000,0,0x5D,0x00,Read,ACK
5.383461906250000,0,0x5D,0x00,Read,ACK
5.383484406250000,0,0x5D,0x00,Read,ACK
5.383505906250000,0,0x5D,0x00,Read,ACK
5.383527375000000,0,0x5D,0x00,Read,ACK
5.383548812500000,0,0x5D,0x00,Read,ACK
5.383571593750000,0,0x5D,0x00,Read,ACK
5.383593125000000,0,0x5D,0x00,Read,ACK
5.383619500000000,0,0x5D,0x00,Read,ACK
5.383640937500000,0,0x5D,0x00,Read,ACK
5.383663062500000,0,0x5D,0x00,Read,NAK
5.389473968750000,0,0x5D,0x2F,Read,ACK
5.389499500000000,0,0x5D,0x00,Read,ACK
5.389521218750000,0,0x5D,0x04,Read,ACK
5.389544500000000,0,0x5D,0x03,Read,ACK
5.389566281250000,0,0x5D,0x77,Read,ACK
5.389590968750000,0,0x5D,0x08,Read,ACK
5.389612437500000,0,0x5D,0xD2,Read,ACK
5.389633875000000,0,0x5D,0x05,Read,ACK
5.389655343750000,0,0x5D,0x03,Read,ACK
5.389676843750000,0,0x5D,0x03,Read,ACK
5.389698312500000,0,0x5D,0x20,Read,ACK
5.389719750000000,0,0x5D,0x00,Read,ACK
5.389741250000000,0,0x5D,0x00,Read,ACK
5.389762687500000,0,0x5D,0x00,Read,ACK
5.389784156250000,0,0x5D,0x00,Read,ACK
5.389805656250000,0,0x5D,0x00,Read,ACK
5.389828500000000,0,0x5D,0x00,Read,ACK
5.389851218750000,0,0x5D,0x00,Read,ACK
5.389872718750000,0,0x5D,0x00,Read,ACK
5.389894250000000,0,0x5D,0x00,Read,ACK
5.389915718750000,0,0x5D,0x00,Read,ACK
5.389937656250000,0,0x5D,0x00,Read,ACK
5.389959093750000,0,0x5D,0x00,Read,ACK
5.389980562500000,0,0x5D,0x00,Read,ACK
5.390002843750000,0,0x5D,0x00,Read,ACK
5.390024312500000,0,0x5D,0x00,Read,ACK
5.390045781250000,0,0x5D,0x00,Read,ACK
5.390067250000000,0,0x5D,0x00,Read,ACK
5.390088718750000,0,0x5D,0x00,Read,ACK
5.390110187500000,0,0x5D,0x00,Read,ACK
5.390131656250000,0,0x5D,0x00,Read,ACK
5.390153125000000,0,0x5D,0x00,Read,ACK
5.390174781250000,0,0x5D,0x00,Read,ACK
5.390196250000000,0,0x5D,0x00,Read,ACK
5.390217718750000,0,0x5D,0x00,Read,ACK
5.390239187500000,0,0x5D,0x00,Read,ACK
5.390260656250000,0,0x5D,0x00,Read,ACK
5.390282593750000,0,0x5D,0x00,Read,ACK
5.390304031250000,0,0x5D,0x00,Read,ACK
5.390325531250000,0,0x5D,0x00,Read,ACK
5.390346968750000,0,0x5D,0x00,Read,ACK
5.390368468750000,0,0x5D,0x00,Read,ACK
5.390389968750000,0,0x5D,0x00,Read,ACK
5.390411437500000,0,0x5D,0xFA,Read,ACK
5.390432906250000,0,0x5D,0x87,Read,ACK
5.390454375000000,0,0x5D,0x01,Read,ACK
5.390475812500000,0,0x5D,0x00,Read,ACK
5.390499031250000,0,0x5D,0x00,Read,ACK
5.390522156250000,0,0x5D,0x00,Read,ACK
5.390544750000000,0,0x5D,0x00,Read,ACK
5.390567281250000,0,0x5D,0x00,Read,ACK
5.390589062500000,0,0x5D,0x00,Read,ACK
5.390610562500000,0,0x5D,0x00,Read,ACK
5.390633250000000,0,0x5D,0x00,Read,ACK
5.390654687500000,0,0x5D,0x00,Read,ACK
5.390676406250000,0,0x5D,0x00,Read,ACK
5.390699375000000,0,0x5D,0x00,Read,ACK
5.390720812500000,0,0x5D,0x00,Read,ACK
5.390743937500000,0,0x5D,0x00,Read,ACK
5.390766125000000,0,0x5D,0x00,Read,ACK
5.390787781250000,0,0x5D,0x00,Read,ACK
5.390809750000000,0,0x5D,0x00,Read,ACK
5.390831906250000,0,0x5D,0x00,Read,ACK
5.390853437500000,0,0x5D,0x00,Read,NAK
5.396557375000000,0,0x5D,0x2F,Read,ACK
5.396585906250000,0,0x5D,0x00,Read,ACK
5.396607375000000,0,0x5D,0x04,Read,ACK
5.396628843750000,0,0x5D,0x03,Read,ACK
5.396650312500000,0,0x5D,0x79,Read,ACK
5.396672031250000,0,0x5D,0x08,Read,ACK
5.396693500000000,0,0x5D,0xE7,Read,ACK
5.396714968750000,0,0x5D,0x05,Read,ACK
5.396736781250000,0,0x5D,0x03,Read,ACK
5.396761500000000,0,0x5D,0x02,Read,ACK
5.396783375000000,0,0x5D,0x20,Read,ACK
5.396804843750000,0,0x5D,0x00,Read,ACK
5.396826281250000,0,0x5D,0x00,Read,ACK
5.396847781250000,0,0x5D,0x00,Read,ACK
5.396869218750000,0,0x5D,0x00,Read,ACK
5.396890687500000,0,0x5D,0x00,Read,ACK
5.396912187500000,0,0x5D,0x00,Read,ACK
5.396933625000000,0,0x5D,0x00,Read,ACK
5.396955125000000,0,0x5D,0x00,Read,ACK
5.396976625000000,0,0x5D,0x00,Read,ACK
5.396998156250000,0,0x5D,0x00,Read,ACK
5.397020093750000,0,0x5D,0x00,Read,ACK
5.397041593750000,0,0x5D,0x00,Read,ACK
5.397063062500000,0,0x5D,0x00,Read,ACK
5.397084531250000,0,0x5D,0x00,Read,ACK
5.397106156250000,0,0x5D,0x00,Read,ACK
5.397127593750000,0,0x5D,0x00,Read,ACK
5.397149062500000,0,0x5D,0x00,Read,ACK
5.397170718750000,0,0x5D,0x00,Read,ACK
5.397192156250000,0,0x5D,0x00,Read,ACK
5.397213656250000,0,0x5D,0x00,Read,ACK
5.397235125000000,0,0x5D,0x00,Read,ACK
5.397256968750000,0,0x5D,0x00,Read,ACK
5.397278406250000,0,0x5D,0x00,Read,ACK
5.397299875000000,0,0x5D,0x00,Read,ACK
5.397321343750000,0,0x5D,0x00,Read,ACK
5.397342843750000,0,0x5D,0x00,Read,ACK
5.397364281250000,0,0x5D,0x00,Read,ACK
5.397385750000000,0,0x5D,0x00,Read,ACK
5.397407218750000,0,0x5D,0x00,Read,ACK
5.397428687500000,0,0x5D,0x00,Read,ACK
5.397450156250000,0,0x5D,0x00,Read,ACK
5.397471625000000,0,0x5D,0x00,Read,ACK
5.397493093750000,0,0x5D,0x40,Read,ACK
5.397514562500000,0,0x5D,0x88,Read,ACK
5.397536031250000,0,0x5D,0x01,Read,ACK
5.397557500000000,0,0x5D,0x00,Read,ACK
5.397578968750000,0,0x5D,0x00,Read,ACK
5.397600437500000,0,0x5D,0x00,Read,ACK
5.397621906250000,0,0x5D,0x00,Read,ACK
5.397643375000000,0,0x5D,0x00,Read,ACK
5.397664843750000,0,0x5D,0x00,Read,ACK
5.397690531250000,0,0x5D,0x00,Read,ACK
5.397714625000000,0,0x5D,0x00,Read,ACK
5.397736062500000,0,0x5D,0x00,Read,ACK
5.397760468750000,0,0x5D,0x00,Read,ACK
5.397783406250000,0,0x5D,0x00,Read,ACK
5.397804843750000,0,0x5D,0x00,Read,ACK
5.397826312500000,0,0x5D,0x00,Read,ACK
5.397848500000000,0,0x5D,0x00,Read,ACK
5.397871031250000,0,0x5D,0x00,Read,ACK
5.397892656250000,0,0x5D,0x00,Read,ACK
5.397914312500000,0,0x5D,0x00,Read,ACK
5.397935781250000,0,0x5D,0x00,Read,NAK
5.403676156250000,0,0x5D,0x2F,Read,ACK
5.403703906250000,0,0x5D,0x00,Read,ACK
5.403725343750000,0,0x5D,0x04,Read,ACK
5.403746812500000,0,0x5D,0x03,Read,ACK
5.403768312500000,0,0x5D,0x78,Read,ACK
5.403789750000000,0,0x5D,0x08,Read,ACK
5.403811250000000,0,0x5D,0xFC,Read,ACK
5.403833437500000,0,0x5D,0x05,Read,ACK
5.403855406250000,0,0x5D,0x03,Read,ACK
5.403878875000000,0,0x5D,0x02,Read,ACK
5.403900375000000,0,0x5D,0x20,Read,ACK
5.403921843750000,0,0x5D,0x00,Read,ACK
5.403943281250000,0,0x5D,0x00,Read,ACK
5.403964750000000,0,0x5D,0x00,Read,ACK
5.403986218750000,0,0x5D,0x00,Read,ACK
5.404007718750000,0,0x5D,0x00,Read,ACK
5.404029187500000,0,0x5D,0x00,Read,ACK
5.404050625000000,0,0x5D,0x00,Read,ACK
5.404072125000000,0,0x5D,0x00,Read,ACK
5.404093562500000,0,0x5D,0x00,Read,ACK
5.404115031250000,0,0x5D,0x00,Read,ACK
5.404136500000000,0,0x5D,0x00,Read,ACK
5.404158000000000,0,0x5D,0x00,Read,ACK
5.404179468750000,0,0x5D,0x00,Read,ACK
5.404200937500000,0,0x5D,0x00,Read,ACK
5.404222406250000,0,0x5D,0x00,Read,ACK
5.404243875000000,0,0x5D,0x00,Read,ACK
5.404265343750000,0,0x5D,0x00,Read,ACK
5.404286812500000,0,0x5D,0x00,Read,ACK
5.404308312500000,0,0x5D,0x00,Read,ACK
5.404329750000000,0,0x5D,0x00,Read,ACK
5.404351218750000,0,0x5D,0x00,Read,ACK
5.404373343750000,0,0x5D,0x00,Read,ACK
5.404394843750000,0,0x5D,0x00,Read,ACK
5.404416343750000,0,0x5D,0x00,Read,ACK
5.404437843750000,0,0x5D,0x00,Read,ACK
5.404459312500000,0,0x5D,0x00,Read,ACK
5.404480781250000,0,0x5D,0x00,Read,ACK
5.404502250000000,0,0x5D,0x00,Read,ACK
5.404523718750000,0,0x5D,0x00,Read,ACK
5.404545187500000,0,0x5D,0x00,Read,ACK
5.404566656250000,0,0x5D,0x00,Read,ACK
5.404588125000000,0,0x5D,0x00,Read,ACK
5.404609593750000,0,0x5D,0x86,Read,ACK
5.404631062500000,0,0x5D,0x88,Read,ACK
5.404652718750000,0,0x5D,0x01,Read,ACK
5.404674156250000,0,0x5D,0x00,Read,ACK
5.404695625000000,0,0x5D,0x00,Read,ACK
5.404717125000000,0,0x5D,0x00,Read,ACK
5.404738562500000,0,0x5D,0x00,Read,ACK
5.404762593750000,0,0x5D,0x00,Read,ACK
5.404786875000000,0,0x5D,0x00,Read,ACK
5.404809843750000,0,0x5D,0x00,Read,ACK
5.404833343750000,0,0x5D,0x00,Read,ACK
5.404854843750000,0,0x5D,0x00,Read,ACK
5.404876468750000,0,0x5D,0x00,Read,ACK
5.404897968750000,0,0x5D,0x00,Read,ACK
5.404919437500000,0,0x5D,0x00,Read,ACK
5.404941343750000,0,0x5D,0x00,Read,ACK
5.404962812500000,0,0x5D,0x00,Read,ACK
5.404984843750000,0,0x5D,0x00,Read,ACK
5.405007375000000,0,0x5D,0x00,Read,ACK
5.405031531250000,0,0x5D,0x00,Read,ACK
5.405053000000000,0,0x5D,0x00,Read,NAK
5.410827812500000,0,0x5D,0x2F,Read,ACK
5.410854187500000,0,0x5D,0x00,Read,ACK
5.410875750000000,0,0x5D,0x04,Read,ACK
5.410897218750000,0,0x5D,0x03,Read,ACK
5.410920062500000,0,0x5D,0x73,Read,ACK
5.410941531250000,0,0x5D,0x08,Read,ACK
5.410963000000000,0,0x5D,0x0F,Read,ACK
5.410984500000000,0,0x5D,0x06,Read,ACK
5.411005937500000,0,0x5D,0x03,Read,ACK
5.411027562500000,0,0x5D,0x02,Read,ACK
5.411052343750000,0,0x5D,0x20,Read,ACK
5.411075125000000,0,0x5D,0x00,Read,ACK
5.411096562500000,0,0x5D,0x00,Read,ACK
5.411118062500000,0,0x5D,0x00,Read,ACK
5.411139500000000,0,0x5D,0x00,Read,ACK
5.411161000000000,0,0x5D,0x00,Read,ACK
5.411182468750000,0,0x5D,0x00,Read,ACK
5.411203937500000,0,0x5D,0x00,Read,ACK
5.411225406250000,0,0x5D,0x00,Read,ACK
5.411246875000000,0,0x5D,0x00,Read,ACK
5.411268343750000,0,0x5D,0x00,Read,ACK
5.411291031250000,0,0x5D,0x00,Read,ACK
5.411312625000000,0,0x5D,0x00,Read,ACK
5.411334125000000,0,0x5D,0x00,Read,ACK
5.411355625000000,0,0x5D,0x00,Read,ACK
5.411377062500000,0,0x5D,0x00,Read,ACK
5.411398906250000,0,0x5D,0x00,Read,ACK
5.411420375000000,0,0x5D,0x00,Read,ACK
5.411441843750000,0,0x5D,0x00,Read,ACK
5.411464656250000,0,0x5D,0x00,Read,ACK
5.411486156250000,0,0x5D,0x00,Read,ACK
5.411507625000000,0,0x5D,0x00,Read,ACK
5.411529093750000,0,0x5D,0x00,Read,ACK
5.411551718750000,0,0x5D,0x00,Read,ACK
5.411573250000000,0,0x5D,0x00,Read,ACK
5.411594718750000,0,0x5D,0x00,Read,ACK
5.411616156250000,0,0x5D,0x00,Read,ACK
5.411637625000000,0,0x5D,0x00,Read,ACK
5.411659093750000,0,0x5D,0x00,Read,ACK
5.411680593750000,0,0x5D,0x00,Read,ACK
5.411702031250000,0,0x5D,0x00,Read,ACK
5.411723531250000,0,0x5D,0x00,Read,ACK
5.411745000000000,0,0x5D,0x00,Read,ACK
5.411766437500000,0,0x5D,0xCC,Read,ACK
5.411787968750000,0,0x5D,0x88,Read,ACK
5.411809468750000,0,0x5D,0x01,Read,ACK
5.411830937500000,0,0x5D,0x00,Read,ACK
5.411852656250000,0,0x5D,0x00,Read,ACK
5.411874093750000,0,0x5D,0x00,Read,ACK
5.411895593750000,0,0x5D,0x00,Read,ACK
5.411917062500000,0,0x5D,0x00,Read,ACK
5.411938500000000,0,0x5D,0x00,Read,ACK
5.411960000000000,0,0x5D,0x00,Read,ACK
5.411983906250000,0,0x5D,0x00,Read,ACK
5.412006343750000,0,0x5D,0x00,Read,ACK
5.412027843750000,0,0x5D,0x00,Read,ACK
5.412049343750000,0,0x5D,0x00,Read,ACK
5.412072250000000,0,0x5D,0x00,Read,ACK
5.412093750000000,0,0x5D,0x00,Read,ACK
5.412115250000000,0,0x5D,0x00,Read,ACK
5.412136750000000,0,0x5D,0x00,Read,ACK
5.412158781250000,0,0x5D,0x00,Read,ACK
5.412180968750000,0,0x5D,0x00,Read,ACK
5.412202875000000,0,0x5D,0x00,Read,NAK
5.418030187500000,0,0x5D,0x2F,Read,ACK
5.418056062500000,0,0x5D,0x00,Read,ACK
5.418077531250000,0,0x5D,0x04,Read,ACK
5.418099031250000,0,0x5D,0x03,Read,ACK
5.418120468750000,0,0x5D,0x6B,Read,ACK
5.418141937500000,0,0x5D,0x08,Read,ACK
5.418164281250000,0,0x5D,0x22,Read,ACK
5.418190843750000,0,0x5D,0x06,Read,ACK
5.418213875000000,0,0x5D,0x03,Read,ACK
5.418235312500000,0,0x5D,0x03,Read,ACK
5.418256781250000,0,0x5D,0x20,Read,ACK
5.418278250000000,0,0x5D,0x00,Read,ACK
5.418299718750000,0,0x5D,0x00,Read,ACK
5.418321187500000,0,0x5D,0x00,Read,ACK
5.418342656250000,0,0x5D,0x00,Read,ACK
5.418364125000000,0,0x5D,0x00,Read,ACK
5.418385593750000,0,0x5D,0x00,Read,ACK
5.418407062500000,0,0x5D,0x00,Read,ACK
5.418428500000000,0,0x5D,0x00,Read,ACK
5.418451062500000,0,0x5D,0x00,Read,ACK
5.418472781250000,0,0x5D,0x00,Read,ACK
5.418494250000000,0,0x5D,0x00,Read,ACK
5.418515718750000,0,0x5D,0x00,Read,ACK
5.418537156250000,0,0x5D,0x00,Read,ACK
5.418558625000000,0,0x5D,0x00,Read,ACK
5.418580093750000,0,0x5D,0x00,Read,ACK
5.418601562500000,0,0x5D,0x00,Read,ACK
5.418623031250000,0,0x5D,0x00,Read,ACK
5.418644750000000,0,0x5D,0x00,Read,ACK
5.418667312500000,0,0x5D,0x00,Read,ACK
5.418688875000000,0,0x5D,0x00,Read,ACK
5.418710375000000,0,0x5D,0x00,Read,ACK
5.418731812500000,0,0x5D,0x00,Read,ACK
5.418753281250000,0,0x5D,0x00,Read,ACK
5.418774781250000,0,0x5D,0x00,Read,ACK
5.418796218750000,0,0x5D,0x00,Read,ACK
5.418817718750000,0,0x5D,0x00,Read,ACK
5.418839656250000,0,0x5D,0x00,Read,ACK
5.418861156250000,0,0x5D,0x00,Read,ACK
5.418882593750000,0,0x5D,0x00,Read,ACK
5.418904062500000,0,0x5D,0x00,Read,ACK
5.418925531250000,0,0x5D,0x00,Read,ACK
5.418947000000000,0,0x5D,0x00,Read,ACK
5.418968468750000,0,0x5D,0x12,Read,ACK
5.418989937500000,0,0x5D,0x89,Read,ACK
5.419011406250000,0,0x5D,0x01,Read,ACK
5.419032906250000,0,0x5D,0x00,Read,ACK
5.419054375000000,0,0x5D,0x00,Read,ACK
5.419075843750000,0,0x5D,0x00,Read,ACK
5.419099750000000,0,0x5D,0x00,Read,ACK
5.419122843750000,0,0x5D,0x00,Read,ACK
5.419146125000000,0,0x5D,0x00,Read,ACK
5.419167625000000,0,0x5D,0x00,Read,ACK
5.419189156250000,0,0x5D,0x00,Read,ACK
5.419210625000000,0,0x5D,0x00,Read,ACK
5.419232093750000,0,0x5D,0x00,Read,ACK
5.419253875000000,0,0x5D,0x00,Read,ACK
5.419275656250000,0,0x5D,0x00,Read,ACK
5.419297125000000,0,0x5D,0x00,Read,ACK
5.419320156250000,0,0x5D,0x00,Read,ACK
5.419341750000000,0,0x5D,0x00,Read,ACK
5.419364031250000,0,0x5D,0x00,Read,ACK
5.419385500000000,0,0x5D,0x00,Read,ACK
5.419406937500000,0,0x5D,0x00,Read,NAK
5.425314062500000,0,0x5D,0x2F,Read,ACK
5.425346125000000,0,0x5D,0x00,Read,ACK
5.425367625000000,0,0x5D,0x04,Read,ACK
5.425389093750000,0,0x5D,0x03,Read,ACK
5.425410562500000,0,0x5D,0x5E,Read,ACK
5.425432031250000,0,0x5D,0x08,Read,ACK
5.425453500000000,0,0x5D,0x33,Read,ACK
5.425474968750000,0,0x5D,0x06,Read,ACK
5.425496437500000,0,0x5D,0x03,Read,ACK
5.425517906250000,0,0x5D,0x03,Read,ACK
5.425539375000000,0,0x5D,0x20,Read,ACK
5.425562187500000,0,0x5D,0x00,Read,ACK
5.425584843750000,0,0x5D,0x00,Read,ACK
5.425606343750000,0,0x5D,0x00,Read,ACK
5.425627812500000,0,0x5D,0x00,Read,ACK
5.425649375000000,0,0x5D,0x00,Read,ACK
5.425670812500000,0,0x5D,0x00,Read,ACK
5.425692281250000,0,0x5D,0x00,Read,ACK
5.425713750000000,0,0x5D,0x00,Read,ACK
5.425735218750000,0,0x5D,0x00,Read,ACK
5.425756718750000,0,0x5D,0x00,Read,ACK
5.425778312500000,0,0x5D,0x00,Read,ACK
5.425799937500000,0,0x5D,0x00,Read,ACK
5.425821406250000,0,0x5D,0x00,Read,ACK
5.425842875000000,0,0x5D,0x00,Read,ACK
5.425864343750000,0,0x5D,0x00,Read,ACK
5.425885812500000,0,0x5D,0x00,Read,ACK
5.425907281250000,0,0x5D,0x00,Read,ACK
5.425928750000000,0,0x5D,0x00,Read,ACK
5.425950218750000,0,0x5D,0x00,Read,ACK
5.425971687500000,0,0x5D,0x00,Read,ACK
5.425993406250000,0,0x5D,0x00,Read,ACK
5.426014906250000,0,0x5D,0x00,Read,ACK
5.426036343750000,0,0x5D,0x00,Read,ACK
5.426057812500000,0,0x5D,0x00,Read,ACK
5.426079281250000,0,0x5D,0x00,Read,ACK
5.426100750000000,0,0x5D,0x00,Read,ACK
5.426122218750000,0,0x5D,0x00,Read,ACK
5.426143687500000,0,0x5D,0x00,Read,ACK
5.426165156250000,0,0x5D,0x00,Read,ACK
5.426186625000000,0,0x5D,0x00,Read,ACK
5.426211062500000,0,0x5D,0x00,Read,ACK
5.426236250000000,0,0x5D,0x00,Read,ACK
5.426260250000000,0,0x5D,0x58,Read,ACK
5.426283687500000,0,0x5D,0x89,Read,ACK
5.426305281250000,0,0x5D,0x01,Read,ACK
5.426327187500000,0,0x5D,0x00,Read,ACK
5.426348625000000,0,0x5D,0x00,Read,ACK
5.426370312500000,0,0x5D,0x00,Read,ACK
5.426391781250000,0,0x5D,0x00,Read,ACK
5.426413218750000,0,0x5D,0x00,Read,ACK
5.426435781250000,0,0x5D,0x00,Read,ACK
5.426457250000000,0,0x5D,0x00,Read,ACK
5.426478812500000,0,0x5D,0x00,Read,ACK
5.426501062500000,0,0x5D,0x00,Read,ACK
5.426524125000000,0,0x5D,0x00,Read,ACK
5.426546718750000,0,0x5D,0x00,Read,ACK
5.426568218750000,0,0x5D,0x00,Read,ACK
5.426590312500000,0,0x5D,0x00,Read,ACK
5.426612156250000,0,0x5D,0x00,Read,ACK
5.426634000000000,0,0x5D,0x00,Read,ACK
5.426655468750000,0,0x5D,0x00,Read,ACK
5.426677125000000,0,0x5D,0x00,Read,ACK
5.426698593750000,0,0x5D,0x00,Read,NAK
5.432394250000000,0,0x5D,0x2F,Read,ACK
5.432422625000000,0,0x5D,0x00,Read,ACK
5.432444437500000,0,0x5D,0x04,Read,ACK
5.432466531250000,0,0x5D,0x03,Read,ACK
5.432491062500000,0,0x5D,0x4D,Read,ACK
5.432512531250000,0,0x5D,0x08,Read,ACK
5.432534000000000,0,0x5D,0x44,Read,ACK
5.432555468750000,0,0x5D,0x06,Read,ACK
5.432576937500000,0,0x5D,0x03,Read,ACK
5.432598406250000,0,0x5D,0x03,Read,ACK
5.432619875000000,0,0x5D,0x20,Read,ACK
5.432641343750000,0,0x5D,0x00,Read,ACK
5.432662843750000,0,0x5D,0x00,Read,ACK
5.432684500000000,0,0x5D,0x00,Read,ACK
5.432707125000000,0,0x5D,0x00,Read,ACK
5.432728593750000,0,0x5D,0x00,Read,ACK
5.432750093750000,0,0x5D,0x00,Read,ACK
5.432771593750000,0,0x5D,0x00,Read,ACK
5.432794531250000,0,0x5D,0x00,Read,ACK
5.432817500000000,0,0x5D,0x00,Read,ACK
5.432838968750000,0,0x5D,0x00,Read,ACK
5.432860500000000,0,0x5D,0x00,Read,ACK
5.432881968750000,0,0x5D,0x00,Read,ACK
5.432903437500000,0,0x5D,0x00,Read,ACK
5.432925812500000,0,0x5D,0x00,Read,ACK
5.432947343750000,0,0x5D,0x00,Read,ACK
5.432968843750000,0,0x5D,0x00,Read,ACK
5.432990343750000,0,0x5D,0x00,Read,ACK
5.433011781250000,0,0x5D,0x00,Read,ACK
5.433033250000000,0,0x5D,0x00,Read,ACK
5.433054718750000,0,0x5D,0x00,Read,ACK
5.433076187500000,0,0x5D,0x00,Read,ACK
5.433097687500000,0,0x5D,0x00,Read,ACK
5.433119187500000,0,0x5D,0x00,Read,ACK
5.433140687500000,0,0x5D,0x00,Read,ACK
5.433162156250000,0,0x5D,0x00,Read,ACK
5.433183625000000,0,0x5D,0x00,Read,ACK
5.433205093750000,0,0x5D,0x00,Read,ACK
5.433226562500000,0,0x5D,0x00,Read,ACK
5.433248031250000,0,0x5D,0x00,Read,ACK
5.433269500000000,0,0x5D,0x00,Read,ACK
5.433290968750000,0,0x5D,0x00,Read,ACK
5.433312437500000,0,0x5D,0x00,Read,ACK
5.433333906250000,0,0x5D,0x9E,Read,ACK
5.433355375000000,0,0x5D,0x89,Read,ACK
5.433376843750000,0,0x5D,0x01,Read,ACK
5.433400156250000,0,0x5D,0x00,Read,ACK
5.433422500000000,0,0x5D,0x00,Read,ACK
5.433447218750000,0,0x5D,0x00,Read,ACK
5.433468906250000,0,0x5D,0x00,Read,ACK
5.433490593750000,0,0x5D,0x00,Read,ACK
5.433512343750000,0,0x5D,0x00,Read,ACK
5.433533812500000,0,0x5D,0x00,Read,ACK
5.433555312500000,0,0x5D,0x00,Read,ACK
5.433577125000000,0,0x5D,0x00,Read,ACK
5.433601718750000,0,0x5D,0x00,Read,ACK
5.433624843750000,0,0x5D,0x00,Read,ACK
5.433646531250000,0,0x5D,0x00,Read,ACK
5.433669062500000,0,0x5D,0x00,Read,ACK
5.433692531250000,0,0x5D,0x00,Read,ACK
5.433714156250000,0,0x5D,0x00,Read,ACK
5.433736062500000,0,0x5D,0x00,Read,ACK
5.433758125000000,0,0x5D,0x00,Read,ACK
5.433779625000000,0,0x5D,0x00,Read,NAK
5.439507343750000,0,0x5D,0x2F,Read,ACK
5.439533031250000,0,0x5D,0x00,Read,ACK
5.439554531250000,0,0x5D,0x04,Read,ACK
5.439576000000000,0,0x5D,0x03,Read,ACK
5.439597937500000,0,0x5D,0x39,Read,ACK
5.439620625000000,0,0x5D,0x08,Read,ACK
5.439642406250000,0,0x5D,0x54,Read,ACK
5.439663875000000,0,0x5D,0x06,Read,ACK
5.439685375000000,0,0x5D,0x03,Read,ACK
5.439706843750000,0,0x5D,0x03,Read,ACK
5.439728343750000,0,0x5D,0x20,Read,ACK
5.439749843750000,0,0x5D,0x00,Read,ACK
5.439771312500000,0,0x5D,0x00,Read,ACK
5.439792781250000,0,0x5D,0x00,Read,ACK
5.439814250000000,0,0x5D,0x00,Read,ACK
5.439835718750000,0,0x5D,0x00,Read,ACK
5.439857218750000,0,0x5D,0x00,Read,ACK
5.439878656250000,0,0x5D,0x00,Read,ACK
5.439900843750000,0,0x5D,0x00,Read,ACK
5.439922343750000,0,0x5D,0x00,Read,ACK
5.439943812500000,0,0x5D,0x00,Read,ACK
5.439966750000000,0,0x5D,0x00,Read,ACK
5.439988406250000,0,0x5D,0x00,Read,ACK
5.440010531250000,0,0x5D,0x00,Read,ACK
5.440032000000000,0,0x5D,0x00,Read,ACK
5.440053468750000,0,0x5D,0x00,Read,ACK
5.440074937500000,0,0x5D,0x00,Read,ACK
5.440096468750000,0,0x5D,0x00,Read,ACK
5.440117937500000,0,0x5D,0x00,Read,ACK
5.440139406250000,0,0x5D,0x00,Read,ACK
5.440160875000000,0,0x5D,0x00,Read,ACK
5.440182343750000,0,0x5D,0x00,Read,ACK
5.440203843750000,0,0x5D,0x00,Read,ACK
5.440225312500000,0,0x5D,0x00,Read,ACK
5.440246750000000,0,0x5D,0x00,Read,ACK
5.440268218750000,0,0x5D,0x00,Read,ACK
5.440289687500000,0,0x5D,0x00,Read,ACK
5.440311218750000,0,0x5D,0x00,Read,ACK
5.440332687500000,0,0x5D,0x00,Read,ACK
5.440354187500000,0,0x5D,0x00,Read,ACK
5.440375656250000,0,0x5D,0x00,Read,ACK
5.440397375000000,0,0x5D,0x00,Read,ACK
5.440418843750000,0,0x5D,0x00,Read,ACK
5.440440312500000,0,0x5D,0xE4,Read,ACK
5.440461812500000,0,0x5D,0x89,Read,ACK
5.440483312500000,0,0x5D,0x01,Read,ACK
5.440504781250000,0,0x5D,0x00,Read,ACK
5.440528437500000,0,0x5D,0x00,Read,ACK
5.440552812500000,0,0x5D,0x00,Read,ACK
5.440574281250000,0,0x5D,0x00,Read,ACK
5.440597156250000,0,0x5D,0x00,Read,ACK
5.440619000000000,0,0x5D,0x00,Read,ACK
5.440640656250000,0,0x5D,0x00,Read,ACK
5.440662125000000,0,0x5D,0x00,Read,ACK
5.440683593750000,0,0x5D,0x00,Read,ACK
5.440705343750000,0,0x5D,0x00,Read,ACK
5.440728468750000,0,0x5D,0x00,Read,ACK
5.440749937500000,0,0x5D,0x00,Read,ACK
5.440772656250000,0,0x5D,0x00,Read,ACK
5.440794968750000,0,0x5D,0x00,Read,ACK
5.440816468750000,0,0x5D,0x00,Read,ACK
5.440837937500000,0,0x5D,0x00,Read,ACK
5.440861812500000,0,0x5D,0x00,Read,ACK
5.440883468750000,0,0x5D,0x00,Read,NAK
5.446571156250000,0,0x5D,0x2F,Read,ACK
5.446599531250000,0,0x5D,0x00,Read,ACK
5.446622500000000,0,0x5D,0x04,Read,ACK
5.446643937500000,0,0x5D,0x03,Read,ACK
5.446665406250000,0,0x5D,0x21,Read,ACK
5.446686875000000,0,0x5D,0x08,Read,ACK
5.446708343750000,0,0x5D,0x61,Read,ACK
5.446729812500000,0,0x5D,0x06,Read,ACK
5.446752000000000,0,0x5D,0x03,Read,ACK
5.446777875000000,0,0x5D,0x03,Read,ACK
5.446799375000000,0,0x5D,0x20,Read,ACK
5.446820812500000,0,0x5D,0x00,Read,ACK
5.446842281250000,0,0x5D,0x00,Read,ACK
5.446863750000000,0,0x5D,0x00,Read,ACK
5.446885218750000,0,0x5D,0x00,Read,ACK
5.446906687500000,0,0x5D,0x00,Read,ACK
5.446928187500000,0,0x5D,0x00,Read,ACK
5.446949625000000,0,0x5D,0x00,Read,ACK
5.446971093750000,0,0x5D,0x00,Read,ACK
5.446992593750000,0,0x5D,0x00,Read,ACK
5.447015031250000,0,0x5D,0x00,Read,ACK
5.447037437500000,0,0x5D,0x00,Read,ACK
5.447058906250000,0,0x5D,0x00,Read,ACK
5.447080375000000,0,0x5D,0x00,Read,ACK
5.447102250000000,0,0x5D,0x00,Read,ACK
5.447123718750000,0,0x5D,0x00,Read,ACK
5.447145187500000,0,0x5D,0x00,Read,ACK
5.447166687500000,0,0x5D,0x00,Read,ACK
5.447188187500000,0,0x5D,0x00,Read,ACK
5.447209656250000,0,0x5D,0x00,Read,ACK
5.447231156250000,0,0x5D,0x00,Read,ACK
5.447252625000000,0,0x5D,0x00,Read,ACK
5.447274062500000,0,0x5D,0x00,Read,ACK
5.447295531250000,0,0x5D,0x00,Read,ACK
5.447317031250000,0,0x5D,0x00,Read,ACK
5.447338500000000,0,0x5D,0x00,Read,ACK
5.447359937500000,0,0x5D,0x00,Read,ACK
5.447381406250000,0,0x5D,0x00,Read,ACK
5.447402875000000,0,0x5D,0x00,Read,ACK
5.447424343750000,0,0x5D,0x00,Read,ACK
5.447445812500000,0,0x5D,0x00,Read,ACK
5.447467281250000,0,0x5D,0x00,Read,ACK
5.447488781250000,0,0x5D,0x00,Read,ACK
5.447510218750000,0,0x5D,0x2A,Read,ACK
5.447531687500000,0,0x5D,0x8A,Read,ACK
5.447553156250000,0,0x5D,0x01,Read,ACK
5.447574625000000,0,0x5D,0x00,Read,ACK
5.447596093750000,0,0x5D,0x00,Read,ACK
5.447617562500000,0,0x5D,0x00,Read,ACK
5.447639031250000,0,0x5D,0x00,Read,ACK
5.447660531250000,0,0x5D,0x00,Read,ACK
5.447688906250000,0,0x5D,0x00,Read,ACK
5.447712625000000,0,0x5D,0x00,Read,ACK
5.447734093750000,0,0x5D,0x00,Read,ACK
5.447756156250000,0,0x5D,0x00,Read,ACK
5.447778593750000,0,0x5D,0x00,Read,ACK
5.447800062500000,0,0x5D,0x00,Read,ACK
5.447821531250000,0,0x5D,0x00,Read,ACK
5.447843468750000,0,0x5D,0x00,Read,ACK
5.447866093750000,0,0x5D,0x00,Read,ACK
5.447887625000000,0,0x5D,0x00,Read,ACK
5.447909093750000,0,0x5D,0x00,Read,ACK
5.447930562500000,0,0x5D,0x00,Read,ACK
5.447952031250000,0,0x5D,0x00,Read,NAK
5.453718968750000,0,0x5D,0x2F,Read,ACK
5.453747250000000,0,0x5D,0x00,Read,ACK
5.453768718750000,0,0x5D,0x04,Read,ACK
5.453790187500000,0,0x5D,0x03,Read,ACK
5.453811687500000,0,0x5D,0x06,Read,ACK
5.453833156250000,0,0x5D,0x08,Read,ACK
5.453854593750000,0,0x5D,0x6C,Read,ACK
5.453877843750000,0,0x5D,0x06,Read,ACK
5.453900812500000,0,0x5D,0x03,Read,ACK
5.453924187500000,0,0x5D,0x03,Read,ACK
5.453945656250000,0,0x5D,0x20,Read,ACK
5.453967156250000,0,0x5D,0x00,Read,ACK
5.453988593750000,0,0x5D,0x00,Read,ACK
5.454010093750000,0,0x5D,0x00,Read,ACK
5.454031562500000,0,0x5D,0x00,Read,ACK
5.454053031250000,0,0x5D,0x00,Read,ACK
5.454074500000000,0,0x5D,0x00,Read,ACK
5.454095968750000,0,0x5D,0x00,Read,ACK
5.454117437500000,0,0x5D,0x00,Read,ACK
5.454138906250000,0,0x5D,0x00,Read,ACK
5.454160718750000,0,0x5D,0x00,Read,ACK
5.454182250000000,0,0x5D,0x00,Read,ACK
5.454203687500000,0,0x5D,0x00,Read,ACK
5.454225187500000,0,0x5D,0x00,Read,ACK
5.454246750000000,0,0x5D,0x00,Read,ACK
5.454268218750000,0,0x5D,0x00,Read,ACK
5.454290093750000,0,0x5D,0x00,Read,ACK
5.454312343750000,0,0x5D,0x00,Read,ACK
5.454333843750000,0,0x5D,0x00,Read,ACK
5.454355281250000,0,0x5D,0x00,Read,ACK
5.454376781250000,0,0x5D,0x00,Read,ACK
5.454398250000000,0,0x5D,0x00,Read,ACK
5.454419718750000,0,0x5D,0x00,Read,ACK
5.454441187500000,0,0x5D,0x00,Read,ACK
5.454462656250000,0,0x5D,0x00,Read,ACK
5.454484125000000,0,0x5D,0x00,Read,ACK
5.454505593750000,0,0x5D,0x00,Read,ACK
5.454527062500000,0,0x5D,0x00,Read,ACK
5.454548531250000,0,0x5D,0x00,Read,ACK
5.454570000000000,0,0x5D,0x00,Read,ACK
5.454591500000000,0,0x5D,0x00,Read,ACK
5.454612968750000,0,0x5D,0x00,Read,ACK
5.454634406250000,0,0x5D,0x00,Read,ACK
5.454655875000000,0,0x5D,0x70,Read,ACK
5.454677343750000,0,0x5D,0x8A,Read,ACK
5.454698812500000,0,0x5D,0x01,Read,ACK
5.454720281250000,0,0x5D,0x00,Read,ACK
5.454741781250000,0,0x5D,0x00,Read,ACK
5.454763250000000,0,0x5D,0x00,Read,ACK
5.454784687500000,0,0x5D,0x00,Read,ACK
5.454806156250000,0,0x5D,0x00,Read,ACK
5.454832531250000,0,0x5D,0x00,Read,ACK
5.454854000000000,0,0x5D,0x00,Read,ACK
5.454875531250000,0,0x5D,0x00,Read,ACK
5.454899406250000,0,0x5D,0x00,Read,ACK
5.454922218750000,0,0x5D,0x00,Read,ACK
5.454944781250000,0,0x5D,0x00,Read,ACK
5.454966250000000,0,0x5D,0x00,Read,ACK
5.454987718750000,0,0x5D,0x00,Read,ACK
5.455009468750000,0,0x5D,0x00,Read,ACK
5.455030906250000,0,0x5D,0x00,Read,ACK
5.455052375000000,0,0x5D,0x00,Read,ACK
5.455074687500000,0,0x5D,0x00,Read,ACK
5.455097500000000,0,0x5D,0x00,Read,NAK
5.460831656250000,0,0x5D,0x2F,Read,ACK
5.460859093750000,0,0x5D,0x00,Read,ACK
5.460882000000000,0,0x5D,0x04,Read,ACK
5.460904593750000,0,0x5D,0x03,Read,ACK
5.460926187500000,0,0x5D,0xE9,Read,ACK
5.460947656250000,0,0x5D,0x07,Read,ACK
5.460969187500000,0,0x5D,0x74,Read,ACK
5.460990687500000,0,0x5D,0x06,Read,ACK
5.461012156250000,0,0x5D,0x03,Read,ACK
5.461034218750000,0,0x5D,0x03,Read,ACK
5.461056187500000,0,0x5D,0x20,Read,ACK
5.461079593750000,0,0x5D,0x00,Read,ACK
5.461101093750000,0,0x5D,0x00,Read,ACK
5.461122562500000,0,0x5D,0x00,Read,ACK
5.461144031250000,0,0x5D,0x00,Read,ACK
5.461165500000000,0,0x5D,0x00,Read,ACK
5.461186968750000,0,0x5D,0x00,Read,ACK
5.461208437500000,0,0x5D,0x00,Read,ACK
5.461229906250000,0,0x5D,0x00,Read,ACK
5.461251375000000,0,0x5D,0x00,Read,ACK
5.461272875000000,0,0x5D,0x00,Read,ACK
5.461294375000000,0,0x5D,0x00,Read,ACK
5.461315843750000,0,0x5D,0x00,Read,ACK
5.461337343750000,0,0x5D,0x00,Read,ACK
5.461358781250000,0,0x5D,0x00,Read,ACK
5.461380281250000,0,0x5D,0x00,Read,ACK
5.461402312500000,0,0x5D,0x00,Read,ACK
5.461423937500000,0,0x5D,0x00,Read,ACK
5.461445406250000,0,0x5D,0x00,Read,ACK
5.461467062500000,0,0x5D,0x00,Read,ACK
5.461488562500000,0,0x5D,0x00,Read,ACK
5.461510031250000,0,0x5D,0x00,Read,ACK
5.461532312500000,0,0x5D,0x00,Read,ACK
5.461553750000000,0,0x5D,0x00,Read,ACK
5.461575500000000,0,0x5D,0x00,Read,ACK
5.461596968750000,0,0x5D,0x00,Read,ACK
5.461618437500000,0,0x5D,0x00,Read,ACK
5.461639906250000,0,0x5D,0x00,Read,ACK
5.461661625000000,0,0x5D,0x00,Read,ACK
5.461683125000000,0,0x5D,0x00,Read,ACK
5.461704562500000,0,0x5D,0x00,Read,ACK
5.461726093750000,0,0x5D,0x00,Read,ACK
5.461747625000000,0,0x5D,0x00,Read,ACK
5.461769125000000,0,0x5D,0xB6,Read,ACK
5.461790593750000,0,0x5D,0x8A,Read,ACK
5.461812031250000,0,0x5D,0x01,Read,ACK
5.461833500000000,0,0x5D,0x00,Read,ACK
5.461854968750000,0,0x5D,0x00,Read,ACK
5.461876468750000,0,0x5D,0x00,Read,ACK
5.461897906250000,0,0x5D,0x00,Read,ACK
5.461919406250000,0,0x5D,0x00,Read,ACK
5.461940875000000,0,0x5D,0x00,Read,ACK
5.461966656250000,0,0x5D,0x00,Read,ACK
5.461993593750000,0,0x5D,0x00,Read,ACK
5.462015062500000,0,0x5D,0x00,Read,ACK
5.462037812500000,0,0x5D,0x00,Read,ACK
5.462059687500000,0,0x5D,0x00,Read,ACK
5.462081593750000,0,0x5D,0x00,Read,ACK
5.462104218750000,0,0x5D,0x00,Read,ACK
5.462125687500000,0,0x5D,0x00,Read,ACK
5.462147156250000,0,0x5D,0x00,Read,ACK
5.462169250000000,0,0x5D,0x00,Read,ACK
5.462190718750000,0,0x5D,0x00,Read,ACK
5.462212593750000,0,0x5D,0x00,Read,NAK
5.467997562500000,0,0x5D,0x2F,Read,ACK
5.468024093750000,0,0x5D,0x00,Read,ACK
5.468045593750000,0,0x5D,0x04,Read,ACK
5.468067500000000,0,0x5D,0x03,Read,ACK
5.468088937500000,0,0x5D,0xC8,Read,ACK
5.468110406250000,0,0x5D,0x07,Read,ACK
5.468131875000000,0,0x5D,0x77,Read,ACK
5.468153343750000,0,0x5D,0x06,Read,ACK
5.468176156250000,0,0x5D,0x04,Read,ACK
5.468201375000000,0,0x5D,0x03,Read,ACK
5.468223218750000,0,0x5D,0x20,Read,ACK
5.468244656250000,0,0x5D,0x00,Read,ACK
5.468266125000000,0,0x5D,0x00,Read,ACK
5.468287625000000,0,0x5D,0x00,Read,ACK
5.468309093750000,0,0x5D,0x00,Read,ACK
5.468330562500000,0,0x5D,0x00,Read,ACK
5.468352031250000,0,0x5D,0x00,Read,ACK
5.468373500000000,0,0x5D,0x00,Read,ACK
5.468394968750000,0,0x5D,0x00,Read,ACK
5.468416437500000,0,0x5D,0x00,Read,ACK
5.468438218750000,0,0x5D,0x00,Read,ACK
5.468460687500000,0,0x5D,0x00,Read,ACK
5.468482562500000,0,0x5D,0x00,Read,ACK
5.468504000000000,0,0x5D,0x00,Read,ACK
5.468525500000000,0,0x5D,0x00,Read,ACK
5.468546937500000,0,0x5D,0x00,Read,ACK
5.468569093750000,0,0x5D,0x00,Read,ACK
5.468590562500000,0,0x5D,0x00,Read,ACK
5.468612031250000,0,0x5D,0x00,Read,ACK
5.468633500000000,0,0x5D,0x00,Read,ACK
5.468654968750000,0,0x5D,0x00,Read,ACK
5.468677687500000,0,0x5D,0x00,Read,ACK
5.468699187500000,0,0x5D,0x00,Read,ACK
5.468720656250000,0,0x5D,0x00,Read,ACK
5.468742125000000,0,0x5D,0x00,Read,ACK
5.468763625000000,0,0x5D,0x00,Read,ACK
5.468785062500000,0,0x5D,0x00,Read,ACK
5.468806531250000,0,0x5D,0x00,Read,ACK
5.468828000000000,0,0x5D,0x00,Read,ACK
5.468849468750000,0,0x5D,0x00,Read,ACK
5.468871031250000,0,0x5D,0x00,Read,ACK
5.468892468750000,0,0x5D,0x00,Read,ACK
5.468913937500000,0,0x5D,0x00,Read,ACK
5.468935437500000,0,0x5D,0xFC,Read,ACK
5.468957031250000,0,0x5D,0x8A,Read,ACK
5.468978500000000,0,0x5D,0x01,Read,ACK
5.468999968750000,0,0x5D,0x00,Read,ACK
5.469021437500000,0,0x5D,0x00,Read,ACK
5.469042906250000,0,0x5D,0x00,Read,ACK
5.469064375000000,0,0x5D,0x00,Read,ACK
5.469085843750000,0,0x5D,0x00,Read,ACK
5.469107343750000,0,0x5D,0x00,Read,ACK
5.469132250000000,0,0x5D,0x00,Read,ACK
5.469153750000000,0,0x5D,0x00,Read,ACK
5.469175375000000,0,0x5D,0x00,Read,ACK
5.469199656250000,0,0x5D,0x00,Read,ACK
5.469221343750000,0,0x5D,0x00,Read,ACK
5.469242843750000,0,0x5D,0x00,Read,ACK
5.469264312500000,0,0x5D,0x00,Read,ACK
5.469285781250000,0,0x5D,0x00,Read,ACK
5.469307500000000,0,0x5D,0x00,Read,ACK
5.469329937500000,0,0x5D,0x00,Read,ACK
5.469351968750000,0,0x5D,0x00,Read,ACK
5.469373625000000,0,0x5D,0x00,Read,NAK
5.475140218750000,0,0x5D,0x2F,Read,ACK
5.475168937500000,0,0x5D,0x00,Read,ACK
5.475190437500000,0,0x5D,0x04,Read,ACK
5.475211906250000,0,0x5D,0x03,Read,ACK
5.475233437500000,0,0x5D,0xA6,Read,ACK
5.475254875000000,0,0x5D,0x07,Read,ACK
5.475276343750000,0,0x5D,0x77,Read,ACK
5.475297812500000,0,0x5D,0x06,Read,ACK
5.475319312500000,0,0x5D,0x03,Read,ACK
5.475341031250000,0,0x5D,0x03,Read,ACK
5.475365968750000,0,0x5D,0x20,Read,ACK
5.475387437500000,0,0x5D,0x00,Read,ACK
5.475408906250000,0,0x5D,0x00,Read,ACK
5.475430406250000,0,0x5D,0x00,Read,ACK
5.475451875000000,0,0x5D,0x00,Read,ACK
5.475473312500000,0,0x5D,0x00,Read,ACK
5.475494812500000,0,0x5D,0x00,Read,ACK
5.475516281250000,0,0x5D,0x00,Read,ACK
5.475537750000000,0,0x5D,0x00,Read,ACK
5.475559218750000,0,0x5D,0x00,Read,ACK
5.475580687500000,0,0x5D,0x00,Read,ACK
5.475603687500000,0,0x5D,0x00,Read,ACK
5.475625187500000,0,0x5D,0x00,Read,ACK
5.475646687500000,0,0x5D,0x00,Read,ACK
5.475668125000000,0,0x5D,0x00,Read,ACK
5.475689812500000,0,0x5D,0x00,Read,ACK
5.475712375000000,0,0x5D,0x00,Read,ACK
5.475733843750000,0,0x5D,0x00,Read,ACK
5.475755312500000,0,0x5D,0x00,Read,ACK
5.475776812500000,0,0x5D,0x00,Read,ACK
5.475798250000000,0,0x5D,0x00,Read,ACK
5.475819750000000,0,0x5D,0x00,Read,ACK
5.475842562500000,0,0x5D,0x00,Read,ACK
5.475864031250000,0,0x5D,0x00,Read,ACK
5.475885562500000,0,0x5D,0x00,Read,ACK
5.475907062500000,0,0x5D,0x00,Read,ACK
5.475928531250000,0,0x5D,0x00,Read,ACK
5.475950000000000,0,0x5D,0x00,Read,ACK
5.475971468750000,0,0x5D,0x00,Read,ACK
5.475992937500000,0,0x5D,0x00,Read,ACK
5.476014406250000,0,0x5D,0x00,Read,ACK
5.476036093750000,0,0x5D,0x00,Read,ACK
5.476057593750000,0,0x5D,0x00,Read,ACK
5.476079062500000,0,0x5D,0x42,Read,ACK
5.476100531250000,0,0x5D,0x8B,Read,ACK
5.476122000000000,0,0x5D,0x01,Read,ACK
5.476143468750000,0,0x5D,0x00,Read,ACK
5.476164937500000,0,0x5D,0x00,Read,ACK
5.476186406250000,0,0x5D,0x00,Read,ACK
5.476207875000000,0,0x5D,0x00,Read,ACK
5.476229343750000,0,0x5D,0x00,Read,ACK
5.476250812500000,0,0x5D,0x00,Read,ACK
5.476275218750000,0,0x5D,0x00,Read,ACK
5.476299656250000,0,0x5D,0x00,Read,ACK
5.476321156250000,0,0x5D,0x00,Read,ACK
5.476343031250000,0,0x5D,0x00,Read,ACK
5.476364937500000,0,0x5D,0x00,Read,ACK
5.476386375000000,0,0x5D,0x00,Read,ACK
5.476408062500000,0,0x5D,0x00,Read,ACK
5.476429500000000,0,0x5D,0x00,Read,ACK
5.476450968750000,0,0x5D,0x00,Read,ACK
5.476472875000000,0,0x5D,0x00,Read,ACK
5.476494343750000,0,0x5D,0x00,Read,ACK
5.476516031250000,0,0x5D,0x00,Read,NAK
5.482547593750000,0,0x5D,0x2F,Read,ACK
5.482571656250000,0,0x5D,0x00,Read,ACK
5.482593093750000,0,0x5D,0x04,Read,ACK
5.482614562500000,0,0x5D,0x03,Read,ACK
5.482636031250000,0,0x5D,0x82,Read,ACK
5.482657500000000,0,0x5D,0x07,Read,ACK
5.482679000000000,0,0x5D,0x73,Read,ACK
5.482701406250000,0,0x5D,0x06,Read,ACK
5.482724125000000,0,0x5D,0x03,Read,ACK
5.482745625000000,0,0x5D,0x03,Read,ACK
5.482767093750000,0,0x5D,0x20,Read,ACK
5.482788531250000,0,0x5D,0x00,Read,ACK
5.482810000000000,0,0x5D,0x00,Read,ACK
5.482831656250000,0,0x5D,0x00,Read,ACK
5.482853625000000,0,0x5D,0x00,Read,ACK
5.482875812500000,0,0x5D,0x00,Read,ACK
5.482897281250000,0,0x5D,0x00,Read,ACK
5.482918750000000,0,0x5D,0x00,Read,ACK
5.482940187500000,0,0x5D,0x00,Read,ACK
5.482961687500000,0,0x5D,0x00,Read,ACK
5.482983343750000,0,0x5D,0x00,Read,ACK
5.483004812500000,0,0x5D,0x00,Read,ACK
5.483026281250000,0,0x5D,0x00,Read,ACK
5.483047750000000,0,0x5D,0x00,Read,ACK
5.483069218750000,0,0x5D,0x00,Read,ACK
5.483090687500000,0,0x5D,0x00,Read,ACK
5.483112125000000,0,0x5D,0x00,Read,ACK
5.483133593750000,0,0x5D,0x00,Read,ACK
5.483155062500000,0,0x5D,0x00,Read,ACK
5.483176531250000,0,0x5D,0x00,Read,ACK
5.483198000000000,0,0x5D,0x00,Read,ACK
5.483219468750000,0,0x5D,0x00,Read,ACK
5.483240937500000,0,0x5D,0x00,Read,ACK
5.483262406250000,0,0x5D,0x00,Read,ACK
5.483283906250000,0,0x5D,0x00,Read,ACK
5.483305375000000,0,0x5D,0x00,Read,ACK
5.483326843750000,0,0x5D,0x00,Read,ACK
5.483348312500000,0,0x5D,0x00,Read,ACK
5.483369781250000,0,0x5D,0x00,Read,ACK
5.483391250000000,0,0x5D,0x00,Read,ACK
5.483414218750000,0,0x5D,0x00,Read,ACK
5.483436000000000,0,0x5D,0x00,Read,ACK
5.483458281250000,0,0x5D,0x00,Read,ACK
5.483480187500000,0,0x5D,0x88,Read,ACK
5.483502593750000,0,0x5D,0x8B,Read,ACK
5.483524093750000,0,0x5D,0x01,Read,ACK
5.483545593750000,0,0x5D,0x00,Read,ACK
5.483567062500000,0,0x5D,0x00,Read,ACK
5.483589062500000,0,0x5D,0x00,Read,ACK
5.483612062500000,0,0x5D,0x00,Read,ACK
5.483635031250000,0,0x5D,0x00,Read,ACK
5.483656500000000,0,0x5D,0x00,Read,ACK
5.483677968750000,0,0x5D,0x00,Read,ACK
5.483699468750000,0,0x5D,0x00,Read,ACK
5.483720906250000,0,0x5D,0x00,Read,ACK
5.483742375000000,0,0x5D,0x00,Read,ACK
5.483763968750000,0,0x5D,0x00,Read,ACK
5.483785437500000,0,0x5D,0x00,Read,ACK
5.483810187500000,0,0x5D,0x00,Read,ACK
5.483831625000000,0,0x5D,0x00,Read,ACK
5.483854062500000,0,0x5D,0x00,Read,ACK
5.483876093750000,0,0x5D,0x00,Read,ACK
5.483897687500000,0,0x5D,0x00,Read,ACK
5.483919156250000,0,0x5D,0x00,Read,NAK
5.490127406250000,0,0x5D,0x2F,Read,ACK
5.490151375000000,0,0x5D,0x00,Read,ACK
5.490174125000000,0,0x5D,0x04,Read,ACK
5.490195781250000,0,0x5D,0x03,Read,ACK
5.490217281250000,0,0x5D,0x5D,Read,ACK
5.490238750000000,0,0x5D,0x07,Read,ACK
5.490260187500000,0,0x5D,0x6A,Read,ACK
5.490281656250000,0,0x5D,0x06,Read,ACK
5.490303125000000,0,0x5D,0x03,Read,ACK
5.490324625000000,0,0x5D,0x03,Read,ACK
5.490346062500000,0,0x5D,0x20,Read,ACK
5.490367531250000,0,0x5D,0x00,Read,ACK
5.490389031250000,0,0x5D,0x00,Read,ACK
5.490410500000000,0,0x5D,0x00,Read,ACK
5.490432000000000,0,0x5D,0x00,Read,ACK
5.490453500000000,0,0x5D,0x00,Read,ACK
5.490475312500000,0,0x5D,0x00,Read,ACK
5.490496750000000,0,0x5D,0x00,Read,ACK
5.490520125000000,0,0x5D,0x00,Read,ACK
5.490541562500000,0,0x5D,0x00,Read,ACK
5.490563250000000,0,0x5D,0x00,Read,ACK
5.490584687500000,0,0x5D,0x00,Read,ACK
5.490606187500000,0,0x5D,0x00,Read,ACK
5.490627687500000,0,0x5D,0x00,Read,ACK
5.490649500000000,0,0x5D,0x00,Read,ACK
5.490672437500000,0,0x5D,0x00,Read,ACK
5.490693937500000,0,0x5D,0x00,Read,ACK
5.490715375000000,0,0x5D,0x00,Read,ACK
5.490736843750000,0,0x5D,0x00,Read,ACK
5.490758312500000,0,0x5D,0x00,Read,ACK
5.490779906250000,0,0x5D,0x00,Read,ACK
5.490801375000000,0,0x5D,0x00,Read,ACK
5.490822843750000,0,0x5D,0x00,Read,ACK
5.490847937500000,0,0x5D,0x00,Read,ACK
5.490869406250000,0,0x5D,0x00,Read,ACK
5.490891875000000,0,0x5D,0x00,Read,ACK
5.490914843750000,0,0x5D,0x00,Read,ACK
5.490936343750000,0,0x5D,0x00,Read,ACK
5.490957781250000,0,0x5D,0x00,Read,ACK
5.490979500000000,0,0x5D,0x00,Read,ACK
5.491002531250000,0,0x5D,0x00,Read,ACK
5.491024906250000,0,0x5D,0x00,Read,ACK
5.491046687500000,0,0x5D,0x00,Read,ACK
5.491068406250000,0,0x5D,0xCE,Read,ACK
5.491090812500000,0,0x5D,0x8B,Read,ACK
5.491113031250000,0,0x5D,0x01,Read,ACK
5.491135781250000,0,0x5D,0x00,Read,ACK
5.491157250000000,0,0x5D,0x00,Read,ACK
5.491178718750000,0,0x5D,0x00,Read,ACK
5.491200187500000,0,0x5D,0x00,Read,ACK
5.491221687500000,0,0x5D,0x00,Read,ACK
5.491243312500000,0,0x5D,0x00,Read,ACK
5.491266187500000,0,0x5D,0x00,Read,ACK
5.491287625000000,0,0x5D,0x00,Read,ACK
5.491309093750000,0,0x5D,0x00,Read,ACK
5.491330562500000,0,0x5D,0x00,Read,ACK
5.491352031250000,0,0x5D,0x00,Read,ACK
5.491374156250000,0,0x5D,0x00,Read,ACK
5.491396093750000,0,0x5D,0x00,Read,ACK
5.491417562500000,0,0x5D,0x00,Read,ACK
5.491439031250000,0,0x5D,0x00,Read,ACK
5.491460562500000,0,0x5D,0x00,Read,ACK
5.491482062500000,0,0x5D,0x00,Read,ACK
5.491503500000000,0,0x5D,0x00,Read,NAK
5.496949875000000,0,0x5D,0x2F,Read,ACK
5.496978406250000,0,0x5D,0x00,Read,ACK
5.497000062500000,0,0x5D,0x04,Read,ACK
5.497022531250000,0,0x5D,0x03,Read,ACK
5.497044000000000,0,0x5D,0x36,Read,ACK
5.497065500000000,0,0x5D,0x07,Read,ACK
5.497086968750000,0,0x5D,0x5D,Read,ACK
5.497110375000000,0,0x5D,0x06,Read,ACK
5.497131843750000,0,0x5D,0x03,Read,ACK
5.497153312500000,0,0x5D,0x02,Read,ACK
5.497174781250000,0,0x5D,0x20,Read,ACK
5.497196406250000,0,0x5D,0x00,Read,ACK
5.497217906250000,0,0x5D,0x00,Read,ACK
5.497239375000000,0,0x5D,0x00,Read,ACK
5.497262187500000,0,0x5D,0x00,Read,ACK
5.497283687500000,0,0x5D,0x00,Read,ACK
5.497305156250000,0,0x5D,0x00,Read,ACK
5.497326656250000,0,0x5D,0x00,Read,ACK
5.497348093750000,0,0x5D,0x00,Read,ACK
5.497369562500000,0,0x5D,0x00,Read,ACK
5.497391031250000,0,0x5D,0x00,Read,ACK
5.497412531250000,0,0x5D,0x00,Read,ACK
5.497433968750000,0,0x5D,0x00,Read,ACK
5.497455875000000,0,0x5D,0x00,Read,ACK
5.497477343750000,0,0x5D,0x00,Read,ACK
5.497498843750000,0,0x5D,0x00,Read,ACK
5.497520312500000,0,0x5D,0x00,Read,ACK
5.497541781250000,0,0x5D,0x00,Read,ACK
5.497563250000000,0,0x5D,0x00,Read,ACK
5.497584718750000,0,0x5D,0x00,Read,ACK
5.497606187500000,0,0x5D,0x00,Read,ACK
5.497627687500000,0,0x5D,0x00,Read,ACK
5.497649125000000,0,0x5D,0x00,Read,ACK
5.497673250000000,0,0x5D,0x00,Read,ACK
5.497697281250000,0,0x5D,0x00,Read,ACK
5.497719437500000,0,0x5D,0x00,Read,ACK
5.497740875000000,0,0x5D,0x00,Read,ACK
5.497763375000000,0,0x5D,0x00,Read,ACK
5.497786343750000,0,0x5D,0x00,Read,ACK
5.497808437500000,0,0x5D,0x00,Read,ACK
5.497829875000000,0,0x5D,0x00,Read,ACK
5.497852093750000,0,0x5D,0x00,Read,ACK
5.497874531250000,0,0x5D,0x00,Read,ACK
5.497897281250000,0,0x5D,0x14,Read,ACK
5.497920281250000,0,0x5D,0x8C,Read,ACK
5.497941750000000,0,0x5D,0x01,Read,ACK
5.497963218750000,0,0x5D,0x00,Read,ACK
5.497984687500000,0,0x5D,0x00,Read,ACK
5.498006156250000,0,0x5D,0x00,Read,ACK
5.498028562500000,0,0x5D,0x00,Read,ACK
5.498051312500000,0,0x5D,0x00,Read,ACK
5.498072812500000,0,0x5D,0x00,Read,ACK
5.498095062500000,0,0x5D,0x00,Read,ACK
5.498116531250000,0,0x5D,0x00,Read,ACK
5.498138531250000,0,0x5D,0x00,Read,ACK
5.498160718750000,0,0x5D,0x00,Read,ACK
5.498182250000000,0,0x5D,0x00,Read,ACK
5.498203718750000,0,0x5D,0x00,Read,ACK
5.498225187500000,0,0x5D,0x00,Read,ACK
5.498247125000000,0,0x5D,0x00,Read,ACK
5.498269500000000,0,0x5D,0x00,Read,ACK
5.498292468750000,0,0x5D,0x00,Read,ACK
5.498314375000000,0,0x5D,0x00,Read,ACK
5.498336062500000,0,0x5D,0x00,Read,NAK
5.504031625000000,0,0x5D,0x2F,Read,ACK
5.504058312500000,0,0x5D,0x00,Read,ACK
5.504079781250000,0,0x5D,0x04,Read,ACK
5.504101250000000,0,0x5D,0x03,Read,ACK
5.504124000000000,0,0x5D,0x10,Read,ACK
5.504145562500000,0,0x5D,0x07,Read,ACK
5.504167031250000,0,0x5D,0x4B,Read,ACK
5.504188500000000,0,0x5D,0x06,Read,ACK
5.504209968750000,0,0x5D,0x03,Read,ACK
5.504232156250000,0,0x5D,0x03,Read,ACK
5.504253656250000,0,0x5D,0x20,Read,ACK
5.504275125000000,0,0x5D,0x00,Read,ACK
5.504296593750000,0,0x5D,0x00,Read,ACK
5.504318062500000,0,0x5D,0x00,Read,ACK
5.504339531250000,0,0x5D,0x00,Read,ACK
5.504361000000000,0,0x5D,0x00,Read,ACK
5.504382468750000,0,0x5D,0x00,Read,ACK
5.504403937500000,0,0x5D,0x00,Read,ACK
5.504425437500000,0,0x5D,0x00,Read,ACK
5.504446875000000,0,0x5D,0x00,Read,ACK
5.504468343750000,0,0x5D,0x00,Read,ACK
5.504489812500000,0,0x5D,0x00,Read,ACK
5.504511750000000,0,0x5D,0x00,Read,ACK
5.504533187500000,0,0x5D,0x00,Read,ACK
5.504554687500000,0,0x5D,0x00,Read,ACK
5.504576125000000,0,0x5D,0x00,Read,ACK
5.504597593750000,0,0x5D,0x00,Read,ACK
5.504619125000000,0,0x5D,0x00,Read,ACK
5.504640593750000,0,0x5D,0x00,Read,ACK
5.504662031250000,0,0x5D,0x00,Read,ACK
5.504683500000000,0,0x5D,0x00,Read,ACK
5.504704968750000,0,0x5D,0x00,Read,ACK
5.504727906250000,0,0x5D,0x00,Read,ACK
5.504751250000000,0,0x5D,0x00,Read,ACK
5.504773156250000,0,0x5D,0x00,Read,ACK
5.504795875000000,0,0x5D,0x00,Read,ACK
5.504818281250000,0,0x5D,0x00,Read,ACK
5.504839750000000,0,0x5D,0x00,Read,ACK
5.504861250000000,0,0x5D,0x00,Read,ACK
5.504883187500000,0,0x5D,0x00,Read,ACK
5.504904687500000,0,0x5D,0x00,Read,ACK
5.504926156250000,0,0x5D,0x00,Read,ACK
5.504948125000000,0,0x5D,0x00,Read,ACK
5.504970125000000,0,0x5D,0x5A,Read,ACK
5.504992750000000,0,0x5D,0x8C,Read,ACK
5.505015843750000,0,0x5D,0x01,Read,ACK
5.505037406250000,0,0x5D,0x00,Read,ACK
5.505058937500000,0,0x5D,0x00,Read,ACK
5.505080375000000,0,0x5D,0x00,Read,ACK
5.505102843750000,0,0x5D,0x00,Read,ACK
5.505124375000000,0,0x5D,0x00,Read,ACK
5.505146312500000,0,0x5D,0x00,Read,ACK
5.505167750000000,0,0x5D,0x00,Read,ACK
5.505189343750000,0,0x5D,0x00,Read,ACK
5.505212687500000,0,0x5D,0x00,Read,ACK
5.505234281250000,0,0x5D,0x00,Read,ACK
5.505256343750000,0,0x5D,0x00,Read,ACK
5.505277781250000,0,0x5D,0x00,Read,ACK
5.505299781250000,0,0x5D,0x00,Read,ACK
5.505321218750000,0,0x5D,0x00,Read,ACK
5.505343437500000,0,0x5D,0x00,Read,ACK
5.505366375000000,0,0x5D,0x00,Read,ACK
5.505389906250000,0,0x5D,0x00,Read,ACK
5.505411625000000,0,0x5D,0x00,Read,NAK
5.511247031250000,0,0x5D,0x2F,Read,ACK
5.511272718750000,0,0x5D,0x00,Read,ACK
5.511295093750000,0,0x5D,0x04,Read,ACK
5.511316968750000,0,0x5D,0x03,Read,ACK
5.511338406250000,0,0x5D,0xE9,Read,ACK
5.511360093750000,0,0x5D,0x06,Read,ACK
5.511381562500000,0,0x5D,0x36,Read,ACK
5.511403031250000,0,0x5D,0x06,Read,ACK
5.511424500000000,0,0x5D,0x03,Read,ACK
5.511445968750000,0,0x5D,0x03,Read,ACK
5.511467437500000,0,0x5D,0x20,Read,ACK
5.511488906250000,0,0x5D,0x00,Read,ACK
5.511510375000000,0,0x5D,0x00,Read,ACK
5.511532781250000,0,0x5D,0x00,Read,ACK
5.511554281250000,0,0x5D,0x00,Read,ACK
5.511575718750000,0,0x5D,0x00,Read,ACK
5.511597187500000,0,0x5D,0x00,Read,ACK
5.511618687500000,0,0x5D,0x00,Read,ACK
5.511640531250000,0,0x5D,0x00,Read,ACK
5.511661968750000,0,0x5D,0x00,Read,ACK
5.511683437500000,0,0x5D,0x00,Read,ACK
5.511704906250000,0,0x5D,0x00,Read,ACK
5.511726375000000,0,0x5D,0x00,Read,ACK
5.511747843750000,0,0x5D,0x00,Read,ACK
5.511769312500000,0,0x5D,0x00,Read,ACK
5.511790781250000,0,0x5D,0x00,Read,ACK
5.511812250000000,0,0x5D,0x00,Read,ACK
5.511833718750000,0,0x5D,0x00,Read,ACK
5.511855187500000,0,0x5D,0x00,Read,ACK
5.511876656250000,0,0x5D,0x00,Read,ACK
5.511898125000000,0,0x5D,0x00,Read,ACK
5.511919593750000,0,0x5D,0x00,Read,ACK
5.511941281250000,0,0x5D,0x00,Read,ACK
5.511963062500000,0,0x5D,0x00,Read,ACK
5.511985500000000,0,0x5D,0x00,Read,ACK
5.512006968750000,0,0x5D,0x00,Read,ACK
5.512029062500000,0,0x5D,0x00,Read,ACK
5.512050875000000,0,0x5D,0x00,Read,ACK
5.512072312500000,0,0x5D,0x00,Read,ACK
5.512093781250000,0,0x5D,0x00,Read,ACK
5.512115250000000,0,0x5D,0x00,Read,ACK
5.512138031250000,0,0x5D,0x00,Read,ACK
5.512159500000000,0,0x5D,0x00,Read,ACK
5.512183375000000,0,0x5D,0xA0,Read,ACK
5.512204875000000,0,0x5D,0x8C,Read,ACK
5.512226562500000,0,0x5D,0x01,Read,ACK
5.512248062500000,0,0x5D,0x00,Read,ACK
5.512269500000000,0,0x5D,0x00,Read,ACK
5.512291000000000,0,0x5D,0x00,Read,ACK
5.512312906250000,0,0x5D,0x00,Read,ACK
5.512334625000000,0,0x5D,0x00,Read,ACK
5.512357375000000,0,0x5D,0x00,Read,ACK
5.512378843750000,0,0x5D,0x00,Read,ACK
5.512401093750000,0,0x5D,0x00,Read,ACK
5.512423687500000,0,0x5D,0x00,Read,ACK
5.512445968750000,0,0x5D,0x00,Read,ACK
5.512467656250000,0,0x5D,0x00,Read,ACK
5.512490125000000,0,0x5D,0x00,Read,ACK
5.512512500000000,0,0x5D,0x00,Read,ACK
5.512534125000000,0,0x5D,0x00,Read,ACK
5.512555593750000,0,0x5D,0x00,Read,ACK
5.512577937500000,0,0x5D,0x00,Read,ACK
5.512599437500000,0,0x5D,0x00,Read,ACK
5.512624281250000,0,0x5D,0x00,Read,NAK
5.518300000000000,0,0x5D,0x2F,Read,ACK
5.518323718750000,0,0x5D,0x00,Read,ACK
5.518345187500000,0,0x5D,0x04,Read,ACK
5.518366625000000,0,0x5D,0x03,Read,ACK
5.518388312500000,0,0x5D,0xC6,Read,ACK
5.518409937500000,0,0x5D,0x06,Read,ACK
5.518431437500000,0,0x5D,0x20,Read,ACK
5.518452906250000,0,0x5D,0x06,Read,ACK
5.518474375000000,0,0x5D,0x03,Read,ACK
5.518496968750000,0,0x5D,0x03,Read,ACK
5.518518843750000,0,0x5D,0x20,Read,ACK
5.518540312500000,0,0x5D,0x00,Read,ACK
5.518562125000000,0,0x5D,0x00,Read,ACK
5.518583562500000,0,0x5D,0x00,Read,ACK
5.518605562500000,0,0x5D,0x00,Read,ACK
5.518627031250000,0,0x5D,0x00,Read,ACK
5.518648500000000,0,0x5D,0x00,Read,ACK
5.518669937500000,0,0x5D,0x00,Read,ACK
5.518691437500000,0,0x5D,0x00,Read,ACK
5.518712906250000,0,0x5D,0x00,Read,ACK
5.518734375000000,0,0x5D,0x00,Read,ACK
5.518755843750000,0,0x5D,0x00,Read,ACK
5.518777312500000,0,0x5D,0x00,Read,ACK
5.518798781250000,0,0x5D,0x00,Read,ACK
5.518820250000000,0,0x5D,0x00,Read,ACK
5.518841750000000,0,0x5D,0x00,Read,ACK
5.518863187500000,0,0x5D,0x00,Read,ACK
5.518884687500000,0,0x5D,0x00,Read,ACK
5.518906125000000,0,0x5D,0x00,Read,ACK
5.518927625000000,0,0x5D,0x00,Read,ACK
5.518949156250000,0,0x5D,0x00,Read,ACK
5.518970656250000,0,0x5D,0x00,Read,ACK
5.518992125000000,0,0x5D,0x00,Read,ACK
5.519013656250000,0,0x5D,0x00,Read,ACK
5.519035125000000,0,0x5D,0x00,Read,ACK
5.519056593750000,0,0x5D,0x00,Read,ACK
5.519079062500000,0,0x5D,0x00,Read,ACK
5.519100531250000,0,0x5D,0x00,Read,ACK
5.519123250000000,0,0x5D,0x00,Read,ACK
5.519148125000000,0,0x5D,0x00,Read,ACK
5.519169562500000,0,0x5D,0x00,Read,ACK
5.519191031250000,0,0x5D,0x00,Read,ACK
5.519212500000000,0,0x5D,0x00,Read,ACK
5.519233968750000,0,0x5D,0xE6,Read,ACK
5.519255437500000,0,0x5D,0x8C,Read,ACK
5.519277406250000,0,0x5D,0x01,Read,ACK
5.519298875000000,0,0x5D,0x00,Read,ACK
5.519320750000000,0,0x5D,0x00,Read,ACK
5.519342406250000,0,0x5D,0x00,Read,ACK
5.519363843750000,0,0x5D,0x00,Read,ACK
5.519385343750000,0,0x5D,0x00,Read,ACK
5.519408093750000,0,0x5D,0x00,Read,ACK
5.519430687500000,0,0x5D,0x00,Read,ACK
5.519452187500000,0,0x5D,0x00,Read,ACK
5.519474343750000,0,0x5D,0x00,Read,ACK
5.519495781250000,0,0x5D,0x00,Read,ACK
5.519519281250000,0,0x5D,0x00,Read,ACK
5.519540781250000,0,0x5D,0x00,Read,ACK
5.519562250000000,0,0x5D,0x00,Read,ACK
5.519584000000000,0,0x5D,0x00,Read,ACK
5.519605500000000,0,0x5D,0x00,Read,ACK
5.519627093750000,0,0x5D,0x00,Read,ACK
5.519648562500000,0,0x5D,0x00,Read,ACK
5.519670593750000,0,0x5D,0x00,Read,NAK
5.525519781250000,0,0x5D,0x2F,Read,ACK
5.525544906250000,0,0x5D,0x00,Read,ACK
5.525566468750000,0,0x5D,0x04,Read,ACK
5.525588031250000,0,0x5D,0x03,Read,ACK
5.525610031250000,0,0x5D,0xA7,Read,ACK
5.525631468750000,0,0x5D,0x06,Read,ACK
5.525652937500000,0,0x5D,0x09,Read,ACK
5.525674406250000,0,0x5D,0x06,Read,ACK
5.525695875000000,0,0x5D,0x04,Read,ACK
5.525717375000000,0,0x5D,0x03,Read,ACK
5.525738812500000,0,0x5D,0x20,Read,ACK
5.525760281250000,0,0x5D,0x00,Read,ACK
5.525781781250000,0,0x5D,0x00,Read,ACK
5.525803625000000,0,0x5D,0x00,Read,ACK
5.525825062500000,0,0x5D,0x00,Read,ACK
5.525846562500000,0,0x5D,0x00,Read,ACK
5.525868000000000,0,0x5D,0x00,Read,ACK
5.525889468750000,0,0x5D,0x00,Read,ACK
5.525911000000000,0,0x5D,0x00,Read,ACK
5.525932687500000,0,0x5D,0x00,Read,ACK
5.525954156250000,0,0x5D,0x00,Read,ACK
5.525975593750000,0,0x5D,0x00,Read,ACK
5.525997062500000,0,0x5D,0x00,Read,ACK
5.526018531250000,0,0x5D,0x00,Read,ACK
5.526040031250000,0,0x5D,0x00,Read,ACK
5.526061468750000,0,0x5D,0x00,Read,ACK
5.526082937500000,0,0x5D,0x00,Read,ACK
5.526104437500000,0,0x5D,0x00,Read,ACK
5.526125906250000,0,0x5D,0x00,Read,ACK
5.526147375000000,0,0x5D,0x00,Read,ACK
5.526168843750000,0,0x5D,0x00,Read,ACK
5.526190625000000,0,0x5D,0x00,Read,ACK
5.526212093750000,0,0x5D,0x00,Read,ACK
5.526233562500000,0,0x5D,0x00,Read,ACK
5.526257781250000,0,0x5D,0x00,Read,ACK
5.526281250000000,0,0x5D,0x00,Read,ACK
5.526302718750000,0,0x5D,0x00,Read,ACK
5.526325531250000,0,0x5D,0x00,Read,ACK
5.526348812500000,0,0x5D,0x00,Read,ACK
5.526370312500000,0,0x5D,0x00,Read,ACK
5.526391781250000,0,0x5D,0x00,Read,ACK
5.526413250000000,0,0x5D,0x00,Read,ACK
5.526434718750000,0,0x5D,0x00,Read,ACK
5.526456187500000,0,0x5D,0x2C,Read,ACK
5.526479093750000,0,0x5D,0x8D,Read,ACK
5.526501468750000,0,0x5D,0x01,Read,ACK
5.526524968750000,0,0x5D,0x00,Read,ACK
5.526547843750000,0,0x5D,0x00,Read,ACK
5.526569375000000,0,0x5D,0x00,Read,ACK
5.526591625000000,0,0x5D,0x00,Read,ACK
5.526613093750000,0,0x5D,0x00,Read,ACK
5.526634562500000,0,0x5D,0x00,Read,ACK
5.526656031250000,0,0x5D,0x00,Read,ACK
5.526678750000000,0,0x5D,0x00,Read,ACK
5.526700218750000,0,0x5D,0x00,Read,ACK
5.526723062500000,0,0x5D,0x00,Read,ACK
5.526744531250000,0,0x5D,0x00,Read,ACK
5.526767375000000,0,0x5D,0x00,Read,ACK
5.526788843750000,0,0x5D,0x00,Read,ACK
5.526812906250000,0,0x5D,0x00,Read,ACK
5.526835781250000,0,0x5D,0x00,Read,ACK
5.526858718750000,0,0x5D,0x00,Read,ACK
5.526881500000000,0,0x5D,0x00,Read,ACK
5.526903750000000,0,0x5D,0x00,Read,NAK
5.532607437500000,0,0x5D,0x2F,Read,ACK
5.532634031250000,0,0x5D,0x00,Read,ACK
5.532655531250000,0,0x5D,0x04,Read,ACK
5.532677000000000,0,0x5D,0x03,Read,ACK
5.532698656250000,0,0x5D,0x8F,Read,ACK
5.532720125000000,0,0x5D,0x06,Read,ACK
5.532742156250000,0,0x5D,0xF2,Read,ACK
5.532763625000000,0,0x5D,0x05,Read,ACK
5.532785093750000,0,0x5D,0x03,Read,ACK
5.532807093750000,0,0x5D,0x03,Read,ACK
5.532828718750000,0,0x5D,0x20,Read,ACK
5.532851437500000,0,0x5D,0x00,Read,ACK
5.532873187500000,0,0x5D,0x00,Read,ACK
5.532894687500000,0,0x5D,0x00,Read,ACK
5.532916156250000,0,0x5D,0x00,Read,ACK
5.532938093750000,0,0x5D,0x00,Read,ACK
5.532959625000000,0,0x5D,0x00,Read,ACK
5.532981156250000,0,0x5D,0x00,Read,ACK
5.533002656250000,0,0x5D,0x00,Read,ACK
5.533024125000000,0,0x5D,0x00,Read,ACK
5.533045593750000,0,0x5D,0x00,Read,ACK
5.533067093750000,0,0x5D,0x00,Read,ACK
5.533088531250000,0,0x5D,0x00,Read,ACK
5.533110000000000,0,0x5D,0x00,Read,ACK
5.533131468750000,0,0x5D,0x00,Read,ACK
5.533152968750000,0,0x5D,0x00,Read,ACK
5.533174468750000,0,0x5D,0x00,Read,ACK
5.533195937500000,0,0x5D,0x00,Read,ACK
5.533217406250000,0,0x5D,0x00,Read,ACK
5.533238875000000,0,0x5D,0x00,Read,ACK
5.533260812500000,0,0x5D,0x00,Read,ACK
5.533282312500000,0,0x5D,0x00,Read,ACK
5.533303781250000,0,0x5D,0x00,Read,ACK
5.533325250000000,0,0x5D,0x00,Read,ACK
5.533346718750000,0,0x5D,0x00,Read,ACK
5.533368218750000,0,0x5D,0x00,Read,ACK
5.533392625000000,0,0x5D,0x00,Read,ACK
5.533414437500000,0,0x5D,0x00,Read,ACK
5.533436593750000,0,0x5D,0x00,Read,ACK
5.533459156250000,0,0x5D,0x00,Read,ACK
5.533480593750000,0,0x5D,0x00,Read,ACK
5.533502093750000,0,0x5D,0x00,Read,ACK
5.533525250000000,0,0x5D,0x00,Read,ACK
5.533546687500000,0,0x5D,0x72,Read,ACK
5.533569281250000,0,0x5D,0x8D,Read,ACK
5.533591875000000,0,0x5D,0x01,Read,ACK
5.533613343750000,0,0x5D,0x00,Read,ACK
5.533635031250000,0,0x5D,0x00,Read,ACK
5.533656500000000,0,0x5D,0x00,Read,ACK
5.533678156250000,0,0x5D,0x00,Read,ACK
5.533699625000000,0,0x5D,0x00,Read,ACK
5.533722500000000,0,0x5D,0x00,Read,ACK
5.533744812500000,0,0x5D,0x00,Read,ACK
5.533766281250000,0,0x5D,0x00,Read,ACK
5.533788656250000,0,0x5D,0x00,Read,ACK
5.533810750000000,0,0x5D,0x00,Read,ACK
5.533832250000000,0,0x5D,0x00,Read,ACK
5.533855437500000,0,0x5D,0x00,Read,ACK
5.533877093750000,0,0x5D,0x00,Read,ACK
5.533900500000000,0,0x5D,0x00,Read,ACK
5.533922812500000,0,0x5D,0x00,Read,ACK
5.533944281250000,0,0x5D,0x00,Read,ACK
5.533965750000000,0,0x5D,0x00,Read,ACK
5.533987593750000,0,0x5D,0x00,Read,NAK
5.539769312500000,0,0x5D,0x2F,Read,ACK
5.539797000000000,0,0x5D,0x00,Read,ACK
5.539818468750000,0,0x5D,0x04,Read,ACK
5.539839937500000,0,0x5D,0x03,Read,ACK
5.539862656250000,0,0x5D,0x7C,Read,ACK
5.539884437500000,0,0x5D,0x06,Read,ACK
5.539906093750000,0,0x5D,0xDD,Read,ACK
5.539927718750000,0,0x5D,0x05,Read,ACK
5.539949218750000,0,0x5D,0x03,Read,ACK
5.539972156250000,0,0x5D,0x02,Read,ACK
5.539993656250000,0,0x5D,0x20,Read,ACK
5.540017187500000,0,0x5D,0x00,Read,ACK
5.540038625000000,0,0x5D,0x00,Read,ACK
5.540060125000000,0,0x5D,0x00,Read,ACK
5.540081593750000,0,0x5D,0x00,Read,ACK
5.540104718750000,0,0x5D,0x00,Read,ACK
5.540126406250000,0,0x5D,0x00,Read,ACK
5.540147875000000,0,0x5D,0x00,Read,ACK
5.540169343750000,0,0x5D,0x00,Read,ACK
5.540190812500000,0,0x5D,0x00,Read,ACK
5.540212312500000,0,0x5D,0x00,Read,ACK
5.540233812500000,0,0x5D,0x00,Read,ACK
5.540255281250000,0,0x5D,0x00,Read,ACK
5.540276781250000,0,0x5D,0x00,Read,ACK
5.540298468750000,0,0x5D,0x00,Read,ACK
5.540319937500000,0,0x5D,0x00,Read,ACK
5.540341406250000,0,0x5D,0x00,Read,ACK
5.540362906250000,0,0x5D,0x00,Read,ACK
5.540384406250000,0,0x5D,0x00,Read,ACK
5.540405875000000,0,0x5D,0x00,Read,ACK
5.540427375000000,0,0x5D,0x00,Read,ACK
5.540448812500000,0,0x5D,0x00,Read,ACK
5.540470312500000,0,0x5D,0x00,Read,ACK
5.540492906250000,0,0x5D,0x00,Read,ACK
5.540519687500000,0,0x5D,0x00,Read,ACK
5.540544437500000,0,0x5D,0x00,Read,ACK
5.540566093750000,0,0x5D,0x00,Read,ACK
5.540587562500000,0,0x5D,0x00,Read,ACK
5.540609031250000,0,0x5D,0x00,Read,ACK
5.540630500000000,0,0x5D,0x00,Read,ACK
5.540652156250000,0,0x5D,0x00,Read,ACK
5.540673625000000,0,0x5D,0x00,Read,ACK
5.540695500000000,0,0x5D,0x00,Read,ACK
5.540717062500000,0,0x5D,0xB8,Read,ACK
5.540738531250000,0,0x5D,0x8D,Read,ACK
5.540760156250000,0,0x5D,0x01,Read,ACK
5.540782125000000,0,0x5D,0x00,Read,ACK
5.540803593750000,0,0x5D,0x00,Read,ACK
5.540825468750000,0,0x5D,0x00,Read,ACK
5.540846937500000,0,0x5D,0x00,Read,ACK
5.540869375000000,0,0x5D,0x00,Read,ACK
5.540890875000000,0,0x5D,0x00,Read,ACK
5.540913781250000,0,0x5D,0x00,Read,ACK
5.540935718750000,0,0x5D,0x00,Read,ACK
5.540957281250000,0,0x5D,0x00,Read,ACK
5.540978937500000,0,0x5D,0x00,Read,ACK
5.541000468750000,0,0x5D,0x00,Read,ACK
5.541022156250000,0,0x5D,0x00,Read,ACK
5.541043656250000,0,0x5D,0x00,Read,ACK
5.541065656250000,0,0x5D,0x00,Read,ACK
5.541087156250000,0,0x5D,0x00,Read,ACK
5.541108781250000,0,0x5D,0x00,Read,ACK
5.541131843750000,0,0x5D,0x00,Read,ACK
5.541155031250000,0,0x5D,0x00,Read,NAK
5.546846750000000,0,0x5D,0x2F,Read,ACK
5.546871343750000,0,0x5D,0x00,Read,ACK
5.546892812500000,0,0x5D,0x04,Read,ACK
5.546914250000000,0,0x5D,0x03,Read,ACK
5.546935750000000,0,0x5D,0x6F,Read,ACK
5.546957218750000,0,0x5D,0x06,Read,ACK
5.546978718750000,0,0x5D,0xCA,Read,ACK
5.547000906250000,0,0x5D,0x05,Read,ACK
5.547022375000000,0,0x5D,0x03,Read,ACK
5.547043968750000,0,0x5D,0x02,Read,ACK
5.547065437500000,0,0x5D,0x20,Read,ACK
5.547087625000000,0,0x5D,0x00,Read,ACK
5.547109343750000,0,0x5D,0x00,Read,ACK
5.547132031250000,0,0x5D,0x00,Read,ACK
5.547153500000000,0,0x5D,0x00,Read,ACK
5.547175187500000,0,0x5D,0x00,Read,ACK
5.547196625000000,0,0x5D,0x00,Read,ACK
5.547218093750000,0,0x5D,0x00,Read,ACK
5.547239562500000,0,0x5D,0x00,Read,ACK
5.547261187500000,0,0x5D,0x00,Read,ACK
5.547282687500000,0,0x5D,0x00,Read,ACK
5.547304156250000,0,0x5D,0x00,Read,ACK
5.547325625000000,0,0x5D,0x00,Read,ACK
5.547347093750000,0,0x5D,0x00,Read,ACK
5.547368562500000,0,0x5D,0x00,Read,ACK
5.547390031250000,0,0x5D,0x00,Read,ACK
5.547411500000000,0,0x5D,0x00,Read,ACK
5.547432968750000,0,0x5D,0x00,Read,ACK
5.547454437500000,0,0x5D,0x00,Read,ACK
5.547475937500000,0,0x5D,0x00,Read,ACK
5.547497468750000,0,0x5D,0x00,Read,ACK
5.547518937500000,0,0x5D,0x00,Read,ACK
5.547540375000000,0,0x5D,0x00,Read,ACK
5.547561843750000,0,0x5D,0x00,Read,ACK
5.547583343750000,0,0x5D,0x00,Read,ACK
5.547604781250000,0,0x5D,0x00,Read,ACK
5.547626437500000,0,0x5D,0x00,Read,ACK
5.547649312500000,0,0x5D,0x00,Read,ACK
5.547671250000000,0,0x5D,0x00,Read,ACK
5.547694312500000,0,0x5D,0x00,Read,ACK
5.547716500000000,0,0x5D,0x00,Read,ACK
5.547738000000000,0,0x5D,0x00,Read,ACK
5.547759562500000,0,0x5D,0x00,Read,ACK
5.547781031250000,0,0x5D,0xFE,Read,ACK
5.547802531250000,0,0x5D,0x8D,Read,ACK
5.547824562500000,0,0x5D,0x01,Read,ACK
5.547847625000000,0,0x5D,0x00,Read,ACK
5.547870312500000,0,0x5D,0x00,Read,ACK
5.547891781250000,0,0x5D,0x00,Read,ACK
5.547913250000000,0,0x5D,0x00,Read,ACK
5.547934750000000,0,0x5D,0x00,Read,ACK
5.547956250000000,0,0x5D,0x00,Read,ACK
5.547977718750000,0,0x5D,0x00,Read,ACK
5.547999187500000,0,0x5D,0x00,Read,ACK
5.548020656250000,0,0x5D,0x00,Read,ACK
5.548042312500000,0,0x5D,0x00,Read,ACK
5.548063781250000,0,0x5D,0x00,Read,ACK
5.548085343750000,0,0x5D,0x00,Read,ACK
5.548106843750000,0,0x5D,0x00,Read,ACK
5.548128437500000,0,0x5D,0x00,Read,ACK
5.548150000000000,0,0x5D,0x00,Read,ACK
5.548172500000000,0,0x5D,0x00,Read,ACK
5.548194156250000,0,0x5D,0x00,Read,ACK
5.548216031250000,0,0x5D,0x00,Read,NAK
5.553991750000000,0,0x5D,0x2F,Read,ACK
5.554016906250000,0,0x5D,0x00,Read,ACK
5.554038375000000,0,0x5D,0x04,Read,ACK
5.554059812500000,0,0x5D,0x03,Read,ACK
5.554081281250000,0,0x5D,0x66,Read,ACK
5.554102781250000,0,0x5D,0x06,Read,ACK
5.554124250000000,0,0x5D,0xB9,Read,ACK
5.554146187500000,0,0x5D,0x05,Read,ACK
5.554167656250000,0,0x5D,0x03,Read,ACK
5.554189125000000,0,0x5D,0x02,Read,ACK
5.554210593750000,0,0x5D,0x20,Read,ACK
5.554232093750000,0,0x5D,0x00,Read,ACK
5.554253562500000,0,0x5D,0x00,Read,ACK
5.554275031250000,0,0x5D,0x00,Read,ACK
5.554297062500000,0,0x5D,0x00,Read,ACK
5.554319375000000,0,0x5D,0x00,Read,ACK
5.554340812500000,0,0x5D,0x00,Read,ACK
5.554362281250000,0,0x5D,0x00,Read,ACK
5.554383750000000,0,0x5D,0x00,Read,ACK
5.554405218750000,0,0x5D,0x00,Read,ACK
5.554426687500000,0,0x5D,0x00,Read,ACK
5.554448156250000,0,0x5D,0x00,Read,ACK
5.554469656250000,0,0x5D,0x00,Read,ACK
5.554491093750000,0,0x5D,0x00,Read,ACK
5.554512593750000,0,0x5D,0x00,Read,ACK
5.554534093750000,0,0x5D,0x00,Read,ACK
5.554555562500000,0,0x5D,0x00,Read,ACK
5.554577187500000,0,0x5D,0x00,Read,ACK
5.554598625000000,0,0x5D,0x00,Read,ACK
5.554620125000000,0,0x5D,0x00,Read,ACK
5.554641593750000,0,0x5D,0x00,Read,ACK
5.554663062500000,0,0x5D,0x00,Read,ACK
5.554684531250000,0,0x5D,0x00,Read,ACK
5.554706000000000,0,0x5D,0x00,Read,ACK
5.554727468750000,0,0x5D,0x00,Read,ACK
5.554748937500000,0,0x5D,0x00,Read,ACK
5.554770406250000,0,0x5D,0x00,Read,ACK
5.554791875000000,0,0x5D,0x00,Read,ACK
5.554817906250000,0,0x5D,0x00,Read,ACK
5.554839906250000,0,0x5D,0x00,Read,ACK
5.554861500000000,0,0x5D,0x00,Read,ACK
5.554884531250000,0,0x5D,0x00,Read,ACK
5.554906250000000,0,0x5D,0x00,Read,ACK
5.554927750000000,0,0x5D,0x44,Read,ACK
5.554949218750000,0,0x5D,0x8E,Read,ACK
5.554970687500000,0,0x5D,0x01,Read,ACK
5.554992156250000,0,0x5D,0x00,Read,ACK
5.555014531250000,0,0x5D,0x00,Read,ACK
5.555036031250000,0,0x5D,0x00,Read,ACK
5.555057656250000,0,0x5D,0x00,Read,ACK
5.555080968750000,0,0x5D,0x00,Read,ACK
5.555102718750000,0,0x5D,0x00,Read,ACK
5.555124500000000,0,0x5D,0x00,Read,ACK
5.555146000000000,0,0x5D,0x00,Read,ACK
5.555167468750000,0,0x5D,0x00,Read,ACK
5.555189968750000,0,0x5D,0x00,Read,ACK
5.555211468750000,0,0x5D,0x00,Read,ACK
5.555233531250000,0,0x5D,0x00,Read,ACK
5.555254968750000,0,0x5D,0x00,Read,ACK
5.555277187500000,0,0x5D,0x00,Read,ACK
5.555298656250000,0,0x5D,0x00,Read,ACK
5.555320843750000,0,0x5D,0x00,Read,ACK
5.555343375000000,0,0x5D,0x00,Read,ACK
5.555364906250000,0,0x5D,0x00,Read,NAK
5.561319593750000,0,0x5D,0x2F,Read,ACK
5.561347156250000,0,0x5D,0x00,Read,ACK
5.561368625000000,0,0x5D,0x04,Read,ACK
5.561390187500000,0,0x5D,0x03,Read,ACK
5.561413781250000,0,0x5D,0x62,Read,ACK
5.561435281250000,0,0x5D,0x06,Read,ACK
5.561456781250000,0,0x5D,0xA7,Read,ACK
5.561478281250000,0,0x5D,0x05,Read,ACK
5.561499750000000,0,0x5D,0x03,Read,ACK
5.561522375000000,0,0x5D,0x03,Read,ACK
5.561545031250000,0,0x5D,0x20,Read,ACK
5.561566531250000,0,0x5D,0x00,Read,ACK
5.561588031250000,0,0x5D,0x00,Read,ACK
5.561609468750000,0,0x5D,0x00,Read,ACK
5.561630968750000,0,0x5D,0x00,Read,ACK
5.561652625000000,0,0x5D,0x00,Read,ACK
5.561674093750000,0,0x5D,0x00,Read,ACK
5.561695562500000,0,0x5D,0x00,Read,ACK
5.561717031250000,0,0x5D,0x00,Read,ACK
5.561738531250000,0,0x5D,0x00,Read,ACK
5.561760031250000,0,0x5D,0x00,Read,ACK
5.561781500000000,0,0x5D,0x00,Read,ACK
5.561802968750000,0,0x5D,0x00,Read,ACK
5.561824437500000,0,0x5D,0x00,Read,ACK
5.561845906250000,0,0x5D,0x00,Read,ACK
5.561867375000000,0,0x5D,0x00,Read,ACK
5.561888843750000,0,0x5D,0x00,Read,ACK
5.561910312500000,0,0x5D,0x00,Read,ACK
5.561931812500000,0,0x5D,0x00,Read,ACK
5.561957812500000,0,0x5D,0x00,Read,ACK
5.561980781250000,0,0x5D,0x00,Read,ACK
5.562002250000000,0,0x5D,0x00,Read,ACK
5.562023718750000,0,0x5D,0x00,Read,ACK
5.562045687500000,0,0x5D,0x00,Read,ACK
5.562068656250000,0,0x5D,0x00,Read,ACK
5.562090156250000,0,0x5D,0x00,Read,ACK
5.562111625000000,0,0x5D,0x00,Read,ACK
5.562133312500000,0,0x5D,0x00,Read,ACK
5.562155125000000,0,0x5D,0x00,Read,ACK
5.562177218750000,0,0x5D,0x00,Read,ACK
5.562199843750000,0,0x5D,0x00,Read,ACK
5.562221843750000,0,0x5D,0x00,Read,ACK
5.562244312500000,0,0x5D,0x00,Read,ACK
5.562265781250000,0,0x5D,0x8A,Read,ACK
5.562287406250000,0,0x5D,0x8E,Read,ACK
5.562309031250000,0,0x5D,0x01,Read,ACK
5.562330531250000,0,0x5D,0x00,Read,ACK
5.562352375000000,0,0x5D,0x00,Read,ACK
5.562374062500000,0,0x5D,0x00,Read,ACK
5.562395593750000,0,0x5D,0x00,Read,ACK
5.562417687500000,0,0x5D,0x00,Read,ACK
5.562439125000000,0,0x5D,0x00,Read,ACK
5.562460593750000,0,0x5D,0x00,Read,ACK
5.562482781250000,0,0x5D,0x00,Read,ACK
5.562504218750000,0,0x5D,0x00,Read,ACK
5.562527312500000,0,0x5D,0x00,Read,ACK
5.562548781250000,0,0x5D,0x00,Read,ACK
5.562570250000000,0,0x5D,0x00,Read,ACK
5.562592968750000,0,0x5D,0x00,Read,ACK
5.562614812500000,0,0x5D,0x00,Read,ACK
5.562636718750000,0,0x5D,0x00,Read,ACK
5.562659187500000,0,0x5D,0x00,Read,ACK
5.562680687500000,0,0x5D,0x00,Read,ACK
5.562702156250000,0,0x5D,0x00,Read,NAK
5.568360531250000,0,0x5D,0x2F,Read,ACK
5.568385093750000,0,0x5D,0x00,Read,ACK
5.568406562500000,0,0x5D,0x04,Read,ACK
5.568428781250000,0,0x5D,0x03,Read,ACK
5.568450656250000,0,0x5D,0x60,Read,ACK
5.568472156250000,0,0x5D,0x06,Read,ACK
5.568493625000000,0,0x5D,0x93,Read,ACK
5.568516093750000,0,0x5D,0x05,Read,ACK
5.568537562500000,0,0x5D,0x03,Read,ACK
5.568560062500000,0,0x5D,0x03,Read,ACK
5.568581562500000,0,0x5D,0x20,Read,ACK
5.568603031250000,0,0x5D,0x00,Read,ACK
5.568624500000000,0,0x5D,0x00,Read,ACK
5.568645968750000,0,0x5D,0x00,Read,ACK
5.568667437500000,0,0x5D,0x00,Read,ACK
5.568688937500000,0,0x5D,0x00,Read,ACK
5.568710406250000,0,0x5D,0x00,Read,ACK
5.568731875000000,0,0x5D,0x00,Read,ACK
5.568753343750000,0,0x5D,0x00,Read,ACK
5.568774781250000,0,0x5D,0x00,Read,ACK
5.568796250000000,0,0x5D,0x00,Read,ACK
5.568817750000000,0,0x5D,0x00,Read,ACK
5.568839187500000,0,0x5D,0x00,Read,ACK
5.568862031250000,0,0x5D,0x00,Read,ACK
5.568883500000000,0,0x5D,0x00,Read,ACK
5.568904968750000,0,0x5D,0x00,Read,ACK
5.568926437500000,0,0x5D,0x00,Read,ACK
5.568947906250000,0,0x5D,0x00,Read,ACK
5.568969375000000,0,0x5D,0x00,Read,ACK
5.568990875000000,0,0x5D,0x00,Read,ACK
5.569012343750000,0,0x5D,0x00,Read,ACK
5.569033812500000,0,0x5D,0x00,Read,ACK
5.569055281250000,0,0x5D,0x00,Read,ACK
5.569076750000000,0,0x5D,0x00,Read,ACK
5.569103031250000,0,0x5D,0x00,Read,ACK
5.569125937500000,0,0x5D,0x00,Read,ACK
5.569150531250000,0,0x5D,0x00,Read,ACK
5.569172718750000,0,0x5D,0x00,Read,ACK
5.569195687500000,0,0x5D,0x00,Read,ACK
5.569217125000000,0,0x5D,0x00,Read,ACK
5.569238625000000,0,0x5D,0x00,Read,ACK
5.569260343750000,0,0x5D,0x00,Read,ACK
5.569282312500000,0,0x5D,0x00,Read,ACK
5.569304281250000,0,0x5D,0xD0,Read,ACK
5.569326343750000,0,0x5D,0x8E,Read,ACK
5.569348812500000,0,0x5D,0x01,Read,ACK
5.569370812500000,0,0x5D,0x00,Read,ACK
5.569392250000000,0,0x5D,0x00,Read,ACK
5.569414468750000,0,0x5D,0x00,Read,ACK
5.569436000000000,0,0x5D,0x00,Read,ACK
5.569457468750000,0,0x5D,0x00,Read,ACK
5.569479593750000,0,0x5D,0x00,Read,ACK
5.569501875000000,0,0x5D,0x00,Read,ACK
5.569523312500000,0,0x5D,0x00,Read,ACK
5.569545968750000,0,0x5D,0x00,Read,ACK
5.569567968750000,0,0x5D,0x00,Read,ACK
5.569589468750000,0,0x5D,0x00,Read,ACK
5.569610937500000,0,0x5D,0x00,Read,ACK
5.569632781250000,0,0x5D,0x00,Read,ACK
5.569655562500000,0,0x5D,0x00,Read,ACK
5.569677562500000,0,0x5D,0x00,Read,ACK
5.569699000000000,0,0x5D,0x00,Read,ACK
5.569720531250000,0,0x5D,0x00,Read,ACK
5.569742406250000,0,0x5D,0x00,Read,NAK
5.575516000000000,0,0x5D,0x2F,Read,ACK
5.575543781250000,0,0x5D,0x00,Read,ACK
5.575565968750000,0,0x5D,0x04,Read,ACK
5.575587531250000,0,0x5D,0x03,Read,ACK
5.575609031250000,0,0x5D,0x61,Read,ACK
5.575630500000000,0,0x5D,0x06,Read,ACK
5.575651968750000,0,0x5D,0x7B,Read,ACK
5.575673437500000,0,0x5D,0x05,Read,ACK
5.575696281250000,0,0x5D,0x03,Read,ACK
5.575717750000000,0,0x5D,0x02,Read,ACK
5.575739218750000,0,0x5D,0x20,Read,ACK
5.575760718750000,0,0x5D,0x00,Read,ACK
5.575782156250000,0,0x5D,0x00,Read,ACK
5.575803625000000,0,0x5D,0x00,Read,ACK
5.575825093750000,0,0x5D,0x00,Read,ACK
5.575846562500000,0,0x5D,0x00,Read,ACK
5.575868031250000,0,0x5D,0x00,Read,ACK
5.575889500000000,0,0x5D,0x00,Read,ACK
5.575910968750000,0,0x5D,0x00,Read,ACK
5.575932500000000,0,0x5D,0x00,Read,ACK
5.575954000000000,0,0x5D,0x00,Read,ACK
5.575975500000000,0,0x5D,0x00,Read,ACK
5.575996968750000,0,0x5D,0x00,Read,ACK
5.576018437500000,0,0x5D,0x00,Read,ACK
5.576039906250000,0,0x5D,0x00,Read,ACK
5.576061375000000,0,0x5D,0x00,Read,ACK
5.576082875000000,0,0x5D,0x00,Read,ACK
5.576104312500000,0,0x5D,0x00,Read,ACK
5.576125812500000,0,0x5D,0x00,Read,ACK
5.576147250000000,0,0x5D,0x00,Read,ACK
5.576171593750000,0,0x5D,0x00,Read,ACK
5.576194281250000,0,0x5D,0x00,Read,ACK
5.576216625000000,0,0x5D,0x00,Read,ACK
5.576238593750000,0,0x5D,0x00,Read,ACK
5.576261656250000,0,0x5D,0x00,Read,ACK
5.576284437500000,0,0x5D,0x00,Read,ACK
5.576305906250000,0,0x5D,0x00,Read,ACK
5.576327625000000,0,0x5D,0x00,Read,ACK
5.576349125000000,0,0x5D,0x00,Read,ACK
5.576371406250000,0,0x5D,0x00,Read,ACK
5.576392875000000,0,0x5D,0x00,Read,ACK
5.576414343750000,0,0x5D,0x00,Read,ACK
5.576440000000000,0,0x5D,0x00,Read,ACK
5.576463312500000,0,0x5D,0x16,Read,ACK
5.576485000000000,0,0x5D,0x8F,Read,ACK
5.576507500000000,0,0x5D,0x01,Read,ACK
5.576529312500000,0,0x5D,0x00,Read,ACK
5.576550750000000,0,0x5D,0x00,Read,ACK
5.576572250000000,0,0x5D,0x00,Read,ACK
5.576594875000000,0,0x5D,0x00,Read,ACK
5.576617031250000,0,0x5D,0x00,Read,ACK
5.576640375000000,0,0x5D,0x00,Read,ACK
5.576662156250000,0,0x5D,0x00,Read,ACK
5.576684156250000,0,0x5D,0x00,Read,ACK
5.576706031250000,0,0x5D,0x00,Read,ACK
5.576727531250000,0,0x5D,0x00,Read,ACK
5.576749500000000,0,0x5D,0x00,Read,ACK
5.576771750000000,0,0x5D,0x00,Read,ACK
5.576793531250000,0,0x5D,0x00,Read,ACK
5.576815000000000,0,0x5D,0x00,Read,ACK
5.576838000000000,0,0x5D,0x00,Read,ACK
5.576859750000000,0,0x5D,0x00,Read,ACK
5.576885218750000,0,0x5D,0x00,Read,ACK
5.576906687500000,0,0x5D,0x00,Read,NAK
5.582577812500000,0,0x5D,0x2F,Read,ACK
5.582602468750000,0,0x5D,0x00,Read,ACK
5.582623906250000,0,0x5D,0x04,Read,ACK
5.582645375000000,0,0x5D,0x03,Read,ACK
5.582666875000000,0,0x5D,0x65,Read,ACK
5.582688343750000,0,0x5D,0x06,Read,ACK
5.582709812500000,0,0x5D,0x61,Read,ACK
5.582732562500000,0,0x5D,0x05,Read,ACK
5.582754968750000,0,0x5D,0x04,Read,ACK
5.582776468750000,0,0x5D,0x02,Read,ACK
5.582797937500000,0,0x5D,0x20,Read,ACK
5.582819406250000,0,0x5D,0x00,Read,ACK
5.582840875000000,0,0x5D,0x00,Read,ACK
5.582862343750000,0,0x5D,0x00,Read,ACK
5.582883875000000,0,0x5D,0x00,Read,ACK
5.582905406250000,0,0x5D,0x00,Read,ACK
5.582926875000000,0,0x5D,0x00,Read,ACK
5.582948343750000,0,0x5D,0x00,Read,ACK
5.582972500000000,0,0x5D,0x00,Read,ACK
5.582993968750000,0,0x5D,0x00,Read,ACK
5.583015437500000,0,0x5D,0x00,Read,ACK
5.583036906250000,0,0x5D,0x00,Read,ACK
5.583058375000000,0,0x5D,0x00,Read,ACK
5.583079843750000,0,0x5D,0x00,Read,ACK
5.583101562500000,0,0x5D,0x00,Read,ACK
5.583123031250000,0,0x5D,0x00,Read,ACK
5.583144500000000,0,0x5D,0x00,Read,ACK
5.583165968750000,0,0x5D,0x00,Read,ACK
5.583187437500000,0,0x5D,0x00,Read,ACK
5.583208906250000,0,0x5D,0x00,Read,ACK
5.583230375000000,0,0x5D,0x00,Read,ACK
5.583252093750000,0,0x5D,0x00,Read,ACK
5.583273562500000,0,0x5D,0x00,Read,ACK
5.583295062500000,0,0x5D,0x00,Read,ACK
5.583316500000000,0,0x5D,0x00,Read,ACK
5.583337968750000,0,0x5D,0x00,Read,ACK
5.583359437500000,0,0x5D,0x00,Read,ACK
5.583380906250000,0,0x5D,0x00,Read,ACK
5.583402375000000,0,0x5D,0x00,Read,ACK
5.583425468750000,0,0x5D,0x00,Read,ACK
5.583448187500000,0,0x5D,0x00,Read,ACK
5.583470312500000,0,0x5D,0x00,Read,ACK
5.583492312500000,0,0x5D,0x00,Read,ACK
5.583513781250000,0,0x5D,0x5C,Read,ACK
5.583535250000000,0,0x5D,0x8F,Read,ACK
5.583556718750000,0,0x5D,0x01,Read,ACK
5.583579687500000,0,0x5D,0x00,Read,ACK
5.583602656250000,0,0x5D,0x00,Read,ACK
5.583625250000000,0,0x5D,0x00,Read,ACK
5.583646718750000,0,0x5D,0x00,Read,ACK
5.583668218750000,0,0x5D,0x00,Read,ACK
5.583690125000000,0,0x5D,0x00,Read,ACK
5.583711625000000,0,0x5D,0x00,Read,ACK
5.583734437500000,0,0x5D,0x00,Read,ACK
5.583757656250000,0,0x5D,0x00,Read,ACK
5.583779218750000,0,0x5D,0x00,Read,ACK
5.583801906250000,0,0x5D,0x00,Read,ACK
5.583823406250000,0,0x5D,0x00,Read,ACK
5.583846718750000,0,0x5D,0x00,Read,ACK
5.583868312500000,0,0x5D,0x00,Read,ACK
5.583890750000000,0,0x5D,0x00,Read,ACK
5.583912218750000,0,0x5D,0x00,Read,ACK
5.583935906250000,0,0x5D,0x00,Read,ACK
5.583957437500000,0,0x5D,0x00,Read,NAK
5.589831968750000,0,0x5D,0x2F,Read,ACK
5.589862625000000,0,0x5D,0x00,Read,ACK
5.589884375000000,0,0x5D,0x04,Read,ACK
5.589905843750000,0,0x5D,0x03,Read,ACK
5.589927312500000,0,0x5D,0x6C,Read,ACK
5.589948781250000,0,0x5D,0x06,Read,ACK
5.589970312500000,0,0x5D,0x45,Read,ACK
5.589991937500000,0,0x5D,0x05,Read,ACK
5.590013437500000,0,0x5D,0x03,Read,ACK
5.590035156250000,0,0x5D,0x03,Read,ACK
5.590056625000000,0,0x5D,0x20,Read,ACK
5.590078093750000,0,0x5D,0x00,Read,ACK
5.590099562500000,0,0x5D,0x00,Read,ACK
5.590121031250000,0,0x5D,0x00,Read,ACK
5.590142593750000,0,0x5D,0x00,Read,ACK
5.590164093750000,0,0x5D,0x00,Read,ACK
5.590185562500000,0,0x5D,0x00,Read,ACK
5.590207187500000,0,0x5D,0x00,Read,ACK
5.590228687500000,0,0x5D,0x00,Read,ACK
5.590250156250000,0,0x5D,0x00,Read,ACK
5.590271625000000,0,0x5D,0x00,Read,ACK
5.590293125000000,0,0x5D,0x00,Read,ACK
5.590314625000000,0,0x5D,0x00,Read,ACK
5.590336093750000,0,0x5D,0x00,Read,ACK
5.590357562500000,0,0x5D,0x00,Read,ACK
5.590379031250000,0,0x5D,0x00,Read,ACK
5.590400500000000,0,0x5D,0x00,Read,ACK
5.590421968750000,0,0x5D,0x00,Read,ACK
5.590443437500000,0,0x5D,0x00,Read,ACK
5.590464906250000,0,0x5D,0x00,Read,ACK
5.590486375000000,0,0x5D,0x00,Read,ACK
5.590508156250000,0,0x5D,0x00,Read,ACK
5.590531000000000,0,0x5D,0x00,Read,ACK
5.590555062500000,0,0x5D,0x00,Read,ACK
5.590577031250000,0,0x5D,0x00,Read,ACK
5.590598500000000,0,0x5D,0x00,Read,ACK
5.590621031250000,0,0x5D,0x00,Read,ACK
5.590644312500000,0,0x5D,0x00,Read,ACK
5.590665937500000,0,0x5D,0x00,Read,ACK
5.590688187500000,0,0x5D,0x00,Read,ACK
5.590709687500000,0,0x5D,0x00,Read,ACK
5.590731156250000,0,0x5D,0x00,Read,ACK
5.590752593750000,0,0x5D,0x00,Read,ACK
5.590774218750000,0,0x5D,0xA2,Read,ACK
5.590797281250000,0,0x5D,0x8F,Read,ACK
5.590820531250000,0,0x5D,0x01,Read,ACK
5.590842031250000,0,0x5D,0x00,Read,ACK
5.590863500000000,0,0x5D,0x00,Read,ACK
5.590886000000000,0,0x5D,0x00,Read,ACK
5.590907500000000,0,0x5D,0x00,Read,ACK
5.590928968750000,0,0x5D,0x00,Read,ACK
5.590950437500000,0,0x5D,0x00,Read,ACK
5.590972625000000,0,0x5D,0x00,Read,ACK
5.590995437500000,0,0x5D,0x00,Read,ACK
5.591018062500000,0,0x5D,0x00,Read,ACK
5.591039500000000,0,0x5D,0x00,Read,ACK
5.591060968750000,0,0x5D,0x00,Read,ACK
5.591085000000000,0,0x5D,0x00,Read,ACK
5.591106500000000,0,0x5D,0x00,Read,ACK
5.591128406250000,0,0x5D,0x00,Read,ACK
5.591149843750000,0,0x5D,0x00,Read,ACK
5.591171812500000,0,0x5D,0x00,Read,ACK
5.591193406250000,0,0x5D,0x00,Read,ACK
5.591220343750000,0,0x5D,0x00,Read,NAK
5.596897937500000,0,0x5D,0x2F,Read,ACK
5.596922093750000,0,0x5D,0x00,Read,ACK
5.596943593750000,0,0x5D,0x04,Read,ACK
5.596965062500000,0,0x5D,0x03,Read,ACK
5.596987531250000,0,0x5D,0x77,Read,ACK
5.597009000000000,0,0x5D,0x06,Read,ACK
5.597031875000000,0,0x5D,0x29,Read,ACK
5.597053406250000,0,0x5D,0x05,Read,ACK
5.597074906250000,0,0x5D,0x03,Read,ACK
5.597096593750000,0,0x5D,0x03,Read,ACK
5.597118093750000,0,0x5D,0x20,Read,ACK
5.597140562500000,0,0x5D,0x00,Read,ACK
5.597163187500000,0,0x5D,0x00,Read,ACK
5.597185093750000,0,0x5D,0x00,Read,ACK
5.597206562500000,0,0x5D,0x00,Read,ACK
5.597228062500000,0,0x5D,0x00,Read,ACK
5.597249500000000,0,0x5D,0x00,Read,ACK
5.597271000000000,0,0x5D,0x00,Read,ACK
5.597292468750000,0,0x5D,0x00,Read,ACK
5.597313937500000,0,0x5D,0x00,Read,ACK
5.597335406250000,0,0x5D,0x00,Read,ACK
5.597356875000000,0,0x5D,0x00,Read,ACK
5.597378343750000,0,0x5D,0x00,Read,ACK
5.597399812500000,0,0x5D,0x00,Read,ACK
5.597421250000000,0,0x5D,0x00,Read,ACK
5.597442781250000,0,0x5D,0x00,Read,ACK
5.597464281250000,0,0x5D,0x00,Read,ACK
5.597485750000000,0,0x5D,0x00,Read,ACK
5.597507250000000,0,0x5D,0x00,Read,ACK
5.597528687500000,0,0x5D,0x00,Read,ACK
5.597550156250000,0,0x5D,0x00,Read,ACK
5.597571625000000,0,0x5D,0x00,Read,ACK
5.597593093750000,0,0x5D,0x00,Read,ACK
5.597614562500000,0,0x5D,0x00,Read,ACK
5.597636031250000,0,0x5D,0x00,Read,ACK
5.597657500000000,0,0x5D,0x00,Read,ACK
5.597680375000000,0,0x5D,0x00,Read,ACK
5.597701875000000,0,0x5D,0x00,Read,ACK
5.597725000000000,0,0x5D,0x00,Read,ACK
5.597746875000000,0,0x5D,0x00,Read,ACK
5.597769812500000,0,0x5D,0x00,Read,ACK
5.597792156250000,0,0x5D,0x00,Read,ACK
5.597813656250000,0,0x5D,0x00,Read,ACK
5.597835125000000,0,0x5D,0xE8,Read,ACK
5.597856593750000,0,0x5D,0x8F,Read,ACK
5.597878500000000,0,0x5D,0x01,Read,ACK
5.597900593750000,0,0x5D,0x00,Read,ACK
5.597922312500000,0,0x5D,0x00,Read,ACK
5.597943781250000,0,0x5D,0x00,Read,ACK
5.597966593750000,0,0x5D,0x00,Read,ACK
5.597988093750000,0,0x5D,0x00,Read,ACK
5.598009562500000,0,0x5D,0x00,Read,ACK
5.598032000000000,0,0x5D,0x00,Read,ACK
5.598053843750000,0,0x5D,0x00,Read,ACK
5.598075343750000,0,0x5D,0x00,Read,ACK
5.598097562500000,0,0x5D,0x00,Read,ACK
5.598120343750000,0,0x5D,0x00,Read,ACK
5.598141843750000,0,0x5D,0x00,Read,ACK
5.598163343750000,0,0x5D,0x00,Read,ACK
5.598186625000000,0,0x5D,0x00,Read,ACK
5.598208875000000,0,0x5D,0x00,Read,ACK
5.598230375000000,0,0x5D,0x00,Read,ACK
5.598252281250000,0,0x5D,0x00,Read,ACK
5.598274593750000,0,0x5D,0x00,Read,NAK
5.604002875000000,0,0x5D,0x2F,Read,ACK
5.604027437500000,0,0x5D,0x00,Read,ACK
5.604048937500000,0,0x5D,0x04,Read,ACK
5.604070406250000,0,0x5D,0x03,Read,ACK
5.604091875000000,0,0x5D,0x85,Read,ACK
5.604113343750000,0,0x5D,0x06,Read,ACK
5.604134812500000,0,0x5D,0x0C,Read,ACK
5.604157125000000,0,0x5D,0x05,Read,ACK
5.604179218750000,0,0x5D,0x03,Read,ACK
5.604201875000000,0,0x5D,0x03,Read,ACK
5.604223312500000,0,0x5D,0x20,Read,ACK
5.604244781250000,0,0x5D,0x00,Read,ACK
5.604266250000000,0,0x5D,0x00,Read,ACK
5.604288906250000,0,0x5D,0x00,Read,ACK
5.604311312500000,0,0x5D,0x00,Read,ACK
5.604332812500000,0,0x5D,0x00,Read,ACK
5.604354250000000,0,0x5D,0x00,Read,ACK
5.604378156250000,0,0x5D,0x00,Read,ACK
5.604399656250000,0,0x5D,0x00,Read,ACK
5.604421093750000,0,0x5D,0x00,Read,ACK
5.604442593750000,0,0x5D,0x00,Read,ACK
5.604464062500000,0,0x5D,0x00,Read,ACK
5.604485500000000,0,0x5D,0x00,Read,ACK
5.604507031250000,0,0x5D,0x00,Read,ACK
5.604528531250000,0,0x5D,0x00,Read,ACK
5.604550000000000,0,0x5D,0x00,Read,ACK
5.604571500000000,0,0x5D,0x00,Read,ACK
5.604592968750000,0,0x5D,0x00,Read,ACK
5.604614406250000,0,0x5D,0x00,Read,ACK
5.604635875000000,0,0x5D,0x00,Read,ACK
5.604657343750000,0,0x5D,0x00,Read,ACK
5.604678843750000,0,0x5D,0x00,Read,ACK
5.604700312500000,0,0x5D,0x00,Read,ACK
5.604721781250000,0,0x5D,0x00,Read,ACK
5.604743218750000,0,0x5D,0x00,Read,ACK
5.604764687500000,0,0x5D,0x00,Read,ACK
5.604787375000000,0,0x5D,0x00,Read,ACK
5.604809812500000,0,0x5D,0x00,Read,ACK
5.604834625000000,0,0x5D,0x00,Read,ACK
5.604856437500000,0,0x5D,0x00,Read,ACK
5.604877906250000,0,0x5D,0x00,Read,ACK
5.604899437500000,0,0x5D,0x00,Read,ACK
5.604920937500000,0,0x5D,0x00,Read,ACK
5.604942375000000,0,0x5D,0x2E,Read,ACK
5.604963843750000,0,0x5D,0x90,Read,ACK
5.604987406250000,0,0x5D,0x01,Read,ACK
5.605009312500000,0,0x5D,0x00,Read,ACK
5.605031062500000,0,0x5D,0x00,Read,ACK
5.605053250000000,0,0x5D,0x00,Read,ACK
5.605074718750000,0,0x5D,0x00,Read,ACK
5.605096187500000,0,0x5D,0x00,Read,ACK
5.605118781250000,0,0x5D,0x00,Read,ACK
5.605140500000000,0,0x5D,0x00,Read,ACK
5.605161968750000,0,0x5D,0x00,Read,ACK
5.605183437500000,0,0x5D,0x00,Read,ACK
5.605205218750000,0,0x5D,0x00,Read,ACK
5.605226687500000,0,0x5D,0x00,Read,ACK
5.605249906250000,0,0x5D,0x00,Read,ACK
5.605271468750000,0,0x5D,0x00,Read,ACK
5.605292968750000,0,0x5D,0x00,Read,ACK
5.605314437500000,0,0x5D,0x00,Read,ACK
5.605336218750000,0,0x5D,0x00,Read,ACK
5.605357687500000,0,0x5D,0x00,Read,ACK
5.605379406250000,0,0x5D,0x00,Read,NAK
5.611221593750000,0,0x5D,0x2F,Read,ACK
5.611246156250000,0,0x5D,0x00,Read,ACK
5.611267625000000,0,0x5D,0x04,Read,ACK
5.611289312500000,0,0x5D,0x03,Read,ACK
5.611311937500000,0,0x5D,0x94,Read,ACK
5.611333406250000,0,0x5D,0x06,Read,ACK
5.611354906250000,0,0x5D,0xEF,Read,ACK
5.611376343750000,0,0x5D,0x04,Read,ACK
5.611397843750000,0,0x5D,0x03,Read,ACK
5.611419750000000,0,0x5D,0x02,Read,ACK
5.611441187500000,0,0x5D,0x20,Read,ACK
5.611462656250000,0,0x5D,0x00,Read,ACK
5.611484125000000,0,0x5D,0x00,Read,ACK
5.611505593750000,0,0x5D,0x00,Read,ACK
5.611527062500000,0,0x5D,0x00,Read,ACK
5.611548562500000,0,0x5D,0x00,Read,ACK
5.611570000000000,0,0x5D,0x00,Read,ACK
5.611591468750000,0,0x5D,0x00,Read,ACK
5.611612937500000,0,0x5D,0x00,Read,ACK
5.611634437500000,0,0x5D,0x00,Read,ACK
5.611655937500000,0,0x5D,0x00,Read,ACK
5.611677437500000,0,0x5D,0x00,Read,ACK
5.611698906250000,0,0x5D,0x00,Read,ACK
5.611720375000000,0,0x5D,0x00,Read,ACK
5.611742093750000,0,0x5D,0x00,Read,ACK
5.611763531250000,0,0x5D,0x00,Read,ACK
5.611785031250000,0,0x5D,0x00,Read,ACK
5.611806500000000,0,0x5D,0x00,Read,ACK
5.611827968750000,0,0x5D,0x00,Read,ACK
5.611849437500000,0,0x5D,0x00,Read,ACK
5.611870906250000,0,0x5D,0x00,Read,ACK
5.611892375000000,0,0x5D,0x00,Read,ACK
5.611913843750000,0,0x5D,0x00,Read,ACK
5.611935312500000,0,0x5D,0x00,Read,ACK
5.611957406250000,0,0x5D,0x00,Read,ACK
5.611979218750000,0,0x5D,0x00,Read,ACK
5.612000718750000,0,0x5D,0x00,Read,ACK
5.612022187500000,0,0x5D,0x00,Read,ACK
5.612043750000000,0,0x5D,0x00,Read,ACK
5.612066093750000,0,0x5D,0x00,Read,ACK
5.612087531250000,0,0x5D,0x00,Read,ACK
5.612109000000000,0,0x5D,0x00,Read,ACK
5.612131187500000,0,0x5D,0x00,Read,ACK
5.612152750000000,0,0x5D,0x74,Read,ACK
5.612174906250000,0,0x5D,0x90,Read,ACK
5.612197531250000,0,0x5D,0x01,Read,ACK
5.612219281250000,0,0x5D,0x00,Read,ACK
5.612240750000000,0,0x5D,0x00,Read,ACK
5.612263250000000,0,0x5D,0x00,Read,ACK
5.612284781250000,0,0x5D,0x00,Read,ACK
5.612306281250000,0,0x5D,0x00,Read,ACK
5.612327781250000,0,0x5D,0x00,Read,ACK
5.612350625000000,0,0x5D,0x00,Read,ACK
5.612373375000000,0,0x5D,0x00,Read,ACK
5.612394968750000,0,0x5D,0x00,Read,ACK
5.612416843750000,0,0x5D,0x00,Read,ACK
5.612438343750000,0,0x5D,0x00,Read,ACK
5.612460968750000,0,0x5D,0x00,Read,ACK
5.612483750000000,0,0x5D,0x00,Read,ACK
5.612505562500000,0,0x5D,0x00,Read,ACK
5.612527031250000,0,0x5D,0x00,Read,ACK
5.612548625000000,0,0x5D,0x00,Read,ACK
5.612571593750000,0,0x5D,0x00,Read,ACK
5.612593718750000,0,0x5D,0x00,Read,NAK
5.618282500000000,0,0x5D,0x2F,Read,ACK
5.618306531250000,0,0x5D,0x00,Read,ACK
5.618327968750000,0,0x5D,0x04,Read,ACK
5.618349468750000,0,0x5D,0x03,Read,ACK
5.618370937500000,0,0x5D,0xA7,Read,ACK
5.618392406250000,0,0x5D,0x06,Read,ACK
5.618413843750000,0,0x5D,0xD4,Read,ACK
5.618436343750000,0,0x5D,0x04,Read,ACK
5.618458312500000,0,0x5D,0x03,Read,ACK
5.618479781250000,0,0x5D,0x02,Read,ACK
5.618501250000000,0,0x5D,0x20,Read,ACK
5.618522687500000,0,0x5D,0x00,Read,ACK
5.618544187500000,0,0x5D,0x00,Read,ACK
5.618566312500000,0,0x5D,0x00,Read,ACK
5.618587750000000,0,0x5D,0x00,Read,ACK
5.618609218750000,0,0x5D,0x00,Read,ACK
5.618630687500000,0,0x5D,0x00,Read,ACK
5.618652156250000,0,0x5D,0x00,Read,ACK
5.618675218750000,0,0x5D,0x00,Read,ACK
5.618696687500000,0,0x5D,0x00,Read,ACK
5.618718187500000,0,0x5D,0x00,Read,ACK
5.618739781250000,0,0x5D,0x00,Read,ACK
5.618761250000000,0,0x5D,0x00,Read,ACK
5.618782718750000,0,0x5D,0x00,Read,ACK
5.618804187500000,0,0x5D,0x00,Read,ACK
5.618825656250000,0,0x5D,0x00,Read,ACK
5.618847343750000,0,0x5D,0x00,Read,ACK
5.618868843750000,0,0x5D,0x00,Read,ACK
5.618890312500000,0,0x5D,0x00,Read,ACK
5.618911781250000,0,0x5D,0x00,Read,ACK
5.618933250000000,0,0x5D,0x00,Read,ACK
5.618954718750000,0,0x5D,0x00,Read,ACK
5.618976187500000,0,0x5D,0x00,Read,ACK
5.618997656250000,0,0x5D,0x00,Read,ACK
5.619019125000000,0,0x5D,0x00,Read,ACK
5.619040593750000,0,0x5D,0x00,Read,ACK
5.619062062500000,0,0x5D,0x00,Read,ACK
5.619083562500000,0,0x5D,0x00,Read,ACK
5.619108593750000,0,0x5D,0x00,Read,ACK
5.619131656250000,0,0x5D,0x00,Read,ACK
5.619153125000000,0,0x5D,0x00,Read,ACK
5.619175187500000,0,0x5D,0x00,Read,ACK
5.619198031250000,0,0x5D,0x00,Read,ACK
5.619219531250000,0,0x5D,0xBA,Read,ACK
5.619241000000000,0,0x5D,0x90,Read,ACK
5.619262625000000,0,0x5D,0x01,Read,ACK
5.619284156250000,0,0x5D,0x00,Read,ACK
5.619306281250000,0,0x5D,0x00,Read,ACK
5.619327718750000,0,0x5D,0x00,Read,ACK
5.619349375000000,0,0x5D,0x00,Read,ACK
5.619371875000000,0,0x5D,0x00,Read,ACK
5.619393343750000,0,0x5D,0x00,Read,ACK
5.619414812500000,0,0x5D,0x00,Read,ACK
5.619436281250000,0,0x5D,0x00,Read,ACK
5.619458968750000,0,0x5D,0x00,Read,ACK
5.619480468750000,0,0x5D,0x00,Read,ACK
5.619502437500000,0,0x5D,0x00,Read,ACK
5.619523906250000,0,0x5D,0x00,Read,ACK
5.619545406250000,0,0x5D,0x00,Read,ACK
5.619567375000000,0,0x5D,0x00,Read,ACK
5.619588843750000,0,0x5D,0x00,Read,ACK
5.619610250000000,0,0x5D,0x00,Read,ACK
5.619632468750000,0,0x5D,0x00,Read,ACK
5.619653937500000,0,0x5D,0x00,Read,NAK
5.625871093750000,0,0x5D,0x2F,Read,ACK
5.625896218750000,0,0x5D,0x00,Read,ACK
5.625917687500000,0,0x5D,0x04,Read,ACK
5.625939187500000,0,0x5D,0x03,Read,ACK
5.625960625000000,0,0x5D,0xBC,Read,ACK
5.625982093750000,0,0x5D,0x06,Read,ACK
5.626005093750000,0,0x5D,0xBB,Read,ACK
5.626026593750000,0,0x5D,0x04,Read,ACK
5.626048093750000,0,0x5D,0x04,Read,ACK
5.626069593750000,0,0x5D,0x03,Read,ACK
5.626091062500000,0,0x5D,0x20,Read,ACK
5.626112656250000,0,0x5D,0x00,Read,ACK
5.626134125000000,0,0x5D,0x00,Read,ACK
5.626155593750000,0,0x5D,0x00,Read,ACK
5.626177062500000,0,0x5D,0x00,Read,ACK
5.626198531250000,0,0x5D,0x00,Read,ACK
5.626220000000000,0,0x5D,0x00,Read,ACK
5.626243937500000,0,0x5D,0x00,Read,ACK
5.626265875000000,0,0x5D,0x00,Read,ACK
5.626287375000000,0,0x5D,0x00,Read,ACK
5.626309906250000,0,0x5D,0x00,Read,ACK
5.626331343750000,0,0x5D,0x00,Read,ACK
5.626352968750000,0,0x5D,0x00,Read,ACK
5.626374437500000,0,0x5D,0x00,Read,ACK
5.626395937500000,0,0x5D,0x00,Read,ACK
5.626417406250000,0,0x5D,0x00,Read,ACK
5.626439375000000,0,0x5D,0x00,Read,ACK
5.626461375000000,0,0x5D,0x00,Read,ACK
5.626483812500000,0,0x5D,0x00,Read,ACK
5.626506656250000,0,0x5D,0x00,Read,ACK
5.626528437500000,0,0x5D,0x00,Read,ACK
5.626549906250000,0,0x5D,0x00,Read,ACK
5.626573000000000,0,0x5D,0x00,Read,ACK
5.626594593750000,0,0x5D,0x00,Read,ACK
5.626616375000000,0,0x5D,0x00,Read,ACK
5.626637843750000,0,0x5D,0x00,Read,ACK
5.626659656250000,0,0x5D,0x00,Read,ACK
5.626681093750000,0,0x5D,0x00,Read,ACK
5.626703218750000,0,0x5D,0x00,Read,ACK
5.626724718750000,0,0x5D,0x00,Read,ACK
5.626747781250000,0,0x5D,0x00,Read,ACK
5.626770000000000,0,0x5D,0x00,Read,ACK
5.626791500000000,0,0x5D,0x00,Read,ACK
5.626814125000000,0,0x5D,0x00,Read,ACK
5.626835625000000,0,0x5D,0x91,Read,ACK
5.626858250000000,0,0x5D,0x01,Read,ACK
5.626880062500000,0,0x5D,0x00,Read,ACK
5.626902906250000,0,0x5D,0x00,Read,ACK
5.626928281250000,0,0x5D,0x00,Read,ACK
5.626949781250000,0,0x5D,0x00,Read,ACK
5.626971250000000,0,0x5D,0x00,Read,ACK
5.626992718750000,0,0x5D,0x00,Read,ACK
5.627014187500000,0,0x5D,0x00,Read,ACK
5.627035656250000,0,0x5D,0x00,Read,ACK
5.627057125000000,0,0x5D,0x00,Read,ACK
5.627079906250000,0,0x5D,0x00,Read,ACK
5.627102437500000,0,0x5D,0x00,Read,ACK
5.627123937500000,0,0x5D,0x00,Read,ACK
5.627145468750000,0,0x5D,0x00,Read,ACK
5.627167000000000,0,0x5D,0x00,Read,ACK
5.627188437500000,0,0x5D,0x00,Read,ACK
5.627209906250000,0,0x5D,0x00,Read,ACK
5.627231375000000,0,0x5D,0x00,Read,ACK
5.627252906250000,0,0x5D,0x00,Read,NAK
5.632701750000000,0,0x5D,0x2F,Read,ACK
5.632728437500000,0,0x5D,0x00,Read,ACK
5.632749968750000,0,0x5D,0x04,Read,ACK
5.632771437500000,0,0x5D,0x03,Read,ACK
5.632792906250000,0,0x5D,0xD3,Read,ACK
5.632814375000000,0,0x5D,0x06,Read,ACK
5.632835937500000,0,0x5D,0xA5,Read,ACK
5.632857437500000,0,0x5D,0x04,Read,ACK
5.632878906250000,0,0x5D,0x03,Read,ACK
5.632900375000000,0,0x5D,0x03,Read,ACK
5.632922093750000,0,0x5D,0x20,Read,ACK
5.632943531250000,0,0x5D,0x00,Read,ACK
5.632965031250000,0,0x5D,0x00,Read,ACK
5.632986468750000,0,0x5D,0x00,Read,ACK
5.633007937500000,0,0x5D,0x00,Read,ACK
5.633029437500000,0,0x5D,0x00,Read,ACK
5.633050906250000,0,0x5D,0x00,Read,ACK
5.633072375000000,0,0x5D,0x00,Read,ACK
5.633093937500000,0,0x5D,0x00,Read,ACK
5.633115375000000,0,0x5D,0x00,Read,ACK
5.633136843750000,0,0x5D,0x00,Read,ACK
5.633158312500000,0,0x5D,0x00,Read,ACK
5.633179750000000,0,0x5D,0x00,Read,ACK
5.633201250000000,0,0x5D,0x00,Read,ACK
5.633222718750000,0,0x5D,0x00,Read,ACK
5.633244218750000,0,0x5D,0x00,Read,ACK
5.633265656250000,0,0x5D,0x00,Read,ACK
5.633287500000000,0,0x5D,0x00,Read,ACK
5.633309000000000,0,0x5D,0x00,Read,ACK
5.633330437500000,0,0x5D,0x00,Read,ACK
5.633351906250000,0,0x5D,0x00,Read,ACK
5.633373375000000,0,0x5D,0x00,Read,ACK
5.633394843750000,0,0x5D,0x00,Read,ACK
5.633416312500000,0,0x5D,0x00,Read,ACK
5.633437968750000,0,0x5D,0x00,Read,ACK
5.633459437500000,0,0x5D,0x00,Read,ACK
5.633480937500000,0,0x5D,0x00,Read,ACK
5.633503781250000,0,0x5D,0x00,Read,ACK
5.633525718750000,0,0x5D,0x00,Read,ACK
5.633547187500000,0,0x5D,0x00,Read,ACK
5.633568937500000,0,0x5D,0x00,Read,ACK
5.633591875000000,0,0x5D,0x00,Read,ACK
5.633613343750000,0,0x5D,0x00,Read,ACK
5.633635625000000,0,0x5D,0x46,Read,ACK
5.633657156250000,0,0x5D,0x91,Read,ACK
5.633679562500000,0,0x5D,0x01,Read,ACK
5.633702156250000,0,0x5D,0x00,Read,ACK
5.633723843750000,0,0x5D,0x00,Read,ACK
5.633745406250000,0,0x5D,0x00,Read,ACK
5.633766843750000,0,0x5D,0x00,Read,ACK
5.633788781250000,0,0x5D,0x00,Read,ACK
5.633810281250000,0,0x5D,0x00,Read,ACK
5.633831781250000,0,0x5D,0x00,Read,ACK
5.633853500000000,0,0x5D,0x00,Read,ACK
5.633874968750000,0,0x5D,0x00,Read,ACK
5.633898593750000,0,0x5D,0x00,Read,ACK
5.633920062500000,0,0x5D,0x00,Read,ACK
5.633942968750000,0,0x5D,0x00,Read,ACK
5.633964656250000,0,0x5D,0x00,Read,ACK
5.633986562500000,0,0x5D,0x00,Read,ACK
5.634008031250000,0,0x5D,0x00,Read,ACK
5.634029562500000,0,0x5D,0x00,Read,ACK
5.634051000000000,0,0x5D,0x00,Read,ACK
5.634073656250000,0,0x5D,0x00,Read,NAK
5.639817875000000,0,0x5D,0x2F,Read,ACK
5.639843125000000,0,0x5D,0x00,Read,ACK
5.639864687500000,0,0x5D,0x04,Read,ACK
5.639886781250000,0,0x5D,0x03,Read,ACK
5.639908312500000,0,0x5D,0xEE,Read,ACK
5.639930062500000,0,0x5D,0x06,Read,ACK
5.639951531250000,0,0x5D,0x93,Read,ACK
5.639974468750000,0,0x5D,0x04,Read,ACK
5.639996625000000,0,0x5D,0x03,Read,ACK
5.640018125000000,0,0x5D,0x03,Read,ACK
5.640039562500000,0,0x5D,0x20,Read,ACK
5.640061062500000,0,0x5D,0x00,Read,ACK
5.640082531250000,0,0x5D,0x00,Read,ACK
5.640104000000000,0,0x5D,0x00,Read,ACK
5.640125468750000,0,0x5D,0x00,Read,ACK
5.640146968750000,0,0x5D,0x00,Read,ACK
5.640168437500000,0,0x5D,0x00,Read,ACK
5.640189937500000,0,0x5D,0x00,Read,ACK
5.640211593750000,0,0x5D,0x00,Read,ACK
5.640233062500000,0,0x5D,0x00,Read,ACK
5.640254750000000,0,0x5D,0x00,Read,ACK
5.640276250000000,0,0x5D,0x00,Read,ACK
5.640297687500000,0,0x5D,0x00,Read,ACK
5.640319156250000,0,0x5D,0x00,Read,ACK
5.640340656250000,0,0x5D,0x00,Read,ACK
5.640362125000000,0,0x5D,0x00,Read,ACK
5.640383562500000,0,0x5D,0x00,Read,ACK
5.640405031250000,0,0x5D,0x00,Read,ACK
5.640426500000000,0,0x5D,0x00,Read,ACK
5.640448000000000,0,0x5D,0x00,Read,ACK
5.640469437500000,0,0x5D,0x00,Read,ACK
5.640490937500000,0,0x5D,0x00,Read,ACK
5.640512406250000,0,0x5D,0x00,Read,ACK
5.640535156250000,0,0x5D,0x00,Read,ACK
5.640560593750000,0,0x5D,0x00,Read,ACK
5.640584281250000,0,0x5D,0x00,Read,ACK
5.640605750000000,0,0x5D,0x00,Read,ACK
5.640627531250000,0,0x5D,0x00,Read,ACK
5.640650000000000,0,0x5D,0x00,Read,ACK
5.640671468750000,0,0x5D,0x00,Read,ACK
5.640693781250000,0,0x5D,0x00,Read,ACK
5.640717281250000,0,0x5D,0x00,Read,ACK
5.640739906250000,0,0x5D,0x00,Read,ACK
5.640761375000000,0,0x5D,0x8C,Read,ACK
5.640783031250000,0,0x5D,0x91,Read,ACK
5.640804500000000,0,0x5D,0x01,Read,ACK
5.640825968750000,0,0x5D,0x00,Read,ACK
5.640847437500000,0,0x5D,0x00,Read,ACK
5.640869562500000,0,0x5D,0x00,Read,ACK
5.640891375000000,0,0x5D,0x00,Read,ACK
5.640912968750000,0,0x5D,0x00,Read,ACK
5.640934437500000,0,0x5D,0x00,Read,ACK
5.640955906250000,0,0x5D,0x00,Read,ACK
5.640977843750000,0,0x5D,0x00,Read,ACK
5.640999343750000,0,0x5D,0x00,Read,ACK
5.641021718750000,0,0x5D,0x00,Read,ACK
5.641043218750000,0,0x5D,0x00,Read,ACK
5.641065531250000,0,0x5D,0x00,Read,ACK
5.641089437500000,0,0x5D,0x00,Read,ACK
5.641110906250000,0,0x5D,0x00,Read,ACK
5.641132781250000,0,0x5D,0x00,Read,ACK
5.641154781250000,0,0x5D,0x00,Read,ACK
5.641178156250000,0,0x5D,0x00,Read,ACK
5.641207875000000,0,0x5D,0x00,Read,NAK
5.646906437500000,0,0x5D,0x2F,Read,ACK
5.646931156250000,0,0x5D,0x00,Read,ACK
5.646952656250000,0,0x5D,0x04,Read,ACK
5.646974125000000,0,0x5D,0x03,Read,ACK
5.646995593750000,0,0x5D,0x09,Read,ACK
5.647017062500000,0,0x5D,0x07,Read,ACK
5.647038531250000,0,0x5D,0x83,Read,ACK
5.647060000000000,0,0x5D,0x04,Read,ACK
5.647081468750000,0,0x5D,0x03,Read,ACK
5.647102937500000,0,0x5D,0x03,Read,ACK
5.647125281250000,0,0x5D,0x20,Read,ACK
5.647146906250000,0,0x5D,0x00,Read,ACK
5.647168406250000,0,0x5D,0x00,Read,ACK
5.647189875000000,0,0x5D,0x00,Read,ACK
5.647211312500000,0,0x5D,0x00,Read,ACK
5.647235843750000,0,0x5D,0x00,Read,ACK
5.647257312500000,0,0x5D,0x00,Read,ACK
5.647278812500000,0,0x5D,0x00,Read,ACK
5.647300343750000,0,0x5D,0x00,Read,ACK
5.647321781250000,0,0x5D,0x00,Read,ACK
5.647343250000000,0,0x5D,0x00,Read,ACK
5.647364718750000,0,0x5D,0x00,Read,ACK
5.647386187500000,0,0x5D,0x00,Read,ACK
5.647407656250000,0,0x5D,0x00,Read,ACK
5.647429125000000,0,0x5D,0x00,Read,ACK
5.647450593750000,0,0x5D,0x00,Read,ACK
5.647472062500000,0,0x5D,0x00,Read,ACK
5.647493531250000,0,0x5D,0x00,Read,ACK
5.647515000000000,0,0x5D,0x00,Read,ACK
5.647536468750000,0,0x5D,0x00,Read,ACK
5.647557937500000,0,0x5D,0x00,Read,ACK
5.647579406250000,0,0x5D,0x00,Read,ACK
5.647600875000000,0,0x5D,0x00,Read,ACK
5.647622343750000,0,0x5D,0x00,Read,ACK
5.647643781250000,0,0x5D,0x00,Read,ACK
5.647665281250000,0,0x5D,0x00,Read,ACK
5.647691843750000,0,0x5D,0x00,Read,ACK
5.647716312500000,0,0x5D,0x00,Read,ACK
5.647737875000000,0,0x5D,0x00,Read,ACK
5.647760125000000,0,0x5D,0x00,Read,ACK
5.647781937500000,0,0x5D,0x00,Read,ACK
5.647803375000000,0,0x5D,0x00,Read,ACK
5.647824968750000,0,0x5D,0x00,Read,ACK
5.647846437500000,0,0x5D,0xD2,Read,ACK
5.647869687500000,0,0x5D,0x91,Read,ACK
5.647891093750000,0,0x5D,0x01,Read,ACK
5.647912593750000,0,0x5D,0x00,Read,ACK
5.647934625000000,0,0x5D,0x00,Read,ACK
5.647956156250000,0,0x5D,0x00,Read,ACK
5.647978906250000,0,0x5D,0x00,Read,ACK
5.648000375000000,0,0x5D,0x00,Read,ACK
5.648023593750000,0,0x5D,0x00,Read,ACK
5.648045062500000,0,0x5D,0x00,Read,ACK
5.648066531250000,0,0x5D,0x00,Read,ACK
5.648088343750000,0,0x5D,0x00,Read,ACK
5.648109843750000,0,0x5D,0x00,Read,ACK
5.648131468750000,0,0x5D,0x00,Read,ACK
5.648152968750000,0,0x5D,0x00,Read,ACK
5.648174875000000,0,0x5D,0x00,Read,ACK
5.648196312500000,0,0x5D,0x00,Read,ACK
5.648218343750000,0,0x5D,0x00,Read,ACK
5.648242781250000,0,0x5D,0x00,Read,ACK
5.648265218750000,0,0x5D,0x00,Read,ACK
5.648286687500000,0,0x5D,0x00,Read,NAK
5.654025812500000,0,0x5D,0x2F,Read,ACK
5.654050343750000,0,0x5D,0x00,Read,ACK
5.654071781250000,0,0x5D,0x04,Read,ACK
5.654093250000000,0,0x5D,0x03,Read,ACK
5.654114750000000,0,0x5D,0x25,Read,ACK
5.654136187500000,0,0x5D,0x07,Read,ACK
5.654158812500000,0,0x5D,0x75,Read,ACK
5.654180875000000,0,0x5D,0x04,Read,ACK
5.654202375000000,0,0x5D,0x03,Read,ACK
5.654223812500000,0,0x5D,0x03,Read,ACK
5.654245281250000,0,0x5D,0x20,Read,ACK
5.654267406250000,0,0x5D,0x00,Read,ACK
5.654289593750000,0,0x5D,0x00,Read,ACK
5.654311531250000,0,0x5D,0x00,Read,ACK
5.654333031250000,0,0x5D,0x00,Read,ACK
5.654354531250000,0,0x5D,0x00,Read,ACK
5.654376125000000,0,0x5D,0x00,Read,ACK
5.654399562500000,0,0x5D,0x00,Read,ACK
5.654421000000000,0,0x5D,0x00,Read,ACK
5.654442468750000,0,0x5D,0x00,Read,ACK
5.654463937500000,0,0x5D,0x00,Read,ACK
5.654485406250000,0,0x5D,0x00,Read,ACK
5.654506875000000,0,0x5D,0x00,Read,ACK
5.654528375000000,0,0x5D,0x00,Read,ACK
5.654549812500000,0,0x5D,0x00,Read,ACK
5.654571281250000,0,0x5D,0x00,Read,ACK
5.654592812500000,0,0x5D,0x00,Read,ACK
5.654614437500000,0,0x5D,0x00,Read,ACK
5.654635968750000,0,0x5D,0x00,Read,ACK
5.654657406250000,0,0x5D,0x00,Read,ACK
5.654679062500000,0,0x5D,0x00,Read,ACK
5.654700531250000,0,0x5D,0x00,Read,ACK
5.654722000000000,0,0x5D,0x00,Read,ACK
5.654743500000000,0,0x5D,0x00,Read,ACK
5.654764937500000,0,0x5D,0x00,Read,ACK
5.654786468750000,0,0x5D,0x00,Read,ACK
5.654807968750000,0,0x5D,0x00,Read,ACK
5.654832687500000,0,0x5D,0x00,Read,ACK
5.654858031250000,0,0x5D,0x00,Read,ACK
5.654879531250000,0,0x5D,0x00,Read,ACK
5.654902156250000,0,0x5D,0x00,Read,ACK
5.654924593750000,0,0x5D,0x00,Read,ACK
5.654946062500000,0,0x5D,0x00,Read,ACK
5.654967531250000,0,0x5D,0x18,Read,ACK
5.654989000000000,0,0x5D,0x92,Read,ACK
5.655011031250000,0,0x5D,0x01,Read,ACK
5.655033656250000,0,0x5D,0x00,Read,ACK
5.655055156250000,0,0x5D,0x00,Read,ACK
5.655076625000000,0,0x5D,0x00,Read,ACK
5.655098093750000,0,0x5D,0x00,Read,ACK
5.655119562500000,0,0x5D,0x00,Read,ACK
5.655141031250000,0,0x5D,0x00,Read,ACK
5.655162468750000,0,0x5D,0x00,Read,ACK
5.655183937500000,0,0x5D,0x00,Read,ACK
5.655205937500000,0,0x5D,0x00,Read,ACK
5.655229312500000,0,0x5D,0x00,Read,ACK
5.655250812500000,0,0x5D,0x00,Read,ACK
5.655272562500000,0,0x5D,0x00,Read,ACK
5.655294062500000,0,0x5D,0x00,Read,ACK
5.655315750000000,0,0x5D,0x00,Read,ACK
5.655337281250000,0,0x5D,0x00,Read,ACK
5.655359093750000,0,0x5D,0x00,Read,ACK
5.655382500000000,0,0x5D,0x00,Read,ACK
5.655403937500000,0,0x5D,0x00,Read,NAK
5.661204750000000,0,0x5D,0x2F,Read,ACK
5.661234187500000,0,0x5D,0x00,Read,ACK
5.661255656250000,0,0x5D,0x04,Read,ACK
5.661277125000000,0,0x5D,0x03,Read,ACK
5.661298593750000,0,0x5D,0x41,Read,ACK
5.661320875000000,0,0x5D,0x07,Read,ACK
5.661342343750000,0,0x5D,0x6B,Read,ACK
5.661363812500000,0,0x5D,0x04,Read,ACK
5.661385281250000,0,0x5D,0x04,Read,ACK
5.661408093750000,0,0x5D,0x03,Read,ACK
5.661429812500000,0,0x5D,0x20,Read,ACK
5.661451281250000,0,0x5D,0x00,Read,ACK
5.661473062500000,0,0x5D,0x00,Read,ACK
5.661494562500000,0,0x5D,0x00,Read,ACK
5.661516031250000,0,0x5D,0x00,Read,ACK
5.661539531250000,0,0x5D,0x00,Read,ACK
5.661561031250000,0,0x5D,0x00,Read,ACK
5.661582531250000,0,0x5D,0x00,Read,ACK
5.661604000000000,0,0x5D,0x00,Read,ACK
5.661625468750000,0,0x5D,0x00,Read,ACK
5.661646937500000,0,0x5D,0x00,Read,ACK
5.661668406250000,0,0x5D,0x00,Read,ACK
5.661689875000000,0,0x5D,0x00,Read,ACK
5.661711375000000,0,0x5D,0x00,Read,ACK
5.661732812500000,0,0x5D,0x00,Read,ACK
5.661754281250000,0,0x5D,0x00,Read,ACK
5.661775781250000,0,0x5D,0x00,Read,ACK
5.661797218750000,0,0x5D,0x00,Read,ACK
5.661818687500000,0,0x5D,0x00,Read,ACK
5.661840156250000,0,0x5D,0x00,Read,ACK
5.661861625000000,0,0x5D,0x00,Read,ACK
5.661883093750000,0,0x5D,0x00,Read,ACK
5.661904562500000,0,0x5D,0x00,Read,ACK
5.661926031250000,0,0x5D,0x00,Read,ACK
5.661947531250000,0,0x5D,0x00,Read,ACK
5.661968968750000,0,0x5D,0x00,Read,ACK
5.661992343750000,0,0x5D,0x00,Read,ACK
5.662014562500000,0,0x5D,0x00,Read,ACK
5.662036000000000,0,0x5D,0x00,Read,ACK
5.662057625000000,0,0x5D,0x00,Read,ACK
5.662079156250000,0,0x5D,0x00,Read,ACK
5.662100875000000,0,0x5D,0x00,Read,ACK
5.662122375000000,0,0x5D,0x00,Read,ACK
5.662143843750000,0,0x5D,0x5E,Read,ACK
5.662165281250000,0,0x5D,0x92,Read,ACK
5.662186781250000,0,0x5D,0x01,Read,ACK
5.662209718750000,0,0x5D,0x00,Read,ACK
5.662231218750000,0,0x5D,0x00,Read,ACK
5.662253656250000,0,0x5D,0x00,Read,ACK
5.662275125000000,0,0x5D,0x00,Read,ACK
5.662296625000000,0,0x5D,0x00,Read,ACK
5.662318281250000,0,0x5D,0x00,Read,ACK
5.662339750000000,0,0x5D,0x00,Read,ACK
5.662361375000000,0,0x5D,0x00,Read,ACK
5.662383250000000,0,0x5D,0x00,Read,ACK
5.662404718750000,0,0x5D,0x00,Read,ACK
5.662426218750000,0,0x5D,0x00,Read,ACK
5.662448312500000,0,0x5D,0x00,Read,ACK
5.662469812500000,0,0x5D,0x00,Read,ACK
5.662491531250000,0,0x5D,0x00,Read,ACK
5.662513125000000,0,0x5D,0x00,Read,ACK
5.662534625000000,0,0x5D,0x00,Read,ACK
5.662557312500000,0,0x5D,0x00,Read,ACK
5.662578812500000,0,0x5D,0x00,Read,NAK
5.668316781250000,0,0x5D,0x2F,Read,ACK
5.668342875000000,0,0x5D,0x00,Read,ACK
5.668364343750000,0,0x5D,0x04,Read,ACK
5.668385843750000,0,0x5D,0x03,Read,ACK
5.668407281250000,0,0x5D,0x5E,Read,ACK
5.668428937500000,0,0x5D,0x07,Read,ACK
5.668451031250000,0,0x5D,0x64,Read,ACK
5.668472500000000,0,0x5D,0x04,Read,ACK
5.668493968750000,0,0x5D,0x03,Read,ACK
5.668515500000000,0,0x5D,0x03,Read,ACK
5.668536968750000,0,0x5D,0x20,Read,ACK
5.668558437500000,0,0x5D,0x00,Read,ACK
5.668579937500000,0,0x5D,0x00,Read,ACK
5.668601406250000,0,0x5D,0x00,Read,ACK
5.668622875000000,0,0x5D,0x00,Read,ACK
5.668645937500000,0,0x5D,0x00,Read,ACK
5.668667531250000,0,0x5D,0x00,Read,ACK
5.668689000000000,0,0x5D,0x00,Read,ACK
5.668710468750000,0,0x5D,0x00,Read,ACK
5.668731937500000,0,0x5D,0x00,Read,ACK
5.668753406250000,0,0x5D,0x00,Read,ACK
5.668774906250000,0,0x5D,0x00,Read,ACK
5.668796343750000,0,0x5D,0x00,Read,ACK
5.668817843750000,0,0x5D,0x00,Read,ACK
5.668839312500000,0,0x5D,0x00,Read,ACK
5.668860781250000,0,0x5D,0x00,Read,ACK
5.668882250000000,0,0x5D,0x00,Read,ACK
5.668903718750000,0,0x5D,0x00,Read,ACK
5.668925187500000,0,0x5D,0x00,Read,ACK
5.668946625000000,0,0x5D,0x00,Read,ACK
5.668968125000000,0,0x5D,0x00,Read,ACK
5.668989562500000,0,0x5D,0x00,Read,ACK
5.669011062500000,0,0x5D,0x00,Read,ACK
5.669032531250000,0,0x5D,0x00,Read,ACK
5.669054000000000,0,0x5D,0x00,Read,ACK
5.669075468750000,0,0x5D,0x00,Read,ACK
5.669100281250000,0,0x5D,0x00,Read,ACK
5.669123156250000,0,0x5D,0x00,Read,ACK
5.669144625000000,0,0x5D,0x00,Read,ACK
5.669166281250000,0,0x5D,0x00,Read,ACK
5.669187937500000,0,0x5D,0x00,Read,ACK
5.669210281250000,0,0x5D,0x00,Read,ACK
5.669231750000000,0,0x5D,0x00,Read,ACK
5.669253187500000,0,0x5D,0xA4,Read,ACK
5.669274687500000,0,0x5D,0x92,Read,ACK
5.669296531250000,0,0x5D,0x01,Read,ACK
5.669319968750000,0,0x5D,0x00,Read,ACK
5.669341437500000,0,0x5D,0x00,Read,ACK
5.669363750000000,0,0x5D,0x00,Read,ACK
5.669386187500000,0,0x5D,0x00,Read,ACK
5.669407656250000,0,0x5D,0x00,Read,ACK
5.669429125000000,0,0x5D,0x00,Read,ACK
5.669450625000000,0,0x5D,0x00,Read,ACK
5.669472875000000,0,0x5D,0x00,Read,ACK
5.669494343750000,0,0x5D,0x00,Read,ACK
5.669516093750000,0,0x5D,0x00,Read,ACK
5.669537531250000,0,0x5D,0x00,Read,ACK
5.669560093750000,0,0x5D,0x00,Read,ACK
5.669582218750000,0,0x5D,0x00,Read,ACK
5.669604187500000,0,0x5D,0x00,Read,ACK
5.669625656250000,0,0x5D,0x00,Read,ACK
5.669649218750000,0,0x5D,0x00,Read,ACK
5.669670718750000,0,0x5D,0x00,Read,ACK
5.669692718750000,0,0x5D,0x00,Read,NAK
5.675519937500000,0,0x5D,0x2F,Read,ACK
5.675542875000000,0,0x5D,0x00,Read,ACK
5.675564312500000,0,0x5D,0x04,Read,ACK
5.675585781250000,0,0x5D,0x03,Read,ACK
5.675607250000000,0,0x5D,0x7B,Read,ACK
5.675628750000000,0,0x5D,0x07,Read,ACK
5.675650250000000,0,0x5D,0x62,Read,ACK
5.675671843750000,0,0x5D,0x04,Read,ACK
5.675693468750000,0,0x5D,0x03,Read,ACK
5.675715000000000,0,0x5D,0x03,Read,ACK
5.675736531250000,0,0x5D,0x20,Read,ACK
5.675758062500000,0,0x5D,0x00,Read,ACK
5.675779562500000,0,0x5D,0x00,Read,ACK
5.675801031250000,0,0x5D,0x00,Read,ACK
5.675822500000000,0,0x5D,0x00,Read,ACK
5.675843968750000,0,0x5D,0x00,Read,ACK
5.675865593750000,0,0x5D,0x00,Read,ACK
5.675887031250000,0,0x5D,0x00,Read,ACK
5.675908500000000,0,0x5D,0x00,Read,ACK
5.675930125000000,0,0x5D,0x00,Read,ACK
5.675951625000000,0,0x5D,0x00,Read,ACK
5.675973093750000,0,0x5D,0x00,Read,ACK
5.675994562500000,0,0x5D,0x00,Read,ACK
5.676016031250000,0,0x5D,0x00,Read,ACK
5.676037500000000,0,0x5D,0x00,Read,ACK
5.676059000000000,0,0x5D,0x00,Read,ACK
5.676080437500000,0,0x5D,0x00,Read,ACK
5.676101906250000,0,0x5D,0x00,Read,ACK
5.676123375000000,0,0x5D,0x00,Read,ACK
5.676144843750000,0,0x5D,0x00,Read,ACK
5.676166312500000,0,0x5D,0x00,Read,ACK
5.676187781250000,0,0x5D,0x00,Read,ACK
5.676209250000000,0,0x5D,0x00,Read,ACK
5.676230718750000,0,0x5D,0x00,Read,ACK
5.676257468750000,0,0x5D,0x00,Read,ACK
5.676278937500000,0,0x5D,0x00,Read,ACK
5.676300500000000,0,0x5D,0x00,Read,ACK
5.676325218750000,0,0x5D,0x00,Read,ACK
5.676347531250000,0,0x5D,0x00,Read,ACK
5.676370437500000,0,0x5D,0x00,Read,ACK
5.676392000000000,0,0x5D,0x00,Read,ACK
5.676413500000000,0,0x5D,0x00,Read,ACK
5.676435906250000,0,0x5D,0x00,Read,ACK
5.676457406250000,0,0x5D,0xEA,Read,ACK
5.676478843750000,0,0x5D,0x92,Read,ACK
5.676501343750000,0,0x5D,0x01,Read,ACK
5.676525187500000,0,0x5D,0x00,Read,ACK
5.676546625000000,0,0x5D,0x00,Read,ACK
5.676568093750000,0,0x5D,0x00,Read,ACK
5.676589562500000,0,0x5D,0x00,Read,ACK
5.676611062500000,0,0x5D,0x00,Read,ACK
5.676632531250000,0,0x5D,0x00,Read,ACK
5.676654031250000,0,0x5D,0x00,Read,ACK
5.676675937500000,0,0x5D,0x00,Read,ACK
5.676697406250000,0,0x5D,0x00,Read,ACK
5.676719531250000,0,0x5D,0x00,Read,ACK
5.676741531250000,0,0x5D,0x00,Read,ACK
5.676762968750000,0,0x5D,0x00,Read,ACK
5.676784781250000,0,0x5D,0x00,Read,ACK
5.676806250000000,0,0x5D,0x00,Read,ACK
5.676827718750000,0,0x5D,0x00,Read,ACK
5.676849375000000,0,0x5D,0x00,Read,ACK
5.676871093750000,0,0x5D,0x00,Read,ACK
5.676892718750000,0,0x5D,0x00,Read,NAK
5.682611062500000,0,0x5D,0x2F,Read,ACK
5.682635687500000,0,0x5D,0x00,Read,ACK
5.682657156250000,0,0x5D,0x04,Read,ACK
5.682678625000000,0,0x5D,0x03,Read,ACK
5.682700062500000,0,0x5D,0x98,Read,ACK
5.682721562500000,0,0x5D,0x07,Read,ACK
5.682743031250000,0,0x5D,0x63,Read,ACK
5.682764656250000,0,0x5D,0x04,Read,ACK
5.682786156250000,0,0x5D,0x03,Read,ACK
5.682807625000000,0,0x5D,0x03,Read,ACK
5.682829062500000,0,0x5D,0x20,Read,ACK
5.682850562500000,0,0x5D,0x00,Read,ACK
5.682872031250000,0,0x5D,0x00,Read,ACK
5.682893500000000,0,0x5D,0x00,Read,ACK
5.682914968750000,0,0x5D,0x00,Read,ACK
5.682936718750000,0,0x5D,0x00,Read,ACK
5.682959531250000,0,0x5D,0x00,Read,ACK
5.682981937500000,0,0x5D,0x00,Read,ACK
5.683003406250000,0,0x5D,0x00,Read,ACK
5.683024875000000,0,0x5D,0x00,Read,ACK
5.683046343750000,0,0x5D,0x00,Read,ACK
5.683067812500000,0,0x5D,0x00,Read,ACK
5.683089281250000,0,0x5D,0x00,Read,ACK
5.683110937500000,0,0x5D,0x00,Read,ACK
5.683132406250000,0,0x5D,0x00,Read,ACK
5.683153875000000,0,0x5D,0x00,Read,ACK
5.683175343750000,0,0x5D,0x00,Read,ACK
5.683196812500000,0,0x5D,0x00,Read,ACK
5.683218281250000,0,0x5D,0x00,Read,ACK
5.683239750000000,0,0x5D,0x00,Read,ACK
5.683261250000000,0,0x5D,0x00,Read,ACK
5.683282750000000,0,0x5D,0x00,Read,ACK
5.683304218750000,0,0x5D,0x00,Read,ACK
5.683325718750000,0,0x5D,0x00,Read,ACK
5.683347156250000,0,0x5D,0x00,Read,ACK
5.683368750000000,0,0x5D,0x00,Read,ACK
5.683390187500000,0,0x5D,0x00,Read,ACK
5.683413437500000,0,0x5D,0x00,Read,ACK
5.683436843750000,0,0x5D,0x00,Read,ACK
5.683458312500000,0,0x5D,0x00,Read,ACK
5.683482125000000,0,0x5D,0x00,Read,ACK
5.683503968750000,0,0x5D,0x00,Read,ACK
5.683525750000000,0,0x5D,0x00,Read,ACK
5.683547468750000,0,0x5D,0x30,Read,ACK
5.683569000000000,0,0x5D,0x93,Read,ACK
5.683590500000000,0,0x5D,0x01,Read,ACK
5.683612937500000,0,0x5D,0x00,Read,ACK
5.683635718750000,0,0x5D,0x00,Read,ACK
5.683657343750000,0,0x5D,0x00,Read,ACK
5.683680468750000,0,0x5D,0x00,Read,ACK
5.683703437500000,0,0x5D,0x00,Read,ACK
5.683724937500000,0,0x5D,0x00,Read,ACK
5.683748031250000,0,0x5D,0x00,Read,ACK
5.683769468750000,0,0x5D,0x00,Read,ACK
5.683791281250000,0,0x5D,0x00,Read,ACK
5.683812812500000,0,0x5D,0x00,Read,ACK
5.683834437500000,0,0x5D,0x00,Read,ACK
5.683855937500000,0,0x5D,0x00,Read,ACK
5.683878218750000,0,0x5D,0x00,Read,ACK
5.683900750000000,0,0x5D,0x00,Read,ACK
5.683922187500000,0,0x5D,0x00,Read,ACK
5.683945218750000,0,0x5D,0x00,Read,ACK
5.683967062500000,0,0x5D,0x00,Read,ACK
5.683989843750000,0,0x5D,0x00,Read,NAK
5.690181187500000,0,0x5D,0x2F,Read,ACK
5.690206312500000,0,0x5D,0x00,Read,ACK
5.690227781250000,0,0x5D,0x04,Read,ACK
5.690249250000000,0,0x5D,0x03,Read,ACK
5.690270718750000,0,0x5D,0xB6,Read,ACK
5.690292218750000,0,0x5D,0x07,Read,ACK
5.690313718750000,0,0x5D,0x68,Read,ACK
5.690335187500000,0,0x5D,0x04,Read,ACK
5.690356656250000,0,0x5D,0x03,Read,ACK
5.690378125000000,0,0x5D,0x03,Read,ACK
5.690399593750000,0,0x5D,0x20,Read,ACK
5.690421031250000,0,0x5D,0x00,Read,ACK
5.690442531250000,0,0x5D,0x00,Read,ACK
5.690464000000000,0,0x5D,0x00,Read,ACK
5.690485468750000,0,0x5D,0x00,Read,ACK
5.690507218750000,0,0x5D,0x00,Read,ACK
5.690531062500000,0,0x5D,0x00,Read,ACK
5.690555625000000,0,0x5D,0x00,Read,ACK
5.690577250000000,0,0x5D,0x00,Read,ACK
5.690599187500000,0,0x5D,0x00,Read,ACK
5.690620906250000,0,0x5D,0x00,Read,ACK
5.690642343750000,0,0x5D,0x00,Read,ACK
5.690663812500000,0,0x5D,0x00,Read,ACK
5.690685406250000,0,0x5D,0x00,Read,ACK
5.690708000000000,0,0x5D,0x00,Read,ACK
5.690730093750000,0,0x5D,0x00,Read,ACK
5.690752468750000,0,0x5D,0x00,Read,ACK
5.690775187500000,0,0x5D,0x00,Read,ACK
5.690796687500000,0,0x5D,0x00,Read,ACK
5.690818156250000,0,0x5D,0x00,Read,ACK
5.690839625000000,0,0x5D,0x00,Read,ACK
5.690862843750000,0,0x5D,0x00,Read,ACK
5.690886062500000,0,0x5D,0x00,Read,ACK
5.690907500000000,0,0x5D,0x00,Read,ACK
5.690929375000000,0,0x5D,0x00,Read,ACK
5.690951343750000,0,0x5D,0x00,Read,ACK
5.690973406250000,0,0x5D,0x00,Read,ACK
5.690994937500000,0,0x5D,0x00,Read,ACK
5.691016406250000,0,0x5D,0x00,Read,ACK
5.691039656250000,0,0x5D,0x00,Read,ACK
5.691061375000000,0,0x5D,0x00,Read,ACK
5.691083687500000,0,0x5D,0x00,Read,ACK
5.691105406250000,0,0x5D,0x00,Read,ACK
5.691128281250000,0,0x5D,0x76,Read,ACK
5.691150500000000,0,0x5D,0x93,Read,ACK
5.691175562500000,0,0x5D,0x01,Read,ACK
5.691197062500000,0,0x5D,0x00,Read,ACK
5.691218500000000,0,0x5D,0x00,Read,ACK
5.691239968750000,0,0x5D,0x00,Read,ACK
5.691261437500000,0,0x5D,0x00,Read,ACK
5.691283750000000,0,0x5D,0x00,Read,ACK
5.691306812500000,0,0x5D,0x00,Read,ACK
5.691328281250000,0,0x5D,0x00,Read,ACK
5.691349875000000,0,0x5D,0x00,Read,ACK
5.691371343750000,0,0x5D,0x00,Read,ACK
5.691394031250000,0,0x5D,0x00,Read,ACK
5.691416281250000,0,0x5D,0x00,Read,ACK
5.691437750000000,0,0x5D,0x00,Read,ACK
5.691459218750000,0,0x5D,0x00,Read,ACK
5.691480687500000,0,0x5D,0x00,Read,ACK
5.691502156250000,0,0x5D,0x00,Read,ACK
5.691524312500000,0,0x5D,0x00,Read,ACK
5.691545781250000,0,0x5D,0x00,Read,ACK
5.691567250000000,0,0x5D,0x00,Read,NAK
5.696989562500000,0,0x5D,0x2F,Read,ACK
5.697017218750000,0,0x5D,0x00,Read,ACK
5.697039531250000,0,0x5D,0x04,Read,ACK
5.697060968750000,0,0x5D,0x03,Read,ACK
5.697082437500000,0,0x5D,0xD3,Read,ACK
5.697103906250000,0,0x5D,0x07,Read,ACK
5.697125406250000,0,0x5D,0x72,Read,ACK
5.697148468750000,0,0x5D,0x04,Read,ACK
5.697169937500000,0,0x5D,0x03,Read,ACK
5.697191656250000,0,0x5D,0x02,Read,ACK
5.697213125000000,0,0x5D,0x20,Read,ACK
5.697234625000000,0,0x5D,0x00,Read,ACK
5.697257781250000,0,0x5D,0x00,Read,ACK
5.697279281250000,0,0x5D,0x00,Read,ACK
5.697300781250000,0,0x5D,0x00,Read,ACK
5.697322281250000,0,0x5D,0x00,Read,ACK
5.697343750000000,0,0x5D,0x00,Read,ACK
5.697365218750000,0,0x5D,0x00,Read,ACK
5.697386718750000,0,0x5D,0x00,Read,ACK
5.697408187500000,0,0x5D,0x00,Read,ACK
5.697429843750000,0,0x5D,0x00,Read,ACK
5.697451281250000,0,0x5D,0x00,Read,ACK
5.697472781250000,0,0x5D,0x00,Read,ACK
5.697494218750000,0,0x5D,0x00,Read,ACK
5.697515687500000,0,0x5D,0x00,Read,ACK
5.697537187500000,0,0x5D,0x00,Read,ACK
5.697558625000000,0,0x5D,0x00,Read,ACK
5.697580093750000,0,0x5D,0x00,Read,ACK
5.697601593750000,0,0x5D,0x00,Read,ACK
5.697623062500000,0,0x5D,0x00,Read,ACK
5.697644531250000,0,0x5D,0x00,Read,ACK
5.697666000000000,0,0x5D,0x00,Read,ACK
5.697688125000000,0,0x5D,0x00,Read,ACK
5.697712843750000,0,0x5D,0x00,Read,ACK
5.697735656250000,0,0x5D,0x00,Read,ACK
5.697758718750000,0,0x5D,0x00,Read,ACK
5.697781062500000,0,0x5D,0x00,Read,ACK
5.697802968750000,0,0x5D,0x00,Read,ACK
5.697824468750000,0,0x5D,0x00,Read,ACK
5.697846125000000,0,0x5D,0x00,Read,ACK
5.697868406250000,0,0x5D,0x00,Read,ACK
5.697890343750000,0,0x5D,0x00,Read,ACK
5.697911812500000,0,0x5D,0x00,Read,ACK
5.697933250000000,0,0x5D,0xBC,Read,ACK
5.697954718750000,0,0x5D,0x93,Read,ACK
5.697976500000000,0,0x5D,0x01,Read,ACK
5.697998093750000,0,0x5D,0x00,Read,ACK
5.698019625000000,0,0x5D,0x00,Read,ACK
5.698044562500000,0,0x5D,0x00,Read,ACK
5.698066000000000,0,0x5D,0x00,Read,ACK
5.698087625000000,0,0x5D,0x00,Read,ACK
5.698109062500000,0,0x5D,0x00,Read,ACK
5.698130562500000,0,0x5D,0x00,Read,ACK
5.698152187500000,0,0x5D,0x00,Read,ACK
5.698173843750000,0,0x5D,0x00,Read,ACK
5.698195343750000,0,0x5D,0x00,Read,ACK
5.698216875000000,0,0x5D,0x00,Read,ACK
5.698238875000000,0,0x5D,0x00,Read,ACK
5.698261250000000,0,0x5D,0x00,Read,ACK
5.698282687500000,0,0x5D,0x00,Read,ACK
5.698304656250000,0,0x5D,0x00,Read,ACK
5.698326593750000,0,0x5D,0x00,Read,ACK
5.698352343750000,0,0x5D,0x00,Read,ACK
5.698373843750000,0,0x5D,0x00,Read,NAK
5.704053812500000,0,0x5D,0x2F,Read,ACK
5.704078968750000,0,0x5D,0x00,Read,ACK
5.704100468750000,0,0x5D,0x04,Read,ACK
5.704121937500000,0,0x5D,0x03,Read,ACK
5.704144562500000,0,0x5D,0xF1,Read,ACK
5.704167687500000,0,0x5D,0x07,Read,ACK
5.704189156250000,0,0x5D,0x81,Read,ACK
5.704210625000000,0,0x5D,0x04,Read,ACK
5.704232093750000,0,0x5D,0x03,Read,ACK
5.704253781250000,0,0x5D,0x03,Read,ACK
5.704276656250000,0,0x5D,0x20,Read,ACK
5.704298531250000,0,0x5D,0x00,Read,ACK
5.704320718750000,0,0x5D,0x00,Read,ACK
5.704342187500000,0,0x5D,0x00,Read,ACK
5.704363656250000,0,0x5D,0x00,Read,ACK
5.704385125000000,0,0x5D,0x00,Read,ACK
5.704408718750000,0,0x5D,0x00,Read,ACK
5.704430656250000,0,0x5D,0x00,Read,ACK
5.704453406250000,0,0x5D,0x00,Read,ACK
5.704475093750000,0,0x5D,0x00,Read,ACK
5.704496562500000,0,0x5D,0x00,Read,ACK
5.704518062500000,0,0x5D,0x00,Read,ACK
5.704539531250000,0,0x5D,0x00,Read,ACK
5.704560968750000,0,0x5D,0x00,Read,ACK
5.704582468750000,0,0x5D,0x00,Read,ACK
5.704603937500000,0,0x5D,0x00,Read,ACK
5.704625406250000,0,0x5D,0x00,Read,ACK
5.704646875000000,0,0x5D,0x00,Read,ACK
5.704668343750000,0,0x5D,0x00,Read,ACK
5.704690031250000,0,0x5D,0x00,Read,ACK
5.704711656250000,0,0x5D,0x00,Read,ACK
5.704733093750000,0,0x5D,0x00,Read,ACK
5.704754562500000,0,0x5D,0x00,Read,ACK
5.704776031250000,0,0x5D,0x00,Read,ACK
5.704797531250000,0,0x5D,0x00,Read,ACK
5.704818968750000,0,0x5D,0x00,Read,ACK
5.704840437500000,0,0x5D,0x00,Read,ACK
5.704861906250000,0,0x5D,0x00,Read,ACK
5.704886500000000,0,0x5D,0x00,Read,ACK
5.704910531250000,0,0x5D,0x00,Read,ACK
5.704933625000000,0,0x5D,0x00,Read,ACK
5.704955968750000,0,0x5D,0x00,Read,ACK
5.704977750000000,0,0x5D,0x00,Read,ACK
5.704999218750000,0,0x5D,0x02,Read,ACK
5.705020812500000,0,0x5D,0x94,Read,ACK
5.705042281250000,0,0x5D,0x01,Read,ACK
5.705064343750000,0,0x5D,0x00,Read,ACK
5.705086750000000,0,0x5D,0x00,Read,ACK
5.705109281250000,0,0x5D,0x00,Read,ACK
5.705131375000000,0,0x5D,0x00,Read,ACK
5.705152812500000,0,0x5D,0x00,Read,ACK
5.705175750000000,0,0x5D,0x00,Read,ACK
5.705199843750000,0,0x5D,0x00,Read,ACK
5.705221312500000,0,0x5D,0x00,Read,ACK
5.705242781250000,0,0x5D,0x00,Read,ACK
5.705264968750000,0,0x5D,0x00,Read,ACK
5.705286656250000,0,0x5D,0x00,Read,ACK
5.705308156250000,0,0x5D,0x00,Read,ACK
5.705330687500000,0,0x5D,0x00,Read,ACK
5.705354968750000,0,0x5D,0x00,Read,ACK
5.705376406250000,0,0x5D,0x00,Read,ACK
5.705397875000000,0,0x5D,0x00,Read,ACK
5.705420375000000,0,0x5D,0x00,Read,ACK
5.705441812500000,0,0x5D,0x00,Read,NAK
5.711213781250000,0,0x5D,0x2F,Read,ACK
5.711239375000000,0,0x5D,0x00,Read,ACK
5.711260843750000,0,0x5D,0x04,Read,ACK
5.711282437500000,0,0x5D,0x03,Read,ACK
5.711303968750000,0,0x5D,0x0F,Read,ACK
5.711326562500000,0,0x5D,0x08,Read,ACK
5.711348031250000,0,0x5D,0x95,Read,ACK
5.711369531250000,0,0x5D,0x04,Read,ACK
5.711390968750000,0,0x5D,0x03,Read,ACK
5.711412531250000,0,0x5D,0x03,Read,ACK
5.711434000000000,0,0x5D,0x20,Read,ACK
5.711455468750000,0,0x5D,0x00,Read,ACK
5.711478125000000,0,0x5D,0x00,Read,ACK
5.711499562500000,0,0x5D,0x00,Read,ACK
5.711521062500000,0,0x5D,0x00,Read,ACK
5.711544156250000,0,0x5D,0x00,Read,ACK
5.711565656250000,0,0x5D,0x00,Read,ACK
5.711587187500000,0,0x5D,0x00,Read,ACK
5.711608937500000,0,0x5D,0x00,Read,ACK
5.711630406250000,0,0x5D,0x00,Read,ACK
5.711651875000000,0,0x5D,0x00,Read,ACK
5.711673437500000,0,0x5D,0x00,Read,ACK
5.711694937500000,0,0x5D,0x00,Read,ACK
5.711716406250000,0,0x5D,0x00,Read,ACK
5.711737875000000,0,0x5D,0x00,Read,ACK
5.711759375000000,0,0x5D,0x00,Read,ACK
5.711780812500000,0,0x5D,0x00,Read,ACK
5.711802281250000,0,0x5D,0x00,Read,ACK
5.711823750000000,0,0x5D,0x00,Read,ACK
5.711845218750000,0,0x5D,0x00,Read,ACK
5.711866687500000,0,0x5D,0x00,Read,ACK
5.711888156250000,0,0x5D,0x00,Read,ACK
5.711909656250000,0,0x5D,0x00,Read,ACK
5.711931093750000,0,0x5D,0x00,Read,ACK
5.711952562500000,0,0x5D,0x00,Read,ACK
5.711974031250000,0,0x5D,0x00,Read,ACK
5.711995500000000,0,0x5D,0x00,Read,ACK
5.712016968750000,0,0x5D,0x00,Read,ACK
5.712040093750000,0,0x5D,0x00,Read,ACK
5.712062031250000,0,0x5D,0x00,Read,ACK
5.712085875000000,0,0x5D,0x00,Read,ACK
5.712107343750000,0,0x5D,0x00,Read,ACK
5.712128812500000,0,0x5D,0x00,Read,ACK
5.712150656250000,0,0x5D,0x48,Read,ACK
5.712172968750000,0,0x5D,0x94,Read,ACK
5.712195187500000,0,0x5D,0x01,Read,ACK
5.712218031250000,0,0x5D,0x00,Read,ACK
5.712240718750000,0,0x5D,0x00,Read,ACK
5.712264750000000,0,0x5D,0x00,Read,ACK
5.712286250000000,0,0x5D,0x00,Read,ACK
5.712307843750000,0,0x5D,0x00,Read,ACK
5.712329937500000,0,0x5D,0x00,Read,ACK
5.712351375000000,0,0x5D,0x00,Read,ACK
5.712373000000000,0,0x5D,0x00,Read,ACK
5.712395437500000,0,0x5D,0x00,Read,ACK
5.712416906250000,0,0x5D,0x00,Read,ACK
5.712439875000000,0,0x5D,0x00,Read,ACK
5.712461343750000,0,0x5D,0x00,Read,ACK
5.712483250000000,0,0x5D,0x00,Read,ACK
5.712507031250000,0,0x5D,0x00,Read,ACK
5.712528500000000,0,0x5D,0x00,Read,ACK
5.712551093750000,0,0x5D,0x00,Read,ACK
5.712572562500000,0,0x5D,0x00,Read,ACK
5.712596781250000,0,0x5D,0x00,Read,NAK
5.718337812500000,0,0x5D,0x2F,Read,ACK
5.718363437500000,0,0x5D,0x00,Read,ACK
5.718384875000000,0,0x5D,0x04,Read,ACK
5.718406343750000,0,0x5D,0x03,Read,ACK
5.718427812500000,0,0x5D,0x2D,Read,ACK
5.718449500000000,0,0x5D,0x08,Read,ACK
5.718470968750000,0,0x5D,0xAF,Read,ACK
5.718492562500000,0,0x5D,0x04,Read,ACK
5.718514000000000,0,0x5D,0x03,Read,ACK
5.718535875000000,0,0x5D,0x03,Read,ACK
5.718557312500000,0,0x5D,0x20,Read,ACK
5.718578781250000,0,0x5D,0x00,Read,ACK
5.718601593750000,0,0x5D,0x00,Read,ACK
5.718623062500000,0,0x5D,0x00,Read,ACK
5.718644531250000,0,0x5D,0x00,Read,ACK
5.718666000000000,0,0x5D,0x00,Read,ACK
5.718687437500000,0,0x5D,0x00,Read,ACK
5.718708906250000,0,0x5D,0x00,Read,ACK
5.718730406250000,0,0x5D,0x00,Read,ACK
5.718751875000000,0,0x5D,0x00,Read,ACK
5.718773343750000,0,0x5D,0x00,Read,ACK
5.718794812500000,0,0x5D,0x00,Read,ACK
5.718816281250000,0,0x5D,0x00,Read,ACK
5.718837750000000,0,0x5D,0x00,Read,ACK
5.718859218750000,0,0x5D,0x00,Read,ACK
5.718880687500000,0,0x5D,0x00,Read,ACK
5.718902156250000,0,0x5D,0x00,Read,ACK
5.718923625000000,0,0x5D,0x00,Read,ACK
5.718945093750000,0,0x5D,0x00,Read,ACK
5.718966562500000,0,0x5D,0x00,Read,ACK
5.718988031250000,0,0x5D,0x00,Read,ACK
5.719009500000000,0,0x5D,0x00,Read,ACK
5.719030968750000,0,0x5D,0x00,Read,ACK
5.719054437500000,0,0x5D,0x00,Read,ACK
5.719077125000000,0,0x5D,0x00,Read,ACK
5.719098625000000,0,0x5D,0x00,Read,ACK
5.719120875000000,0,0x5D,0x00,Read,ACK
5.719142562500000,0,0x5D,0x00,Read,ACK
5.719164031250000,0,0x5D,0x00,Read,ACK
5.719186718750000,0,0x5D,0x00,Read,ACK
5.719208156250000,0,0x5D,0x00,Read,ACK
5.719229656250000,0,0x5D,0x00,Read,ACK
5.719251093750000,0,0x5D,0x00,Read,ACK
5.719272562500000,0,0x5D,0x8E,Read,ACK
5.719295375000000,0,0x5D,0x94,Read,ACK
5.719316843750000,0,0x5D,0x01,Read,ACK
5.719338375000000,0,0x5D,0x00,Read,ACK
5.719359812500000,0,0x5D,0x00,Read,ACK
5.719381281250000,0,0x5D,0x00,Read,ACK
5.719402750000000,0,0x5D,0x00,Read,ACK
5.719424218750000,0,0x5D,0x00,Read,ACK
5.719445718750000,0,0x5D,0x00,Read,ACK
5.719467281250000,0,0x5D,0x00,Read,ACK
5.719489562500000,0,0x5D,0x00,Read,ACK
5.719511062500000,0,0x5D,0x00,Read,ACK
5.719532500000000,0,0x5D,0x00,Read,ACK
5.719555218750000,0,0x5D,0x00,Read,ACK
5.719576718750000,0,0x5D,0x00,Read,ACK
5.719599875000000,0,0x5D,0x00,Read,ACK
5.719622000000000,0,0x5D,0x00,Read,ACK
5.719643468750000,0,0x5D,0x00,Read,ACK
5.719665000000000,0,0x5D,0x00,Read,ACK
5.719686500000000,0,0x5D,0x00,Read,ACK
5.719708687500000,0,0x5D,0x00,Read,NAK
5.762909875000000,0,0x5D,0x2F,Read,ACK
5.762940250000000,0,0x5D,0x00,Read,ACK
5.762962437500000,0,0x5D,0x04,Read,ACK
5.762984250000000,0,0x5D,0x03,Read,ACK
5.763005718750000,0,0x5D,0x83,Read,ACK
5.763028781250000,0,0x5D,0x08,Read,ACK
5.763050218750000,0,0x5D,0x2A,Read,ACK
5.763071687500000,0,0x5D,0x05,Read,ACK
5.763093156250000,0,0x5D,0x03,Read,ACK
5.763115218750000,0,0x5D,0x03,Read,ACK
5.763136687500000,0,0x5D,0x20,Read,ACK
5.763158625000000,0,0x5D,0x00,Read,ACK
5.763180093750000,0,0x5D,0x00,Read,ACK
5.763201562500000,0,0x5D,0x00,Read,ACK
5.763223031250000,0,0x5D,0x00,Read,ACK
5.763244531250000,0,0x5D,0x00,Read,ACK
5.763266000000000,0,0x5D,0x00,Read,ACK
5.763287468750000,0,0x5D,0x00,Read,ACK
5.763308937500000,0,0x5D,0x00,Read,ACK
5.763330406250000,0,0x5D,0x00,Read,ACK
5.763353406250000,0,0x5D,0x00,Read,ACK
5.763378562500000,0,0x5D,0x00,Read,ACK
5.763400062500000,0,0x5D,0x00,Read,ACK
5.763421531250000,0,0x5D,0x00,Read,ACK
5.763443000000000,0,0x5D,0x00,Read,ACK
5.763464468750000,0,0x5D,0x00,Read,ACK
5.763485906250000,0,0x5D,0x00,Read,ACK
5.763507406250000,0,0x5D,0x00,Read,ACK
5.763528843750000,0,0x5D,0x00,Read,ACK
5.763550312500000,0,0x5D,0x00,Read,ACK
5.763571781250000,0,0x5D,0x00,Read,ACK
5.763593250000000,0,0x5D,0x00,Read,ACK
5.763614750000000,0,0x5D,0x00,Read,ACK
5.763636187500000,0,0x5D,0x00,Read,ACK
5.763657687500000,0,0x5D,0x00,Read,ACK
5.763679156250000,0,0x5D,0x00,Read,ACK
5.763700687500000,0,0x5D,0x00,Read,ACK
5.763722156250000,0,0x5D,0x00,Read,ACK
5.763743656250000,0,0x5D,0x00,Read,ACK
5.763765093750000,0,0x5D,0x00,Read,ACK
5.763786562500000,0,0x5D,0x00,Read,ACK
5.763808031250000,0,0x5D,0x00,Read,ACK
5.763829500000000,0,0x5D,0x00,Read,ACK
5.763850968750000,0,0x5D,0xA6,Read,ACK
5.763872437500000,0,0x5D,0x95,Read,ACK
5.763902093750000,0,0x5D,0x01,Read,ACK
5.763923718750000,0,0x5D,0x00,Read,ACK
5.763947937500000,0,0x5D,0x00,Read,ACK
5.763970218750000,0,0x5D,0x00,Read,ACK
5.763991718750000,0,0x5D,0x00,Read,ACK
5.764013187500000,0,0x5D,0x00,Read,ACK
5.764035000000000,0,0x5D,0x00,Read,ACK
5.764058125000000,0,0x5D,0x00,Read,ACK
5.764081531250000,0,0x5D,0x00,Read,ACK
5.764102968750000,0,0x5D,0x00,Read,ACK
5.764124468750000,0,0x5D,0x00,Read,ACK
5.764146406250000,0,0x5D,0x00,Read,ACK
5.764168718750000,0,0x5D,0x00,Read,ACK
5.764190187500000,0,0x5D,0x00,Read,ACK
5.764212375000000,0,0x5D,0x00,Read,ACK
5.764234500000000,0,0x5D,0x00,Read,ACK
5.764256000000000,0,0x5D,0x00,Read,ACK
5.764277468750000,0,0x5D,0x00,Read,ACK
5.764299687500000,0,0x5D,0x00,Read,NAK
5.769562187500000,0,0x5D,0x2F,Read,ACK
5.769590281250000,0,0x5D,0x00,Read,ACK
5.769612843750000,0,0x5D,0x04,Read,ACK
5.769635531250000,0,0x5D,0x03,Read,ACK
5.769657156250000,0,0x5D,0x8B,Read,ACK
5.769678625000000,0,0x5D,0x08,Read,ACK
5.769700093750000,0,0x5D,0x45,Read,ACK
5.769723187500000,0,0x5D,0x05,Read,ACK
5.769744656250000,0,0x5D,0x03,Read,ACK
5.769766125000000,0,0x5D,0x03,Read,ACK
5.769787593750000,0,0x5D,0x20,Read,ACK
5.769809062500000,0,0x5D,0x00,Read,ACK
5.769833093750000,0,0x5D,0x00,Read,ACK
5.769855656250000,0,0x5D,0x00,Read,ACK
5.769878093750000,0,0x5D,0x00,Read,ACK
5.769900187500000,0,0x5D,0x00,Read,ACK
5.769921656250000,0,0x5D,0x00,Read,ACK
5.769943093750000,0,0x5D,0x00,Read,ACK
5.769964562500000,0,0x5D,0x00,Read,ACK
5.769986093750000,0,0x5D,0x00,Read,ACK
5.770009281250000,0,0x5D,0x00,Read,ACK
5.770030718750000,0,0x5D,0x00,Read,ACK
5.770052187500000,0,0x5D,0x00,Read,ACK
5.770073656250000,0,0x5D,0x00,Read,ACK
5.770095125000000,0,0x5D,0x00,Read,ACK
5.770116750000000,0,0x5D,0x00,Read,ACK
5.770138218750000,0,0x5D,0x00,Read,ACK
5.770159656250000,0,0x5D,0x00,Read,ACK
5.770181125000000,0,0x5D,0x00,Read,ACK
5.770202593750000,0,0x5D,0x00,Read,ACK
5.770224062500000,0,0x5D,0x00,Read,ACK
5.770245531250000,0,0x5D,0x00,Read,ACK
5.770267250000000,0,0x5D,0x00,Read,ACK
5.770288906250000,0,0x5D,0x00,Read,ACK
5.770310656250000,0,0x5D,0x00,Read,ACK
5.770335593750000,0,0x5D,0x00,Read,ACK
5.770359156250000,0,0x5D,0x00,Read,ACK
5.770380656250000,0,0x5D,0x00,Read,ACK
5.770402093750000,0,0x5D,0x00,Read,ACK
5.770424375000000,0,0x5D,0x00,Read,ACK
5.770446093750000,0,0x5D,0x00,Read,ACK
5.770467562500000,0,0x5D,0x00,Read,ACK
5.770489031250000,0,0x5D,0x00,Read,ACK
5.770510500000000,0,0x5D,0xEC,Read,ACK
5.770531968750000,0,0x5D,0x95,Read,ACK
5.770553437500000,0,0x5D,0x01,Read,ACK
5.770574906250000,0,0x5D,0x00,Read,ACK
5.770596375000000,0,0x5D,0x00,Read,ACK
5.770617843750000,0,0x5D,0x00,Read,ACK
5.770639312500000,0,0x5D,0x00,Read,ACK
5.770660781250000,0,0x5D,0x00,Read,ACK
5.770682250000000,0,0x5D,0x00,Read,ACK
5.770703718750000,0,0x5D,0x00,Read,ACK
5.770725187500000,0,0x5D,0x00,Read,ACK
5.770746656250000,0,0x5D,0x00,Read,ACK
5.770768125000000,0,0x5D,0x00,Read,ACK
5.770789593750000,0,0x5D,0x00,Read,ACK
5.770811062500000,0,0x5D,0x00,Read,ACK
5.770832531250000,0,0x5D,0x00,Read,ACK
5.770853968750000,0,0x5D,0x00,Read,ACK
5.770875937500000,0,0x5D,0x00,Read,ACK
5.770897375000000,0,0x5D,0x00,Read,ACK
5.770918843750000,0,0x5D,0x00,Read,ACK
5.770940312500000,0,0x5D,0x00,Read,NAK
5.772532531250000,0,0x5D,0x2F,Read,ACK
5.772563156250000,0,0x5D,0x00,Read,ACK
5.772584750000000,0,0x5D,0x04,Read,ACK
5.772606250000000,0,0x5D,0x03,Read,ACK
5.772627750000000,0,0x5D,0x8B,Read,ACK
5.772650093750000,0,0x5D,0x08,Read,ACK
5.772672156250000,0,0x5D,0x45,Read,ACK
5.772694593750000,0,0x5D,0x05,Read,ACK
5.772717062500000,0,0x5D,0x03,Read,ACK
5.772739656250000,0,0x5D,0x03,Read,ACK
5.772761156250000,0,0x5D,0x20,Read,ACK
5.772782625000000,0,0x5D,0x00,Read,ACK
5.772804906250000,0,0x5D,0x00,Read,ACK
5.772826937500000,0,0x5D,0x00,Read,ACK
5.772849531250000,0,0x5D,0x00,Read,ACK
5.772871000000000,0,0x5D,0x00,Read,ACK
5.772892468750000,0,0x5D,0x00,Read,ACK
5.772913906250000,0,0x5D,0x00,Read,ACK
5.772935406250000,0,0x5D,0x00,Read,ACK
5.772956843750000,0,0x5D,0x00,Read,ACK
5.772978312500000,0,0x5D,0x00,Read,ACK
5.772999781250000,0,0x5D,0x00,Read,ACK
5.773022531250000,0,0x5D,0x00,Read,ACK
5.773044031250000,0,0x5D,0x00,Read,ACK
5.773065656250000,0,0x5D,0x00,Read,ACK
5.773087093750000,0,0x5D,0x00,Read,ACK
5.773108562500000,0,0x5D,0x00,Read,ACK
5.773130031250000,0,0x5D,0x00,Read,ACK
5.773152656250000,0,0x5D,0x00,Read,ACK
5.773175000000000,0,0x5D,0x00,Read,ACK
5.773196500000000,0,0x5D,0x00,Read,ACK
5.773218531250000,0,0x5D,0x00,Read,ACK
5.773240437500000,0,0x5D,0x00,Read,ACK
5.773261906250000,0,0x5D,0x00,Read,ACK
5.773283406250000,0,0x5D,0x00,Read,ACK
5.773304906250000,0,0x5D,0x00,Read,ACK
5.773326375000000,0,0x5D,0x00,Read,ACK
5.773348281250000,0,0x5D,0x00,Read,ACK
5.773370375000000,0,0x5D,0x00,Read,ACK
5.773392375000000,0,0x5D,0x00,Read,ACK
5.773413875000000,0,0x5D,0x00,Read,ACK
5.773435343750000,0,0x5D,0x00,Read,ACK
5.773456812500000,0,0x5D,0x00,Read,ACK
5.773478281250000,0,0x5D,0x32,Read,ACK
5.773499781250000,0,0x5D,0x96,Read,ACK
5.773521218750000,0,0x5D,0x01,Read,ACK
5.773542718750000,0,0x5D,0x00,Read,ACK
5.773564156250000,0,0x5D,0x00,Read,ACK
5.773585625000000,0,0x5D,0x00,Read,ACK
5.773607093750000,0,0x5D,0x00,Read,ACK
5.773629625000000,0,0x5D,0x00,Read,ACK
5.773651687500000,0,0x5D,0x00,Read,ACK
5.773673187500000,0,0x5D,0x00,Read,ACK
5.773695656250000,0,0x5D,0x00,Read,ACK
5.773717125000000,0,0x5D,0x00,Read,ACK
5.773739812500000,0,0x5D,0x00,Read,ACK
5.773761656250000,0,0x5D,0x00,Read,ACK
5.773783156250000,0,0x5D,0x00,Read,ACK
5.773804812500000,0,0x5D,0x00,Read,ACK
5.773826593750000,0,0x5D,0x00,Read,ACK
5.773848031250000,0,0x5D,0x00,Read,ACK
5.773869531250000,0,0x5D,0x00,Read,ACK
5.773891687500000,0,0x5D,0x00,Read,ACK
5.773917625000000,0,0x5D,0x00,Read,NAK
5.776109656250000,0,0x5D,0x2F,Read,ACK
5.776137937500000,0,0x5D,0x00,Read,ACK
5.776160500000000,0,0x5D,0x04,Read,ACK
5.776182718750000,0,0x5D,0x03,Read,ACK
5.776205062500000,0,0x5D,0x8B,Read,ACK
5.776226531250000,0,0x5D,0x08,Read,ACK
5.776248000000000,0,0x5D,0x61,Read,ACK
5.776269468750000,0,0x5D,0x05,Read,ACK
5.776291437500000,0,0x5D,0x03,Read,ACK
5.776314125000000,0,0x5D,0x02,Read,ACK
5.776335625000000,0,0x5D,0x20,Read,ACK
5.776357093750000,0,0x5D,0x00,Read,ACK
5.776378562500000,0,0x5D,0x00,Read,ACK
5.776400031250000,0,0x5D,0x00,Read,ACK
5.776421500000000,0,0x5D,0x00,Read,ACK
5.776442968750000,0,0x5D,0x00,Read,ACK
5.776464406250000,0,0x5D,0x00,Read,ACK
5.776485875000000,0,0x5D,0x00,Read,ACK
5.776507375000000,0,0x5D,0x00,Read,ACK
5.776528812500000,0,0x5D,0x00,Read,ACK
5.776551093750000,0,0x5D,0x00,Read,ACK
5.776573968750000,0,0x5D,0x00,Read,ACK
5.776595437500000,0,0x5D,0x00,Read,ACK
5.776618031250000,0,0x5D,0x00,Read,ACK
5.776639656250000,0,0x5D,0x00,Read,ACK
5.776661125000000,0,0x5D,0x00,Read,ACK
5.776682593750000,0,0x5D,0x00,Read,ACK
5.776705656250000,0,0x5D,0x00,Read,ACK
5.776727156250000,0,0x5D,0x00,Read,ACK
5.776748625000000,0,0x5D,0x00,Read,ACK
5.776770093750000,0,0x5D,0x00,Read,ACK
5.776791687500000,0,0x5D,0x00,Read,ACK
5.776813156250000,0,0x5D,0x00,Read,ACK
5.776834625000000,0,0x5D,0x00,Read,ACK
5.776856093750000,0,0x5D,0x00,Read,ACK
5.776877562500000,0,0x5D,0x00,Read,ACK
5.776899031250000,0,0x5D,0x00,Read,ACK
5.776920500000000,0,0x5D,0x00,Read,ACK
5.776941968750000,0,0x5D,0x00,Read,ACK
5.776963437500000,0,0x5D,0x00,Read,ACK
5.776984906250000,0,0x5D,0x00,Read,ACK
5.777006375000000,0,0x5D,0x00,Read,ACK
5.777027875000000,0,0x5D,0x00,Read,ACK
5.777049312500000,0,0x5D,0x32,Read,ACK
5.777070843750000,0,0x5D,0x96,Read,ACK
5.777092343750000,0,0x5D,0x01,Read,ACK
5.777113843750000,0,0x5D,0x00,Read,ACK
5.777135281250000,0,0x5D,0x00,Read,ACK
5.777156750000000,0,0x5D,0x00,Read,ACK
5.777178250000000,0,0x5D,0x00,Read,ACK
5.777199718750000,0,0x5D,0x00,Read,ACK
5.777221187500000,0,0x5D,0x00,Read,ACK
5.777242625000000,0,0x5D,0x00,Read,ACK
5.777264125000000,0,0x5D,0x00,Read,ACK
5.777285625000000,0,0x5D,0x00,Read,ACK
5.777307125000000,0,0x5D,0x00,Read,ACK
5.777328562500000,0,0x5D,0x00,Read,ACK
5.777350062500000,0,0x5D,0x00,Read,ACK
5.777371500000000,0,0x5D,0x00,Read,ACK
5.777392968750000,0,0x5D,0x00,Read,ACK
5.777414437500000,0,0x5D,0x00,Read,ACK
5.777435906250000,0,0x5D,0x00,Read,ACK
5.777458937500000,0,0x5D,0x00,Read,ACK
5.777480437500000,0,0x5D,0x00,Read,NAK
5.777659562500000,0,0x5D,0x2F,Read,ACK
5.777681062500000,0,0x5D,0x00,Read,ACK
5.777702687500000,0,0x5D,0x04,Read,ACK
5.777724125000000,0,0x5D,0x03,Read,ACK
5.777745593750000,0,0x5D,0x8B,Read,ACK
5.777767218750000,0,0x5D,0x08,Read,ACK
5.777788687500000,0,0x5D,0x61,Read,ACK
5.777810156250000,0,0x5D,0x05,Read,ACK
5.777831625000000,0,0x5D,0x03,Read,ACK
5.777853125000000,0,0x5D,0x02,Read,ACK
5.777874593750000,0,0x5D,0x20,Read,ACK
5.777896062500000,0,0x5D,0x00,Read,ACK
5.777917531250000,0,0x5D,0x00,Read,ACK
5.777939031250000,0,0x5D,0x00,Read,ACK
5.777960500000000,0,0x5D,0x00,Read,ACK
5.777982000000000,0,0x5D,0x00,Read,ACK
5.778003468750000,0,0x5D,0x00,Read,ACK
5.778024937500000,0,0x5D,0x00,Read,ACK
5.778046406250000,0,0x5D,0x00,Read,ACK
5.778067875000000,0,0x5D,0x00,Read,ACK
5.778089343750000,0,0x5D,0x00,Read,ACK
5.778110812500000,0,0x5D,0x00,Read,ACK
5.778132281250000,0,0x5D,0x00,Read,ACK
5.778153750000000,0,0x5D,0x00,Read,ACK
5.778175218750000,0,0x5D,0x00,Read,ACK
5.778196687500000,0,0x5D,0x00,Read,ACK
5.778218156250000,0,0x5D,0x00,Read,ACK
5.778239593750000,0,0x5D,0x00,Read,ACK
5.778261093750000,0,0x5D,0x00,Read,ACK
5.778282687500000,0,0x5D,0x00,Read,ACK
5.778304156250000,0,0x5D,0x00,Read,ACK
5.778326593750000,0,0x5D,0x00,Read,ACK
5.778348093750000,0,0x5D,0x00,Read,ACK
5.778371968750000,0,0x5D,0x00,Read,ACK
5.778393562500000,0,0x5D,0x00,Read,ACK
5.778415562500000,0,0x5D,0x00,Read,ACK
5.778437062500000,0,0x5D,0x00,Read,ACK
5.778458562500000,0,0x5D,0x00,Read,ACK
5.778480031250000,0,0x5D,0x00,Read,ACK
5.778501937500000,0,0x5D,0x00,Read,ACK
5.778523906250000,0,0x5D,0x00,Read,ACK
5.778545375000000,0,0x5D,0x00,Read,ACK
5.778566843750000,0,0x5D,0x00,Read,ACK
5.778588281250000,0,0x5D,0x32,Read,ACK
5.778609781250000,0,0x5D,0x96,Read,ACK
5.778631250000000,0,0x5D,0x01,Read,ACK
5.778652718750000,0,0x5D,0x00,Read,ACK
5.778674187500000,0,0x5D,0x00,Read,ACK
5.778695656250000,0,0x5D,0x00,Read,ACK
5.778717125000000,0,0x5D,0x00,Read,ACK
5.778738593750000,0,0x5D,0x00,Read,ACK
5.778760062500000,0,0x5D,0x00,Read,ACK
5.778781531250000,0,0x5D,0x00,Read,ACK
5.778803031250000,0,0x5D,0x00,Read,ACK
5.778824468750000,0,0x5D,0x00,Read,ACK
5.778845937500000,0,0x5D,0x00,Read,ACK
5.778867406250000,0,0x5D,0x00,Read,ACK
5.778888875000000,0,0x5D,0x00,Read,ACK
5.778910343750000,0,0x5D,0x00,Read,ACK
5.778931812500000,0,0x5D,0x00,Read,ACK
5.778953312500000,0,0x5D,0x00,Read,ACK
5.778974750000000,0,0x5D,0x00,Read,ACK
5.778996218750000,0,0x5D,0x00,Read,ACK
5.779017687500000,0,0x5D,0x00,Read,NAK
5.781778843750000,0,0x5D,0x2F,Read,ACK
5.781800343750000,0,0x5D,0x00,Read,ACK
5.781822250000000,0,0x5D,0x04,Read,ACK
5.781843687500000,0,0x5D,0x03,Read,ACK
5.781866187500000,0,0x5D,0x85,Read,ACK
5.781888437500000,0,0x5D,0x08,Read,ACK
5.781912343750000,0,0x5D,0x7E,Read,ACK
5.781936375000000,0,0x5D,0x05,Read,ACK
5.781957843750000,0,0x5D,0x03,Read,ACK
5.781979593750000,0,0x5D,0x02,Read,ACK
5.782001031250000,0,0x5D,0x20,Read,ACK
5.782022500000000,0,0x5D,0x00,Read,ACK
5.782043968750000,0,0x5D,0x00,Read,ACK
5.782065437500000,0,0x5D,0x00,Read,ACK
5.782087343750000,0,0x5D,0x00,Read,ACK
5.782108812500000,0,0x5D,0x00,Read,ACK
5.782130281250000,0,0x5D,0x00,Read,ACK
5.782151875000000,0,0x5D,0x00,Read,ACK
5.782173750000000,0,0x5D,0x00,Read,ACK
5.782195250000000,0,0x5D,0x00,Read,ACK
5.782216750000000,0,0x5D,0x00,Read,ACK
5.782238500000000,0,0x5D,0x00,Read,ACK
5.782259968750000,0,0x5D,0x00,Read,ACK
5.782281437500000,0,0x5D,0x00,Read,ACK
5.782302906250000,0,0x5D,0x00,Read,ACK
5.782324375000000,0,0x5D,0x00,Read,ACK
5.782346250000000,0,0x5D,0x00,Read,ACK
5.782367687500000,0,0x5D,0x00,Read,ACK
5.782389156250000,0,0x5D,0x00,Read,ACK
5.782410625000000,0,0x5D,0x00,Read,ACK
5.782432093750000,0,0x5D,0x00,Read,ACK
5.782456437500000,0,0x5D,0x00,Read,ACK
5.782477875000000,0,0x5D,0x00,Read,ACK
5.782499625000000,0,0x5D,0x00,Read,ACK
5.782522093750000,0,0x5D,0x00,Read,ACK
5.782543968750000,0,0x5D,0x00,Read,ACK
5.782565437500000,0,0x5D,0x00,Read,ACK
5.782586906250000,0,0x5D,0x00,Read,ACK
5.782608375000000,0,0x5D,0x00,Read,ACK
5.782630781250000,0,0x5D,0x00,Read,ACK
5.782652250000000,0,0x5D,0x00,Read,ACK
5.782673718750000,0,0x5D,0x00,Read,ACK
5.782695843750000,0,0x5D,0x00,Read,ACK
5.782721718750000,0,0x5D,0x78,Read,ACK
5.782743187500000,0,0x5D,0x96,Read,ACK
5.782764656250000,0,0x5D,0x01,Read,ACK
5.782786656250000,0,0x5D,0x00,Read,ACK
5.782808406250000,0,0x5D,0x00,Read,ACK
5.782832437500000,0,0x5D,0x00,Read,ACK
5.782853906250000,0,0x5D,0x00,Read,ACK
5.782875531250000,0,0x5D,0x00,Read,ACK
5.782898968750000,0,0x5D,0x00,Read,ACK
5.782921531250000,0,0x5D,0x00,Read,ACK
5.782943843750000,0,0x5D,0x00,Read,ACK
5.782965437500000,0,0x5D,0x00,Read,ACK
5.782987875000000,0,0x5D,0x00,Read,ACK
5.783012000000000,0,0x5D,0x00,Read,ACK
5.783033625000000,0,0x5D,0x00,Read,ACK
5.783055312500000,0,0x5D,0x00,Read,ACK
5.783076968750000,0,0x5D,0x00,Read,ACK
5.783099406250000,0,0x5D,0x00,Read,ACK
5.783122250000000,0,0x5D,0x00,Read,ACK
5.783143718750000,0,0x5D,0x00,Read,ACK
5.783165968750000,0,0x5D,0x00,Read,NAK
5.787805406250000,0,0x5D,0x2F,Read,ACK
5.787831562500000,0,0x5D,0x00,Read,ACK
5.787853062500000,0,0x5D,0x04,Read,ACK
5.787877312500000,0,0x5D,0x03,Read,ACK
5.787898812500000,0,0x5D,0x7A,Read,ACK
5.787920312500000,0,0x5D,0x08,Read,ACK
5.787941781250000,0,0x5D,0x99,Read,ACK
5.787964687500000,0,0x5D,0x05,Read,ACK
5.787987500000000,0,0x5D,0x03,Read,ACK
5.788008937500000,0,0x5D,0x03,Read,ACK
5.788030406250000,0,0x5D,0x20,Read,ACK
5.788051875000000,0,0x5D,0x00,Read,ACK
5.788073343750000,0,0x5D,0x00,Read,ACK
5.788094812500000,0,0x5D,0x00,Read,ACK
5.788116281250000,0,0x5D,0x00,Read,ACK
5.788137750000000,0,0x5D,0x00,Read,ACK
5.788159218750000,0,0x5D,0x00,Read,ACK
5.788180718750000,0,0x5D,0x00,Read,ACK
5.788202250000000,0,0x5D,0x00,Read,ACK
5.788223687500000,0,0x5D,0x00,Read,ACK
5.788245156250000,0,0x5D,0x00,Read,ACK
5.788266625000000,0,0x5D,0x00,Read,ACK
5.788288093750000,0,0x5D,0x00,Read,ACK
5.788309562500000,0,0x5D,0x00,Read,ACK
5.788331031250000,0,0x5D,0x00,Read,ACK
5.788352500000000,0,0x5D,0x00,Read,ACK
5.788373968750000,0,0x5D,0x00,Read,ACK
5.788395406250000,0,0x5D,0x00,Read,ACK
5.788416906250000,0,0x5D,0x00,Read,ACK
5.788438375000000,0,0x5D,0x00,Read,ACK
5.788459843750000,0,0x5D,0x00,Read,ACK
5.788481312500000,0,0x5D,0x00,Read,ACK
5.788502781250000,0,0x5D,0x00,Read,ACK
5.788526625000000,0,0x5D,0x00,Read,ACK
5.788551875000000,0,0x5D,0x00,Read,ACK
5.788574937500000,0,0x5D,0x00,Read,ACK
5.788596375000000,0,0x5D,0x00,Read,ACK
5.788618062500000,0,0x5D,0x00,Read,ACK
5.788639968750000,0,0x5D,0x00,Read,ACK
5.788662000000000,0,0x5D,0x00,Read,ACK
5.788683593750000,0,0x5D,0x00,Read,ACK
5.788705218750000,0,0x5D,0x00,Read,ACK
5.788727750000000,0,0x5D,0x00,Read,ACK
5.788749281250000,0,0x5D,0xBE,Read,ACK
5.788770718750000,0,0x5D,0x96,Read,ACK
5.788793750000000,0,0x5D,0x01,Read,ACK
5.788815250000000,0,0x5D,0x00,Read,ACK
5.788836687500000,0,0x5D,0x00,Read,ACK
5.788858875000000,0,0x5D,0x00,Read,ACK
5.788881281250000,0,0x5D,0x00,Read,ACK
5.788902843750000,0,0x5D,0x00,Read,ACK
5.788924468750000,0,0x5D,0x00,Read,ACK
5.788945968750000,0,0x5D,0x00,Read,ACK
5.788967937500000,0,0x5D,0x00,Read,ACK
5.788989406250000,0,0x5D,0x00,Read,ACK
5.789011343750000,0,0x5D,0x00,Read,ACK
5.789032843750000,0,0x5D,0x00,Read,ACK
5.789054312500000,0,0x5D,0x00,Read,ACK
5.789075750000000,0,0x5D,0x00,Read,ACK
5.789097937500000,0,0x5D,0x00,Read,ACK
5.789120687500000,0,0x5D,0x00,Read,ACK
5.789142593750000,0,0x5D,0x00,Read,ACK
5.789165343750000,0,0x5D,0x00,Read,ACK
5.789188093750000,0,0x5D,0x00,Read,NAK
5.795597968750000,0,0x5D,0x2F,Read,ACK
5.795624625000000,0,0x5D,0x00,Read,ACK
5.795646125000000,0,0x5D,0x04,Read,ACK
5.795669437500000,0,0x5D,0x03,Read,ACK
5.795692343750000,0,0x5D,0x6B,Read,ACK
5.795716000000000,0,0x5D,0x08,Read,ACK
5.795737593750000,0,0x5D,0xB0,Read,ACK
5.795760375000000,0,0x5D,0x05,Read,ACK
5.795781812500000,0,0x5D,0x03,Read,ACK
5.795803812500000,0,0x5D,0x03,Read,ACK
5.795825312500000,0,0x5D,0x20,Read,ACK
5.795849875000000,0,0x5D,0x00,Read,ACK
5.795871968750000,0,0x5D,0x00,Read,ACK
5.795893656250000,0,0x5D,0x00,Read,ACK
5.795915125000000,0,0x5D,0x00,Read,ACK
5.795937562500000,0,0x5D,0x00,Read,ACK
5.795959718750000,0,0x5D,0x00,Read,ACK
5.795981500000000,0,0x5D,0x00,Read,ACK
5.796002968750000,0,0x5D,0x00,Read,ACK
5.796027062500000,0,0x5D,0x00,Read,ACK
5.796048531250000,0,0x5D,0x00,Read,ACK
5.796070000000000,0,0x5D,0x00,Read,ACK
5.796092156250000,0,0x5D,0x00,Read,ACK
5.796114968750000,0,0x5D,0x00,Read,ACK
5.796136468750000,0,0x5D,0x00,Read,ACK
5.796159562500000,0,0x5D,0x00,Read,ACK
5.796181687500000,0,0x5D,0x00,Read,ACK
5.796203531250000,0,0x5D,0x00,Read,ACK
5.796225156250000,0,0x5D,0x00,Read,ACK
5.796246625000000,0,0x5D,0x00,Read,ACK
5.796268062500000,0,0x5D,0x00,Read,ACK
5.796290000000000,0,0x5D,0x00,Read,ACK
5.796313000000000,0,0x5D,0x00,Read,ACK
5.796336625000000,0,0x5D,0x00,Read,ACK
5.796359250000000,0,0x5D,0x00,Read,ACK
5.796380718750000,0,0x5D,0x00,Read,ACK
5.796402187500000,0,0x5D,0x00,Read,ACK
5.796423781250000,0,0x5D,0x00,Read,ACK
5.796445250000000,0,0x5D,0x00,Read,ACK
5.796467593750000,0,0x5D,0x00,Read,ACK
5.796489062500000,0,0x5D,0x00,Read,ACK
5.796510531250000,0,0x5D,0x00,Read,ACK
5.796532875000000,0,0x5D,0x00,Read,ACK
5.796554468750000,0,0x5D,0x04,Read,ACK
5.796575937500000,0,0x5D,0x97,Read,ACK
5.796597406250000,0,0x5D,0x01,Read,ACK
5.796618875000000,0,0x5D,0x00,Read,ACK
5.796640343750000,0,0x5D,0x00,Read,ACK
5.796661812500000,0,0x5D,0x00,Read,ACK
5.796684031250000,0,0x5D,0x00,Read,ACK
5.796705500000000,0,0x5D,0x00,Read,ACK
5.796726968750000,0,0x5D,0x00,Read,ACK
5.796748687500000,0,0x5D,0x00,Read,ACK
5.796770156250000,0,0x5D,0x00,Read,ACK
5.796792000000000,0,0x5D,0x00,Read,ACK
5.796813437500000,0,0x5D,0x00,Read,ACK
5.796835125000000,0,0x5D,0x00,Read,ACK
5.796856625000000,0,0x5D,0x00,Read,ACK
5.796878125000000,0,0x5D,0x00,Read,ACK
5.796899593750000,0,0x5D,0x00,Read,ACK
5.796921406250000,0,0x5D,0x00,Read,ACK
5.796944625000000,0,0x5D,0x00,Read,ACK
5.796966531250000,0,0x5D,0x00,Read,ACK
5.796989250000000,0,0x5D,0x00,Read,NAK
5.802503187500000,0,0x5D,0x2F,Read,ACK
5.802529812500000,0,0x5D,0x00,Read,ACK
5.802551281250000,0,0x5D,0x04,Read,ACK
5.802572812500000,0,0x5D,0x03,Read,ACK
5.802594281250000,0,0x5D,0x57,Read,ACK
5.802615750000000,0,0x5D,0x08,Read,ACK
5.802637218750000,0,0x5D,0xC2,Read,ACK
5.802658687500000,0,0x5D,0x05,Read,ACK
5.802680156250000,0,0x5D,0x03,Read,ACK
5.802701625000000,0,0x5D,0x03,Read,ACK
5.802723093750000,0,0x5D,0x20,Read,ACK
5.802747562500000,0,0x5D,0x00,Read,ACK
5.802770656250000,0,0x5D,0x00,Read,ACK
5.802794781250000,0,0x5D,0x00,Read,ACK
5.802816343750000,0,0x5D,0x00,Read,ACK
5.802838156250000,0,0x5D,0x00,Read,ACK
5.802861500000000,0,0x5D,0x00,Read,ACK
5.802883000000000,0,0x5D,0x00,Read,ACK
5.802904437500000,0,0x5D,0x00,Read,ACK
5.802926625000000,0,0x5D,0x00,Read,ACK
5.802948343750000,0,0x5D,0x00,Read,ACK
5.802969875000000,0,0x5D,0x00,Read,ACK
5.802992500000000,0,0x5D,0x00,Read,ACK
5.803015562500000,0,0x5D,0x00,Read,ACK
5.803037062500000,0,0x5D,0x00,Read,ACK
5.803058500000000,0,0x5D,0x00,Read,ACK
5.803080000000000,0,0x5D,0x00,Read,ACK
5.803103531250000,0,0x5D,0x00,Read,ACK
5.803124968750000,0,0x5D,0x00,Read,ACK
5.803148312500000,0,0x5D,0x00,Read,ACK
5.803172156250000,0,0x5D,0x00,Read,ACK
5.803193625000000,0,0x5D,0x00,Read,ACK
5.803215468750000,0,0x5D,0x00,Read,ACK
5.803238687500000,0,0x5D,0x00,Read,ACK
5.803260218750000,0,0x5D,0x00,Read,ACK
5.803281687500000,0,0x5D,0x00,Read,ACK
5.803306187500000,0,0x5D,0x00,Read,ACK
5.803327718750000,0,0x5D,0x00,Read,ACK
5.803349375000000,0,0x5D,0x00,Read,ACK
5.803372250000000,0,0x5D,0x00,Read,ACK
5.803395125000000,0,0x5D,0x00,Read,ACK
5.803418156250000,0,0x5D,0x00,Read,ACK
5.803441375000000,0,0x5D,0x00,Read,ACK
5.803464312500000,0,0x5D,0x4A,Read,ACK
5.803485906250000,0,0x5D,0x97,Read,ACK
5.803507343750000,0,0x5D,0x01,Read,ACK
5.803528812500000,0,0x5D,0x00,Read,ACK
5.803550281250000,0,0x5D,0x00,Read,ACK
5.803572468750000,0,0x5D,0x00,Read,ACK
5.803594375000000,0,0x5D,0x00,Read,ACK
5.803615812500000,0,0x5D,0x00,Read,ACK
5.803637312500000,0,0x5D,0x00,Read,ACK
5.803659312500000,0,0x5D,0x00,Read,ACK
5.803680781250000,0,0x5D,0x00,Read,ACK
5.803702250000000,0,0x5D,0x00,Read,ACK
5.803723718750000,0,0x5D,0x00,Read,ACK
5.803745156250000,0,0x5D,0x00,Read,ACK
5.803768875000000,0,0x5D,0x00,Read,ACK
5.803790531250000,0,0x5D,0x00,Read,ACK
5.803812250000000,0,0x5D,0x00,Read,ACK
5.803833875000000,0,0x5D,0x00,Read,ACK
5.803855687500000,0,0x5D,0x00,Read,ACK
5.803877375000000,0,0x5D,0x00,Read,ACK
5.803899000000000,0,0x5D,0x00,Read,NAK
5.809246343750000,0,0x5D,0x2F,Read,ACK
5.809269937500000,0,0x5D,0x00,Read,ACK
5.809291843750000,0,0x5D,0x04,Read,ACK
5.809313406250000,0,0x5D,0x03,Read,ACK
5.809334906250000,0,0x5D,0x3E,Read,ACK
5.809356375000000,0,0x5D,0x08,Read,ACK
5.809377843750000,0,0x5D,0xD2,Read,ACK
5.809399312500000,0,0x5D,0x05,Read,ACK
5.809420812500000,0,0x5D,0x04,Read,ACK
5.809442312500000,0,0x5D,0x03,Read,ACK
5.809463781250000,0,0x5D,0x20,Read,ACK
5.809485250000000,0,0x5D,0x00,Read,ACK
5.809506718750000,0,0x5D,0x00,Read,ACK
5.809528187500000,0,0x5D,0x00,Read,ACK
5.809549843750000,0,0x5D,0x00,Read,ACK
5.809571656250000,0,0x5D,0x00,Read,ACK
5.809593093750000,0,0x5D,0x00,Read,ACK
5.809614562500000,0,0x5D,0x00,Read,ACK
5.809636031250000,0,0x5D,0x00,Read,ACK
5.809657500000000,0,0x5D,0x00,Read,ACK
5.809678968750000,0,0x5D,0x00,Read,ACK
5.809700437500000,0,0x5D,0x00,Read,ACK
5.809721937500000,0,0x5D,0x00,Read,ACK
5.809743375000000,0,0x5D,0x00,Read,ACK
5.809764875000000,0,0x5D,0x00,Read,ACK
5.809786312500000,0,0x5D,0x00,Read,ACK
5.809807781250000,0,0x5D,0x00,Read,ACK
5.809829281250000,0,0x5D,0x00,Read,ACK
5.809850718750000,0,0x5D,0x00,Read,ACK
5.809872218750000,0,0x5D,0x00,Read,ACK
5.809893656250000,0,0x5D,0x00,Read,ACK
5.809915125000000,0,0x5D,0x00,Read,ACK
5.809936593750000,0,0x5D,0x00,Read,ACK
5.809958093750000,0,0x5D,0x00,Read,ACK
5.809979531250000,0,0x5D,0x00,Read,ACK
5.810006750000000,0,0x5D,0x00,Read,ACK
5.810029781250000,0,0x5D,0x00,Read,ACK
5.810051906250000,0,0x5D,0x00,Read,ACK
5.810075250000000,0,0x5D,0x00,Read,ACK
5.810097968750000,0,0x5D,0x00,Read,ACK
5.810119500000000,0,0x5D,0x00,Read,ACK
5.810141218750000,0,0x5D,0x00,Read,ACK
5.810162718750000,0,0x5D,0x00,Read,ACK
5.810184218750000,0,0x5D,0x90,Read,ACK
5.810205687500000,0,0x5D,0x97,Read,ACK
5.810227156250000,0,0x5D,0x01,Read,ACK
5.810248687500000,0,0x5D,0x00,Read,ACK
5.810271781250000,0,0x5D,0x00,Read,ACK
5.810293250000000,0,0x5D,0x00,Read,ACK
5.810315375000000,0,0x5D,0x00,Read,ACK
5.810337093750000,0,0x5D,0x00,Read,ACK
5.810358531250000,0,0x5D,0x00,Read,ACK
5.810380031250000,0,0x5D,0x00,Read,ACK
5.810401906250000,0,0x5D,0x00,Read,ACK
5.810423406250000,0,0x5D,0x00,Read,ACK
5.810445312500000,0,0x5D,0x00,Read,ACK
5.810466875000000,0,0x5D,0x00,Read,ACK
5.810488375000000,0,0x5D,0x00,Read,ACK
5.810509812500000,0,0x5D,0x00,Read,ACK
5.810531593750000,0,0x5D,0x00,Read,ACK
5.810553843750000,0,0x5D,0x00,Read,ACK
5.810575281250000,0,0x5D,0x00,Read,ACK
5.810597250000000,0,0x5D,0x00,Read,ACK
5.810620093750000,0,0x5D,0x00,Read,NAK
5.816712437500000,0,0x5D,0x2F,Read,ACK
5.816737031250000,0,0x5D,0x00,Read,ACK
5.816758531250000,0,0x5D,0x04,Read,ACK
5.816780156250000,0,0x5D,0x03,Read,ACK
5.816801625000000,0,0x5D,0x20,Read,ACK
5.816823093750000,0,0x5D,0x08,Read,ACK
5.816844562500000,0,0x5D,0xE0,Read,ACK
5.816866031250000,0,0x5D,0x05,Read,ACK
5.816887500000000,0,0x5D,0x03,Read,ACK
5.816908968750000,0,0x5D,0x03,Read,ACK
5.816930406250000,0,0x5D,0x20,Read,ACK
5.816951906250000,0,0x5D,0x00,Read,ACK
5.816973375000000,0,0x5D,0x00,Read,ACK
5.816994843750000,0,0x5D,0x00,Read,ACK
5.817016312500000,0,0x5D,0x00,Read,ACK
5.817037937500000,0,0x5D,0x00,Read,ACK
5.817059406250000,0,0x5D,0x00,Read,ACK
5.817082312500000,0,0x5D,0x00,Read,ACK
5.817103812500000,0,0x5D,0x00,Read,ACK
5.817128437500000,0,0x5D,0x00,Read,ACK
5.817149906250000,0,0x5D,0x00,Read,ACK
5.817173125000000,0,0x5D,0x00,Read,ACK
5.817194593750000,0,0x5D,0x00,Read,ACK
5.817216062500000,0,0x5D,0x00,Read,ACK
5.817237531250000,0,0x5D,0x00,Read,ACK
5.817259812500000,0,0x5D,0x00,Read,ACK
5.817281375000000,0,0x5D,0x00,Read,ACK
5.817302843750000,0,0x5D,0x00,Read,ACK
5.817324906250000,0,0x5D,0x00,Read,ACK
5.817346343750000,0,0x5D,0x00,Read,ACK
5.817368718750000,0,0x5D,0x00,Read,ACK
5.817390187500000,0,0x5D,0x00,Read,ACK
5.817411656250000,0,0x5D,0x00,Read,ACK
5.817434875000000,0,0x5D,0x00,Read,ACK
5.817457500000000,0,0x5D,0x00,Read,ACK
5.817479312500000,0,0x5D,0x00,Read,ACK
5.817500781250000,0,0x5D,0x00,Read,ACK
5.817523375000000,0,0x5D,0x00,Read,ACK
5.817546093750000,0,0x5D,0x00,Read,ACK
5.817567562500000,0,0x5D,0x00,Read,ACK
5.817589031250000,0,0x5D,0x00,Read,ACK
5.817612843750000,0,0x5D,0x00,Read,ACK
5.817635500000000,0,0x5D,0x00,Read,ACK
5.817657468750000,0,0x5D,0xD6,Read,ACK
5.817679187500000,0,0x5D,0x97,Read,ACK
5.817701187500000,0,0x5D,0x01,Read,ACK
5.817723062500000,0,0x5D,0x00,Read,ACK
5.817746593750000,0,0x5D,0x00,Read,ACK
5.817769687500000,0,0x5D,0x00,Read,ACK
5.817792531250000,0,0x5D,0x00,Read,ACK
5.817814000000000,0,0x5D,0x00,Read,ACK
5.817835468750000,0,0x5D,0x00,Read,ACK
5.817857656250000,0,0x5D,0x00,Read,ACK
5.817881750000000,0,0x5D,0x00,Read,ACK
5.817903750000000,0,0x5D,0x00,Read,ACK
5.817925218750000,0,0x5D,0x00,Read,ACK
5.817947031250000,0,0x5D,0x00,Read,ACK
5.817970000000000,0,0x5D,0x00,Read,ACK
5.817991437500000,0,0x5D,0x00,Read,ACK
5.818012906250000,0,0x5D,0x00,Read,ACK
5.818034406250000,0,0x5D,0x00,Read,ACK
5.818055875000000,0,0x5D,0x00,Read,ACK
5.818077343750000,0,0x5D,0x00,Read,ACK
5.818098781250000,0,0x5D,0x00,Read,NAK
5.823925343750000,0,0x5D,0x2F,Read,ACK
5.823951093750000,0,0x5D,0x00,Read,ACK
5.823972562500000,0,0x5D,0x04,Read,ACK
5.823994187500000,0,0x5D,0x03,Read,ACK
5.824015625000000,0,0x5D,0xFA,Read,ACK
5.824037093750000,0,0x5D,0x07,Read,ACK
5.824058562500000,0,0x5D,0xEA,Read,ACK
5.824080031250000,0,0x5D,0x05,Read,ACK
5.824101500000000,0,0x5D,0x03,Read,ACK
5.824122968750000,0,0x5D,0x03,Read,ACK
5.824144437500000,0,0x5D,0x20,Read,ACK
5.824168093750000,0,0x5D,0x00,Read,ACK
5.824190531250000,0,0x5D,0x00,Read,ACK
5.824212375000000,0,0x5D,0x00,Read,ACK
5.824237437500000,0,0x5D,0x00,Read,ACK
5.824259218750000,0,0x5D,0x00,Read,ACK
5.824280687500000,0,0x5D,0x00,Read,ACK
5.824304062500000,0,0x5D,0x00,Read,ACK
5.824325562500000,0,0x5D,0x00,Read,ACK
5.824347437500000,0,0x5D,0x00,Read,ACK
5.824368906250000,0,0x5D,0x00,Read,ACK
5.824391781250000,0,0x5D,0x00,Read,ACK
5.824413593750000,0,0x5D,0x00,Read,ACK
5.824435062500000,0,0x5D,0x00,Read,ACK
5.824456531250000,0,0x5D,0x00,Read,ACK
5.824478000000000,0,0x5D,0x00,Read,ACK
5.824499500000000,0,0x5D,0x00,Read,ACK
5.824522062500000,0,0x5D,0x00,Read,ACK
5.824543562500000,0,0x5D,0x00,Read,ACK
5.824565250000000,0,0x5D,0x00,Read,ACK
5.824586718750000,0,0x5D,0x00,Read,ACK
5.824608312500000,0,0x5D,0x00,Read,ACK
5.824630531250000,0,0x5D,0x00,Read,ACK
5.824652000000000,0,0x5D,0x00,Read,ACK
5.824673531250000,0,0x5D,0x00,Read,ACK
5.824695187500000,0,0x5D,0x00,Read,ACK
5.824718812500000,0,0x5D,0x00,Read,ACK
5.824741562500000,0,0x5D,0x00,Read,ACK
5.824764000000000,0,0x5D,0x00,Read,ACK
5.824787343750000,0,0x5D,0x00,Read,ACK
5.824809781250000,0,0x5D,0x00,Read,ACK
5.824831562500000,0,0x5D,0x00,Read,ACK
5.824856750000000,0,0x5D,0x00,Read,ACK
5.824878218750000,0,0x5D,0x1C,Read,ACK
5.824899687500000,0,0x5D,0x98,Read,ACK
5.824921156250000,0,0x5D,0x01,Read,ACK
5.824942625000000,0,0x5D,0x00,Read,ACK
5.824965593750000,0,0x5D,0x00,Read,ACK
5.824987062500000,0,0x5D,0x00,Read,ACK
5.825008531250000,0,0x5D,0x00,Read,ACK
5.825030218750000,0,0x5D,0x00,Read,ACK
5.825051656250000,0,0x5D,0x00,Read,ACK
5.825073125000000,0,0x5D,0x00,Read,ACK
5.825096187500000,0,0x5D,0x00,Read,ACK
5.825117625000000,0,0x5D,0x00,Read,ACK
5.825139093750000,0,0x5D,0x00,Read,ACK
5.825160562500000,0,0x5D,0x00,Read,ACK
5.825182062500000,0,0x5D,0x00,Read,ACK
5.825203531250000,0,0x5D,0x00,Read,ACK
5.825225031250000,0,0x5D,0x00,Read,ACK
5.825246500000000,0,0x5D,0x00,Read,ACK
5.825268156250000,0,0x5D,0x00,Read,ACK
5.825289656250000,0,0x5D,0x00,Read,ACK
5.825311156250000,0,0x5D,0x00,Read,NAK
5.831148843750000,0,0x5D,0x2F,Read,ACK
5.831178218750000,0,0x5D,0x00,Read,ACK
5.831199687500000,0,0x5D,0x04,Read,ACK
5.831221156250000,0,0x5D,0x03,Read,ACK
5.831242625000000,0,0x5D,0xCF,Read,ACK
5.831264093750000,0,0x5D,0x07,Read,ACK
5.831285562500000,0,0x5D,0xEF,Read,ACK
5.831307062500000,0,0x5D,0x05,Read,ACK
5.831328531250000,0,0x5D,0x03,Read,ACK
5.831349968750000,0,0x5D,0x03,Read,ACK
5.831371468750000,0,0x5D,0x20,Read,ACK
5.831394593750000,0,0x5D,0x00,Read,ACK
5.831416093750000,0,0x5D,0x00,Read,ACK
5.831440312500000,0,0x5D,0x00,Read,ACK
5.831461812500000,0,0x5D,0x00,Read,ACK
5.831483593750000,0,0x5D,0x00,Read,ACK
5.831505062500000,0,0x5D,0x00,Read,ACK
5.831527718750000,0,0x5D,0x00,Read,ACK
5.831549187500000,0,0x5D,0x00,Read,ACK
5.831570625000000,0,0x5D,0x00,Read,ACK
5.831592781250000,0,0x5D,0x00,Read,ACK
5.831614250000000,0,0x5D,0x00,Read,ACK
5.831636531250000,0,0x5D,0x00,Read,ACK
5.831659218750000,0,0x5D,0x00,Read,ACK
5.831680656250000,0,0x5D,0x00,Read,ACK
5.831702562500000,0,0x5D,0x00,Read,ACK
5.831725406250000,0,0x5D,0x00,Read,ACK
5.831746906250000,0,0x5D,0x00,Read,ACK
5.831768375000000,0,0x5D,0x00,Read,ACK
5.831789843750000,0,0x5D,0x00,Read,ACK
5.831811781250000,0,0x5D,0x00,Read,ACK
5.831833281250000,0,0x5D,0x00,Read,ACK
5.831857062500000,0,0x5D,0x00,Read,ACK
5.831878531250000,0,0x5D,0x00,Read,ACK
5.831900468750000,0,0x5D,0x00,Read,ACK
5.831922250000000,0,0x5D,0x00,Read,ACK
5.831943812500000,0,0x5D,0x00,Read,ACK
5.831965250000000,0,0x5D,0x00,Read,ACK
5.831987218750000,0,0x5D,0x00,Read,ACK
5.832009187500000,0,0x5D,0x00,Read,ACK
5.832030781250000,0,0x5D,0x00,Read,ACK
5.832052406250000,0,0x5D,0x00,Read,ACK
5.832079812500000,0,0x5D,0x00,Read,ACK
5.832101250000000,0,0x5D,0x62,Read,ACK
5.832122750000000,0,0x5D,0x98,Read,ACK
5.832145156250000,0,0x5D,0x01,Read,ACK
5.832166656250000,0,0x5D,0x00,Read,ACK
5.832188406250000,0,0x5D,0x00,Read,ACK
5.832209843750000,0,0x5D,0x00,Read,ACK
5.832231312500000,0,0x5D,0x00,Read,ACK
5.832254718750000,0,0x5D,0x00,Read,ACK
5.832277156250000,0,0x5D,0x00,Read,ACK
5.832298656250000,0,0x5D,0x00,Read,ACK
5.832320125000000,0,0x5D,0x00,Read,ACK
5.832341593750000,0,0x5D,0x00,Read,ACK
5.832363062500000,0,0x5D,0x00,Read,ACK
5.832384531250000,0,0x5D,0x00,Read,ACK
5.832406000000000,0,0x5D,0x00,Read,ACK
5.832427468750000,0,0x5D,0x00,Read,ACK
5.832448937500000,0,0x5D,0x00,Read,ACK
5.832470406250000,0,0x5D,0x00,Read,ACK
5.832491906250000,0,0x5D,0x00,Read,ACK
5.832513531250000,0,0x5D,0x00,Read,ACK
5.832535000000000,0,0x5D,0x00,Read,NAK
5.838560281250000,0,0x5D,0x2F,Read,ACK
5.838588687500000,0,0x5D,0x00,Read,ACK
5.838610156250000,0,0x5D,0x04,Read,ACK
5.838631625000000,0,0x5D,0x03,Read,ACK
5.838654000000000,0,0x5D,0x9F,Read,ACK
5.838676031250000,0,0x5D,0x07,Read,ACK
5.838697531250000,0,0x5D,0xF0,Read,ACK
5.838719343750000,0,0x5D,0x05,Read,ACK
5.838741656250000,0,0x5D,0x03,Read,ACK
5.838763125000000,0,0x5D,0x03,Read,ACK
5.838784906250000,0,0x5D,0x20,Read,ACK
5.838806625000000,0,0x5D,0x00,Read,ACK
5.838828093750000,0,0x5D,0x00,Read,ACK
5.838849750000000,0,0x5D,0x00,Read,ACK
5.838872531250000,0,0x5D,0x00,Read,ACK
5.838894312500000,0,0x5D,0x00,Read,ACK
5.838915781250000,0,0x5D,0x00,Read,ACK
5.838937281250000,0,0x5D,0x00,Read,ACK
5.838960093750000,0,0x5D,0x00,Read,ACK
5.838981562500000,0,0x5D,0x00,Read,ACK
5.839003125000000,0,0x5D,0x00,Read,ACK
5.839024781250000,0,0x5D,0x00,Read,ACK
5.839046218750000,0,0x5D,0x00,Read,ACK
5.839069000000000,0,0x5D,0x00,Read,ACK
5.839090468750000,0,0x5D,0x00,Read,ACK
5.839112093750000,0,0x5D,0x00,Read,ACK
5.839133812500000,0,0x5D,0x00,Read,ACK
5.839157531250000,0,0x5D,0x00,Read,ACK
5.839180812500000,0,0x5D,0x00,Read,ACK
5.839202843750000,0,0x5D,0x00,Read,ACK
5.839224281250000,0,0x5D,0x00,Read,ACK
5.839245750000000,0,0x5D,0x00,Read,ACK
5.839268062500000,0,0x5D,0x00,Read,ACK
5.839290000000000,0,0x5D,0x00,Read,ACK
5.839311468750000,0,0x5D,0x00,Read,ACK
5.839334031250000,0,0x5D,0x00,Read,ACK
5.839355937500000,0,0x5D,0x00,Read,ACK
5.839377656250000,0,0x5D,0x00,Read,ACK
5.839399093750000,0,0x5D,0x00,Read,ACK
5.839421375000000,0,0x5D,0x00,Read,ACK
5.839443750000000,0,0x5D,0x00,Read,ACK
5.839465250000000,0,0x5D,0x00,Read,ACK
5.839486718750000,0,0x5D,0x00,Read,ACK
5.839508187500000,0,0x5D,0xA8,Read,ACK
5.839529656250000,0,0x5D,0x98,Read,ACK
5.839551125000000,0,0x5D,0x01,Read,ACK
5.839572593750000,0,0x5D,0x00,Read,ACK
5.839594062500000,0,0x5D,0x00,Read,ACK
5.839615531250000,0,0x5D,0x00,Read,ACK
5.839637000000000,0,0x5D,0x00,Read,ACK
5.839658468750000,0,0x5D,0x00,Read,ACK
5.839680375000000,0,0x5D,0x00,Read,ACK
5.839703062500000,0,0x5D,0x00,Read,ACK
5.839726000000000,0,0x5D,0x00,Read,ACK
5.839747468750000,0,0x5D,0x00,Read,ACK
5.839769218750000,0,0x5D,0x00,Read,ACK
5.839790718750000,0,0x5D,0x00,Read,ACK
5.839814062500000,0,0x5D,0x00,Read,ACK
5.839837468750000,0,0x5D,0x00,Read,ACK
5.839859156250000,0,0x5D,0x00,Read,ACK
5.839880656250000,0,0x5D,0x00,Read,ACK
5.839904406250000,0,0x5D,0x00,Read,ACK
5.839927187500000,0,0x5D,0x00,Read,ACK
5.839949750000000,0,0x5D,0x00,Read,NAK
5.845672250000000,0,0x5D,0x2F,Read,ACK
5.845698562500000,0,0x5D,0x00,Read,ACK
5.845720343750000,0,0x5D,0x04,Read,ACK
5.845741812500000,0,0x5D,0x03,Read,ACK
5.845764125000000,0,0x5D,0x69,Read,ACK
5.845785937500000,0,0x5D,0x07,Read,ACK
5.845807656250000,0,0x5D,0xEA,Read,ACK
5.845829125000000,0,0x5D,0x05,Read,ACK
5.845850593750000,0,0x5D,0x03,Read,ACK
5.845872062500000,0,0x5D,0x03,Read,ACK
5.845894968750000,0,0x5D,0x20,Read,ACK
5.845916437500000,0,0x5D,0x00,Read,ACK
5.845938156250000,0,0x5D,0x00,Read,ACK
5.845960156250000,0,0x5D,0x00,Read,ACK
5.845982125000000,0,0x5D,0x00,Read,ACK
5.846004281250000,0,0x5D,0x00,Read,ACK
5.846025781250000,0,0x5D,0x00,Read,ACK
5.846047250000000,0,0x5D,0x00,Read,ACK
5.846069656250000,0,0x5D,0x00,Read,ACK
5.846093031250000,0,0x5D,0x00,Read,ACK
5.846114656250000,0,0x5D,0x00,Read,ACK
5.846136093750000,0,0x5D,0x00,Read,ACK
5.846158500000000,0,0x5D,0x00,Read,ACK
5.846180062500000,0,0x5D,0x00,Read,ACK
5.846202500000000,0,0x5D,0x00,Read,ACK
5.846224187500000,0,0x5D,0x00,Read,ACK
5.846248937500000,0,0x5D,0x00,Read,ACK
5.846270625000000,0,0x5D,0x00,Read,ACK
5.846292125000000,0,0x5D,0x00,Read,ACK
5.846313593750000,0,0x5D,0x00,Read,ACK
5.846335062500000,0,0x5D,0x00,Read,ACK
5.846357468750000,0,0x5D,0x00,Read,ACK
5.846378937500000,0,0x5D,0x00,Read,ACK
5.846400500000000,0,0x5D,0x00,Read,ACK
5.846422093750000,0,0x5D,0x00,Read,ACK
5.846444500000000,0,0x5D,0x00,Read,ACK
5.846466000000000,0,0x5D,0x00,Read,ACK
5.846487500000000,0,0x5D,0x00,Read,ACK
5.846509250000000,0,0x5D,0x00,Read,ACK
5.846531937500000,0,0x5D,0x00,Read,ACK
5.846553406250000,0,0x5D,0x00,Read,ACK
5.846574875000000,0,0x5D,0x00,Read,ACK
5.846596343750000,0,0x5D,0x00,Read,ACK
5.846617812500000,0,0x5D,0xEE,Read,ACK
5.846640250000000,0,0x5D,0x98,Read,ACK
5.846661687500000,0,0x5D,0x01,Read,ACK
5.846683718750000,0,0x5D,0x00,Read,ACK
5.846705187500000,0,0x5D,0x00,Read,ACK
5.846727031250000,0,0x5D,0x00,Read,ACK
5.846749781250000,0,0x5D,0x00,Read,ACK
5.846771281250000,0,0x5D,0x00,Read,ACK
5.846792750000000,0,0x5D,0x00,Read,ACK
5.846814593750000,0,0x5D,0x00,Read,ACK
5.846836593750000,0,0x5D,0x00,Read,ACK
5.846858031250000,0,0x5D,0x00,Read,ACK
5.846880468750000,0,0x5D,0x00,Read,ACK
5.846901968750000,0,0x5D,0x00,Read,ACK
5.846924718750000,0,0x5D,0x00,Read,ACK
5.846947156250000,0,0x5D,0x00,Read,ACK
5.846970156250000,0,0x5D,0x00,Read,ACK
5.846991812500000,0,0x5D,0x00,Read,ACK
5.847014156250000,0,0x5D,0x00,Read,ACK
5.847035593750000,0,0x5D,0x00,Read,ACK
5.847057062500000,0,0x5D,0x00,Read,NAK
5.852139968750000,0,0x5D,0x2F,Read,ACK
5.852163218750000,0,0x5D,0x00,Read,ACK
5.852184687500000,0,0x5D,0x04,Read,ACK
5.852206343750000,0,0x5D,0x03,Read,ACK
5.852227812500000,0,0x5D,0x2F,Read,ACK
5.852250062500000,0,0x5D,0x07,Read,ACK
5.852272937500000,0,0x5D,0xDF,Read,ACK
5.852294406250000,0,0x5D,0x05,Read,ACK
5.852316812500000,0,0x5D,0x03,Read,ACK
5.852338343750000,0,0x5D,0x02,Read,ACK
5.852359812500000,0,0x5D,0x20,Read,ACK
5.852381656250000,0,0x5D,0x00,Read,ACK
5.852405031250000,0,0x5D,0x00,Read,ACK
5.852426531250000,0,0x5D,0x00,Read,ACK
5.852448000000000,0,0x5D,0x00,Read,ACK
5.852469437500000,0,0x5D,0x00,Read,ACK
5.852490937500000,0,0x5D,0x00,Read,ACK
5.852512406250000,0,0x5D,0x00,Read,ACK
5.852533875000000,0,0x5D,0x00,Read,ACK
5.852555343750000,0,0x5D,0x00,Read,ACK
5.852576812500000,0,0x5D,0x00,Read,ACK
5.852598281250000,0,0x5D,0x00,Read,ACK
5.852619750000000,0,0x5D,0x00,Read,ACK
5.852641218750000,0,0x5D,0x00,Read,ACK
5.852662687500000,0,0x5D,0x00,Read,ACK
5.852684281250000,0,0x5D,0x00,Read,ACK
5.852705750000000,0,0x5D,0x00,Read,ACK
5.852727218750000,0,0x5D,0x00,Read,ACK
5.852753312500000,0,0x5D,0x00,Read,ACK
5.852774781250000,0,0x5D,0x00,Read,ACK
5.852796250000000,0,0x5D,0x00,Read,ACK
5.852817750000000,0,0x5D,0x00,Read,ACK
5.852840250000000,0,0x5D,0x00,Read,ACK
5.852863718750000,0,0x5D,0x00,Read,ACK
5.852885500000000,0,0x5D,0x00,Read,ACK
5.852907406250000,0,0x5D,0x00,Read,ACK
5.852928875000000,0,0x5D,0x00,Read,ACK
5.852950593750000,0,0x5D,0x00,Read,ACK
5.852973468750000,0,0x5D,0x00,Read,ACK
5.852996468750000,0,0x5D,0x00,Read,ACK
5.853018156250000,0,0x5D,0x00,Read,ACK
5.853039656250000,0,0x5D,0x00,Read,ACK
5.853061156250000,0,0x5D,0x00,Read,ACK
5.853083125000000,0,0x5D,0x34,Read,ACK
5.853104968750000,0,0x5D,0x99,Read,ACK
5.853126468750000,0,0x5D,0x01,Read,ACK
5.853147937500000,0,0x5D,0x00,Read,ACK
5.853169406250000,0,0x5D,0x00,Read,ACK
5.853191343750000,0,0x5D,0x00,Read,ACK
5.853213593750000,0,0x5D,0x00,Read,ACK
5.853235062500000,0,0x5D,0x00,Read,ACK
5.853257343750000,0,0x5D,0x00,Read,ACK
5.853278875000000,0,0x5D,0x00,Read,ACK
5.853300375000000,0,0x5D,0x00,Read,ACK
5.853324437500000,0,0x5D,0x00,Read,ACK
5.853345906250000,0,0x5D,0x00,Read,ACK
5.853367562500000,0,0x5D,0x00,Read,ACK
5.853390531250000,0,0x5D,0x00,Read,ACK
5.853412000000000,0,0x5D,0x00,Read,ACK
5.853434687500000,0,0x5D,0x00,Read,ACK
5.853458875000000,0,0x5D,0x00,Read,ACK
5.853485968750000,0,0x5D,0x00,Read,ACK
5.853508843750000,0,0x5D,0x00,Read,ACK
5.853530281250000,0,0x5D,0x00,Read,NAK
5.859287875000000,0,0x5D,0x2F,Read,ACK
5.859316125000000,0,0x5D,0x00,Read,ACK
5.859337781250000,0,0x5D,0x04,Read,ACK
5.859359250000000,0,0x5D,0x03,Read,ACK
5.859380750000000,0,0x5D,0xF3,Read,ACK
5.859402218750000,0,0x5D,0x06,Read,ACK
5.859423718750000,0,0x5D,0xCF,Read,ACK
5.859445187500000,0,0x5D,0x05,Read,ACK
5.859466687500000,0,0x5D,0x02,Read,ACK
5.859489125000000,0,0x5D,0x02,Read,ACK
5.859510656250000,0,0x5D,0x20,Read,ACK
5.859532156250000,0,0x5D,0x00,Read,ACK
5.859553593750000,0,0x5D,0x00,Read,ACK
5.859575125000000,0,0x5D,0x00,Read,ACK
5.859596937500000,0,0x5D,0x00,Read,ACK
5.859618406250000,0,0x5D,0x00,Read,ACK
5.859639875000000,0,0x5D,0x00,Read,ACK
5.859661343750000,0,0x5D,0x00,Read,ACK
5.859682781250000,0,0x5D,0x00,Read,ACK
5.859704312500000,0,0x5D,0x00,Read,ACK
5.859725812500000,0,0x5D,0x00,Read,ACK
5.859747281250000,0,0x5D,0x00,Read,ACK
5.859768750000000,0,0x5D,0x00,Read,ACK
5.859790218750000,0,0x5D,0x00,Read,ACK
5.859811687500000,0,0x5D,0x00,Read,ACK
5.859833156250000,0,0x5D,0x00,Read,ACK
5.859854656250000,0,0x5D,0x00,Read,ACK
5.859876093750000,0,0x5D,0x00,Read,ACK
5.859897562500000,0,0x5D,0x00,Read,ACK
5.859920000000000,0,0x5D,0x00,Read,ACK
5.859943062500000,0,0x5D,0x00,Read,ACK
5.859964531250000,0,0x5D,0x00,Read,ACK
5.859988531250000,0,0x5D,0x00,Read,ACK
5.860011875000000,0,0x5D,0x00,Read,ACK
5.860033375000000,0,0x5D,0x00,Read,ACK
5.860054843750000,0,0x5D,0x00,Read,ACK
5.860076312500000,0,0x5D,0x00,Read,ACK
5.860097781250000,0,0x5D,0x00,Read,ACK
5.860119250000000,0,0x5D,0x00,Read,ACK
5.860140718750000,0,0x5D,0x00,Read,ACK
5.860162656250000,0,0x5D,0x00,Read,ACK
5.860185343750000,0,0x5D,0x00,Read,ACK
5.860206812500000,0,0x5D,0x00,Read,ACK
5.860228281250000,0,0x5D,0x7A,Read,ACK
5.860249781250000,0,0x5D,0x99,Read,ACK
5.860271656250000,0,0x5D,0x01,Read,ACK
5.860294062500000,0,0x5D,0x00,Read,ACK
5.860315687500000,0,0x5D,0x00,Read,ACK
5.860340375000000,0,0x5D,0x00,Read,ACK
5.860361843750000,0,0x5D,0x00,Read,ACK
5.860383312500000,0,0x5D,0x00,Read,ACK
5.860405000000000,0,0x5D,0x00,Read,ACK
5.860426500000000,0,0x5D,0x00,Read,ACK
5.860447968750000,0,0x5D,0x00,Read,ACK
5.860470093750000,0,0x5D,0x00,Read,ACK
5.860491531250000,0,0x5D,0x00,Read,ACK
5.860513062500000,0,0x5D,0x00,Read,ACK
5.860534562500000,0,0x5D,0x00,Read,ACK
5.860556500000000,0,0x5D,0x00,Read,ACK
5.860579000000000,0,0x5D,0x00,Read,ACK
5.860601750000000,0,0x5D,0x00,Read,ACK
5.860623250000000,0,0x5D,0x00,Read,ACK
5.860644718750000,0,0x5D,0x00,Read,ACK
5.860666187500000,0,0x5D,0x00,Read,NAK
5.866334375000000,0,0x5D,0x2F,Read,ACK
5.866361062500000,0,0x5D,0x00,Read,ACK
5.866382593750000,0,0x5D,0x04,Read,ACK
5.866404031250000,0,0x5D,0x03,Read,ACK
5.866425937500000,0,0x5D,0xB9,Read,ACK
5.866449062500000,0,0x5D,0x06,Read,ACK
5.866471687500000,0,0x5D,0xBC,Read,ACK
5.866493437500000,0,0x5D,0x05,Read,ACK
5.866514937500000,0,0x5D,0x03,Read,ACK
5.866536406250000,0,0x5D,0x03,Read,ACK
5.866558656250000,0,0x5D,0x20,Read,ACK
5.866580312500000,0,0x5D,0x00,Read,ACK
5.866601843750000,0,0x5D,0x00,Read,ACK
5.866623281250000,0,0x5D,0x00,Read,ACK
5.866644750000000,0,0x5D,0x00,Read,ACK
5.866666625000000,0,0x5D,0x00,Read,ACK
5.866688593750000,0,0x5D,0x00,Read,ACK
5.866710093750000,0,0x5D,0x00,Read,ACK
5.866731562500000,0,0x5D,0x00,Read,ACK
5.866753062500000,0,0x5D,0x00,Read,ACK
5.866774531250000,0,0x5D,0x00,Read,ACK
5.866795968750000,0,0x5D,0x00,Read,ACK
5.866817437500000,0,0x5D,0x00,Read,ACK
5.866838906250000,0,0x5D,0x00,Read,ACK
5.866860375000000,0,0x5D,0x00,Read,ACK
5.866881843750000,0,0x5D,0x00,Read,ACK
5.866903312500000,0,0x5D,0x00,Read,ACK
5.866924781250000,0,0x5D,0x00,Read,ACK
5.866946250000000,0,0x5D,0x00,Read,ACK
5.866967718750000,0,0x5D,0x00,Read,ACK
5.866989187500000,0,0x5D,0x00,Read,ACK
5.867010656250000,0,0x5D,0x00,Read,ACK
5.867032125000000,0,0x5D,0x00,Read,ACK
5.867053593750000,0,0x5D,0x00,Read,ACK
5.867075062500000,0,0x5D,0x00,Read,ACK
5.867096625000000,0,0x5D,0x00,Read,ACK
5.867118125000000,0,0x5D,0x00,Read,ACK
5.867140093750000,0,0x5D,0x00,Read,ACK
5.867161562500000,0,0x5D,0x00,Read,ACK
5.867184562500000,0,0x5D,0x00,Read,ACK
5.867206562500000,0,0x5D,0x00,Read,ACK
5.867228656250000,0,0x5D,0x00,Read,ACK
5.867250093750000,0,0x5D,0x00,Read,ACK
5.867271562500000,0,0x5D,0xC0,Read,ACK
5.867293062500000,0,0x5D,0x99,Read,ACK
5.867315437500000,0,0x5D,0x01,Read,ACK
5.867338187500000,0,0x5D,0x00,Read,ACK
5.867360031250000,0,0x5D,0x00,Read,ACK
5.867381500000000,0,0x5D,0x00,Read,ACK
5.867403312500000,0,0x5D,0x00,Read,ACK
5.867424781250000,0,0x5D,0x00,Read,ACK
5.867447968750000,0,0x5D,0x00,Read,ACK
5.867470875000000,0,0x5D,0x00,Read,ACK
5.867492531250000,0,0x5D,0x00,Read,ACK
5.867515031250000,0,0x5D,0x00,Read,ACK
5.867538625000000,0,0x5D,0x00,Read,ACK
5.867560812500000,0,0x5D,0x00,Read,ACK
5.867582312500000,0,0x5D,0x00,Read,ACK
5.867603968750000,0,0x5D,0x00,Read,ACK
5.867625781250000,0,0x5D,0x00,Read,ACK
5.867647250000000,0,0x5D,0x00,Read,ACK
5.867668718750000,0,0x5D,0x00,Read,ACK
5.867690218750000,0,0x5D,0x00,Read,ACK
5.867712687500000,0,0x5D,0x00,Read,NAK
5.873852156250000,0,0x5D,0x2F,Read,ACK
5.873880281250000,0,0x5D,0x00,Read,ACK
5.873901750000000,0,0x5D,0x04,Read,ACK
5.873923218750000,0,0x5D,0x03,Read,ACK
5.873944687500000,0,0x5D,0x80,Read,ACK
5.873966156250000,0,0x5D,0x06,Read,ACK
5.873987625000000,0,0x5D,0xA7,Read,ACK
5.874009093750000,0,0x5D,0x05,Read,ACK
5.874030562500000,0,0x5D,0x03,Read,ACK
5.874052062500000,0,0x5D,0x03,Read,ACK
5.874073500000000,0,0x5D,0x20,Read,ACK
5.874094968750000,0,0x5D,0x00,Read,ACK
5.874116625000000,0,0x5D,0x00,Read,ACK
5.874138125000000,0,0x5D,0x00,Read,ACK
5.874159562500000,0,0x5D,0x00,Read,ACK
5.874181156250000,0,0x5D,0x00,Read,ACK
5.874202625000000,0,0x5D,0x00,Read,ACK
5.874224125000000,0,0x5D,0x00,Read,ACK
5.874247906250000,0,0x5D,0x00,Read,ACK
5.874269343750000,0,0x5D,0x00,Read,ACK
5.874292312500000,0,0x5D,0x00,Read,ACK
5.874313781250000,0,0x5D,0x00,Read,ACK
5.874335406250000,0,0x5D,0x00,Read,ACK
5.874356937500000,0,0x5D,0x00,Read,ACK
5.874378406250000,0,0x5D,0x00,Read,ACK
5.874399937500000,0,0x5D,0x00,Read,ACK
5.874422062500000,0,0x5D,0x00,Read,ACK
5.874444250000000,0,0x5D,0x00,Read,ACK
5.874466062500000,0,0x5D,0x00,Read,ACK
5.874487593750000,0,0x5D,0x00,Read,ACK
5.874509093750000,0,0x5D,0x00,Read,ACK
5.874530562500000,0,0x5D,0x00,Read,ACK
5.874552250000000,0,0x5D,0x00,Read,ACK
5.874574531250000,0,0x5D,0x00,Read,ACK
5.874596031250000,0,0x5D,0x00,Read,ACK
5.874617500000000,0,0x5D,0x00,Read,ACK
5.874639156250000,0,0x5D,0x00,Read,ACK
5.874661218750000,0,0x5D,0x00,Read,ACK
5.874682718750000,0,0x5D,0x00,Read,ACK
5.874705125000000,0,0x5D,0x00,Read,ACK
5.874727093750000,0,0x5D,0x00,Read,ACK
5.874748562500000,0,0x5D,0x00,Read,ACK
5.874770031250000,0,0x5D,0x00,Read,ACK
5.874791531250000,0,0x5D,0x06,Read,ACK
5.874813031250000,0,0x5D,0x9A,Read,ACK
5.874834750000000,0,0x5D,0x01,Read,ACK
5.874858000000000,0,0x5D,0x00,Read,ACK
5.874879468750000,0,0x5D,0x00,Read,ACK
5.874900937500000,0,0x5D,0x00,Read,ACK
5.874922437500000,0,0x5D,0x00,Read,ACK
5.874943906250000,0,0x5D,0x00,Read,ACK
5.874965343750000,0,0x5D,0x00,Read,ACK
5.874987125000000,0,0x5D,0x00,Read,ACK
5.875008906250000,0,0x5D,0x00,Read,ACK
5.875030375000000,0,0x5D,0x00,Read,ACK
5.875051875000000,0,0x5D,0x00,Read,ACK
5.875073468750000,0,0x5D,0x00,Read,ACK
5.875095125000000,0,0x5D,0x00,Read,ACK
5.875117218750000,0,0x5D,0x00,Read,ACK
5.875139062500000,0,0x5D,0x00,Read,ACK
5.875160531250000,0,0x5D,0x00,Read,ACK
5.875181968750000,0,0x5D,0x00,Read,ACK
5.875203562500000,0,0x5D,0x00,Read,ACK
5.875228218750000,0,0x5D,0x00,Read,NAK
5.880705437500000,0,0x5D,0x2F,Read,ACK
5.880732906250000,0,0x5D,0x00,Read,ACK
5.880754531250000,0,0x5D,0x04,Read,ACK
5.880776000000000,0,0x5D,0x03,Read,ACK
5.880797500000000,0,0x5D,0x4C,Read,ACK
5.880818968750000,0,0x5D,0x06,Read,ACK
5.880840531250000,0,0x5D,0x8F,Read,ACK
5.880863281250000,0,0x5D,0x05,Read,ACK
5.880884812500000,0,0x5D,0x03,Read,ACK
5.880906687500000,0,0x5D,0x03,Read,ACK
5.880928156250000,0,0x5D,0x20,Read,ACK
5.880949656250000,0,0x5D,0x00,Read,ACK
5.880974437500000,0,0x5D,0x00,Read,ACK
5.880995937500000,0,0x5D,0x00,Read,ACK
5.881017406250000,0,0x5D,0x00,Read,ACK
5.881038875000000,0,0x5D,0x00,Read,ACK
5.881060343750000,0,0x5D,0x00,Read,ACK
5.881081937500000,0,0x5D,0x00,Read,ACK
5.881103406250000,0,0x5D,0x00,Read,ACK
5.881124875000000,0,0x5D,0x00,Read,ACK
5.881146343750000,0,0x5D,0x00,Read,ACK
5.881167812500000,0,0x5D,0x00,Read,ACK
5.881189406250000,0,0x5D,0x00,Read,ACK
5.881210906250000,0,0x5D,0x00,Read,ACK
5.881232375000000,0,0x5D,0x00,Read,ACK
5.881253875000000,0,0x5D,0x00,Read,ACK
5.881275343750000,0,0x5D,0x00,Read,ACK
5.881296812500000,0,0x5D,0x00,Read,ACK
5.881318281250000,0,0x5D,0x00,Read,ACK
5.881339750000000,0,0x5D,0x00,Read,ACK
5.881361218750000,0,0x5D,0x00,Read,ACK
5.881384250000000,0,0x5D,0x00,Read,ACK
5.881408031250000,0,0x5D,0x00,Read,ACK
5.881429812500000,0,0x5D,0x00,Read,ACK
5.881452562500000,0,0x5D,0x00,Read,ACK
5.881474656250000,0,0x5D,0x00,Read,ACK
5.881496375000000,0,0x5D,0x00,Read,ACK
5.881517875000000,0,0x5D,0x00,Read,ACK
5.881539343750000,0,0x5D,0x00,Read,ACK
5.881560812500000,0,0x5D,0x00,Read,ACK
5.881584468750000,0,0x5D,0x00,Read,ACK
5.881606468750000,0,0x5D,0x00,Read,ACK
5.881627906250000,0,0x5D,0x00,Read,ACK
5.881649375000000,0,0x5D,0x4C,Read,ACK
5.881670906250000,0,0x5D,0x9A,Read,ACK
5.881692375000000,0,0x5D,0x01,Read,ACK
5.881714593750000,0,0x5D,0x00,Read,ACK
5.881736062500000,0,0x5D,0x00,Read,ACK
5.881757781250000,0,0x5D,0x00,Read,ACK
5.881779250000000,0,0x5D,0x00,Read,ACK
5.881800812500000,0,0x5D,0x00,Read,ACK
5.881823781250000,0,0x5D,0x00,Read,ACK
5.881846906250000,0,0x5D,0x00,Read,ACK
5.881868562500000,0,0x5D,0x00,Read,ACK
5.881890031250000,0,0x5D,0x00,Read,ACK
5.881913125000000,0,0x5D,0x00,Read,ACK
5.881935031250000,0,0x5D,0x00,Read,ACK
5.881958406250000,0,0x5D,0x00,Read,ACK
5.881979875000000,0,0x5D,0x00,Read,ACK
5.882004437500000,0,0x5D,0x00,Read,ACK
5.882026843750000,0,0x5D,0x00,Read,ACK
5.882049718750000,0,0x5D,0x00,Read,ACK
5.882072562500000,0,0x5D,0x00,Read,ACK
5.882094656250000,0,0x5D,0x00,Read,NAK
5.888366593750000,0,0x5D,0x2F,Read,ACK
5.888391187500000,0,0x5D,0x00,Read,ACK
5.888412656250000,0,0x5D,0x04,Read,ACK
5.888438781250000,0,0x5D,0x03,Read,ACK
5.888461656250000,0,0x5D,0x1C,Read,ACK
5.888484562500000,0,0x5D,0x06,Read,ACK
5.888506156250000,0,0x5D,0x75,Read,ACK
5.888529625000000,0,0x5D,0x05,Read,ACK
5.888551093750000,0,0x5D,0x03,Read,ACK
5.888572562500000,0,0x5D,0x02,Read,ACK
5.888594062500000,0,0x5D,0x20,Read,ACK
5.888616500000000,0,0x5D,0x00,Read,ACK
5.888639093750000,0,0x5D,0x00,Read,ACK
5.888660593750000,0,0x5D,0x00,Read,ACK
5.888683156250000,0,0x5D,0x00,Read,ACK
5.888704625000000,0,0x5D,0x00,Read,ACK
5.888726125000000,0,0x5D,0x00,Read,ACK
5.888749031250000,0,0x5D,0x00,Read,ACK
5.888770843750000,0,0x5D,0x00,Read,ACK
5.888792312500000,0,0x5D,0x00,Read,ACK
5.888814531250000,0,0x5D,0x00,Read,ACK
5.888836000000000,0,0x5D,0x00,Read,ACK
5.888857906250000,0,0x5D,0x00,Read,ACK
5.888880750000000,0,0x5D,0x00,Read,ACK
5.888902218750000,0,0x5D,0x00,Read,ACK
5.888924343750000,0,0x5D,0x00,Read,ACK
5.888945843750000,0,0x5D,0x00,Read,ACK
5.888967312500000,0,0x5D,0x00,Read,ACK
5.888988937500000,0,0x5D,0x00,Read,ACK
5.889012250000000,0,0x5D,0x00,Read,ACK
5.889033718750000,0,0x5D,0x00,Read,ACK
5.889057062500000,0,0x5D,0x00,Read,ACK
5.889078875000000,0,0x5D,0x00,Read,ACK
5.889101093750000,0,0x5D,0x00,Read,ACK
5.889131312500000,0,0x5D,0x00,Read,ACK
5.889152812500000,0,0x5D,0x00,Read,ACK
5.889174281250000,0,0x5D,0x00,Read,ACK
5.889195718750000,0,0x5D,0x00,Read,ACK
5.889217218750000,0,0x5D,0x00,Read,ACK
5.889239843750000,0,0x5D,0x00,Read,ACK
5.889261531250000,0,0x5D,0x00,Read,ACK
5.889283500000000,0,0x5D,0x00,Read,ACK
5.889305875000000,0,0x5D,0x00,Read,ACK
5.889327406250000,0,0x5D,0x92,Read,ACK
5.889348906250000,0,0x5D,0x9A,Read,ACK
5.889370375000000,0,0x5D,0x01,Read,ACK
5.889392187500000,0,0x5D,0x00,Read,ACK
5.889413687500000,0,0x5D,0x00,Read,ACK
5.889435156250000,0,0x5D,0x00,Read,ACK
5.889456625000000,0,0x5D,0x00,Read,ACK
5.889478093750000,0,0x5D,0x00,Read,ACK
5.889499562500000,0,0x5D,0x00,Read,ACK
5.889521031250000,0,0x5D,0x00,Read,ACK
5.889542531250000,0,0x5D,0x00,Read,ACK
5.889563968750000,0,0x5D,0x00,Read,ACK
5.889585437500000,0,0x5D,0x00,Read,ACK
5.889607218750000,0,0x5D,0x00,Read,ACK
5.889628687500000,0,0x5D,0x00,Read,ACK
5.889650187500000,0,0x5D,0x00,Read,ACK
5.889674187500000,0,0x5D,0x00,Read,ACK
5.889695656250000,0,0x5D,0x00,Read,ACK
5.889718000000000,0,0x5D,0x00,Read,ACK
5.889739468750000,0,0x5D,0x00,Read,ACK
5.889761437500000,0,0x5D,0x00,Read,NAK
5.894983562500000,0,0x5D,0x2F,Read,ACK
5.895008687500000,0,0x5D,0x00,Read,ACK
5.895030781250000,0,0x5D,0x04,Read,ACK
5.895053218750000,0,0x5D,0x03,Read,ACK
5.895074687500000,0,0x5D,0xF1,Read,ACK
5.895096156250000,0,0x5D,0x05,Read,ACK
5.895117656250000,0,0x5D,0x5B,Read,ACK
5.895139593750000,0,0x5D,0x05,Read,ACK
5.895161093750000,0,0x5D,0x03,Read,ACK
5.895182562500000,0,0x5D,0x02,Read,ACK
5.895205000000000,0,0x5D,0x20,Read,ACK
5.895226531250000,0,0x5D,0x00,Read,ACK
5.895249781250000,0,0x5D,0x00,Read,ACK
5.895271250000000,0,0x5D,0x00,Read,ACK
5.895292718750000,0,0x5D,0x00,Read,ACK
5.895314187500000,0,0x5D,0x00,Read,ACK
5.895335656250000,0,0x5D,0x00,Read,ACK
5.895357125000000,0,0x5D,0x00,Read,ACK
5.895378593750000,0,0x5D,0x00,Read,ACK
5.895400062500000,0,0x5D,0x00,Read,ACK
5.895421531250000,0,0x5D,0x00,Read,ACK
5.895443156250000,0,0x5D,0x00,Read,ACK
5.895464656250000,0,0x5D,0x00,Read,ACK
5.895486125000000,0,0x5D,0x00,Read,ACK
5.895507625000000,0,0x5D,0x00,Read,ACK
5.895529125000000,0,0x5D,0x00,Read,ACK
5.895550593750000,0,0x5D,0x00,Read,ACK
5.895572093750000,0,0x5D,0x00,Read,ACK
5.895593531250000,0,0x5D,0x00,Read,ACK
5.895615000000000,0,0x5D,0x00,Read,ACK
5.895640156250000,0,0x5D,0x00,Read,ACK
5.895664062500000,0,0x5D,0x00,Read,ACK
5.895687218750000,0,0x5D,0x00,Read,ACK
5.895710718750000,0,0x5D,0x00,Read,ACK
5.895732906250000,0,0x5D,0x00,Read,ACK
5.895754593750000,0,0x5D,0x00,Read,ACK
5.895776812500000,0,0x5D,0x00,Read,ACK
5.895798312500000,0,0x5D,0x00,Read,ACK
5.895819781250000,0,0x5D,0x00,Read,ACK
5.895841343750000,0,0x5D,0x00,Read,ACK
5.895864250000000,0,0x5D,0x00,Read,ACK
5.895886343750000,0,0x5D,0x00,Read,ACK
5.895909031250000,0,0x5D,0x00,Read,ACK
5.895930937500000,0,0x5D,0xD8,Read,ACK
5.895952406250000,0,0x5D,0x9A,Read,ACK
5.895973875000000,0,0x5D,0x01,Read,ACK
5.895995343750000,0,0x5D,0x00,Read,ACK
5.896017093750000,0,0x5D,0x00,Read,ACK
5.896038656250000,0,0x5D,0x00,Read,ACK
5.896060125000000,0,0x5D,0x00,Read,ACK
5.896081656250000,0,0x5D,0x00,Read,ACK
5.896103218750000,0,0x5D,0x00,Read,ACK
5.896124687500000,0,0x5D,0x00,Read,ACK
5.896146343750000,0,0x5D,0x00,Read,ACK
5.896167843750000,0,0x5D,0x00,Read,ACK
5.896189687500000,0,0x5D,0x00,Read,ACK
5.896211406250000,0,0x5D,0x00,Read,ACK
5.896232875000000,0,0x5D,0x00,Read,ACK
5.896254781250000,0,0x5D,0x00,Read,ACK
5.896277187500000,0,0x5D,0x00,Read,ACK
5.896303156250000,0,0x5D,0x00,Read,ACK
5.896326218750000,0,0x5D,0x00,Read,ACK
5.896348375000000,0,0x5D,0x00,Read,ACK
5.896369843750000,0,0x5D,0x00,Read,NAK
5.902147531250000,0,0x5D,0x2F,Read,ACK
5.902175281250000,0,0x5D,0x00,Read,ACK
5.902197656250000,0,0x5D,0x04,Read,ACK
5.902219156250000,0,0x5D,0x03,Read,ACK
5.902240656250000,0,0x5D,0xCD,Read,ACK
5.902262125000000,0,0x5D,0x05,Read,ACK
5.902285281250000,0,0x5D,0x40,Read,ACK
5.902307468750000,0,0x5D,0x05,Read,ACK
5.902328937500000,0,0x5D,0x03,Read,ACK
5.902350406250000,0,0x5D,0x03,Read,ACK
5.902371906250000,0,0x5D,0x20,Read,ACK
5.902393375000000,0,0x5D,0x00,Read,ACK
5.902418687500000,0,0x5D,0x00,Read,ACK
5.902440156250000,0,0x5D,0x00,Read,ACK
5.902461625000000,0,0x5D,0x00,Read,ACK
5.902483125000000,0,0x5D,0x00,Read,ACK
5.902504593750000,0,0x5D,0x00,Read,ACK
5.902526218750000,0,0x5D,0x00,Read,ACK
5.902547718750000,0,0x5D,0x00,Read,ACK
5.902569187500000,0,0x5D,0x00,Read,ACK
5.902590656250000,0,0x5D,0x00,Read,ACK
5.902612125000000,0,0x5D,0x00,Read,ACK
5.902633593750000,0,0x5D,0x00,Read,ACK
5.902655062500000,0,0x5D,0x00,Read,ACK
5.902676531250000,0,0x5D,0x00,Read,ACK
5.902698000000000,0,0x5D,0x00,Read,ACK
5.902719437500000,0,0x5D,0x00,Read,ACK
5.902740937500000,0,0x5D,0x00,Read,ACK
5.902762406250000,0,0x5D,0x00,Read,ACK
5.902783875000000,0,0x5D,0x00,Read,ACK
5.902805343750000,0,0x5D,0x00,Read,ACK
5.902827031250000,0,0x5D,0x00,Read,ACK
5.902848531250000,0,0x5D,0x00,Read,ACK
5.902873312500000,0,0x5D,0x00,Read,ACK
5.902897250000000,0,0x5D,0x00,Read,ACK
5.902918687500000,0,0x5D,0x00,Read,ACK
5.902941718750000,0,0x5D,0x00,Read,ACK
5.902965218750000,0,0x5D,0x00,Read,ACK
5.902988187500000,0,0x5D,0x00,Read,ACK
5.903009687500000,0,0x5D,0x00,Read,ACK
5.903031156250000,0,0x5D,0x00,Read,ACK
5.903054562500000,0,0x5D,0x00,Read,ACK
5.903077812500000,0,0x5D,0x00,Read,ACK
5.903099312500000,0,0x5D,0x1E,Read,ACK
5.903121375000000,0,0x5D,0x9B,Read,ACK
5.903143187500000,0,0x5D,0x01,Read,ACK
5.903164656250000,0,0x5D,0x00,Read,ACK
5.903187437500000,0,0x5D,0x00,Read,ACK
5.903210656250000,0,0x5D,0x00,Read,ACK
5.903232125000000,0,0x5D,0x00,Read,ACK
5.903253593750000,0,0x5D,0x00,Read,ACK
5.903276250000000,0,0x5D,0x00,Read,ACK
5.903297718750000,0,0x5D,0x00,Read,ACK
5.903320062500000,0,0x5D,0x00,Read,ACK
5.903341562500000,0,0x5D,0x00,Read,ACK
5.903363031250000,0,0x5D,0x00,Read,ACK
5.903384593750000,0,0x5D,0x00,Read,ACK
5.903406406250000,0,0x5D,0x00,Read,ACK
5.903428125000000,0,0x5D,0x00,Read,ACK
5.903451156250000,0,0x5D,0x00,Read,ACK
5.903473093750000,0,0x5D,0x00,Read,ACK
5.903494906250000,0,0x5D,0x00,Read,ACK
5.903520656250000,0,0x5D,0x00,Read,ACK
5.903542218750000,0,0x5D,0x00,Read,NAK
5.909332906250000,0,0x5D,0x2F,Read,ACK
5.909359031250000,0,0x5D,0x00,Read,ACK
5.909381281250000,0,0x5D,0x04,Read,ACK
5.909402781250000,0,0x5D,0x03,Read,ACK
5.909424281250000,0,0x5D,0xB0,Read,ACK
5.909447031250000,0,0x5D,0x05,Read,ACK
5.909470437500000,0,0x5D,0x26,Read,ACK
5.909491875000000,0,0x5D,0x05,Read,ACK
5.909513375000000,0,0x5D,0x03,Read,ACK
5.909534812500000,0,0x5D,0x03,Read,ACK
5.909556656250000,0,0x5D,0x20,Read,ACK
5.909578437500000,0,0x5D,0x00,Read,ACK
5.909599906250000,0,0x5D,0x00,Read,ACK
5.909621375000000,0,0x5D,0x00,Read,ACK
5.909642843750000,0,0x5D,0x00,Read,ACK
5.909664312500000,0,0x5D,0x00,Read,ACK
5.909685781250000,0,0x5D,0x00,Read,ACK
5.909707281250000,0,0x5D,0x00,Read,ACK
5.909728718750000,0,0x5D,0x00,Read,ACK
5.909750187500000,0,0x5D,0x00,Read,ACK
5.909771687500000,0,0x5D,0x00,Read,ACK
5.909793156250000,0,0x5D,0x00,Read,ACK
5.909814625000000,0,0x5D,0x00,Read,ACK
5.909836093750000,0,0x5D,0x00,Read,ACK
5.909857593750000,0,0x5D,0x00,Read,ACK
5.909879093750000,0,0x5D,0x00,Read,ACK
5.909900562500000,0,0x5D,0x00,Read,ACK
5.909926031250000,0,0x5D,0x00,Read,ACK
5.909951562500000,0,0x5D,0x00,Read,ACK
5.909973031250000,0,0x5D,0x00,Read,ACK
5.909996093750000,0,0x5D,0x00,Read,ACK
5.910018031250000,0,0x5D,0x00,Read,ACK
5.910039718750000,0,0x5D,0x00,Read,ACK
5.910061218750000,0,0x5D,0x00,Read,ACK
5.910082687500000,0,0x5D,0x00,Read,ACK
5.910104125000000,0,0x5D,0x00,Read,ACK
5.910125593750000,0,0x5D,0x00,Read,ACK
5.910147093750000,0,0x5D,0x00,Read,ACK
5.910170031250000,0,0x5D,0x00,Read,ACK
5.910191593750000,0,0x5D,0x00,Read,ACK
5.910213656250000,0,0x5D,0x00,Read,ACK
5.910235156250000,0,0x5D,0x00,Read,ACK
5.910257031250000,0,0x5D,0x00,Read,ACK
5.910278500000000,0,0x5D,0x64,Read,ACK
5.910299968750000,0,0x5D,0x9B,Read,ACK
5.910321437500000,0,0x5D,0x01,Read,ACK
5.910344187500000,0,0x5D,0x00,Read,ACK
5.910365625000000,0,0x5D,0x00,Read,ACK
5.910387093750000,0,0x5D,0x00,Read,ACK
5.910408875000000,0,0x5D,0x00,Read,ACK
5.910430906250000,0,0x5D,0x00,Read,ACK
5.910453750000000,0,0x5D,0x00,Read,ACK
5.910475343750000,0,0x5D,0x00,Read,ACK
5.910496843750000,0,0x5D,0x00,Read,ACK
5.910518343750000,0,0x5D,0x00,Read,ACK
5.910540468750000,0,0x5D,0x00,Read,ACK
5.910562687500000,0,0x5D,0x00,Read,ACK
5.910584843750000,0,0x5D,0x00,Read,ACK
5.910607281250000,0,0x5D,0x00,Read,ACK
5.910633906250000,0,0x5D,0x00,Read,ACK
5.910657343750000,0,0x5D,0x00,Read,ACK
5.910679250000000,0,0x5D,0x00,Read,ACK
5.910700687500000,0,0x5D,0x00,Read,ACK
5.910722250000000,0,0x5D,0x00,Read,NAK
5.916400875000000,0,0x5D,0x2F,Read,ACK
5.916424875000000,0,0x5D,0x00,Read,ACK
5.916446343750000,0,0x5D,0x04,Read,ACK
5.916468156250000,0,0x5D,0x03,Read,ACK
5.916489656250000,0,0x5D,0x9A,Read,ACK
5.916511125000000,0,0x5D,0x05,Read,ACK
5.916532625000000,0,0x5D,0x0D,Read,ACK
5.916554125000000,0,0x5D,0x05,Read,ACK
5.916575593750000,0,0x5D,0x03,Read,ACK
5.916597781250000,0,0x5D,0x03,Read,ACK
5.916619218750000,0,0x5D,0x20,Read,ACK
5.916640687500000,0,0x5D,0x00,Read,ACK
5.916662156250000,0,0x5D,0x00,Read,ACK
5.916684562500000,0,0x5D,0x00,Read,ACK
5.916706062500000,0,0x5D,0x00,Read,ACK
5.916727500000000,0,0x5D,0x00,Read,ACK
5.916748968750000,0,0x5D,0x00,Read,ACK
5.916770437500000,0,0x5D,0x00,Read,ACK
5.916791906250000,0,0x5D,0x00,Read,ACK
5.916815156250000,0,0x5D,0x00,Read,ACK
5.916836625000000,0,0x5D,0x00,Read,ACK
5.916858062500000,0,0x5D,0x00,Read,ACK
5.916879562500000,0,0x5D,0x00,Read,ACK
5.916901156250000,0,0x5D,0x00,Read,ACK
5.916922593750000,0,0x5D,0x00,Read,ACK
5.916944062500000,0,0x5D,0x00,Read,ACK
5.916965531250000,0,0x5D,0x00,Read,ACK
5.916987000000000,0,0x5D,0x00,Read,ACK
5.917008500000000,0,0x5D,0x00,Read,ACK
5.917029968750000,0,0x5D,0x00,Read,ACK
5.917054718750000,0,0x5D,0x00,Read,ACK
5.917076187500000,0,0x5D,0x00,Read,ACK
5.917098031250000,0,0x5D,0x00,Read,ACK
5.917121187500000,0,0x5D,0x00,Read,ACK
5.917142968750000,0,0x5D,0x00,Read,ACK
5.917165718750000,0,0x5D,0x00,Read,ACK
5.917187656250000,0,0x5D,0x00,Read,ACK
5.917209125000000,0,0x5D,0x00,Read,ACK
5.917230593750000,0,0x5D,0x00,Read,ACK
5.917252406250000,0,0x5D,0x00,Read,ACK
5.917274343750000,0,0x5D,0x00,Read,ACK
5.917296843750000,0,0x5D,0x00,Read,ACK
5.917319062500000,0,0x5D,0x00,Read,ACK
5.917342000000000,0,0x5D,0xAA,Read,ACK
5.917363656250000,0,0x5D,0x9B,Read,ACK
5.917385125000000,0,0x5D,0x01,Read,ACK
5.917407750000000,0,0x5D,0x00,Read,ACK
5.917429187500000,0,0x5D,0x00,Read,ACK
5.917450656250000,0,0x5D,0x00,Read,ACK
5.917472125000000,0,0x5D,0x00,Read,ACK
5.917494187500000,0,0x5D,0x00,Read,ACK
5.917516500000000,0,0x5D,0x00,Read,ACK
5.917539750000000,0,0x5D,0x00,Read,ACK
5.917561218750000,0,0x5D,0x00,Read,ACK
5.917582656250000,0,0x5D,0x00,Read,ACK
5.917604875000000,0,0x5D,0x00,Read,ACK
5.917626343750000,0,0x5D,0x00,Read,ACK
5.917648875000000,0,0x5D,0x00,Read,ACK
5.917670343750000,0,0x5D,0x00,Read,ACK
5.917693187500000,0,0x5D,0x00,Read,ACK
5.917714812500000,0,0x5D,0x00,Read,ACK
5.917738750000000,0,0x5D,0x00,Read,ACK
5.917761312500000,0,0x5D,0x00,Read,ACK
5.917782750000000,0,0x5D,0x00,Read,NAK
5.923594125000000,0,0x5D,0x2F,Read,ACK
5.923620812500000,0,0x5D,0x00,Read,ACK
5.923642250000000,0,0x5D,0x04,Read,ACK
5.923663718750000,0,0x5D,0x03,Read,ACK
5.923685187500000,0,0x5D,0x8C,Read,ACK
5.923706875000000,0,0x5D,0x05,Read,ACK
5.923729625000000,0,0x5D,0xF3,Read,ACK
5.923751093750000,0,0x5D,0x04,Read,ACK
5.923772562500000,0,0x5D,0x03,Read,ACK
5.923794031250000,0,0x5D,0x02,Read,ACK
5.923815500000000,0,0x5D,0x20,Read,ACK
5.923836968750000,0,0x5D,0x00,Read,ACK
5.923860031250000,0,0x5D,0x00,Read,ACK
5.923881718750000,0,0x5D,0x00,Read,ACK
5.923903218750000,0,0x5D,0x00,Read,ACK
5.923924687500000,0,0x5D,0x00,Read,ACK
5.923946156250000,0,0x5D,0x00,Read,ACK
5.923967968750000,0,0x5D,0x00,Read,ACK
5.923989468750000,0,0x5D,0x00,Read,ACK
5.924010906250000,0,0x5D,0x00,Read,ACK
5.924032406250000,0,0x5D,0x00,Read,ACK
5.924053843750000,0,0x5D,0x00,Read,ACK
5.924075343750000,0,0x5D,0x00,Read,ACK
5.924096781250000,0,0x5D,0x00,Read,ACK
5.924118250000000,0,0x5D,0x00,Read,ACK
5.924139718750000,0,0x5D,0x00,Read,ACK
5.924161406250000,0,0x5D,0x00,Read,ACK
5.924182875000000,0,0x5D,0x00,Read,ACK
5.924204656250000,0,0x5D,0x00,Read,ACK
5.924227625000000,0,0x5D,0x00,Read,ACK
5.924250406250000,0,0x5D,0x00,Read,ACK
5.924275343750000,0,0x5D,0x00,Read,ACK
5.924297125000000,0,0x5D,0x00,Read,ACK
5.924319375000000,0,0x5D,0x00,Read,ACK
5.924340812500000,0,0x5D,0x00,Read,ACK
5.924362281250000,0,0x5D,0x00,Read,ACK
5.924383750000000,0,0x5D,0x00,Read,ACK
5.924405593750000,0,0x5D,0x00,Read,ACK
5.924427062500000,0,0x5D,0x00,Read,ACK
5.924448531250000,0,0x5D,0x00,Read,ACK
5.924470156250000,0,0x5D,0x00,Read,ACK
5.924492750000000,0,0x5D,0x00,Read,ACK
5.924514250000000,0,0x5D,0x00,Read,ACK
5.924535906250000,0,0x5D,0xF0,Read,ACK
5.924557656250000,0,0x5D,0x9B,Read,ACK
5.924579156250000,0,0x5D,0x01,Read,ACK
5.924600750000000,0,0x5D,0x00,Read,ACK
5.924622187500000,0,0x5D,0x00,Read,ACK
5.924643812500000,0,0x5D,0x00,Read,ACK
5.924665250000000,0,0x5D,0x00,Read,ACK
5.924687656250000,0,0x5D,0x00,Read,ACK
5.924709125000000,0,0x5D,0x00,Read,ACK
5.924731062500000,0,0x5D,0x00,Read,ACK
5.924752593750000,0,0x5D,0x00,Read,ACK
5.924774031250000,0,0x5D,0x00,Read,ACK
5.924797750000000,0,0x5D,0x00,Read,ACK
5.924820812500000,0,0x5D,0x00,Read,ACK
5.924842718750000,0,0x5D,0x00,Read,ACK
5.924864531250000,0,0x5D,0x00,Read,ACK
5.924886968750000,0,0x5D,0x00,Read,ACK
5.924913343750000,0,0x5D,0x00,Read,ACK
5.924934968750000,0,0x5D,0x00,Read,ACK
5.924956468750000,0,0x5D,0x00,Read,ACK
5.924977937500000,0,0x5D,0x00,Read,NAK
5.930686406250000,0,0x5D,0x2F,Read,ACK
5.930712562500000,0,0x5D,0x00,Read,ACK
5.930734031250000,0,0x5D,0x04,Read,ACK
5.930755531250000,0,0x5D,0x03,Read,ACK
5.930776968750000,0,0x5D,0x83,Read,ACK
5.930798906250000,0,0x5D,0x05,Read,ACK
5.930820437500000,0,0x5D,0xD8,Read,ACK
5.930842125000000,0,0x5D,0x04,Read,ACK
5.930863625000000,0,0x5D,0x03,Read,ACK
5.930885062500000,0,0x5D,0x02,Read,ACK
5.930906531250000,0,0x5D,0x20,Read,ACK
5.930928000000000,0,0x5D,0x00,Read,ACK
5.930949468750000,0,0x5D,0x00,Read,ACK
5.930970937500000,0,0x5D,0x00,Read,ACK
5.930992406250000,0,0x5D,0x00,Read,ACK
5.931013875000000,0,0x5D,0x00,Read,ACK
5.931035343750000,0,0x5D,0x00,Read,ACK
5.931056812500000,0,0x5D,0x00,Read,ACK
5.931078281250000,0,0x5D,0x00,Read,ACK
5.931099750000000,0,0x5D,0x00,Read,ACK
5.931121218750000,0,0x5D,0x00,Read,ACK
5.931142687500000,0,0x5D,0x00,Read,ACK
5.931164156250000,0,0x5D,0x00,Read,ACK
5.931185625000000,0,0x5D,0x00,Read,ACK
5.931207093750000,0,0x5D,0x00,Read,ACK
5.931228593750000,0,0x5D,0x00,Read,ACK
5.931250062500000,0,0x5D,0x00,Read,ACK
5.931271531250000,0,0x5D,0x00,Read,ACK
5.931293000000000,0,0x5D,0x00,Read,ACK
5.931314437500000,0,0x5D,0x00,Read,ACK
5.931335937500000,0,0x5D,0x00,Read,ACK
5.931357406250000,0,0x5D,0x00,Read,ACK
5.931378875000000,0,0x5D,0x00,Read,ACK
5.931400343750000,0,0x5D,0x00,Read,ACK
5.931423187500000,0,0x5D,0x00,Read,ACK
5.931444656250000,0,0x5D,0x00,Read,ACK
5.931466468750000,0,0x5D,0x00,Read,ACK
5.931489375000000,0,0x5D,0x00,Read,ACK
5.931511312500000,0,0x5D,0x00,Read,ACK
5.931532781250000,0,0x5D,0x00,Read,ACK
5.931554218750000,0,0x5D,0x00,Read,ACK
5.931575687500000,0,0x5D,0x00,Read,ACK
5.931597968750000,0,0x5D,0x00,Read,ACK
5.931620750000000,0,0x5D,0x36,Read,ACK
5.931642250000000,0,0x5D,0x9C,Read,ACK
5.931665781250000,0,0x5D,0x01,Read,ACK
5.931687250000000,0,0x5D,0x00,Read,ACK
5.931708718750000,0,0x5D,0x00,Read,ACK
5.931730750000000,0,0x5D,0x00,Read,ACK
5.931753406250000,0,0x5D,0x00,Read,ACK
5.931774875000000,0,0x5D,0x00,Read,ACK
5.931796406250000,0,0x5D,0x00,Read,ACK
5.931817843750000,0,0x5D,0x00,Read,ACK
5.931839562500000,0,0x5D,0x00,Read,ACK
5.931862187500000,0,0x5D,0x00,Read,ACK
5.931884375000000,0,0x5D,0x00,Read,ACK
5.931906531250000,0,0x5D,0x00,Read,ACK
5.931929000000000,0,0x5D,0x00,Read,ACK
5.931950500000000,0,0x5D,0x00,Read,ACK
5.931972031250000,0,0x5D,0x00,Read,ACK
5.931993468750000,0,0x5D,0x00,Read,ACK
5.932015437500000,0,0x5D,0x00,Read,ACK
5.932037843750000,0,0x5D,0x00,Read,ACK
5.932060625000000,0,0x5D,0x00,Read,NAK
5.938430593750000,0,0x5D,0x2F,Read,ACK
5.938455187500000,0,0x5D,0x00,Read,ACK
5.938476687500000,0,0x5D,0x04,Read,ACK
5.938498187500000,0,0x5D,0x03,Read,ACK
5.938520000000000,0,0x5D,0x7F,Read,ACK
5.938543031250000,0,0x5D,0x05,Read,ACK
5.938567625000000,0,0x5D,0xBE,Read,ACK
5.938589125000000,0,0x5D,0x04,Read,ACK
5.938613093750000,0,0x5D,0x03,Read,ACK
5.938634562500000,0,0x5D,0x03,Read,ACK
5.938656031250000,0,0x5D,0x20,Read,ACK
5.938677500000000,0,0x5D,0x00,Read,ACK
5.938698968750000,0,0x5D,0x00,Read,ACK
5.938720906250000,0,0x5D,0x00,Read,ACK
5.938743656250000,0,0x5D,0x00,Read,ACK
5.938766843750000,0,0x5D,0x00,Read,ACK
5.938788281250000,0,0x5D,0x00,Read,ACK
5.938809750000000,0,0x5D,0x00,Read,ACK
5.938831250000000,0,0x5D,0x00,Read,ACK
5.938853562500000,0,0x5D,0x00,Read,ACK
5.938875062500000,0,0x5D,0x00,Read,ACK
5.938896531250000,0,0x5D,0x00,Read,ACK
5.938918500000000,0,0x5D,0x00,Read,ACK
5.938939937500000,0,0x5D,0x00,Read,ACK
5.938961843750000,0,0x5D,0x00,Read,ACK
5.938983343750000,0,0x5D,0x00,Read,ACK
5.939005187500000,0,0x5D,0x00,Read,ACK
5.939026625000000,0,0x5D,0x00,Read,ACK
5.939048468750000,0,0x5D,0x00,Read,ACK
5.939070593750000,0,0x5D,0x00,Read,ACK
5.939092062500000,0,0x5D,0x00,Read,ACK
5.939114781250000,0,0x5D,0x00,Read,ACK
5.939136562500000,0,0x5D,0x00,Read,ACK
5.939159562500000,0,0x5D,0x00,Read,ACK
5.939185812500000,0,0x5D,0x00,Read,ACK
5.939207281250000,0,0x5D,0x00,Read,ACK
5.939228718750000,0,0x5D,0x00,Read,ACK
5.939250187500000,0,0x5D,0x00,Read,ACK
5.939271718750000,0,0x5D,0x00,Read,ACK
5.939293218750000,0,0x5D,0x00,Read,ACK
5.939315562500000,0,0x5D,0x00,Read,ACK
5.939338250000000,0,0x5D,0x00,Read,ACK
5.939360468750000,0,0x5D,0x00,Read,ACK
5.939382687500000,0,0x5D,0x7C,Read,ACK
5.939404156250000,0,0x5D,0x9C,Read,ACK
5.939425656250000,0,0x5D,0x01,Read,ACK
5.939447125000000,0,0x5D,0x00,Read,ACK
5.939468593750000,0,0x5D,0x00,Read,ACK
5.939490062500000,0,0x5D,0x00,Read,ACK
5.939511625000000,0,0x5D,0x00,Read,ACK
5.939533062500000,0,0x5D,0x00,Read,ACK
5.939554531250000,0,0x5D,0x00,Read,ACK
5.939576000000000,0,0x5D,0x00,Read,ACK
5.939597593750000,0,0x5D,0x00,Read,ACK
5.939619062500000,0,0x5D,0x00,Read,ACK
5.939640531250000,0,0x5D,0x00,Read,ACK
5.939662000000000,0,0x5D,0x00,Read,ACK
5.939683562500000,0,0x5D,0x00,Read,ACK
5.939705062500000,0,0x5D,0x00,Read,ACK
5.939726843750000,0,0x5D,0x00,Read,ACK
5.939748375000000,0,0x5D,0x00,Read,ACK
5.939771250000000,0,0x5D,0x00,Read,ACK
5.939794312500000,0,0x5D,0x00,Read,ACK
5.939816531250000,0,0x5D,0x00,Read,NAK
5.945318093750000,0,0x5D,0x2F,Read,ACK
5.945340187500000,0,0x5D,0x00,Read,ACK
5.945361656250000,0,0x5D,0x04,Read,ACK
5.945383156250000,0,0x5D,0x03,Read,ACK
5.945404593750000,0,0x5D,0x80,Read,ACK
5.945426062500000,0,0x5D,0x05,Read,ACK
5.945447875000000,0,0x5D,0xA3,Read,ACK
5.945469312500000,0,0x5D,0x04,Read,ACK
5.945490781250000,0,0x5D,0x03,Read,ACK
5.945512250000000,0,0x5D,0x03,Read,ACK
5.945533750000000,0,0x5D,0x20,Read,ACK
5.945555187500000,0,0x5D,0x00,Read,ACK
5.945576687500000,0,0x5D,0x00,Read,ACK
5.945598125000000,0,0x5D,0x00,Read,ACK
5.945619625000000,0,0x5D,0x00,Read,ACK
5.945641093750000,0,0x5D,0x00,Read,ACK
5.945662562500000,0,0x5D,0x00,Read,ACK
5.945687187500000,0,0x5D,0x00,Read,ACK
5.945712406250000,0,0x5D,0x00,Read,ACK
5.945735875000000,0,0x5D,0x00,Read,ACK
5.945757375000000,0,0x5D,0x00,Read,ACK
5.945781093750000,0,0x5D,0x00,Read,ACK
5.945804000000000,0,0x5D,0x00,Read,ACK
5.945825468750000,0,0x5D,0x00,Read,ACK
5.945846937500000,0,0x5D,0x00,Read,ACK
5.945868406250000,0,0x5D,0x00,Read,ACK
5.945891125000000,0,0x5D,0x00,Read,ACK
5.945912937500000,0,0x5D,0x00,Read,ACK
5.945934437500000,0,0x5D,0x00,Read,ACK
5.945956406250000,0,0x5D,0x00,Read,ACK
5.945979156250000,0,0x5D,0x00,Read,ACK
5.946000625000000,0,0x5D,0x00,Read,ACK
5.946022125000000,0,0x5D,0x00,Read,ACK
5.946043562500000,0,0x5D,0x00,Read,ACK
5.946065062500000,0,0x5D,0x00,Read,ACK
5.946086500000000,0,0x5D,0x00,Read,ACK
5.946108906250000,0,0x5D,0x00,Read,ACK
5.946132406250000,0,0x5D,0x00,Read,ACK
5.946155562500000,0,0x5D,0x00,Read,ACK
5.946177125000000,0,0x5D,0x00,Read,ACK
5.946198593750000,0,0x5D,0x00,Read,ACK
5.946220812500000,0,0x5D,0x00,Read,ACK
5.946242781250000,0,0x5D,0x00,Read,ACK
5.946265468750000,0,0x5D,0xC2,Read,ACK
5.946286968750000,0,0x5D,0x9C,Read,ACK
5.946308468750000,0,0x5D,0x01,Read,ACK
5.946330593750000,0,0x5D,0x00,Read,ACK
5.946357406250000,0,0x5D,0x00,Read,ACK
5.946378875000000,0,0x5D,0x00,Read,ACK
5.946400343750000,0,0x5D,0x00,Read,ACK
5.946422500000000,0,0x5D,0x00,Read,ACK
5.946444937500000,0,0x5D,0x00,Read,ACK
5.946466406250000,0,0x5D,0x00,Read,ACK
5.946487906250000,0,0x5D,0x00,Read,ACK
5.946510000000000,0,0x5D,0x00,Read,ACK
5.946531718750000,0,0x5D,0x00,Read,ACK
5.946553218750000,0,0x5D,0x00,Read,ACK
5.946574750000000,0,0x5D,0x00,Read,ACK
5.946596218750000,0,0x5D,0x00,Read,ACK
5.946617687500000,0,0x5D,0x00,Read,ACK
5.946641343750000,0,0x5D,0x00,Read,ACK
5.946666343750000,0,0x5D,0x00,Read,ACK
5.946687843750000,0,0x5D,0x00,Read,ACK
5.946709312500000,0,0x5D,0x00,Read,NAK
5.952126781250000,0,0x5D,0x2F,Read,ACK
5.952151437500000,0,0x5D,0x00,Read,ACK
5.952173343750000,0,0x5D,0x04,Read,ACK
5.952194812500000,0,0x5D,0x03,Read,ACK
5.952216281250000,0,0x5D,0x85,Read,ACK
5.952237718750000,0,0x5D,0x05,Read,ACK
5.952259187500000,0,0x5D,0x87,Read,ACK
5.952280843750000,0,0x5D,0x04,Read,ACK
5.952302312500000,0,0x5D,0x03,Read,ACK
5.952323968750000,0,0x5D,0x03,Read,ACK
5.952345437500000,0,0x5D,0x20,Read,ACK
5.952366906250000,0,0x5D,0x00,Read,ACK
5.952389343750000,0,0x5D,0x00,Read,ACK
5.952410843750000,0,0x5D,0x00,Read,ACK
5.952432312500000,0,0x5D,0x00,Read,ACK
5.952453781250000,0,0x5D,0x00,Read,ACK
5.952475250000000,0,0x5D,0x00,Read,ACK
5.952496718750000,0,0x5D,0x00,Read,ACK
5.952518187500000,0,0x5D,0x00,Read,ACK
5.952539656250000,0,0x5D,0x00,Read,ACK
5.952561250000000,0,0x5D,0x00,Read,ACK
5.952582718750000,0,0x5D,0x00,Read,ACK
5.952604187500000,0,0x5D,0x00,Read,ACK
5.952625656250000,0,0x5D,0x00,Read,ACK
5.952647125000000,0,0x5D,0x00,Read,ACK
5.952668593750000,0,0x5D,0x00,Read,ACK
5.952690062500000,0,0x5D,0x00,Read,ACK
5.952711531250000,0,0x5D,0x00,Read,ACK
5.952733000000000,0,0x5D,0x00,Read,ACK
5.952754468750000,0,0x5D,0x00,Read,ACK
5.952775937500000,0,0x5D,0x00,Read,ACK
5.952797375000000,0,0x5D,0x00,Read,ACK
5.952820718750000,0,0x5D,0x00,Read,ACK
5.952844656250000,0,0x5D,0x00,Read,ACK
5.952867281250000,0,0x5D,0x00,Read,ACK
5.952888875000000,0,0x5D,0x00,Read,ACK
5.952910843750000,0,0x5D,0x00,Read,ACK
5.952932343750000,0,0x5D,0x00,Read,ACK
5.952953781250000,0,0x5D,0x00,Read,ACK
5.952975250000000,0,0x5D,0x00,Read,ACK
5.952998468750000,0,0x5D,0x00,Read,ACK
5.953021062500000,0,0x5D,0x00,Read,ACK
5.953042687500000,0,0x5D,0x00,Read,ACK
5.953064593750000,0,0x5D,0x08,Read,ACK
5.953086031250000,0,0x5D,0x9D,Read,ACK
5.953107500000000,0,0x5D,0x01,Read,ACK
5.953128968750000,0,0x5D,0x00,Read,ACK
5.953150437500000,0,0x5D,0x00,Read,ACK
5.953174156250000,0,0x5D,0x00,Read,ACK
5.953195625000000,0,0x5D,0x00,Read,ACK
5.953217437500000,0,0x5D,0x00,Read,ACK
5.953240812500000,0,0x5D,0x00,Read,ACK
5.953262500000000,0,0x5D,0x00,Read,ACK
5.953284468750000,0,0x5D,0x00,Read,ACK
5.953305937500000,0,0x5D,0x00,Read,ACK
5.953327500000000,0,0x5D,0x00,Read,ACK
5.953348968750000,0,0x5D,0x00,Read,ACK
5.953370468750000,0,0x5D,0x00,Read,ACK
5.953391937500000,0,0x5D,0x00,Read,ACK
5.953414531250000,0,0x5D,0x00,Read,ACK
5.953436250000000,0,0x5D,0x00,Read,ACK
5.953462937500000,0,0x5D,0x00,Read,ACK
5.953485250000000,0,0x5D,0x00,Read,ACK
5.953506718750000,0,0x5D,0x00,Read,NAK
5.959316718750000,0,0x5D,0x2F,Read,ACK
5.959345187500000,0,0x5D,0x00,Read,ACK
5.959369187500000,0,0x5D,0x04,Read,ACK
5.959391156250000,0,0x5D,0x03,Read,ACK
5.959412656250000,0,0x5D,0x8E,Read,ACK
5.959434156250000,0,0x5D,0x05,Read,ACK
5.959456906250000,0,0x5D,0x6A,Read,ACK
5.959480468750000,0,0x5D,0x04,Read,ACK
5.959501968750000,0,0x5D,0x03,Read,ACK
5.959523593750000,0,0x5D,0x02,Read,ACK
5.959545093750000,0,0x5D,0x20,Read,ACK
5.959566531250000,0,0x5D,0x00,Read,ACK
5.959588031250000,0,0x5D,0x00,Read,ACK
5.959609500000000,0,0x5D,0x00,Read,ACK
5.959630968750000,0,0x5D,0x00,Read,ACK
5.959652437500000,0,0x5D,0x00,Read,ACK
5.959673875000000,0,0x5D,0x00,Read,ACK
5.959695343750000,0,0x5D,0x00,Read,ACK
5.959716812500000,0,0x5D,0x00,Read,ACK
5.959738312500000,0,0x5D,0x00,Read,ACK
5.959759781250000,0,0x5D,0x00,Read,ACK
5.959781250000000,0,0x5D,0x00,Read,ACK
5.959802687500000,0,0x5D,0x00,Read,ACK
5.959824156250000,0,0x5D,0x00,Read,ACK
5.959845625000000,0,0x5D,0x00,Read,ACK
5.959867125000000,0,0x5D,0x00,Read,ACK
5.959888562500000,0,0x5D,0x00,Read,ACK
5.959910031250000,0,0x5D,0x00,Read,ACK
5.959934156250000,0,0x5D,0x00,Read,ACK
5.959955937500000,0,0x5D,0x00,Read,ACK
5.959977875000000,0,0x5D,0x00,Read,ACK
5.960001281250000,0,0x5D,0x00,Read,ACK
5.960024187500000,0,0x5D,0x00,Read,ACK
5.960045656250000,0,0x5D,0x00,Read,ACK
5.960067125000000,0,0x5D,0x00,Read,ACK
5.960088593750000,0,0x5D,0x00,Read,ACK
5.960110031250000,0,0x5D,0x00,Read,ACK
5.960132375000000,0,0x5D,0x00,Read,ACK
5.960153843750000,0,0x5D,0x00,Read,ACK
5.960175750000000,0,0x5D,0x00,Read,ACK
5.960197718750000,0,0x5D,0x00,Read,ACK
5.960219187500000,0,0x5D,0x00,Read,ACK
5.960240687500000,0,0x5D,0x00,Read,ACK
5.960262125000000,0,0x5D,0x4E,Read,ACK
5.960284031250000,0,0x5D,0x9D,Read,ACK
5.960305500000000,0,0x5D,0x01,Read,ACK
5.960326968750000,0,0x5D,0x00,Read,ACK
5.960349687500000,0,0x5D,0x00,Read,ACK
5.960371156250000,0,0x5D,0x00,Read,ACK
5.960392625000000,0,0x5D,0x00,Read,ACK
5.960414687500000,0,0x5D,0x00,Read,ACK
5.960436593750000,0,0x5D,0x00,Read,ACK
5.960458062500000,0,0x5D,0x00,Read,ACK
5.960479500000000,0,0x5D,0x00,Read,ACK
5.960501343750000,0,0x5D,0x00,Read,ACK
5.960522812500000,0,0x5D,0x00,Read,ACK
5.960544281250000,0,0x5D,0x00,Read,ACK
5.960567656250000,0,0x5D,0x00,Read,ACK
5.960589562500000,0,0x5D,0x00,Read,ACK
5.960611250000000,0,0x5D,0x00,Read,ACK
5.960635531250000,0,0x5D,0x00,Read,ACK
5.960657343750000,0,0x5D,0x00,Read,ACK
5.960678843750000,0,0x5D,0x00,Read,ACK
5.960700312500000,0,0x5D,0x00,Read,NAK
5.966413218750000,0,0x5D,0x2F,Read,ACK
5.966437250000000,0,0x5D,0x00,Read,ACK
5.966459625000000,0,0x5D,0x04,Read,ACK
5.966481531250000,0,0x5D,0x03,Read,ACK
5.966503000000000,0,0x5D,0x9B,Read,ACK
5.966524500000000,0,0x5D,0x05,Read,ACK
5.966545937500000,0,0x5D,0x4E,Read,ACK
5.966567437500000,0,0x5D,0x04,Read,ACK
5.966589468750000,0,0x5D,0x03,Read,ACK
5.966610906250000,0,0x5D,0x02,Read,ACK
5.966632593750000,0,0x5D,0x20,Read,ACK
5.966654031250000,0,0x5D,0x00,Read,ACK
5.966675531250000,0,0x5D,0x00,Read,ACK
5.966697000000000,0,0x5D,0x00,Read,ACK
5.966718468750000,0,0x5D,0x00,Read,ACK
5.966739906250000,0,0x5D,0x00,Read,ACK
5.966761406250000,0,0x5D,0x00,Read,ACK
5.966782843750000,0,0x5D,0x00,Read,ACK
5.966804343750000,0,0x5D,0x00,Read,ACK
5.966825812500000,0,0x5D,0x00,Read,ACK
5.966847281250000,0,0x5D,0x00,Read,ACK
5.966868750000000,0,0x5D,0x00,Read,ACK
5.966890250000000,0,0x5D,0x00,Read,ACK
5.966911687500000,0,0x5D,0x00,Read,ACK
5.966933156250000,0,0x5D,0x00,Read,ACK
5.966954625000000,0,0x5D,0x00,Read,ACK
5.966976125000000,0,0x5D,0x00,Read,ACK
5.966997562500000,0,0x5D,0x00,Read,ACK
5.967019031250000,0,0x5D,0x00,Read,ACK
5.967040531250000,0,0x5D,0x00,Read,ACK
5.967061968750000,0,0x5D,0x00,Read,ACK
5.967083437500000,0,0x5D,0x00,Read,ACK
5.967105000000000,0,0x5D,0x00,Read,ACK
5.967129062500000,0,0x5D,0x00,Read,ACK
5.967152875000000,0,0x5D,0x00,Read,ACK
5.967175187500000,0,0x5D,0x00,Read,ACK
5.967196656250000,0,0x5D,0x00,Read,ACK
5.967218312500000,0,0x5D,0x00,Read,ACK
5.967239781250000,0,0x5D,0x00,Read,ACK
5.967261718750000,0,0x5D,0x00,Read,ACK
5.967283156250000,0,0x5D,0x00,Read,ACK
5.967306656250000,0,0x5D,0x00,Read,ACK
5.967328125000000,0,0x5D,0x00,Read,ACK
5.967349562500000,0,0x5D,0x94,Read,ACK
5.967371031250000,0,0x5D,0x9D,Read,ACK
5.967392531250000,0,0x5D,0x01,Read,ACK
5.967414375000000,0,0x5D,0x00,Read,ACK
5.967435937500000,0,0x5D,0x00,Read,ACK
5.967457531250000,0,0x5D,0x00,Read,ACK
5.967481718750000,0,0x5D,0x00,Read,ACK
5.967503750000000,0,0x5D,0x00,Read,ACK
5.967525406250000,0,0x5D,0x00,Read,ACK
5.967547281250000,0,0x5D,0x00,Read,ACK
5.967568843750000,0,0x5D,0x00,Read,ACK
5.967590968750000,0,0x5D,0x00,Read,ACK
5.967612437500000,0,0x5D,0x00,Read,ACK
5.967633906250000,0,0x5D,0x00,Read,ACK
5.967655375000000,0,0x5D,0x00,Read,ACK
5.967677375000000,0,0x5D,0x00,Read,ACK
5.967698906250000,0,0x5D,0x00,Read,ACK
5.967721312500000,0,0x5D,0x00,Read,ACK
5.967743562500000,0,0x5D,0x00,Read,ACK
5.967767687500000,0,0x5D,0x00,Read,ACK
5.967789218750000,0,0x5D,0x00,Read,NAK
5.973593031250000,0,0x5D,0x2F,Read,ACK
5.973620250000000,0,0x5D,0x00,Read,ACK
5.973641781250000,0,0x5D,0x04,Read,ACK
5.973663281250000,0,0x5D,0x03,Read,ACK
5.973684718750000,0,0x5D,0xAB,Read,ACK
5.973706187500000,0,0x5D,0x05,Read,ACK
5.973728968750000,0,0x5D,0x32,Read,ACK
5.973750437500000,0,0x5D,0x04,Read,ACK
5.973771937500000,0,0x5D,0x03,Read,ACK
5.973793406250000,0,0x5D,0x03,Read,ACK
5.973814843750000,0,0x5D,0x20,Read,ACK
5.973836312500000,0,0x5D,0x00,Read,ACK
5.973857812500000,0,0x5D,0x00,Read,ACK
5.973879531250000,0,0x5D,0x00,Read,ACK
5.973900968750000,0,0x5D,0x00,Read,ACK
5.973922468750000,0,0x5D,0x00,Read,ACK
5.973943937500000,0,0x5D,0x00,Read,ACK
5.973965406250000,0,0x5D,0x00,Read,ACK
5.973987000000000,0,0x5D,0x00,Read,ACK
5.974008531250000,0,0x5D,0x00,Read,ACK
5.974030000000000,0,0x5D,0x00,Read,ACK
5.974051625000000,0,0x5D,0x00,Read,ACK
5.974073125000000,0,0x5D,0x00,Read,ACK
5.974094625000000,0,0x5D,0x00,Read,ACK
5.974116062500000,0,0x5D,0x00,Read,ACK
5.974137531250000,0,0x5D,0x00,Read,ACK
5.974159062500000,0,0x5D,0x00,Read,ACK
5.974180562500000,0,0x5D,0x00,Read,ACK
5.974202000000000,0,0x5D,0x00,Read,ACK
5.974223468750000,0,0x5D,0x00,Read,ACK
5.974244937500000,0,0x5D,0x00,Read,ACK
5.974266406250000,0,0x5D,0x00,Read,ACK
5.974289375000000,0,0x5D,0x00,Read,ACK
5.974313593750000,0,0x5D,0x00,Read,ACK
5.974338343750000,0,0x5D,0x00,Read,ACK
5.974360156250000,0,0x5D,0x00,Read,ACK
5.974382500000000,0,0x5D,0x00,Read,ACK
5.974403968750000,0,0x5D,0x00,Read,ACK
5.974425437500000,0,0x5D,0x00,Read,ACK
5.974447031250000,0,0x5D,0x00,Read,ACK
5.974469843750000,0,0x5D,0x00,Read,ACK
5.974491812500000,0,0x5D,0x00,Read,ACK
5.974513281250000,0,0x5D,0x00,Read,ACK
5.974534750000000,0,0x5D,0xDA,Read,ACK
5.974556468750000,0,0x5D,0x9D,Read,ACK
5.974577968750000,0,0x5D,0x01,Read,ACK
5.974599406250000,0,0x5D,0x00,Read,ACK
5.974622156250000,0,0x5D,0x00,Read,ACK
5.974645812500000,0,0x5D,0x00,Read,ACK
5.974668562500000,0,0x5D,0x00,Read,ACK
5.974690031250000,0,0x5D,0x00,Read,ACK
5.974711500000000,0,0x5D,0x00,Read,ACK
5.974733062500000,0,0x5D,0x00,Read,ACK
5.974754531250000,0,0x5D,0x00,Read,ACK
5.974776468750000,0,0x5D,0x00,Read,ACK
5.974797937500000,0,0x5D,0x00,Read,ACK
5.974821000000000,0,0x5D,0x00,Read,ACK
5.974842468750000,0,0x5D,0x00,Read,ACK
5.974865000000000,0,0x5D,0x00,Read,ACK
5.974886500000000,0,0x5D,0x00,Read,ACK
5.974909375000000,0,0x5D,0x00,Read,ACK
5.974931093750000,0,0x5D,0x00,Read,ACK
5.974954375000000,0,0x5D,0x00,Read,ACK
5.974975812500000,0,0x5D,0x00,Read,NAK
5.980711312500000,0,0x5D,0x2F,Read,ACK
5.980736437500000,0,0x5D,0x00,Read,ACK
5.980760750000000,0,0x5D,0x04,Read,ACK
5.980782218750000,0,0x5D,0x03,Read,ACK
5.980803687500000,0,0x5D,0xBE,Read,ACK
5.980825187500000,0,0x5D,0x05,Read,ACK
5.980846656250000,0,0x5D,0x18,Read,ACK
5.980868093750000,0,0x5D,0x04,Read,ACK
5.980889593750000,0,0x5D,0x04,Read,ACK
5.980911031250000,0,0x5D,0x03,Read,ACK
5.980932531250000,0,0x5D,0x20,Read,ACK
5.980954250000000,0,0x5D,0x00,Read,ACK
5.980975937500000,0,0x5D,0x00,Read,ACK
5.980997406250000,0,0x5D,0x00,Read,ACK
5.981018906250000,0,0x5D,0x00,Read,ACK
5.981040468750000,0,0x5D,0x00,Read,ACK
5.981061937500000,0,0x5D,0x00,Read,ACK
5.981083437500000,0,0x5D,0x00,Read,ACK
5.981104906250000,0,0x5D,0x00,Read,ACK
5.981126343750000,0,0x5D,0x00,Read,ACK
5.981147843750000,0,0x5D,0x00,Read,ACK
5.981169312500000,0,0x5D,0x00,Read,ACK
5.981190750000000,0,0x5D,0x00,Read,ACK
5.981212250000000,0,0x5D,0x00,Read,ACK
5.981233687500000,0,0x5D,0x00,Read,ACK
5.981255375000000,0,0x5D,0x00,Read,ACK
5.981277000000000,0,0x5D,0x00,Read,ACK
5.981298500000000,0,0x5D,0x00,Read,ACK
5.981319968750000,0,0x5D,0x00,Read,ACK
5.981341468750000,0,0x5D,0x00,Read,ACK
5.981362906250000,0,0x5D,0x00,Read,ACK
5.981384375000000,0,0x5D,0x00,Read,ACK
5.981406000000000,0,0x5D,0x00,Read,ACK
5.981427875000000,0,0x5D,0x00,Read,ACK
5.981449593750000,0,0x5D,0x00,Read,ACK
5.981471062500000,0,0x5D,0x00,Read,ACK
5.981492531250000,0,0x5D,0x00,Read,ACK
5.981514000000000,0,0x5D,0x00,Read,ACK
5.981536625000000,0,0x5D,0x00,Read,ACK
5.981560031250000,0,0x5D,0x00,Read,ACK
5.981582687500000,0,0x5D,0x00,Read,ACK
5.981604312500000,0,0x5D,0x00,Read,ACK
5.981626875000000,0,0x5D,0x00,Read,ACK
5.981648375000000,0,0x5D,0x20,Read,ACK
5.981669906250000,0,0x5D,0x9E,Read,ACK
5.981691375000000,0,0x5D,0x01,Read,ACK
5.981712843750000,0,0x5D,0x00,Read,ACK
5.981734531250000,0,0x5D,0x00,Read,ACK
5.981755968750000,0,0x5D,0x00,Read,ACK
5.981777593750000,0,0x5D,0x00,Read,ACK
5.981799031250000,0,0x5D,0x00,Read,ACK
5.981821000000000,0,0x5D,0x00,Read,ACK
5.981842531250000,0,0x5D,0x00,Read,ACK
5.981864500000000,0,0x5D,0x00,Read,ACK
5.981886187500000,0,0x5D,0x00,Read,ACK
5.981908937500000,0,0x5D,0x00,Read,ACK
5.981930406250000,0,0x5D,0x00,Read,ACK
5.981952500000000,0,0x5D,0x00,Read,ACK
5.981974000000000,0,0x5D,0x00,Read,ACK
5.981996343750000,0,0x5D,0x00,Read,ACK
5.982020656250000,0,0x5D,0x00,Read,ACK
5.982042187500000,0,0x5D,0x00,Read,ACK
5.982063968750000,0,0x5D,0x00,Read,ACK
5.982085437500000,0,0x5D,0x00,Read,NAK
5.988400968750000,0,0x5D,0x2F,Read,ACK
5.988425593750000,0,0x5D,0x00,Read,ACK
5.988447093750000,0,0x5D,0x04,Read,ACK
5.988471718750000,0,0x5D,0x03,Read,ACK
5.988495062500000,0,0x5D,0xD3,Read,ACK
5.988517843750000,0,0x5D,0x05,Read,ACK
5.988540937500000,0,0x5D,0xFF,Read,ACK
5.988562687500000,0,0x5D,0x03,Read,ACK
5.988584312500000,0,0x5D,0x03,Read,ACK
5.988605781250000,0,0x5D,0x03,Read,ACK
5.988627250000000,0,0x5D,0x20,Read,ACK
5.988648718750000,0,0x5D,0x00,Read,ACK
5.988670187500000,0,0x5D,0x00,Read,ACK
5.988691656250000,0,0x5D,0x00,Read,ACK
5.988713500000000,0,0x5D,0x00,Read,ACK
5.988735156250000,0,0x5D,0x00,Read,ACK
5.988756625000000,0,0x5D,0x00,Read,ACK
5.988778093750000,0,0x5D,0x00,Read,ACK
5.988800000000000,0,0x5D,0x00,Read,ACK
5.988821906250000,0,0x5D,0x00,Read,ACK
5.988843375000000,0,0x5D,0x00,Read,ACK
5.988864843750000,0,0x5D,0x00,Read,ACK
5.988887875000000,0,0x5D,0x00,Read,ACK
5.988909343750000,0,0x5D,0x00,Read,ACK
5.988930812500000,0,0x5D,0x00,Read,ACK
5.988952531250000,0,0x5D,0x00,Read,ACK
5.988974000000000,0,0x5D,0x00,Read,ACK
5.988996343750000,0,0x5D,0x00,Read,ACK
5.989019281250000,0,0x5D,0x00,Read,ACK
5.989042468750000,0,0x5D,0x00,Read,ACK
5.989064375000000,0,0x5D,0x00,Read,ACK
5.989088906250000,0,0x5D,0x00,Read,ACK
5.989111375000000,0,0x5D,0x00,Read,ACK
5.989133187500000,0,0x5D,0x00,Read,ACK
5.989155000000000,0,0x5D,0x00,Read,ACK
5.989176593750000,0,0x5D,0x00,Read,ACK
5.989198031250000,0,0x5D,0x00,Read,ACK
5.989219500000000,0,0x5D,0x00,Read,ACK
5.989242031250000,0,0x5D,0x00,Read,ACK
5.989264468750000,0,0x5D,0x00,Read,ACK
5.989286312500000,0,0x5D,0x00,Read,ACK
5.989309156250000,0,0x5D,0x00,Read,ACK
5.989330843750000,0,0x5D,0x00,Read,ACK
5.989352312500000,0,0x5D,0x66,Read,ACK
5.989374343750000,0,0x5D,0x9E,Read,ACK
5.989396062500000,0,0x5D,0x01,Read,ACK
5.989419000000000,0,0x5D,0x00,Read,ACK
5.989440437500000,0,0x5D,0x00,Read,ACK
5.989462812500000,0,0x5D,0x00,Read,ACK
5.989484281250000,0,0x5D,0x00,Read,ACK
5.989505718750000,0,0x5D,0x00,Read,ACK
5.989527875000000,0,0x5D,0x00,Read,ACK
5.989550750000000,0,0x5D,0x00,Read,ACK
5.989572187500000,0,0x5D,0x00,Read,ACK
5.989593656250000,0,0x5D,0x00,Read,ACK
5.989615156250000,0,0x5D,0x00,Read,ACK
5.989636593750000,0,0x5D,0x00,Read,ACK
5.989658562500000,0,0x5D,0x00,Read,ACK
5.989680156250000,0,0x5D,0x00,Read,ACK
5.989701875000000,0,0x5D,0x00,Read,ACK
5.989723500000000,0,0x5D,0x00,Read,ACK
5.989745218750000,0,0x5D,0x00,Read,ACK
5.989766750000000,0,0x5D,0x00,Read,ACK
5.989788187500000,0,0x5D,0x00,Read,NAK
5.995331250000000,0,0x5D,0x2F,Read,ACK
5.995360687500000,0,0x5D,0x00,Read,ACK
5.995383781250000,0,0x5D,0x04,Read,ACK
5.995405218750000,0,0x5D,0x03,Read,ACK
5.995426718750000,0,0x5D,0xE9,Read,ACK
5.995448156250000,0,0x5D,0x05,Read,ACK
5.995469781250000,0,0x5D,0xE7,Read,ACK
5.995491218750000,0,0x5D,0x03,Read,ACK
5.995512687500000,0,0x5D,0x03,Read,ACK
5.995534375000000,0,0x5D,0x03,Read,ACK
5.995555843750000,0,0x5D,0x20,Read,ACK
5.995577312500000,0,0x5D,0x00,Read,ACK
5.995599406250000,0,0x5D,0x00,Read,ACK
5.995622562500000,0,0x5D,0x00,Read,ACK
5.995644000000000,0,0x5D,0x00,Read,ACK
5.995665875000000,0,0x5D,0x00,Read,ACK
5.995687687500000,0,0x5D,0x00,Read,ACK
5.995710656250000,0,0x5D,0x00,Read,ACK
5.995732406250000,0,0x5D,0x00,Read,ACK
5.995753843750000,0,0x5D,0x00,Read,ACK
5.995775312500000,0,0x5D,0x00,Read,ACK
5.995797750000000,0,0x5D,0x00,Read,ACK
5.995819281250000,0,0x5D,0x00,Read,ACK
5.995840843750000,0,0x5D,0x00,Read,ACK
5.995865875000000,0,0x5D,0x00,Read,ACK
5.995887343750000,0,0x5D,0x00,Read,ACK
5.995908843750000,0,0x5D,0x00,Read,ACK
5.995930343750000,0,0x5D,0x00,Read,ACK
5.995952125000000,0,0x5D,0x00,Read,ACK
5.995973593750000,0,0x5D,0x00,Read,ACK
5.995995062500000,0,0x5D,0x00,Read,ACK
5.996016625000000,0,0x5D,0x00,Read,ACK
5.996038968750000,0,0x5D,0x00,Read,ACK
5.996061250000000,0,0x5D,0x00,Read,ACK
5.996082750000000,0,0x5D,0x00,Read,ACK
5.996104468750000,0,0x5D,0x00,Read,ACK
5.996126062500000,0,0x5D,0x00,Read,ACK
5.996147531250000,0,0x5D,0x00,Read,ACK
5.996171281250000,0,0x5D,0x00,Read,ACK
5.996192781250000,0,0x5D,0x00,Read,ACK
5.996214281250000,0,0x5D,0x00,Read,ACK
5.996236000000000,0,0x5D,0x00,Read,ACK
5.996259031250000,0,0x5D,0x00,Read,ACK
5.996282125000000,0,0x5D,0xAC,Read,ACK
5.996303656250000,0,0x5D,0x9E,Read,ACK
5.996327281250000,0,0x5D,0x01,Read,ACK
5.996348843750000,0,0x5D,0x00,Read,ACK
5.996370343750000,0,0x5D,0x00,Read,ACK
5.996391812500000,0,0x5D,0x00,Read,ACK
5.996413750000000,0,0x5D,0x00,Read,ACK
5.996436343750000,0,0x5D,0x00,Read,ACK
5.996457812500000,0,0x5D,0x00,Read,ACK
5.996479343750000,0,0x5D,0x00,Read,ACK
5.996501000000000,0,0x5D,0x00,Read,ACK
5.996522687500000,0,0x5D,0x00,Read,ACK
5.996544343750000,0,0x5D,0x00,Read,ACK
5.996565781250000,0,0x5D,0x00,Read,ACK
5.996587250000000,0,0x5D,0x00,Read,ACK
5.996608718750000,0,0x5D,0x00,Read,ACK
5.996630187500000,0,0x5D,0x00,Read,ACK
5.996651875000000,0,0x5D,0x00,Read,ACK
5.996674937500000,0,0x5D,0x00,Read,ACK
5.996696406250000,0,0x5D,0x00,Read,ACK
5.996717875000000,0,0x5D,0x00,Read,NAK
6.002183031250000,0,0x5D,0x2F,Read,ACK
6.002207562500000,0,0x5D,0x00,Read,ACK
6.002229062500000,0,0x5D,0x04,Read,ACK
6.002250750000000,0,0x5D,0x03,Read,ACK
6.002272281250000,0,0x5D,0x01,Read,ACK
6.002293875000000,0,0x5D,0x06,Read,ACK
6.002315375000000,0,0x5D,0xD0,Read,ACK
6.002336843750000,0,0x5D,0x03,Read,ACK
6.002358468750000,0,0x5D,0x03,Read,ACK
6.002380281250000,0,0x5D,0x02,Read,ACK
6.002401750000000,0,0x5D,0x20,Read,ACK
6.002424750000000,0,0x5D,0x00,Read,ACK
6.002447156250000,0,0x5D,0x00,Read,ACK
6.002468656250000,0,0x5D,0x00,Read,ACK
6.002490125000000,0,0x5D,0x00,Read,ACK
6.002511593750000,0,0x5D,0x00,Read,ACK
6.002533062500000,0,0x5D,0x00,Read,ACK
6.002554781250000,0,0x5D,0x00,Read,ACK
6.002576250000000,0,0x5D,0x00,Read,ACK
6.002597718750000,0,0x5D,0x00,Read,ACK
6.002619187500000,0,0x5D,0x00,Read,ACK
6.002640687500000,0,0x5D,0x00,Read,ACK
6.002662125000000,0,0x5D,0x00,Read,ACK
6.002683625000000,0,0x5D,0x00,Read,ACK
6.002705093750000,0,0x5D,0x00,Read,ACK
6.002726562500000,0,0x5D,0x00,Read,ACK
6.002748031250000,0,0x5D,0x00,Read,ACK
6.002769468750000,0,0x5D,0x00,Read,ACK
6.002790968750000,0,0x5D,0x00,Read,ACK
6.002812562500000,0,0x5D,0x00,Read,ACK
6.002835562500000,0,0x5D,0x00,Read,ACK
6.002858187500000,0,0x5D,0x00,Read,ACK
6.002881875000000,0,0x5D,0x00,Read,ACK
6.002903562500000,0,0x5D,0x00,Read,ACK
6.002925000000000,0,0x5D,0x00,Read,ACK
6.002946906250000,0,0x5D,0x00,Read,ACK
6.002968375000000,0,0x5D,0x00,Read,ACK
6.002989843750000,0,0x5D,0x00,Read,ACK
6.003011781250000,0,0x5D,0x00,Read,ACK
6.003033218750000,0,0x5D,0x00,Read,ACK
6.003055531250000,0,0x5D,0x00,Read,ACK
6.003079875000000,0,0x5D,0x00,Read,ACK
6.003101343750000,0,0x5D,0x00,Read,ACK
6.003123062500000,0,0x5D,0xF2,Read,ACK
6.003144500000000,0,0x5D,0x9E,Read,ACK
6.003166218750000,0,0x5D,0x01,Read,ACK
6.003187718750000,0,0x5D,0x00,Read,ACK
6.003209218750000,0,0x5D,0x00,Read,ACK
6.003230656250000,0,0x5D,0x00,Read,ACK
6.003252125000000,0,0x5D,0x00,Read,ACK
6.003274406250000,0,0x5D,0x00,Read,ACK
6.003296625000000,0,0x5D,0x00,Read,ACK
6.003318125000000,0,0x5D,0x00,Read,ACK
6.003339562500000,0,0x5D,0x00,Read,ACK
6.003362312500000,0,0x5D,0x00,Read,ACK
6.003383750000000,0,0x5D,0x00,Read,ACK
6.003405812500000,0,0x5D,0x00,Read,ACK
6.003428125000000,0,0x5D,0x00,Read,ACK
6.003450906250000,0,0x5D,0x00,Read,ACK
6.003472687500000,0,0x5D,0x00,Read,ACK
6.003501437500000,0,0x5D,0x00,Read,ACK
6.003524500000000,0,0x5D,0x00,Read,ACK
6.003546000000000,0,0x5D,0x00,Read,ACK
6.003567500000000,0,0x5D,0x00,Read,NAK
6.009290187500000,0,0x5D,0x2F,Read,ACK
6.009318656250000,0,0x5D,0x00,Read,ACK
6.009340937500000,0,0x5D,0x04,Read,ACK
6.009363562500000,0,0x5D,0x03,Read,ACK
6.009385062500000,0,0x5D,0x19,Read,ACK
6.009406500000000,0,0x5D,0x06,Read,ACK
6.009429281250000,0,0x5D,0xBD,Read,ACK
6.009451750000000,0,0x5D,0x03,Read,ACK
6.009473625000000,0,0x5D,0x03,Read,ACK
6.009495093750000,0,0x5D,0x02,Read,ACK
6.009516562500000,0,0x5D,0x20,Read,ACK
6.009538031250000,0,0x5D,0x00,Read,ACK
6.009559500000000,0,0x5D,0x00,Read,ACK
6.009581156250000,0,0x5D,0x00,Read,ACK
6.009602625000000,0,0x5D,0x00,Read,ACK
6.009624093750000,0,0x5D,0x00,Read,ACK
6.009645562500000,0,0x5D,0x00,Read,ACK
6.009667062500000,0,0x5D,0x00,Read,ACK
6.009688500000000,0,0x5D,0x00,Read,ACK
6.009709968750000,0,0x5D,0x00,Read,ACK
6.009731437500000,0,0x5D,0x00,Read,ACK
6.009752906250000,0,0x5D,0x00,Read,ACK
6.009774375000000,0,0x5D,0x00,Read,ACK
6.009795875000000,0,0x5D,0x00,Read,ACK
6.009817343750000,0,0x5D,0x00,Read,ACK
6.009838781250000,0,0x5D,0x00,Read,ACK
6.009860250000000,0,0x5D,0x00,Read,ACK
6.009881718750000,0,0x5D,0x00,Read,ACK
6.009903187500000,0,0x5D,0x00,Read,ACK
6.009928656250000,0,0x5D,0x00,Read,ACK
6.009950250000000,0,0x5D,0x00,Read,ACK
6.009971718750000,0,0x5D,0x00,Read,ACK
6.009994937500000,0,0x5D,0x00,Read,ACK
6.010017718750000,0,0x5D,0x00,Read,ACK
6.010039187500000,0,0x5D,0x00,Read,ACK
6.010060750000000,0,0x5D,0x00,Read,ACK
6.010082187500000,0,0x5D,0x00,Read,ACK
6.010103687500000,0,0x5D,0x00,Read,ACK
6.010125156250000,0,0x5D,0x00,Read,ACK
6.010146687500000,0,0x5D,0x00,Read,ACK
6.010168156250000,0,0x5D,0x00,Read,ACK
6.010189625000000,0,0x5D,0x00,Read,ACK
6.010211093750000,0,0x5D,0x00,Read,ACK
6.010232562500000,0,0x5D,0x38,Read,ACK
6.010254031250000,0,0x5D,0x9F,Read,ACK
6.010275750000000,0,0x5D,0x01,Read,ACK
6.010297281250000,0,0x5D,0x00,Read,ACK
6.010319468750000,0,0x5D,0x00,Read,ACK
6.010342093750000,0,0x5D,0x00,Read,ACK
6.010363937500000,0,0x5D,0x00,Read,ACK
6.010386062500000,0,0x5D,0x00,Read,ACK
6.010407625000000,0,0x5D,0x00,Read,ACK
6.010429125000000,0,0x5D,0x00,Read,ACK
6.010450562500000,0,0x5D,0x00,Read,ACK
6.010472406250000,0,0x5D,0x00,Read,ACK
6.010493875000000,0,0x5D,0x00,Read,ACK
6.010516656250000,0,0x5D,0x00,Read,ACK
6.010538781250000,0,0x5D,0x00,Read,ACK
6.010561000000000,0,0x5D,0x00,Read,ACK
6.010584812500000,0,0x5D,0x00,Read,ACK
6.010606750000000,0,0x5D,0x00,Read,ACK
6.010629687500000,0,0x5D,0x00,Read,ACK
6.010651156250000,0,0x5D,0x00,Read,ACK
6.010672625000000,0,0x5D,0x00,Read,NAK
6.016394968750000,0,0x5D,0x2F,Read,ACK
6.016419031250000,0,0x5D,0x00,Read,ACK
6.016440531250000,0,0x5D,0x04,Read,ACK
6.016462000000000,0,0x5D,0x03,Read,ACK
6.016484906250000,0,0x5D,0x31,Read,ACK
6.016507343750000,0,0x5D,0x06,Read,ACK
6.016529125000000,0,0x5D,0xAD,Read,ACK
6.016550625000000,0,0x5D,0x03,Read,ACK
6.016572750000000,0,0x5D,0x03,Read,ACK
6.016594250000000,0,0x5D,0x02,Read,ACK
6.016615718750000,0,0x5D,0x20,Read,ACK
6.016637656250000,0,0x5D,0x00,Read,ACK
6.016659156250000,0,0x5D,0x00,Read,ACK
6.016680625000000,0,0x5D,0x00,Read,ACK
6.016702093750000,0,0x5D,0x00,Read,ACK
6.016724718750000,0,0x5D,0x00,Read,ACK
6.016746156250000,0,0x5D,0x00,Read,ACK
6.016767968750000,0,0x5D,0x00,Read,ACK
6.016789468750000,0,0x5D,0x00,Read,ACK
6.016810937500000,0,0x5D,0x00,Read,ACK
6.016832562500000,0,0x5D,0x00,Read,ACK
6.016854000000000,0,0x5D,0x00,Read,ACK
6.016875468750000,0,0x5D,0x00,Read,ACK
6.016896937500000,0,0x5D,0x00,Read,ACK
6.016918406250000,0,0x5D,0x00,Read,ACK
6.016939875000000,0,0x5D,0x00,Read,ACK
6.016961343750000,0,0x5D,0x00,Read,ACK
6.016982812500000,0,0x5D,0x00,Read,ACK
6.017004281250000,0,0x5D,0x00,Read,ACK
6.017025750000000,0,0x5D,0x00,Read,ACK
6.017047218750000,0,0x5D,0x00,Read,ACK
6.017068687500000,0,0x5D,0x00,Read,ACK
6.017090156250000,0,0x5D,0x00,Read,ACK
6.017111625000000,0,0x5D,0x00,Read,ACK
6.017134562500000,0,0x5D,0x00,Read,ACK
6.017158843750000,0,0x5D,0x00,Read,ACK
6.017180281250000,0,0x5D,0x00,Read,ACK
6.017201750000000,0,0x5D,0x00,Read,ACK
6.017223218750000,0,0x5D,0x00,Read,ACK
6.017245593750000,0,0x5D,0x00,Read,ACK
6.017267093750000,0,0x5D,0x00,Read,ACK
6.017289093750000,0,0x5D,0x00,Read,ACK
6.017310531250000,0,0x5D,0x00,Read,ACK
6.017332906250000,0,0x5D,0x7E,Read,ACK
6.017355312500000,0,0x5D,0x9F,Read,ACK
6.017379156250000,0,0x5D,0x01,Read,ACK
6.017400843750000,0,0x5D,0x00,Read,ACK
6.017422312500000,0,0x5D,0x00,Read,ACK
6.017443812500000,0,0x5D,0x00,Read,ACK
6.017465500000000,0,0x5D,0x00,Read,ACK
6.017487625000000,0,0x5D,0x00,Read,ACK
6.017510562500000,0,0x5D,0x00,Read,ACK
6.017532031250000,0,0x5D,0x00,Read,ACK
6.017553500000000,0,0x5D,0x00,Read,ACK
6.017575468750000,0,0x5D,0x00,Read,ACK
6.017597062500000,0,0x5D,0x00,Read,ACK
6.017618562500000,0,0x5D,0x00,Read,ACK
6.017640000000000,0,0x5D,0x00,Read,ACK
6.017661750000000,0,0x5D,0x00,Read,ACK
6.017683187500000,0,0x5D,0x00,Read,ACK
6.017704718750000,0,0x5D,0x00,Read,ACK
6.017726187500000,0,0x5D,0x00,Read,ACK
6.017749281250000,0,0x5D,0x00,Read,ACK
6.017771093750000,0,0x5D,0x00,Read,NAK
6.023626593750000,0,0x5D,0x2F,Read,ACK
6.023653281250000,0,0x5D,0x00,Read,ACK
6.023675968750000,0,0x5D,0x04,Read,ACK
6.023697468750000,0,0x5D,0x03,Read,ACK
6.023718937500000,0,0x5D,0x4A,Read,ACK
6.023741812500000,0,0x5D,0x06,Read,ACK
6.023763312500000,0,0x5D,0xA0,Read,ACK
6.023784781250000,0,0x5D,0x03,Read,ACK
6.023806250000000,0,0x5D,0x03,Read,ACK
6.023827718750000,0,0x5D,0x02,Read,ACK
6.023849187500000,0,0x5D,0x20,Read,ACK
6.023870656250000,0,0x5D,0x00,Read,ACK
6.023892125000000,0,0x5D,0x00,Read,ACK
6.023913593750000,0,0x5D,0x00,Read,ACK
6.023935062500000,0,0x5D,0x00,Read,ACK
6.023956531250000,0,0x5D,0x00,Read,ACK
6.023978000000000,0,0x5D,0x00,Read,ACK
6.023999468750000,0,0x5D,0x00,Read,ACK
6.024020906250000,0,0x5D,0x00,Read,ACK
6.024042437500000,0,0x5D,0x00,Read,ACK
6.024063937500000,0,0x5D,0x00,Read,ACK
6.024085531250000,0,0x5D,0x00,Read,ACK
6.024107062500000,0,0x5D,0x00,Read,ACK
6.024128500000000,0,0x5D,0x00,Read,ACK
6.024150000000000,0,0x5D,0x00,Read,ACK
6.024171437500000,0,0x5D,0x00,Read,ACK
6.024192906250000,0,0x5D,0x00,Read,ACK
6.024214375000000,0,0x5D,0x00,Read,ACK
6.024236125000000,0,0x5D,0x00,Read,ACK
6.024257750000000,0,0x5D,0x00,Read,ACK
6.024279218750000,0,0x5D,0x00,Read,ACK
6.024300937500000,0,0x5D,0x00,Read,ACK
6.024324375000000,0,0x5D,0x00,Read,ACK
6.024345843750000,0,0x5D,0x00,Read,ACK
6.024367875000000,0,0x5D,0x00,Read,ACK
6.024390218750000,0,0x5D,0x00,Read,ACK
6.024411718750000,0,0x5D,0x00,Read,ACK
6.024433187500000,0,0x5D,0x00,Read,ACK
6.024454906250000,0,0x5D,0x00,Read,ACK
6.024477187500000,0,0x5D,0x00,Read,ACK
6.024498781250000,0,0x5D,0x00,Read,ACK
6.024521437500000,0,0x5D,0x00,Read,ACK
6.024542937500000,0,0x5D,0x00,Read,ACK
6.024565156250000,0,0x5D,0xC4,Read,ACK
6.024586625000000,0,0x5D,0x9F,Read,ACK
6.024608593750000,0,0x5D,0x01,Read,ACK
6.024630062500000,0,0x5D,0x00,Read,ACK
6.024651531250000,0,0x5D,0x00,Read,ACK
6.024674250000000,0,0x5D,0x00,Read,ACK
6.024695687500000,0,0x5D,0x00,Read,ACK
6.024717812500000,0,0x5D,0x00,Read,ACK
6.024740968750000,0,0x5D,0x00,Read,ACK
6.024762500000000,0,0x5D,0x00,Read,ACK
6.024784000000000,0,0x5D,0x00,Read,ACK
6.024807500000000,0,0x5D,0x00,Read,ACK
6.024829250000000,0,0x5D,0x00,Read,ACK
6.024850718750000,0,0x5D,0x00,Read,ACK
6.024872625000000,0,0x5D,0x00,Read,ACK
6.024895687500000,0,0x5D,0x00,Read,ACK
6.024921343750000,0,0x5D,0x00,Read,ACK
6.024943406250000,0,0x5D,0x00,Read,ACK
6.024965156250000,0,0x5D,0x00,Read,ACK
6.024986656250000,0,0x5D,0x00,Read,ACK
6.025008093750000,0,0x5D,0x00,Read,NAK
6.030683218750000,0,0x5D,0x2F,Read,ACK
6.030708312500000,0,0x5D,0x00,Read,ACK
6.030729750000000,0,0x5D,0x04,Read,ACK
6.030751218750000,0,0x5D,0x03,Read,ACK
6.030773781250000,0,0x5D,0x63,Read,ACK
6.030795281250000,0,0x5D,0x06,Read,ACK
6.030816781250000,0,0x5D,0x97,Read,ACK
6.030838218750000,0,0x5D,0x03,Read,ACK
6.030861093750000,0,0x5D,0x03,Read,ACK
6.030884687500000,0,0x5D,0x02,Read,ACK
6.030906156250000,0,0x5D,0x20,Read,ACK
6.030927656250000,0,0x5D,0x00,Read,ACK
6.030949093750000,0,0x5D,0x00,Read,ACK
6.030970562500000,0,0x5D,0x00,Read,ACK
6.030992062500000,0,0x5D,0x00,Read,ACK
6.031014062500000,0,0x5D,0x00,Read,ACK
6.031035531250000,0,0x5D,0x00,Read,ACK
6.031057031250000,0,0x5D,0x00,Read,ACK
6.031078468750000,0,0x5D,0x00,Read,ACK
6.031099937500000,0,0x5D,0x00,Read,ACK
6.031121437500000,0,0x5D,0x00,Read,ACK
6.031142875000000,0,0x5D,0x00,Read,ACK
6.031164375000000,0,0x5D,0x00,Read,ACK
6.031185812500000,0,0x5D,0x00,Read,ACK
6.031207312500000,0,0x5D,0x00,Read,ACK
6.031228968750000,0,0x5D,0x00,Read,ACK
6.031250406250000,0,0x5D,0x00,Read,ACK
6.031271875000000,0,0x5D,0x00,Read,ACK
6.031293406250000,0,0x5D,0x00,Read,ACK
6.031314875000000,0,0x5D,0x00,Read,ACK
6.031336343750000,0,0x5D,0x00,Read,ACK
6.031357843750000,0,0x5D,0x00,Read,ACK
6.031379281250000,0,0x5D,0x00,Read,ACK
6.031400750000000,0,0x5D,0x00,Read,ACK
6.031425187500000,0,0x5D,0x00,Read,ACK
6.031451875000000,0,0x5D,0x00,Read,ACK
6.031474250000000,0,0x5D,0x00,Read,ACK
6.031495750000000,0,0x5D,0x00,Read,ACK
6.031517343750000,0,0x5D,0x00,Read,ACK
6.031538812500000,0,0x5D,0x00,Read,ACK
6.031560281250000,0,0x5D,0x00,Read,ACK
6.031581750000000,0,0x5D,0x00,Read,ACK
6.031605375000000,0,0x5D,0x00,Read,ACK
6.031626875000000,0,0x5D,0x0A,Read,ACK
6.031649093750000,0,0x5D,0xA0,Read,ACK
6.031670562500000,0,0x5D,0x01,Read,ACK
6.031692125000000,0,0x5D,0x00,Read,ACK
6.031713718750000,0,0x5D,0x00,Read,ACK
6.031735312500000,0,0x5D,0x00,Read,ACK
6.031756843750000,0,0x5D,0x00,Read,ACK
6.031778343750000,0,0x5D,0x00,Read,ACK
6.031799812500000,0,0x5D,0x00,Read,ACK
6.031822156250000,0,0x5D,0x00,Read,ACK
6.031843656250000,0,0x5D,0x00,Read,ACK
6.031865906250000,0,0x5D,0x00,Read,ACK
6.031887375000000,0,0x5D,0x00,Read,ACK
6.031909218750000,0,0x5D,0x00,Read,ACK
6.031931593750000,0,0x5D,0x00,Read,ACK
6.031953500000000,0,0x5D,0x00,Read,ACK
6.031975000000000,0,0x5D,0x00,Read,ACK
6.031997031250000,0,0x5D,0x00,Read,ACK
6.032018781250000,0,0x5D,0x00,Read,ACK
6.032041187500000,0,0x5D,0x00,Read,ACK
6.032066156250000,0,0x5D,0x00,Read,NAK
6.038302437500000,0,0x5D,0x2F,Read,ACK
6.038327500000000,0,0x5D,0x00,Read,ACK
6.038348968750000,0,0x5D,0x04,Read,ACK
6.038370437500000,0,0x5D,0x03,Read,ACK
6.038391906250000,0,0x5D,0x7C,Read,ACK
6.038413375000000,0,0x5D,0x06,Read,ACK
6.038434937500000,0,0x5D,0x91,Read,ACK
6.038456437500000,0,0x5D,0x03,Read,ACK
6.038477906250000,0,0x5D,0x03,Read,ACK
6.038500750000000,0,0x5D,0x02,Read,ACK
6.038522218750000,0,0x5D,0x20,Read,ACK
6.038547812500000,0,0x5D,0x00,Read,ACK
6.038569500000000,0,0x5D,0x00,Read,ACK
6.038592156250000,0,0x5D,0x00,Read,ACK
6.038613656250000,0,0x5D,0x00,Read,ACK
6.038635843750000,0,0x5D,0x00,Read,ACK
6.038657312500000,0,0x5D,0x00,Read,ACK
6.038678781250000,0,0x5D,0x00,Read,ACK
6.038700250000000,0,0x5D,0x00,Read,ACK
6.038722468750000,0,0x5D,0x00,Read,ACK
6.038744125000000,0,0x5D,0x00,Read,ACK
6.038765593750000,0,0x5D,0x00,Read,ACK
6.038787062500000,0,0x5D,0x00,Read,ACK
6.038808531250000,0,0x5D,0x00,Read,ACK
6.038830281250000,0,0x5D,0x00,Read,ACK
6.038851718750000,0,0x5D,0x00,Read,ACK
6.038873656250000,0,0x5D,0x00,Read,ACK
6.038895156250000,0,0x5D,0x00,Read,ACK
6.038916625000000,0,0x5D,0x00,Read,ACK
6.038939062500000,0,0x5D,0x00,Read,ACK
6.038962125000000,0,0x5D,0x00,Read,ACK
6.038983593750000,0,0x5D,0x00,Read,ACK
6.039005093750000,0,0x5D,0x00,Read,ACK
6.039026593750000,0,0x5D,0x00,Read,ACK
6.039051343750000,0,0x5D,0x00,Read,ACK
6.039073125000000,0,0x5D,0x00,Read,ACK
6.039096062500000,0,0x5D,0x00,Read,ACK
6.039117593750000,0,0x5D,0x00,Read,ACK
6.039140875000000,0,0x5D,0x00,Read,ACK
6.039162500000000,0,0x5D,0x00,Read,ACK
6.039188375000000,0,0x5D,0x00,Read,ACK
6.039210718750000,0,0x5D,0x00,Read,ACK
6.039232156250000,0,0x5D,0x00,Read,ACK
6.039253625000000,0,0x5D,0x50,Read,ACK
6.039276312500000,0,0x5D,0xA0,Read,ACK
6.039297937500000,0,0x5D,0x01,Read,ACK
6.039319406250000,0,0x5D,0x00,Read,ACK
6.039340875000000,0,0x5D,0x00,Read,ACK
6.039362812500000,0,0x5D,0x00,Read,ACK
6.039384281250000,0,0x5D,0x00,Read,ACK
6.039405781250000,0,0x5D,0x00,Read,ACK
6.039427375000000,0,0x5D,0x00,Read,ACK
6.039448812500000,0,0x5D,0x00,Read,ACK
6.039470281250000,0,0x5D,0x00,Read,ACK
6.039491781250000,0,0x5D,0x00,Read,ACK
6.039513250000000,0,0x5D,0x00,Read,ACK
6.039534687500000,0,0x5D,0x00,Read,ACK
6.039557437500000,0,0x5D,0x00,Read,ACK
6.039579062500000,0,0x5D,0x00,Read,ACK
6.039600531250000,0,0x5D,0x00,Read,ACK
6.039622000000000,0,0x5D,0x00,Read,ACK
6.039643843750000,0,0x5D,0x00,Read,ACK
6.039666343750000,0,0x5D,0x00,Read,ACK
6.039687781250000,0,0x5D,0x00,Read,NAK
6.045068000000000,0,0x5D,0x2F,Read,ACK
6.045092500000000,0,0x5D,0x00,Read,ACK
6.045114843750000,0,0x5D,0x04,Read,ACK
6.045136312500000,0,0x5D,0x03,Read,ACK
6.045158250000000,0,0x5D,0x98,Read,ACK
6.045181468750000,0,0x5D,0x06,Read,ACK
6.045202937500000,0,0x5D,0x8E,Read,ACK
6.045224406250000,0,0x5D,0x03,Read,ACK
6.045245875000000,0,0x5D,0x03,Read,ACK
6.045267375000000,0,0x5D,0x02,Read,ACK
6.045290062500000,0,0x5D,0x20,Read,ACK
6.045311562500000,0,0x5D,0x00,Read,ACK
6.045333000000000,0,0x5D,0x00,Read,ACK
6.045354468750000,0,0x5D,0x00,Read,ACK
6.045375937500000,0,0x5D,0x00,Read,ACK
6.045397406250000,0,0x5D,0x00,Read,ACK
6.045418875000000,0,0x5D,0x00,Read,ACK
6.045440375000000,0,0x5D,0x00,Read,ACK
6.045461843750000,0,0x5D,0x00,Read,ACK
6.045483281250000,0,0x5D,0x00,Read,ACK
6.045505000000000,0,0x5D,0x00,Read,ACK
6.045526468750000,0,0x5D,0x00,Read,ACK
6.045547937500000,0,0x5D,0x00,Read,ACK
6.045569406250000,0,0x5D,0x00,Read,ACK
6.045590906250000,0,0x5D,0x00,Read,ACK
6.045612375000000,0,0x5D,0x00,Read,ACK
6.045633843750000,0,0x5D,0x00,Read,ACK
6.045655281250000,0,0x5D,0x00,Read,ACK
6.045679562500000,0,0x5D,0x00,Read,ACK
6.045701937500000,0,0x5D,0x00,Read,ACK
6.045725531250000,0,0x5D,0x00,Read,ACK
6.045751343750000,0,0x5D,0x00,Read,ACK
6.045772812500000,0,0x5D,0x00,Read,ACK
6.045794812500000,0,0x5D,0x00,Read,ACK
6.045816218750000,0,0x5D,0x00,Read,ACK
6.045837718750000,0,0x5D,0x00,Read,ACK
6.045859656250000,0,0x5D,0x00,Read,ACK
6.045881125000000,0,0x5D,0x00,Read,ACK
6.045904593750000,0,0x5D,0x00,Read,ACK
6.045926250000000,0,0x5D,0x00,Read,ACK
6.045947718750000,0,0x5D,0x00,Read,ACK
6.045969187500000,0,0x5D,0x00,Read,ACK
6.045990687500000,0,0x5D,0x00,Read,ACK
6.046013687500000,0,0x5D,0x96,Read,ACK
6.046035156250000,0,0x5D,0xA0,Read,ACK
6.046056625000000,0,0x5D,0x01,Read,ACK
6.046078312500000,0,0x5D,0x00,Read,ACK
6.046099937500000,0,0x5D,0x00,Read,ACK
6.046124625000000,0,0x5D,0x00,Read,ACK
6.046146656250000,0,0x5D,0x00,Read,ACK
6.046168250000000,0,0x5D,0x00,Read,ACK
6.046189750000000,0,0x5D,0x00,Read,ACK
6.046211750000000,0,0x5D,0x00,Read,ACK
6.046234062500000,0,0x5D,0x00,Read,ACK
6.046255531250000,0,0x5D,0x00,Read,ACK
6.046277000000000,0,0x5D,0x00,Read,ACK
6.046299312500000,0,0x5D,0x00,Read,ACK
6.046320750000000,0,0x5D,0x00,Read,ACK
6.046342218750000,0,0x5D,0x00,Read,ACK
6.046363718750000,0,0x5D,0x00,Read,ACK
6.046385156250000,0,0x5D,0x00,Read,ACK
6.046406625000000,0,0x5D,0x00,Read,ACK
6.046428093750000,0,0x5D,0x00,Read,ACK
6.046449906250000,0,0x5D,0x00,Read,NAK
6.052157187500000,0,0x5D,0x2F,Read,ACK
6.052183750000000,0,0x5D,0x00,Read,ACK
6.052206437500000,0,0x5D,0x04,Read,ACK
6.052228031250000,0,0x5D,0x03,Read,ACK
6.052249562500000,0,0x5D,0xB6,Read,ACK
6.052271031250000,0,0x5D,0x06,Read,ACK
6.052292500000000,0,0x5D,0x8E,Read,ACK
6.052315406250000,0,0x5D,0x03,Read,ACK
6.052337062500000,0,0x5D,0x03,Read,ACK
6.052358531250000,0,0x5D,0x02,Read,ACK
6.052380000000000,0,0x5D,0x20,Read,ACK
6.052401468750000,0,0x5D,0x00,Read,ACK
6.052422937500000,0,0x5D,0x00,Read,ACK
6.052444406250000,0,0x5D,0x00,Read,ACK
6.052465875000000,0,0x5D,0x00,Read,ACK
6.052487343750000,0,0x5D,0x00,Read,ACK
6.052508812500000,0,0x5D,0x00,Read,ACK
6.052530281250000,0,0x5D,0x00,Read,ACK
6.052551750000000,0,0x5D,0x00,Read,ACK
6.052573218750000,0,0x5D,0x00,Read,ACK
6.052594750000000,0,0x5D,0x00,Read,ACK
6.052616250000000,0,0x5D,0x00,Read,ACK
6.052637687500000,0,0x5D,0x00,Read,ACK
6.052659156250000,0,0x5D,0x00,Read,ACK
6.052680656250000,0,0x5D,0x00,Read,ACK
6.052702125000000,0,0x5D,0x00,Read,ACK
6.052723562500000,0,0x5D,0x00,Read,ACK
6.052745031250000,0,0x5D,0x00,Read,ACK
6.052766500000000,0,0x5D,0x00,Read,ACK
6.052787968750000,0,0x5D,0x00,Read,ACK
6.052809437500000,0,0x5D,0x00,Read,ACK
6.052832531250000,0,0x5D,0x00,Read,ACK
6.052857375000000,0,0x5D,0x00,Read,ACK
6.052880625000000,0,0x5D,0x00,Read,ACK
6.052902062500000,0,0x5D,0x00,Read,ACK
6.052923625000000,0,0x5D,0x00,Read,ACK
6.052947093750000,0,0x5D,0x00,Read,ACK
6.052968531250000,0,0x5D,0x00,Read,ACK
6.052990031250000,0,0x5D,0x00,Read,ACK
6.053011906250000,0,0x5D,0x00,Read,ACK
6.053035375000000,0,0x5D,0x00,Read,ACK
6.053057031250000,0,0x5D,0x00,Read,ACK
6.053081125000000,0,0x5D,0x00,Read,ACK
6.053103718750000,0,0x5D,0xDC,Read,ACK
6.053126375000000,0,0x5D,0xA0,Read,ACK
6.053148281250000,0,0x5D,0x01,Read,ACK
6.053169750000000,0,0x5D,0x00,Read,ACK
6.053191218750000,0,0x5D,0x00,Read,ACK
6.053212937500000,0,0x5D,0x00,Read,ACK
6.053234468750000,0,0x5D,0x00,Read,ACK
6.053256218750000,0,0x5D,0x00,Read,ACK
6.053277750000000,0,0x5D,0x00,Read,ACK
6.053299656250000,0,0x5D,0x00,Read,ACK
6.053321093750000,0,0x5D,0x00,Read,ACK
6.053342562500000,0,0x5D,0x00,Read,ACK
6.053365781250000,0,0x5D,0x00,Read,ACK
6.053387250000000,0,0x5D,0x00,Read,ACK
6.053410687500000,0,0x5D,0x00,Read,ACK
6.053432906250000,0,0x5D,0x00,Read,ACK
6.053458250000000,0,0x5D,0x00,Read,ACK
6.053482750000000,0,0x5D,0x00,Read,ACK
6.053504937500000,0,0x5D,0x00,Read,ACK
6.053526437500000,0,0x5D,0x00,Read,ACK
6.053547906250000,0,0x5D,0x00,Read,NAK
6.059324687500000,0,0x5D,0x2F,Read,ACK
6.059355687500000,0,0x5D,0x00,Read,ACK
6.059377343750000,0,0x5D,0x04,Read,ACK
6.059399093750000,0,0x5D,0x03,Read,ACK
6.059420625000000,0,0x5D,0xD8,Read,ACK
6.059442062500000,0,0x5D,0x06,Read,ACK
6.059463531250000,0,0x5D,0x91,Read,ACK
6.059485968750000,0,0x5D,0x03,Read,ACK
6.059507468750000,0,0x5D,0x03,Read,ACK
6.059528937500000,0,0x5D,0x02,Read,ACK
6.059550406250000,0,0x5D,0x20,Read,ACK
6.059571875000000,0,0x5D,0x00,Read,ACK
6.059596250000000,0,0x5D,0x00,Read,ACK
6.059617687500000,0,0x5D,0x00,Read,ACK
6.059639187500000,0,0x5D,0x00,Read,ACK
6.059660625000000,0,0x5D,0x00,Read,ACK
6.059682406250000,0,0x5D,0x00,Read,ACK
6.059703875000000,0,0x5D,0x00,Read,ACK
6.059725500000000,0,0x5D,0x00,Read,ACK
6.059747000000000,0,0x5D,0x00,Read,ACK
6.059768468750000,0,0x5D,0x00,Read,ACK
6.059789937500000,0,0x5D,0x00,Read,ACK
6.059811406250000,0,0x5D,0x00,Read,ACK
6.059832875000000,0,0x5D,0x00,Read,ACK
6.059854343750000,0,0x5D,0x00,Read,ACK
6.059875812500000,0,0x5D,0x00,Read,ACK
6.059897281250000,0,0x5D,0x00,Read,ACK
6.059918781250000,0,0x5D,0x00,Read,ACK
6.059941625000000,0,0x5D,0x00,Read,ACK
6.059963437500000,0,0x5D,0x00,Read,ACK
6.059984906250000,0,0x5D,0x00,Read,ACK
6.060007062500000,0,0x5D,0x00,Read,ACK
6.060029468750000,0,0x5D,0x00,Read,ACK
6.060051375000000,0,0x5D,0x00,Read,ACK
6.060072843750000,0,0x5D,0x00,Read,ACK
6.060094312500000,0,0x5D,0x00,Read,ACK
6.060118031250000,0,0x5D,0x00,Read,ACK
6.060139562500000,0,0x5D,0x00,Read,ACK
6.060161093750000,0,0x5D,0x00,Read,ACK
6.060182531250000,0,0x5D,0x00,Read,ACK
6.060204375000000,0,0x5D,0x00,Read,ACK
6.060225843750000,0,0x5D,0x00,Read,ACK
6.060247312500000,0,0x5D,0x00,Read,ACK
6.060269031250000,0,0x5D,0x22,Read,ACK
6.060290500000000,0,0x5D,0xA1,Read,ACK
6.060312343750000,0,0x5D,0x01,Read,ACK
6.060333843750000,0,0x5D,0x00,Read,ACK
6.060355562500000,0,0x5D,0x00,Read,ACK
6.060377000000000,0,0x5D,0x00,Read,ACK
6.060398500000000,0,0x5D,0x00,Read,ACK
6.060420375000000,0,0x5D,0x00,Read,ACK
6.060442500000000,0,0x5D,0x00,Read,ACK
6.060464000000000,0,0x5D,0x00,Read,ACK
6.060486750000000,0,0x5D,0x00,Read,ACK
6.060508250000000,0,0x5D,0x00,Read,ACK
6.060529937500000,0,0x5D,0x00,Read,ACK
6.060551718750000,0,0x5D,0x00,Read,ACK
6.060576375000000,0,0x5D,0x00,Read,ACK
6.060599812500000,0,0x5D,0x00,Read,ACK
6.060621281250000,0,0x5D,0x00,Read,ACK
6.060644062500000,0,0x5D,0x00,Read,ACK
6.060666468750000,0,0x5D,0x00,Read,ACK
6.060687937500000,0,0x5D,0x00,Read,ACK
6.060709406250000,0,0x5D,0x00,Read,NAK
6.066397718750000,0,0x5D,0x2F,Read,ACK
6.066422875000000,0,0x5D,0x00,Read,ACK
6.066444343750000,0,0x5D,0x04,Read,ACK
6.066467750000000,0,0x5D,0x03,Read,ACK
6.066489218750000,0,0x5D,0xFE,Read,ACK
6.066510687500000,0,0x5D,0x06,Read,ACK
6.066532187500000,0,0x5D,0x99,Read,ACK
6.066553656250000,0,0x5D,0x03,Read,ACK
6.066576750000000,0,0x5D,0x02,Read,ACK
6.066599937500000,0,0x5D,0x02,Read,ACK
6.066621437500000,0,0x5D,0x20,Read,ACK
6.066642906250000,0,0x5D,0x00,Read,ACK
6.066664375000000,0,0x5D,0x00,Read,ACK
6.066685843750000,0,0x5D,0x00,Read,ACK
6.066710500000000,0,0x5D,0x00,Read,ACK
6.066733437500000,0,0x5D,0x00,Read,ACK
6.066755343750000,0,0x5D,0x00,Read,ACK
6.066776843750000,0,0x5D,0x00,Read,ACK
6.066798312500000,0,0x5D,0x00,Read,ACK
6.066819781250000,0,0x5D,0x00,Read,ACK
6.066841250000000,0,0x5D,0x00,Read,ACK
6.066862718750000,0,0x5D,0x00,Read,ACK
6.066884187500000,0,0x5D,0x00,Read,ACK
6.066905687500000,0,0x5D,0x00,Read,ACK
6.066927406250000,0,0x5D,0x00,Read,ACK
6.066948843750000,0,0x5D,0x00,Read,ACK
6.066970312500000,0,0x5D,0x00,Read,ACK
6.066991781250000,0,0x5D,0x00,Read,ACK
6.067013281250000,0,0x5D,0x00,Read,ACK
6.067034750000000,0,0x5D,0x00,Read,ACK
6.067056218750000,0,0x5D,0x00,Read,ACK
6.067077687500000,0,0x5D,0x00,Read,ACK
6.067099156250000,0,0x5D,0x00,Read,ACK
6.067120625000000,0,0x5D,0x00,Read,ACK
6.067144062500000,0,0x5D,0x00,Read,ACK
6.067165687500000,0,0x5D,0x00,Read,ACK
6.067187375000000,0,0x5D,0x00,Read,ACK
6.067208812500000,0,0x5D,0x00,Read,ACK
6.067230281250000,0,0x5D,0x00,Read,ACK
6.067251750000000,0,0x5D,0x00,Read,ACK
6.067274843750000,0,0x5D,0x00,Read,ACK
6.067296312500000,0,0x5D,0x00,Read,ACK
6.067318562500000,0,0x5D,0x00,Read,ACK
6.067341687500000,0,0x5D,0x68,Read,ACK
6.067363156250000,0,0x5D,0xA1,Read,ACK
6.067384625000000,0,0x5D,0x01,Read,ACK
6.067406093750000,0,0x5D,0x00,Read,ACK
6.067428312500000,0,0x5D,0x00,Read,ACK
6.067449781250000,0,0x5D,0x00,Read,ACK
6.067472343750000,0,0x5D,0x00,Read,ACK
6.067493781250000,0,0x5D,0x00,Read,ACK
6.067515250000000,0,0x5D,0x00,Read,ACK
6.067537343750000,0,0x5D,0x00,Read,ACK
6.067559000000000,0,0x5D,0x00,Read,ACK
6.067580468750000,0,0x5D,0x00,Read,ACK
6.067601937500000,0,0x5D,0x00,Read,ACK
6.067623437500000,0,0x5D,0x00,Read,ACK
6.067646375000000,0,0x5D,0x00,Read,ACK
6.067667875000000,0,0x5D,0x00,Read,ACK
6.067690468750000,0,0x5D,0x00,Read,ACK
6.067711937500000,0,0x5D,0x00,Read,ACK
6.067733875000000,0,0x5D,0x00,Read,ACK
6.067755687500000,0,0x5D,0x00,Read,ACK
6.067781937500000,0,0x5D,0x00,Read,NAK
6.073644968750000,0,0x5D,0x2F,Read,ACK
6.073670625000000,0,0x5D,0x00,Read,ACK
6.073692125000000,0,0x5D,0x04,Read,ACK
6.073713593750000,0,0x5D,0x03,Read,ACK
6.073735937500000,0,0x5D,0x2B,Read,ACK
6.073757625000000,0,0x5D,0x07,Read,ACK
6.073779125000000,0,0x5D,0xA5,Read,ACK
6.073800593750000,0,0x5D,0x03,Read,ACK
6.073822062500000,0,0x5D,0x03,Read,ACK
6.073843531250000,0,0x5D,0x03,Read,ACK
6.073865656250000,0,0x5D,0x20,Read,ACK
6.073887843750000,0,0x5D,0x00,Read,ACK
6.073909312500000,0,0x5D,0x00,Read,ACK
6.073930781250000,0,0x5D,0x00,Read,ACK
6.073952250000000,0,0x5D,0x00,Read,ACK
6.073973718750000,0,0x5D,0x00,Read,ACK
6.073995187500000,0,0x5D,0x00,Read,ACK
6.074016687500000,0,0x5D,0x00,Read,ACK
6.074038156250000,0,0x5D,0x00,Read,ACK
6.074059625000000,0,0x5D,0x00,Read,ACK
6.074081062500000,0,0x5D,0x00,Read,ACK
6.074102562500000,0,0x5D,0x00,Read,ACK
6.074124031250000,0,0x5D,0x00,Read,ACK
6.074145500000000,0,0x5D,0x00,Read,ACK
6.074166968750000,0,0x5D,0x00,Read,ACK
6.074188656250000,0,0x5D,0x00,Read,ACK
6.074210093750000,0,0x5D,0x00,Read,ACK
6.074231593750000,0,0x5D,0x00,Read,ACK
6.074253062500000,0,0x5D,0x00,Read,ACK
6.074274500000000,0,0x5D,0x00,Read,ACK
6.074295968750000,0,0x5D,0x00,Read,ACK
6.074317468750000,0,0x5D,0x00,Read,ACK
6.074340281250000,0,0x5D,0x00,Read,ACK
6.074363937500000,0,0x5D,0x00,Read,ACK
6.074387250000000,0,0x5D,0x00,Read,ACK
6.074409187500000,0,0x5D,0x00,Read,ACK
6.074432062500000,0,0x5D,0x00,Read,ACK
6.074453531250000,0,0x5D,0x00,Read,ACK
6.074475531250000,0,0x5D,0x00,Read,ACK
6.074497031250000,0,0x5D,0x00,Read,ACK
6.074518500000000,0,0x5D,0x00,Read,ACK
6.074540593750000,0,0x5D,0x00,Read,ACK
6.074563000000000,0,0x5D,0x00,Read,ACK
6.074584468750000,0,0x5D,0xAE,Read,ACK
6.074606156250000,0,0x5D,0xA1,Read,ACK
6.074627687500000,0,0x5D,0x01,Read,ACK
6.074650062500000,0,0x5D,0x00,Read,ACK
6.074671562500000,0,0x5D,0x00,Read,ACK
6.074694218750000,0,0x5D,0x00,Read,ACK
6.074717562500000,0,0x5D,0x00,Read,ACK
6.074740531250000,0,0x5D,0x00,Read,ACK
6.074762593750000,0,0x5D,0x00,Read,ACK
6.074784062500000,0,0x5D,0x00,Read,ACK
6.074805750000000,0,0x5D,0x00,Read,ACK
6.074827718750000,0,0x5D,0x00,Read,ACK
6.074851750000000,0,0x5D,0x00,Read,ACK
6.074874687500000,0,0x5D,0x00,Read,ACK
6.074896156250000,0,0x5D,0x00,Read,ACK
6.074919312500000,0,0x5D,0x00,Read,ACK
6.074941281250000,0,0x5D,0x00,Read,ACK
6.074964062500000,0,0x5D,0x00,Read,ACK
6.074985531250000,0,0x5D,0x00,Read,ACK
6.075007218750000,0,0x5D,0x00,Read,ACK
6.075028843750000,0,0x5D,0x00,Read,NAK
6.080658312500000,0,0x5D,0x2F,Read,ACK
6.080686187500000,0,0x5D,0x00,Read,ACK
6.080707656250000,0,0x5D,0x04,Read,ACK
6.080730031250000,0,0x5D,0x01,Read,ACK
6.080752781250000,0,0x5D,0x2B,Read,ACK
6.080774281250000,0,0x5D,0x07,Read,ACK
6.080795781250000,0,0x5D,0xA5,Read,ACK
6.080817250000000,0,0x5D,0x03,Read,ACK
6.080838718750000,0,0x5D,0x01,Read,ACK
6.080861968750000,0,0x5D,0x01,Read,ACK
6.080883468750000,0,0x5D,0x20,Read,ACK
6.080904937500000,0,0x5D,0x00,Read,ACK
6.080926406250000,0,0x5D,0x00,Read,ACK
6.080947875000000,0,0x5D,0x00,Read,ACK
6.080969718750000,0,0x5D,0x00,Read,ACK
6.080991187500000,0,0x5D,0x00,Read,ACK
6.081012656250000,0,0x5D,0x00,Read,ACK
6.081034125000000,0,0x5D,0x00,Read,ACK
6.081055593750000,0,0x5D,0x00,Read,ACK
6.081077062500000,0,0x5D,0x00,Read,ACK
6.081098531250000,0,0x5D,0x00,Read,ACK
6.081120000000000,0,0x5D,0x00,Read,ACK
6.081141468750000,0,0x5D,0x00,Read,ACK
6.081162937500000,0,0x5D,0x00,Read,ACK
6.081184531250000,0,0x5D,0x00,Read,ACK
6.081206000000000,0,0x5D,0x00,Read,ACK
6.081227468750000,0,0x5D,0x00,Read,ACK
6.081248968750000,0,0x5D,0x00,Read,ACK
6.081270437500000,0,0x5D,0x00,Read,ACK
6.081291906250000,0,0x5D,0x00,Read,ACK
6.081313375000000,0,0x5D,0x00,Read,ACK
6.081335093750000,0,0x5D,0x00,Read,ACK
6.081356750000000,0,0x5D,0x00,Read,ACK
6.081378218750000,0,0x5D,0x00,Read,ACK
6.081399687500000,0,0x5D,0x00,Read,ACK
6.081421187500000,0,0x5D,0x00,Read,ACK
6.081442625000000,0,0x5D,0x00,Read,ACK
6.081465312500000,0,0x5D,0x00,Read,ACK
6.081488812500000,0,0x5D,0x00,Read,ACK
6.081510781250000,0,0x5D,0x00,Read,ACK
6.081532250000000,0,0x5D,0x00,Read,ACK
6.081553781250000,0,0x5D,0x00,Read,ACK
6.081575250000000,0,0x5D,0x00,Read,ACK
6.081596718750000,0,0x5D,0xF4,Read,ACK
6.081618500000000,0,0x5D,0xA1,Read,ACK
6.081639968750000,0,0x5D,0x01,Read,ACK
6.081662750000000,0,0x5D,0x00,Read,ACK
6.081684968750000,0,0x5D,0x00,Read,ACK
6.081707125000000,0,0x5D,0x00,Read,ACK
6.081728906250000,0,0x5D,0x00,Read,ACK
6.081750375000000,0,0x5D,0x00,Read,ACK
6.081772156250000,0,0x5D,0x00,Read,ACK
6.081793781250000,0,0x5D,0x00,Read,ACK
6.081816875000000,0,0x5D,0x00,Read,ACK
6.081838843750000,0,0x5D,0x00,Read,ACK
6.081860468750000,0,0x5D,0x00,Read,ACK
6.081884656250000,0,0x5D,0x00,Read,ACK
6.081909187500000,0,0x5D,0x00,Read,ACK
6.081931218750000,0,0x5D,0x00,Read,ACK
6.081956468750000,0,0x5D,0x00,Read,ACK
6.081979031250000,0,0x5D,0x00,Read,ACK
6.082000750000000,0,0x5D,0x00,Read,ACK
6.082024750000000,0,0x5D,0x00,Read,ACK
6.082046593750000,0,0x5D,0x00,Read,NAK
6.380715500000000,0,0x5D,0x2F,Read,ACK
6.380743750000000,0,0x5D,0x00,Read,ACK
6.380766156250000,0,0x5D,0x04,Read,ACK
6.380788218750000,0,0x5D,0x03,Read,ACK
6.380809750000000,0,0x5D,0xF1,Read,ACK
6.380831187500000,0,0x5D,0x08,Read,ACK
6.380852687500000,0,0x5D,0x13,Read,ACK
6.380874218750000,0,0x5D,0x04,Read,ACK
6.380895718750000,0,0x5D,0x02,Read,ACK
6.380917187500000,0,0x5D,0x02,Read,ACK
6.380938656250000,0,0x5D,0x20,Read,ACK
6.380960125000000,0,0x5D,0x00,Read,ACK
6.380981625000000,0,0x5D,0x00,Read,ACK
6.381004812500000,0,0x5D,0x00,Read,ACK
6.381026312500000,0,0x5D,0x00,Read,ACK
6.381048156250000,0,0x5D,0x00,Read,ACK
6.381069656250000,0,0x5D,0x00,Read,ACK
6.381091125000000,0,0x5D,0x00,Read,ACK
6.381112593750000,0,0x5D,0x00,Read,ACK
6.381134062500000,0,0x5D,0x00,Read,ACK
6.381155531250000,0,0x5D,0x00,Read,ACK
6.381177031250000,0,0x5D,0x00,Read,ACK
6.381198500000000,0,0x5D,0x00,Read,ACK
6.381219937500000,0,0x5D,0x00,Read,ACK
6.381241406250000,0,0x5D,0x00,Read,ACK
6.381262875000000,0,0x5D,0x00,Read,ACK
6.381284343750000,0,0x5D,0x00,Read,ACK
6.381305843750000,0,0x5D,0x00,Read,ACK
6.381327281250000,0,0x5D,0x00,Read,ACK
6.381348750000000,0,0x5D,0x00,Read,ACK
6.381370250000000,0,0x5D,0x00,Read,ACK
6.381391750000000,0,0x5D,0x00,Read,ACK
6.381413406250000,0,0x5D,0x00,Read,ACK
6.381436250000000,0,0x5D,0x00,Read,ACK
6.381457750000000,0,0x5D,0x00,Read,ACK
6.381479187500000,0,0x5D,0x00,Read,ACK
6.381500656250000,0,0x5D,0x00,Read,ACK
6.381522125000000,0,0x5D,0x00,Read,ACK
6.381543593750000,0,0x5D,0x00,Read,ACK
6.381565062500000,0,0x5D,0x00,Read,ACK
6.381586531250000,0,0x5D,0x00,Read,ACK
6.381608000000000,0,0x5D,0x00,Read,ACK
6.381629468750000,0,0x5D,0x00,Read,ACK
6.381650937500000,0,0x5D,0x70,Read,ACK
6.381672625000000,0,0x5D,0xAD,Read,ACK
6.381694062500000,0,0x5D,0x01,Read,ACK
6.381715968750000,0,0x5D,0x00,Read,ACK
6.381740031250000,0,0x5D,0x00,Read,ACK
6.381761468750000,0,0x5D,0x00,Read,ACK
6.381782937500000,0,0x5D,0x00,Read,ACK
6.381805375000000,0,0x5D,0x00,Read,ACK
6.381827343750000,0,0x5D,0x00,Read,ACK
6.381850156250000,0,0x5D,0x00,Read,ACK
6.381871625000000,0,0x5D,0x00,Read,ACK
6.381893093750000,0,0x5D,0x00,Read,ACK
6.381915750000000,0,0x5D,0x00,Read,ACK
6.381937843750000,0,0x5D,0x00,Read,ACK
6.381959500000000,0,0x5D,0x00,Read,ACK
6.381981875000000,0,0x5D,0x00,Read,ACK
6.382003312500000,0,0x5D,0x00,Read,ACK
6.382026125000000,0,0x5D,0x00,Read,ACK
6.382047562500000,0,0x5D,0x00,Read,ACK
6.382069062500000,0,0x5D,0x00,Read,ACK
6.382090500000000,0,0x5D,0x00,Read,NAK
6.387910875000000,0,0x5D,0x2F,Read,ACK
6.387937843750000,0,0x5D,0x00,Read,ACK
6.387961406250000,0,0x5D,0x04,Read,ACK
6.387983937500000,0,0x5D,0x03,Read,ACK
6.388005375000000,0,0x5D,0xF1,Read,ACK
6.388028531250000,0,0x5D,0x08,Read,ACK
6.388050218750000,0,0x5D,0x13,Read,ACK
6.388071656250000,0,0x5D,0x04,Read,ACK
6.388093156250000,0,0x5D,0x03,Read,ACK
6.388114843750000,0,0x5D,0x02,Read,ACK
6.388136343750000,0,0x5D,0x20,Read,ACK
6.388157781250000,0,0x5D,0x00,Read,ACK
6.388180843750000,0,0x5D,0x00,Read,ACK
6.388202281250000,0,0x5D,0x00,Read,ACK
6.388223750000000,0,0x5D,0x00,Read,ACK
6.388245218750000,0,0x5D,0x00,Read,ACK
6.388266687500000,0,0x5D,0x00,Read,ACK
6.388288375000000,0,0x5D,0x00,Read,ACK
6.388309812500000,0,0x5D,0x00,Read,ACK
6.388331281250000,0,0x5D,0x00,Read,ACK
6.388352750000000,0,0x5D,0x00,Read,ACK
6.388374250000000,0,0x5D,0x00,Read,ACK
6.388395687500000,0,0x5D,0x00,Read,ACK
6.388417156250000,0,0x5D,0x00,Read,ACK
6.388438625000000,0,0x5D,0x00,Read,ACK
6.388460125000000,0,0x5D,0x00,Read,ACK
6.388481562500000,0,0x5D,0x00,Read,ACK
6.388503031250000,0,0x5D,0x00,Read,ACK
6.388524500000000,0,0x5D,0x00,Read,ACK
6.388546000000000,0,0x5D,0x00,Read,ACK
6.388567437500000,0,0x5D,0x00,Read,ACK
6.388588906250000,0,0x5D,0x00,Read,ACK
6.388610375000000,0,0x5D,0x00,Read,ACK
6.388631843750000,0,0x5D,0x00,Read,ACK
6.388653312500000,0,0x5D,0x00,Read,ACK
6.388674781250000,0,0x5D,0x00,Read,ACK
6.388696250000000,0,0x5D,0x00,Read,ACK
6.388717718750000,0,0x5D,0x00,Read,ACK
6.388739187500000,0,0x5D,0x00,Read,ACK
6.388760656250000,0,0x5D,0x00,Read,ACK
6.388782125000000,0,0x5D,0x00,Read,ACK
6.388807343750000,0,0x5D,0x00,Read,ACK
6.388831250000000,0,0x5D,0x00,Read,ACK
6.388852687500000,0,0x5D,0xB6,Read,ACK
6.388874250000000,0,0x5D,0xAD,Read,ACK
6.388897218750000,0,0x5D,0x01,Read,ACK
6.388918781250000,0,0x5D,0x00,Read,ACK
6.388941250000000,0,0x5D,0x00,Read,ACK
6.388962718750000,0,0x5D,0x00,Read,ACK
6.388984187500000,0,0x5D,0x00,Read,ACK
6.389005656250000,0,0x5D,0x00,Read,ACK
6.389027125000000,0,0x5D,0x00,Read,ACK
6.389049250000000,0,0x5D,0x00,Read,ACK
6.389071093750000,0,0x5D,0x00,Read,ACK
6.389093250000000,0,0x5D,0x00,Read,ACK
6.389116437500000,0,0x5D,0x00,Read,ACK
6.389139156250000,0,0x5D,0x00,Read,ACK
6.389160625000000,0,0x5D,0x00,Read,ACK
6.389183687500000,0,0x5D,0x00,Read,ACK
6.389206593750000,0,0x5D,0x00,Read,ACK
6.389229781250000,0,0x5D,0x00,Read,ACK
6.389252218750000,0,0x5D,0x00,Read,ACK
6.389273687500000,0,0x5D,0x00,Read,ACK
6.389296031250000,0,0x5D,0x00,Read,NAK
6.395031531250000,0,0x5D,0x2F,Read,ACK
6.395057562500000,0,0x5D,0x00,Read,ACK
6.395080375000000,0,0x5D,0x04,Read,ACK
6.395101843750000,0,0x5D,0x03,Read,ACK
6.395123312500000,0,0x5D,0xF1,Read,ACK
6.395144750000000,0,0x5D,0x08,Read,ACK
6.395166218750000,0,0x5D,0x14,Read,ACK
6.395187718750000,0,0x5D,0x04,Read,ACK
6.395209156250000,0,0x5D,0x03,Read,ACK
6.395230625000000,0,0x5D,0x02,Read,ACK
6.395252125000000,0,0x5D,0x20,Read,ACK
6.395273562500000,0,0x5D,0x00,Read,ACK
6.395295031250000,0,0x5D,0x00,Read,ACK
6.395316531250000,0,0x5D,0x00,Read,ACK
6.395337968750000,0,0x5D,0x00,Read,ACK
6.395359437500000,0,0x5D,0x00,Read,ACK
6.395380937500000,0,0x5D,0x00,Read,ACK
6.395402593750000,0,0x5D,0x00,Read,ACK
6.395424125000000,0,0x5D,0x00,Read,ACK
6.395445593750000,0,0x5D,0x00,Read,ACK
6.395467062500000,0,0x5D,0x00,Read,ACK
6.395488531250000,0,0x5D,0x00,Read,ACK
6.395510000000000,0,0x5D,0x00,Read,ACK
6.395531468750000,0,0x5D,0x00,Read,ACK
6.395552937500000,0,0x5D,0x00,Read,ACK
6.395574406250000,0,0x5D,0x00,Read,ACK
6.395595875000000,0,0x5D,0x00,Read,ACK
6.395617375000000,0,0x5D,0x00,Read,ACK
6.395638812500000,0,0x5D,0x00,Read,ACK
6.395660281250000,0,0x5D,0x00,Read,ACK
6.395681750000000,0,0x5D,0x00,Read,ACK
6.395703281250000,0,0x5D,0x00,Read,ACK
6.395724750000000,0,0x5D,0x00,Read,ACK
6.395746218750000,0,0x5D,0x00,Read,ACK
6.395767875000000,0,0x5D,0x00,Read,ACK
6.395789343750000,0,0x5D,0x00,Read,ACK
6.395810812500000,0,0x5D,0x00,Read,ACK
6.395832281250000,0,0x5D,0x00,Read,ACK
6.395853781250000,0,0x5D,0x00,Read,ACK
6.395875343750000,0,0x5D,0x00,Read,ACK
6.395896812500000,0,0x5D,0x00,Read,ACK
6.395918281250000,0,0x5D,0x00,Read,ACK
6.395939781250000,0,0x5D,0x00,Read,ACK
6.395961218750000,0,0x5D,0xFC,Read,ACK
6.395982687500000,0,0x5D,0xAD,Read,ACK
6.396005718750000,0,0x5D,0x01,Read,ACK
6.396030343750000,0,0x5D,0x00,Read,ACK
6.396053187500000,0,0x5D,0x00,Read,ACK
6.396074968750000,0,0x5D,0x00,Read,ACK
6.396096437500000,0,0x5D,0x00,Read,ACK
6.396118031250000,0,0x5D,0x00,Read,ACK
6.396139906250000,0,0x5D,0x00,Read,ACK
6.396161375000000,0,0x5D,0x00,Read,ACK
6.396182843750000,0,0x5D,0x00,Read,ACK
6.396205750000000,0,0x5D,0x00,Read,ACK
6.396228687500000,0,0x5D,0x00,Read,ACK
6.396251343750000,0,0x5D,0x00,Read,ACK
6.396272812500000,0,0x5D,0x00,Read,ACK
6.396294312500000,0,0x5D,0x00,Read,ACK
6.396315906250000,0,0x5D,0x00,Read,ACK
6.396337437500000,0,0x5D,0x00,Read,ACK
6.396360187500000,0,0x5D,0x00,Read,ACK
6.396381656250000,0,0x5D,0x00,Read,ACK
6.396403937500000,0,0x5D,0x00,Read,NAK
6.402131937500000,0,0x5D,0x2F,Read,ACK
6.402156531250000,0,0x5D,0x00,Read,ACK
6.402178000000000,0,0x5D,0x04,Read,ACK
6.402199531250000,0,0x5D,0x03,Read,ACK
6.402221937500000,0,0x5D,0xF1,Read,ACK
6.402243406250000,0,0x5D,0x08,Read,ACK
6.402264875000000,0,0x5D,0x16,Read,ACK
6.402287000000000,0,0x5D,0x04,Read,ACK
6.402309031250000,0,0x5D,0x03,Read,ACK
6.402330531250000,0,0x5D,0x02,Read,ACK
6.402353093750000,0,0x5D,0x20,Read,ACK
6.402374593750000,0,0x5D,0x00,Read,ACK
6.402396062500000,0,0x5D,0x00,Read,ACK
6.402418406250000,0,0x5D,0x00,Read,ACK
6.402440000000000,0,0x5D,0x00,Read,ACK
6.402461468750000,0,0x5D,0x00,Read,ACK
6.402483000000000,0,0x5D,0x00,Read,ACK
6.402504468750000,0,0x5D,0x00,Read,ACK
6.402525937500000,0,0x5D,0x00,Read,ACK
6.402547406250000,0,0x5D,0x00,Read,ACK
6.402568875000000,0,0x5D,0x00,Read,ACK
6.402590343750000,0,0x5D,0x00,Read,ACK
6.402611843750000,0,0x5D,0x00,Read,ACK
6.402633281250000,0,0x5D,0x00,Read,ACK
6.402654781250000,0,0x5D,0x00,Read,ACK
6.402676218750000,0,0x5D,0x00,Read,ACK
6.402697718750000,0,0x5D,0x00,Read,ACK
6.402719156250000,0,0x5D,0x00,Read,ACK
6.402740625000000,0,0x5D,0x00,Read,ACK
6.402762093750000,0,0x5D,0x00,Read,ACK
6.402783562500000,0,0x5D,0x00,Read,ACK
6.402805031250000,0,0x5D,0x00,Read,ACK
6.402826500000000,0,0x5D,0x00,Read,ACK
6.402850718750000,0,0x5D,0x00,Read,ACK
6.402873187500000,0,0x5D,0x00,Read,ACK
6.402896937500000,0,0x5D,0x00,Read,ACK
6.402918437500000,0,0x5D,0x00,Read,ACK
6.402941281250000,0,0x5D,0x00,Read,ACK
6.402963062500000,0,0x5D,0x00,Read,ACK
6.402984500000000,0,0x5D,0x00,Read,ACK
6.403006000000000,0,0x5D,0x00,Read,ACK
6.403027500000000,0,0x5D,0x00,Read,ACK
6.403049812500000,0,0x5D,0x00,Read,ACK
6.403071968750000,0,0x5D,0x42,Read,ACK
6.403093906250000,0,0x5D,0xAE,Read,ACK
6.403115437500000,0,0x5D,0x01,Read,ACK
6.403136906250000,0,0x5D,0x00,Read,ACK
6.403158406250000,0,0x5D,0x00,Read,ACK
6.403179843750000,0,0x5D,0x00,Read,ACK
6.403202562500000,0,0x5D,0x00,Read,ACK
6.403225437500000,0,0x5D,0x00,Read,ACK
6.403247750000000,0,0x5D,0x00,Read,ACK
6.403269250000000,0,0x5D,0x00,Read,ACK
6.403290687500000,0,0x5D,0x00,Read,ACK
6.403313562500000,0,0x5D,0x00,Read,ACK
6.403335031250000,0,0x5D,0x00,Read,ACK
6.403357843750000,0,0x5D,0x00,Read,ACK
6.403379968750000,0,0x5D,0x00,Read,ACK
6.403402281250000,0,0x5D,0x00,Read,ACK
6.403424000000000,0,0x5D,0x00,Read,ACK
6.403445468750000,0,0x5D,0x00,Read,ACK
6.403467625000000,0,0x5D,0x00,Read,ACK
6.403490468750000,0,0x5D,0x00,Read,ACK
6.403514343750000,0,0x5D,0x00,Read,NAK
6.409357562500000,0,0x5D,0x2F,Read,ACK
6.409385593750000,0,0x5D,0x00,Read,ACK
6.409407468750000,0,0x5D,0x04,Read,ACK
6.409428968750000,0,0x5D,0x03,Read,ACK
6.409451656250000,0,0x5D,0xF1,Read,ACK
6.409473156250000,0,0x5D,0x08,Read,ACK
6.409494718750000,0,0x5D,0x1A,Read,ACK
6.409516218750000,0,0x5D,0x04,Read,ACK
6.409537687500000,0,0x5D,0x02,Read,ACK
6.409559187500000,0,0x5D,0x02,Read,ACK
6.409580687500000,0,0x5D,0x20,Read,ACK
6.409602156250000,0,0x5D,0x00,Read,ACK
6.409623625000000,0,0x5D,0x00,Read,ACK
6.409645093750000,0,0x5D,0x00,Read,ACK
6.409666562500000,0,0x5D,0x00,Read,ACK
6.409688031250000,0,0x5D,0x00,Read,ACK
6.409709500000000,0,0x5D,0x00,Read,ACK
6.409731000000000,0,0x5D,0x00,Read,ACK
6.409752437500000,0,0x5D,0x00,Read,ACK
6.409773906250000,0,0x5D,0x00,Read,ACK
6.409795406250000,0,0x5D,0x00,Read,ACK
6.409816875000000,0,0x5D,0x00,Read,ACK
6.409838312500000,0,0x5D,0x00,Read,ACK
6.409859812500000,0,0x5D,0x00,Read,ACK
6.409881250000000,0,0x5D,0x00,Read,ACK
6.409902750000000,0,0x5D,0x00,Read,ACK
6.409924218750000,0,0x5D,0x00,Read,ACK
6.409945687500000,0,0x5D,0x00,Read,ACK
6.409967156250000,0,0x5D,0x00,Read,ACK
6.409988625000000,0,0x5D,0x00,Read,ACK
6.410010093750000,0,0x5D,0x00,Read,ACK
6.410031562500000,0,0x5D,0x00,Read,ACK
6.410057250000000,0,0x5D,0x00,Read,ACK
6.410080562500000,0,0x5D,0x00,Read,ACK
6.410102156250000,0,0x5D,0x00,Read,ACK
6.410124281250000,0,0x5D,0x00,Read,ACK
6.410145781250000,0,0x5D,0x00,Read,ACK
6.410167906250000,0,0x5D,0x00,Read,ACK
6.410189406250000,0,0x5D,0x00,Read,ACK
6.410210968750000,0,0x5D,0x00,Read,ACK
6.410232968750000,0,0x5D,0x00,Read,ACK
6.410255718750000,0,0x5D,0x00,Read,ACK
6.410277250000000,0,0x5D,0x00,Read,ACK
6.410298687500000,0,0x5D,0x88,Read,ACK
6.410320437500000,0,0x5D,0xAE,Read,ACK
6.410341968750000,0,0x5D,0x01,Read,ACK
6.410363406250000,0,0x5D,0x00,Read,ACK
6.410387812500000,0,0x5D,0x00,Read,ACK
6.410410875000000,0,0x5D,0x00,Read,ACK
6.410432781250000,0,0x5D,0x00,Read,ACK
6.410454281250000,0,0x5D,0x00,Read,ACK
6.410477718750000,0,0x5D,0x00,Read,ACK
6.410502125000000,0,0x5D,0x00,Read,ACK
6.410523593750000,0,0x5D,0x00,Read,ACK
6.410545093750000,0,0x5D,0x00,Read,ACK
6.410568375000000,0,0x5D,0x00,Read,ACK
6.410590031250000,0,0x5D,0x00,Read,ACK
6.410612000000000,0,0x5D,0x00,Read,ACK
6.410633437500000,0,0x5D,0x00,Read,ACK
6.410656093750000,0,0x5D,0x00,Read,ACK
6.410678000000000,0,0x5D,0x00,Read,ACK
6.410704875000000,0,0x5D,0x00,Read,ACK
6.410726343750000,0,0x5D,0x00,Read,ACK
6.410747781250000,0,0x5D,0x00,Read,NAK
6.416403906250000,0,0x5D,0x2F,Read,ACK
6.416429031250000,0,0x5D,0x00,Read,ACK
6.416450531250000,0,0x5D,0x04,Read,ACK
6.416472000000000,0,0x5D,0x03,Read,ACK
6.416493968750000,0,0x5D,0xF1,Read,ACK
6.416515437500000,0,0x5D,0x08,Read,ACK
6.416536937500000,0,0x5D,0x1D,Read,ACK
6.416558406250000,0,0x5D,0x04,Read,ACK
6.416579843750000,0,0x5D,0x02,Read,ACK
6.416601343750000,0,0x5D,0x02,Read,ACK
6.416625156250000,0,0x5D,0x20,Read,ACK
6.416646625000000,0,0x5D,0x00,Read,ACK
6.416668093750000,0,0x5D,0x00,Read,ACK
6.416689562500000,0,0x5D,0x00,Read,ACK
6.416711156250000,0,0x5D,0x00,Read,ACK
6.416733906250000,0,0x5D,0x00,Read,ACK
6.416755406250000,0,0x5D,0x00,Read,ACK
6.416777093750000,0,0x5D,0x00,Read,ACK
6.416798531250000,0,0x5D,0x00,Read,ACK
6.416820000000000,0,0x5D,0x00,Read,ACK
6.416841468750000,0,0x5D,0x00,Read,ACK
6.416863218750000,0,0x5D,0x00,Read,ACK
6.416884750000000,0,0x5D,0x00,Read,ACK
6.416906250000000,0,0x5D,0x00,Read,ACK
6.416927718750000,0,0x5D,0x00,Read,ACK
6.416949187500000,0,0x5D,0x00,Read,ACK
6.416970656250000,0,0x5D,0x00,Read,ACK
6.416992125000000,0,0x5D,0x00,Read,ACK
6.417013593750000,0,0x5D,0x00,Read,ACK
6.417035062500000,0,0x5D,0x00,Read,ACK
6.417056531250000,0,0x5D,0x00,Read,ACK
6.417078000000000,0,0x5D,0x00,Read,ACK
6.417099468750000,0,0x5D,0x00,Read,ACK
6.417124281250000,0,0x5D,0x00,Read,ACK
6.417147531250000,0,0x5D,0x00,Read,ACK
6.417169406250000,0,0x5D,0x00,Read,ACK
6.417191031250000,0,0x5D,0x00,Read,ACK
6.417214281250000,0,0x5D,0x00,Read,ACK
6.417236625000000,0,0x5D,0x00,Read,ACK
6.417258125000000,0,0x5D,0x00,Read,ACK
6.417279562500000,0,0x5D,0x00,Read,ACK
6.417303843750000,0,0x5D,0x00,Read,ACK
6.417325687500000,0,0x5D,0x00,Read,ACK
6.417347781250000,0,0x5D,0xCE,Read,ACK
6.417369843750000,0,0x5D,0xAE,Read,ACK
6.417391343750000,0,0x5D,0x01,Read,ACK
6.417413281250000,0,0x5D,0x00,Read,ACK
6.417434781250000,0,0x5D,0x00,Read,ACK
6.417458093750000,0,0x5D,0x00,Read,ACK
6.417479593750000,0,0x5D,0x00,Read,ACK
6.417501062500000,0,0x5D,0x00,Read,ACK
6.417522531250000,0,0x5D,0x00,Read,ACK
6.417544031250000,0,0x5D,0x00,Read,ACK
6.417569406250000,0,0x5D,0x00,Read,ACK
6.417590968750000,0,0x5D,0x00,Read,ACK
6.417612437500000,0,0x5D,0x00,Read,ACK
6.417633906250000,0,0x5D,0x00,Read,ACK
6.417655906250000,0,0x5D,0x00,Read,ACK
6.417677343750000,0,0x5D,0x00,Read,ACK
6.417699281250000,0,0x5D,0x00,Read,ACK
6.417722125000000,0,0x5D,0x00,Read,ACK
6.417746093750000,0,0x5D,0x00,Read,ACK
6.417768375000000,0,0x5D,0x00,Read,ACK
6.417790156250000,0,0x5D,0x00,Read,NAK
6.424100312500000,0,0x5D,0x2F,Read,ACK
6.424125406250000,0,0x5D,0x00,Read,ACK
6.424146906250000,0,0x5D,0x04,Read,ACK
6.424168343750000,0,0x5D,0x03,Read,ACK
6.424189843750000,0,0x5D,0xF1,Read,ACK
6.424213218750000,0,0x5D,0x08,Read,ACK
6.424235937500000,0,0x5D,0x20,Read,ACK
6.424259062500000,0,0x5D,0x04,Read,ACK
6.424281125000000,0,0x5D,0x02,Read,ACK
6.424302593750000,0,0x5D,0x02,Read,ACK
6.424324187500000,0,0x5D,0x20,Read,ACK
6.424345656250000,0,0x5D,0x00,Read,ACK
6.424367125000000,0,0x5D,0x00,Read,ACK
6.424388593750000,0,0x5D,0x00,Read,ACK
6.424410906250000,0,0x5D,0x00,Read,ACK
6.424432343750000,0,0x5D,0x00,Read,ACK
6.424454687500000,0,0x5D,0x00,Read,ACK
6.424476156250000,0,0x5D,0x00,Read,ACK
6.424497906250000,0,0x5D,0x00,Read,ACK
6.424519562500000,0,0x5D,0x00,Read,ACK
6.424541031250000,0,0x5D,0x00,Read,ACK
6.424562968750000,0,0x5D,0x00,Read,ACK
6.424584437500000,0,0x5D,0x00,Read,ACK
6.424606656250000,0,0x5D,0x00,Read,ACK
6.424629000000000,0,0x5D,0x00,Read,ACK
6.424651375000000,0,0x5D,0x00,Read,ACK
6.424672968750000,0,0x5D,0x00,Read,ACK
6.424694531250000,0,0x5D,0x00,Read,ACK
6.424716156250000,0,0x5D,0x00,Read,ACK
6.424737656250000,0,0x5D,0x00,Read,ACK
6.424759125000000,0,0x5D,0x00,Read,ACK
6.424780593750000,0,0x5D,0x00,Read,ACK
6.424802093750000,0,0x5D,0x00,Read,ACK
6.424824625000000,0,0x5D,0x00,Read,ACK
6.424847562500000,0,0x5D,0x00,Read,ACK
6.424870343750000,0,0x5D,0x00,Read,ACK
6.424892406250000,0,0x5D,0x00,Read,ACK
6.424917343750000,0,0x5D,0x00,Read,ACK
6.424938812500000,0,0x5D,0x00,Read,ACK
6.424960531250000,0,0x5D,0x00,Read,ACK
6.424982000000000,0,0x5D,0x00,Read,ACK
6.425004250000000,0,0x5D,0x00,Read,ACK
6.425026312500000,0,0x5D,0x00,Read,ACK
6.425047781250000,0,0x5D,0x14,Read,ACK
6.425070156250000,0,0x5D,0xAF,Read,ACK
6.425091656250000,0,0x5D,0x01,Read,ACK
6.425113343750000,0,0x5D,0x00,Read,ACK
6.425135000000000,0,0x5D,0x00,Read,ACK
6.425157937500000,0,0x5D,0x00,Read,ACK
6.425179406250000,0,0x5D,0x00,Read,ACK
6.425201312500000,0,0x5D,0x00,Read,ACK
6.425222812500000,0,0x5D,0x00,Read,ACK
6.425244281250000,0,0x5D,0x00,Read,ACK
6.425266875000000,0,0x5D,0x00,Read,ACK
6.425290750000000,0,0x5D,0x00,Read,ACK
6.425312218750000,0,0x5D,0x00,Read,ACK
6.425333718750000,0,0x5D,0x00,Read,ACK
6.425355625000000,0,0x5D,0x00,Read,ACK
6.425377062500000,0,0x5D,0x00,Read,ACK
6.425399187500000,0,0x5D,0x00,Read,ACK
6.425420843750000,0,0x5D,0x00,Read,ACK
6.425442468750000,0,0x5D,0x00,Read,ACK
6.425463968750000,0,0x5D,0x00,Read,ACK
6.425485437500000,0,0x5D,0x00,Read,NAK
6.430706812500000,0,0x5D,0x2F,Read,ACK
6.430730875000000,0,0x5D,0x00,Read,ACK
6.430752375000000,0,0x5D,0x04,Read,ACK
6.430775312500000,0,0x5D,0x03,Read,ACK
6.430798781250000,0,0x5D,0xF0,Read,ACK
6.430820781250000,0,0x5D,0x08,Read,ACK
6.430842250000000,0,0x5D,0x25,Read,ACK
6.430863687500000,0,0x5D,0x04,Read,ACK
6.430886343750000,0,0x5D,0x02,Read,ACK
6.430909031250000,0,0x5D,0x03,Read,ACK
6.430930750000000,0,0x5D,0x20,Read,ACK
6.430952187500000,0,0x5D,0x00,Read,ACK
6.430973656250000,0,0x5D,0x00,Read,ACK
6.430995156250000,0,0x5D,0x00,Read,ACK
6.431019656250000,0,0x5D,0x00,Read,ACK
6.431041125000000,0,0x5D,0x00,Read,ACK
6.431062625000000,0,0x5D,0x00,Read,ACK
6.431084093750000,0,0x5D,0x00,Read,ACK
6.431105531250000,0,0x5D,0x00,Read,ACK
6.431127031250000,0,0x5D,0x00,Read,ACK
6.431148468750000,0,0x5D,0x00,Read,ACK
6.431171343750000,0,0x5D,0x00,Read,ACK
6.431192843750000,0,0x5D,0x00,Read,ACK
6.431214343750000,0,0x5D,0x00,Read,ACK
6.431235875000000,0,0x5D,0x00,Read,ACK
6.431257406250000,0,0x5D,0x00,Read,ACK
6.431278843750000,0,0x5D,0x00,Read,ACK
6.431300312500000,0,0x5D,0x00,Read,ACK
6.431321781250000,0,0x5D,0x00,Read,ACK
6.431343250000000,0,0x5D,0x00,Read,ACK
6.431364750000000,0,0x5D,0x00,Read,ACK
6.431386187500000,0,0x5D,0x00,Read,ACK
6.431407656250000,0,0x5D,0x00,Read,ACK
6.431429125000000,0,0x5D,0x00,Read,ACK
6.431453687500000,0,0x5D,0x00,Read,ACK
6.431478875000000,0,0x5D,0x00,Read,ACK
6.431500343750000,0,0x5D,0x00,Read,ACK
6.431522000000000,0,0x5D,0x00,Read,ACK
6.431543875000000,0,0x5D,0x00,Read,ACK
6.431565375000000,0,0x5D,0x00,Read,ACK
6.431586843750000,0,0x5D,0x00,Read,ACK
6.431608312500000,0,0x5D,0x00,Read,ACK
6.431630062500000,0,0x5D,0x00,Read,ACK
6.431652656250000,0,0x5D,0x5A,Read,ACK
6.431674656250000,0,0x5D,0xAF,Read,ACK
6.431696656250000,0,0x5D,0x01,Read,ACK
6.431718906250000,0,0x5D,0x00,Read,ACK
6.431740375000000,0,0x5D,0x00,Read,ACK
6.431761843750000,0,0x5D,0x00,Read,ACK
6.431784343750000,0,0x5D,0x00,Read,ACK
6.431806562500000,0,0x5D,0x00,Read,ACK
6.431828500000000,0,0x5D,0x00,Read,ACK
6.431849968750000,0,0x5D,0x00,Read,ACK
6.431871531250000,0,0x5D,0x00,Read,ACK
6.431893062500000,0,0x5D,0x00,Read,ACK
6.431914562500000,0,0x5D,0x00,Read,ACK
6.431937281250000,0,0x5D,0x00,Read,ACK
6.431959468750000,0,0x5D,0x00,Read,ACK
6.431981437500000,0,0x5D,0x00,Read,ACK
6.432003718750000,0,0x5D,0x00,Read,ACK
6.432027281250000,0,0x5D,0x00,Read,ACK
6.432049750000000,0,0x5D,0x00,Read,ACK
6.432071531250000,0,0x5D,0x00,Read,ACK
6.432095937500000,0,0x5D,0x00,Read,NAK
6.437891000000000,0,0x5D,0x2F,Read,ACK
6.437917062500000,0,0x5D,0x00,Read,ACK
6.437940937500000,0,0x5D,0x04,Read,ACK
6.437962437500000,0,0x5D,0x03,Read,ACK
6.437983906250000,0,0x5D,0xED,Read,ACK
6.438005375000000,0,0x5D,0x08,Read,ACK
6.438027781250000,0,0x5D,0x2D,Read,ACK
6.438049500000000,0,0x5D,0x04,Read,ACK
6.438070968750000,0,0x5D,0x02,Read,ACK
6.438092468750000,0,0x5D,0x03,Read,ACK
6.438113906250000,0,0x5D,0x20,Read,ACK
6.438135406250000,0,0x5D,0x00,Read,ACK
6.438156875000000,0,0x5D,0x00,Read,ACK
6.438178781250000,0,0x5D,0x00,Read,ACK
6.438200218750000,0,0x5D,0x00,Read,ACK
6.438221718750000,0,0x5D,0x00,Read,ACK
6.438243156250000,0,0x5D,0x00,Read,ACK
6.438264656250000,0,0x5D,0x00,Read,ACK
6.438286218750000,0,0x5D,0x00,Read,ACK
6.438307718750000,0,0x5D,0x00,Read,ACK
6.438329156250000,0,0x5D,0x00,Read,ACK
6.438350812500000,0,0x5D,0x00,Read,ACK
6.438372281250000,0,0x5D,0x00,Read,ACK
6.438393750000000,0,0x5D,0x00,Read,ACK
6.438415250000000,0,0x5D,0x00,Read,ACK
6.438436687500000,0,0x5D,0x00,Read,ACK
6.438458250000000,0,0x5D,0x00,Read,ACK
6.438479718750000,0,0x5D,0x00,Read,ACK
6.438501156250000,0,0x5D,0x00,Read,ACK
6.438522656250000,0,0x5D,0x00,Read,ACK
6.438544125000000,0,0x5D,0x00,Read,ACK
6.438565562500000,0,0x5D,0x00,Read,ACK
6.438589562500000,0,0x5D,0x00,Read,ACK
6.438612656250000,0,0x5D,0x00,Read,ACK
6.438634718750000,0,0x5D,0x00,Read,ACK
6.438657156250000,0,0x5D,0x00,Read,ACK
6.438679500000000,0,0x5D,0x00,Read,ACK
6.438700937500000,0,0x5D,0x00,Read,ACK
6.438722406250000,0,0x5D,0x00,Read,ACK
6.438743875000000,0,0x5D,0x00,Read,ACK
6.438765375000000,0,0x5D,0x00,Read,ACK
6.438786906250000,0,0x5D,0x00,Read,ACK
6.438808656250000,0,0x5D,0x00,Read,ACK
6.438830125000000,0,0x5D,0xA0,Read,ACK
6.438851843750000,0,0x5D,0xAF,Read,ACK
6.438873312500000,0,0x5D,0x01,Read,ACK
6.438894937500000,0,0x5D,0x00,Read,ACK
6.438916437500000,0,0x5D,0x00,Read,ACK
6.438938031250000,0,0x5D,0x00,Read,ACK
6.438960375000000,0,0x5D,0x00,Read,ACK
6.438981843750000,0,0x5D,0x00,Read,ACK
6.439003312500000,0,0x5D,0x00,Read,ACK
6.439024968750000,0,0x5D,0x00,Read,ACK
6.439046593750000,0,0x5D,0x00,Read,ACK
6.439068187500000,0,0x5D,0x00,Read,ACK
6.439089625000000,0,0x5D,0x00,Read,ACK
6.439112031250000,0,0x5D,0x00,Read,ACK
6.439133718750000,0,0x5D,0x00,Read,ACK
6.439155375000000,0,0x5D,0x00,Read,ACK
6.439177468750000,0,0x5D,0x00,Read,ACK
6.439199187500000,0,0x5D,0x00,Read,ACK
6.439226468750000,0,0x5D,0x00,Read,ACK
6.439247968750000,0,0x5D,0x00,Read,ACK
6.439269437500000,0,0x5D,0x00,Read,NAK
6.445077187500000,0,0x5D,0x2F,Read,ACK
6.445104625000000,0,0x5D,0x00,Read,ACK
6.445126093750000,0,0x5D,0x04,Read,ACK
6.445149281250000,0,0x5D,0x03,Read,ACK
6.445171031250000,0,0x5D,0xE9,Read,ACK
6.445193656250000,0,0x5D,0x08,Read,ACK
6.445215125000000,0,0x5D,0x3A,Read,ACK
6.445236562500000,0,0x5D,0x04,Read,ACK
6.445258062500000,0,0x5D,0x03,Read,ACK
6.445279531250000,0,0x5D,0x03,Read,ACK
6.445301093750000,0,0x5D,0x20,Read,ACK
6.445322593750000,0,0x5D,0x00,Read,ACK
6.445344250000000,0,0x5D,0x00,Read,ACK
6.445365812500000,0,0x5D,0x00,Read,ACK
6.445387312500000,0,0x5D,0x00,Read,ACK
6.445408812500000,0,0x5D,0x00,Read,ACK
6.445430281250000,0,0x5D,0x00,Read,ACK
6.445451750000000,0,0x5D,0x00,Read,ACK
6.445473218750000,0,0x5D,0x00,Read,ACK
6.445494718750000,0,0x5D,0x00,Read,ACK
6.445516187500000,0,0x5D,0x00,Read,ACK
6.445537656250000,0,0x5D,0x00,Read,ACK
6.445559093750000,0,0x5D,0x00,Read,ACK
6.445580593750000,0,0x5D,0x00,Read,ACK
6.445602062500000,0,0x5D,0x00,Read,ACK
6.445623625000000,0,0x5D,0x00,Read,ACK
6.445645156250000,0,0x5D,0x00,Read,ACK
6.445668687500000,0,0x5D,0x00,Read,ACK
6.445692656250000,0,0x5D,0x00,Read,ACK
6.445717656250000,0,0x5D,0x00,Read,ACK
6.445742562500000,0,0x5D,0x00,Read,ACK
6.445764843750000,0,0x5D,0x00,Read,ACK
6.445786593750000,0,0x5D,0x00,Read,ACK
6.445808968750000,0,0x5D,0x00,Read,ACK
6.445830468750000,0,0x5D,0x00,Read,ACK
6.445851937500000,0,0x5D,0x00,Read,ACK
6.445873500000000,0,0x5D,0x00,Read,ACK
6.445894937500000,0,0x5D,0x00,Read,ACK
6.445918000000000,0,0x5D,0x00,Read,ACK
6.445939437500000,0,0x5D,0x00,Read,ACK
6.445960906250000,0,0x5D,0x00,Read,ACK
6.445983593750000,0,0x5D,0x00,Read,ACK
6.446005062500000,0,0x5D,0x00,Read,ACK
6.446027687500000,0,0x5D,0xE6,Read,ACK
6.446049156250000,0,0x5D,0xAF,Read,ACK
6.446071625000000,0,0x5D,0x01,Read,ACK
6.446093343750000,0,0x5D,0x00,Read,ACK
6.446115062500000,0,0x5D,0x00,Read,ACK
6.446136531250000,0,0x5D,0x00,Read,ACK
6.446158062500000,0,0x5D,0x00,Read,ACK
6.446180125000000,0,0x5D,0x00,Read,ACK
6.446201781250000,0,0x5D,0x00,Read,ACK
6.446224375000000,0,0x5D,0x00,Read,ACK
6.446245843750000,0,0x5D,0x00,Read,ACK
6.446268343750000,0,0x5D,0x00,Read,ACK
6.446289812500000,0,0x5D,0x00,Read,ACK
6.446311312500000,0,0x5D,0x00,Read,ACK
6.446332906250000,0,0x5D,0x00,Read,ACK
6.446357687500000,0,0x5D,0x00,Read,ACK
6.446380625000000,0,0x5D,0x00,Read,ACK
6.446402406250000,0,0x5D,0x00,Read,ACK
6.446423906250000,0,0x5D,0x00,Read,ACK
6.446445375000000,0,0x5D,0x00,Read,ACK
6.446468062500000,0,0x5D,0x00,Read,NAK
6.452122562500000,0,0x5D,0x2F,Read,ACK
6.452147187500000,0,0x5D,0x00,Read,ACK
6.452168687500000,0,0x5D,0x04,Read,ACK
6.452191343750000,0,0x5D,0x03,Read,ACK
6.452213343750000,0,0x5D,0xE4,Read,ACK
6.452234843750000,0,0x5D,0x08,Read,ACK
6.452256312500000,0,0x5D,0x4B,Read,ACK
6.452277781250000,0,0x5D,0x04,Read,ACK
6.452299250000000,0,0x5D,0x03,Read,ACK
6.452320718750000,0,0x5D,0x03,Read,ACK
6.452342187500000,0,0x5D,0x20,Read,ACK
6.452363656250000,0,0x5D,0x00,Read,ACK
6.452385125000000,0,0x5D,0x00,Read,ACK
6.452406593750000,0,0x5D,0x00,Read,ACK
6.452429437500000,0,0x5D,0x00,Read,ACK
6.452451125000000,0,0x5D,0x00,Read,ACK
6.452472625000000,0,0x5D,0x00,Read,ACK
6.452494093750000,0,0x5D,0x00,Read,ACK
6.452515562500000,0,0x5D,0x00,Read,ACK
6.452537031250000,0,0x5D,0x00,Read,ACK
6.452558500000000,0,0x5D,0x00,Read,ACK
6.452580250000000,0,0x5D,0x00,Read,ACK
6.452601750000000,0,0x5D,0x00,Read,ACK
6.452623218750000,0,0x5D,0x00,Read,ACK
6.452644687500000,0,0x5D,0x00,Read,ACK
6.452666156250000,0,0x5D,0x00,Read,ACK
6.452687625000000,0,0x5D,0x00,Read,ACK
6.452709093750000,0,0x5D,0x00,Read,ACK
6.452730781250000,0,0x5D,0x00,Read,ACK
6.452752281250000,0,0x5D,0x00,Read,ACK
6.452773750000000,0,0x5D,0x00,Read,ACK
6.452795218750000,0,0x5D,0x00,Read,ACK
6.452816687500000,0,0x5D,0x00,Read,ACK
6.452838156250000,0,0x5D,0x00,Read,ACK
6.452859625000000,0,0x5D,0x00,Read,ACK
6.452883656250000,0,0x5D,0x00,Read,ACK
6.452905125000000,0,0x5D,0x00,Read,ACK
6.452929750000000,0,0x5D,0x00,Read,ACK
6.452951593750000,0,0x5D,0x00,Read,ACK
6.452973031250000,0,0x5D,0x00,Read,ACK
6.452994500000000,0,0x5D,0x00,Read,ACK
6.453016000000000,0,0x5D,0x00,Read,ACK
6.453037843750000,0,0x5D,0x00,Read,ACK
6.453059812500000,0,0x5D,0x2C,Read,ACK
6.453081906250000,0,0x5D,0xB0,Read,ACK
6.453103375000000,0,0x5D,0x01,Read,ACK
6.453124906250000,0,0x5D,0x00,Read,ACK
6.453146343750000,0,0x5D,0x00,Read,ACK
6.453167781250000,0,0x5D,0x00,Read,ACK
6.453190218750000,0,0x5D,0x00,Read,ACK
6.453211718750000,0,0x5D,0x00,Read,ACK
6.453233312500000,0,0x5D,0x00,Read,ACK
6.453254750000000,0,0x5D,0x00,Read,ACK
6.453276218750000,0,0x5D,0x00,Read,ACK
6.453298437500000,0,0x5D,0x00,Read,ACK
6.453319906250000,0,0x5D,0x00,Read,ACK
6.453341750000000,0,0x5D,0x00,Read,ACK
6.453364906250000,0,0x5D,0x00,Read,ACK
6.453386375000000,0,0x5D,0x00,Read,ACK
6.453408312500000,0,0x5D,0x00,Read,ACK
6.453429812500000,0,0x5D,0x00,Read,ACK
6.453451281250000,0,0x5D,0x00,Read,ACK
6.453473093750000,0,0x5D,0x00,Read,ACK
6.453496093750000,0,0x5D,0x00,Read,NAK
6.459649125000000,0,0x5D,0x2F,Read,ACK
6.459673250000000,0,0x5D,0x00,Read,ACK
6.459694750000000,0,0x5D,0x04,Read,ACK
6.459716187500000,0,0x5D,0x03,Read,ACK
6.459737656250000,0,0x5D,0xDF,Read,ACK
6.459759156250000,0,0x5D,0x08,Read,ACK
6.459780593750000,0,0x5D,0x5F,Read,ACK
6.459802062500000,0,0x5D,0x04,Read,ACK
6.459823531250000,0,0x5D,0x03,Read,ACK
6.459845000000000,0,0x5D,0x02,Read,ACK
6.459866468750000,0,0x5D,0x20,Read,ACK
6.459887937500000,0,0x5D,0x00,Read,ACK
6.459909406250000,0,0x5D,0x00,Read,ACK
6.459931000000000,0,0x5D,0x00,Read,ACK
6.459953750000000,0,0x5D,0x00,Read,ACK
6.459975406250000,0,0x5D,0x00,Read,ACK
6.459998250000000,0,0x5D,0x00,Read,ACK
6.460022625000000,0,0x5D,0x00,Read,ACK
6.460044312500000,0,0x5D,0x00,Read,ACK
6.460067500000000,0,0x5D,0x00,Read,ACK
6.460088968750000,0,0x5D,0x00,Read,ACK
6.460110468750000,0,0x5D,0x00,Read,ACK
6.460131937500000,0,0x5D,0x00,Read,ACK
6.460153406250000,0,0x5D,0x00,Read,ACK
6.460176406250000,0,0x5D,0x00,Read,ACK
6.460198500000000,0,0x5D,0x00,Read,ACK
6.460220031250000,0,0x5D,0x00,Read,ACK
6.460241531250000,0,0x5D,0x00,Read,ACK
6.460263000000000,0,0x5D,0x00,Read,ACK
6.460284468750000,0,0x5D,0x00,Read,ACK
6.460307687500000,0,0x5D,0x00,Read,ACK
6.460329156250000,0,0x5D,0x00,Read,ACK
6.460351625000000,0,0x5D,0x00,Read,ACK
6.460373093750000,0,0x5D,0x00,Read,ACK
6.460395437500000,0,0x5D,0x00,Read,ACK
6.460417312500000,0,0x5D,0x00,Read,ACK
6.460438843750000,0,0x5D,0x00,Read,ACK
6.460460281250000,0,0x5D,0x00,Read,ACK
6.460481750000000,0,0x5D,0x00,Read,ACK
6.460504093750000,0,0x5D,0x00,Read,ACK
6.460526937500000,0,0x5D,0x00,Read,ACK
6.460548406250000,0,0x5D,0x00,Read,ACK
6.460570343750000,0,0x5D,0x00,Read,ACK
6.460592593750000,0,0x5D,0x72,Read,ACK
6.460614250000000,0,0x5D,0xB0,Read,ACK
6.460635750000000,0,0x5D,0x01,Read,ACK
6.460657218750000,0,0x5D,0x00,Read,ACK
6.460678656250000,0,0x5D,0x00,Read,ACK
6.460700125000000,0,0x5D,0x00,Read,ACK
6.460721593750000,0,0x5D,0x00,Read,ACK
6.460743062500000,0,0x5D,0x00,Read,ACK
6.460765437500000,0,0x5D,0x00,Read,ACK
6.460786875000000,0,0x5D,0x00,Read,ACK
6.460808625000000,0,0x5D,0x00,Read,ACK
6.460830625000000,0,0x5D,0x00,Read,ACK
6.460853843750000,0,0x5D,0x00,Read,ACK
6.460876000000000,0,0x5D,0x00,Read,ACK
6.460897468750000,0,0x5D,0x00,Read,ACK
6.460919187500000,0,0x5D,0x00,Read,ACK
6.460940687500000,0,0x5D,0x00,Read,ACK
6.460962187500000,0,0x5D,0x00,Read,ACK
6.460987500000000,0,0x5D,0x00,Read,ACK
6.461009156250000,0,0x5D,0x00,Read,ACK
6.461030687500000,0,0x5D,0x00,Read,NAK
6.466475000000000,0,0x5D,0x2F,Read,ACK
6.466502375000000,0,0x5D,0x00,Read,ACK
6.466523906250000,0,0x5D,0x04,Read,ACK
6.466546062500000,0,0x5D,0x03,Read,ACK
6.466567531250000,0,0x5D,0xD8,Read,ACK
6.466589000000000,0,0x5D,0x08,Read,ACK
6.466610812500000,0,0x5D,0x74,Read,ACK
6.466633156250000,0,0x5D,0x04,Read,ACK
6.466654687500000,0,0x5D,0x03,Read,ACK
6.466676125000000,0,0x5D,0x02,Read,ACK
6.466697593750000,0,0x5D,0x20,Read,ACK
6.466719062500000,0,0x5D,0x00,Read,ACK
6.466741656250000,0,0x5D,0x00,Read,ACK
6.466763125000000,0,0x5D,0x00,Read,ACK
6.466784781250000,0,0x5D,0x00,Read,ACK
6.466806250000000,0,0x5D,0x00,Read,ACK
6.466827937500000,0,0x5D,0x00,Read,ACK
6.466849656250000,0,0x5D,0x00,Read,ACK
6.466871156250000,0,0x5D,0x00,Read,ACK
6.466892625000000,0,0x5D,0x00,Read,ACK
6.466914093750000,0,0x5D,0x00,Read,ACK
6.466935562500000,0,0x5D,0x00,Read,ACK
6.466957031250000,0,0x5D,0x00,Read,ACK
6.466978468750000,0,0x5D,0x00,Read,ACK
6.466999968750000,0,0x5D,0x00,Read,ACK
6.467021437500000,0,0x5D,0x00,Read,ACK
6.467042875000000,0,0x5D,0x00,Read,ACK
6.467064375000000,0,0x5D,0x00,Read,ACK
6.467085812500000,0,0x5D,0x00,Read,ACK
6.467107281250000,0,0x5D,0x00,Read,ACK
6.467128750000000,0,0x5D,0x00,Read,ACK
6.467150218750000,0,0x5D,0x00,Read,ACK
6.467172187500000,0,0x5D,0x00,Read,ACK
6.467195343750000,0,0x5D,0x00,Read,ACK
6.467216812500000,0,0x5D,0x00,Read,ACK
6.467240781250000,0,0x5D,0x00,Read,ACK
6.467262656250000,0,0x5D,0x00,Read,ACK
6.467284937500000,0,0x5D,0x00,Read,ACK
6.467306593750000,0,0x5D,0x00,Read,ACK
6.467328125000000,0,0x5D,0x00,Read,ACK
6.467349625000000,0,0x5D,0x00,Read,ACK
6.467371187500000,0,0x5D,0x00,Read,ACK
6.467392812500000,0,0x5D,0x00,Read,ACK
6.467414281250000,0,0x5D,0xB8,Read,ACK
6.467436718750000,0,0x5D,0xB0,Read,ACK
6.467458281250000,0,0x5D,0x01,Read,ACK
6.467479718750000,0,0x5D,0x00,Read,ACK
6.467502000000000,0,0x5D,0x00,Read,ACK
6.467523468750000,0,0x5D,0x00,Read,ACK
6.467545937500000,0,0x5D,0x00,Read,ACK
6.467567406250000,0,0x5D,0x00,Read,ACK
6.467589125000000,0,0x5D,0x00,Read,ACK
6.467610593750000,0,0x5D,0x00,Read,ACK
6.467633750000000,0,0x5D,0x00,Read,ACK
6.467655218750000,0,0x5D,0x00,Read,ACK
6.467676750000000,0,0x5D,0x00,Read,ACK
6.467698562500000,0,0x5D,0x00,Read,ACK
6.467721687500000,0,0x5D,0x00,Read,ACK
6.467743406250000,0,0x5D,0x00,Read,ACK
6.467765125000000,0,0x5D,0x00,Read,ACK
6.467787968750000,0,0x5D,0x00,Read,ACK
6.467809843750000,0,0x5D,0x00,Read,ACK
6.467831656250000,0,0x5D,0x00,Read,ACK
6.467856468750000,0,0x5D,0x00,Read,NAK
6.474161375000000,0,0x5D,0x2F,Read,ACK
6.474190250000000,0,0x5D,0x00,Read,ACK
6.474215156250000,0,0x5D,0x04,Read,ACK
6.474241281250000,0,0x5D,0x03,Read,ACK
6.474263968750000,0,0x5D,0xCF,Read,ACK
6.474287125000000,0,0x5D,0x08,Read,ACK
6.474309968750000,0,0x5D,0x8A,Read,ACK
6.474331781250000,0,0x5D,0x04,Read,ACK
6.474353656250000,0,0x5D,0x03,Read,ACK
6.474375312500000,0,0x5D,0x02,Read,ACK
6.474396750000000,0,0x5D,0x20,Read,ACK
6.474419312500000,0,0x5D,0x00,Read,ACK
6.474441531250000,0,0x5D,0x00,Read,ACK
6.474463375000000,0,0x5D,0x00,Read,ACK
6.474485375000000,0,0x5D,0x00,Read,ACK
6.474508062500000,0,0x5D,0x00,Read,ACK
6.474529875000000,0,0x5D,0x00,Read,ACK
6.474552437500000,0,0x5D,0x00,Read,ACK
6.474573906250000,0,0x5D,0x00,Read,ACK
6.474595531250000,0,0x5D,0x00,Read,ACK
6.474617000000000,0,0x5D,0x00,Read,ACK
6.474640187500000,0,0x5D,0x00,Read,ACK
6.474661875000000,0,0x5D,0x00,Read,ACK
6.474683375000000,0,0x5D,0x00,Read,ACK
6.474704843750000,0,0x5D,0x00,Read,ACK
6.474727593750000,0,0x5D,0x00,Read,ACK
6.474749125000000,0,0x5D,0x00,Read,ACK
6.474770625000000,0,0x5D,0x00,Read,ACK
6.474793218750000,0,0x5D,0x00,Read,ACK
6.474815375000000,0,0x5D,0x00,Read,ACK
6.474837968750000,0,0x5D,0x00,Read,ACK
6.474859468750000,0,0x5D,0x00,Read,ACK
6.474881406250000,0,0x5D,0x00,Read,ACK
6.474903187500000,0,0x5D,0x00,Read,ACK
6.474927718750000,0,0x5D,0x00,Read,ACK
6.474949187500000,0,0x5D,0x00,Read,ACK
6.474970656250000,0,0x5D,0x00,Read,ACK
6.474992125000000,0,0x5D,0x00,Read,ACK
6.475013593750000,0,0x5D,0x00,Read,ACK
6.475035062500000,0,0x5D,0x00,Read,ACK
6.475056812500000,0,0x5D,0x00,Read,ACK
6.475078312500000,0,0x5D,0x00,Read,ACK
6.475099781250000,0,0x5D,0x00,Read,ACK
6.475121656250000,0,0x5D,0xFE,Read,ACK
6.475143281250000,0,0x5D,0xB0,Read,ACK
6.475166500000000,0,0x5D,0x01,Read,ACK
6.475187968750000,0,0x5D,0x00,Read,ACK
6.475209437500000,0,0x5D,0x00,Read,ACK
6.475230875000000,0,0x5D,0x00,Read,ACK
6.475252343750000,0,0x5D,0x00,Read,ACK
6.475273812500000,0,0x5D,0x00,Read,ACK
6.475295281250000,0,0x5D,0x00,Read,ACK
6.475317093750000,0,0x5D,0x00,Read,ACK
6.475338562500000,0,0x5D,0x00,Read,ACK
6.475360000000000,0,0x5D,0x00,Read,ACK
6.475381468750000,0,0x5D,0x00,Read,ACK
6.475403343750000,0,0x5D,0x00,Read,ACK
6.475425062500000,0,0x5D,0x00,Read,ACK
6.475446968750000,0,0x5D,0x00,Read,ACK
6.475468687500000,0,0x5D,0x00,Read,ACK
6.475490312500000,0,0x5D,0x00,Read,ACK
6.475511843750000,0,0x5D,0x00,Read,ACK
6.475533312500000,0,0x5D,0x00,Read,ACK
6.475554781250000,0,0x5D,0x00,Read,NAK
6.481244593750000,0,0x5D,0x2F,Read,ACK
6.481270750000000,0,0x5D,0x00,Read,ACK
6.481292343750000,0,0x5D,0x04,Read,ACK
6.481313781250000,0,0x5D,0x03,Read,ACK
6.481335281250000,0,0x5D,0xC4,Read,ACK
6.481361093750000,0,0x5D,0x08,Read,ACK
6.481382562500000,0,0x5D,0x9F,Read,ACK
6.481404062500000,0,0x5D,0x04,Read,ACK
6.481427312500000,0,0x5D,0x03,Read,ACK
6.481448781250000,0,0x5D,0x03,Read,ACK
6.481470250000000,0,0x5D,0x20,Read,ACK
6.481492906250000,0,0x5D,0x00,Read,ACK
6.481514406250000,0,0x5D,0x00,Read,ACK
6.481535875000000,0,0x5D,0x00,Read,ACK
6.481557343750000,0,0x5D,0x00,Read,ACK
6.481578812500000,0,0x5D,0x00,Read,ACK
6.481600281250000,0,0x5D,0x00,Read,ACK
6.481621781250000,0,0x5D,0x00,Read,ACK
6.481643562500000,0,0x5D,0x00,Read,ACK
6.481666093750000,0,0x5D,0x00,Read,ACK
6.481687531250000,0,0x5D,0x00,Read,ACK
6.481709625000000,0,0x5D,0x00,Read,ACK
6.481731093750000,0,0x5D,0x00,Read,ACK
6.481752750000000,0,0x5D,0x00,Read,ACK
6.481774437500000,0,0x5D,0x00,Read,ACK
6.481795875000000,0,0x5D,0x00,Read,ACK
6.481818218750000,0,0x5D,0x00,Read,ACK
6.481841187500000,0,0x5D,0x00,Read,ACK
6.481862687500000,0,0x5D,0x00,Read,ACK
6.481884125000000,0,0x5D,0x00,Read,ACK
6.481906468750000,0,0x5D,0x00,Read,ACK
6.481930093750000,0,0x5D,0x00,Read,ACK
6.481952343750000,0,0x5D,0x00,Read,ACK
6.481973812500000,0,0x5D,0x00,Read,ACK
6.481996437500000,0,0x5D,0x00,Read,ACK
6.482018218750000,0,0x5D,0x00,Read,ACK
6.482041687500000,0,0x5D,0x00,Read,ACK
6.482064000000000,0,0x5D,0x00,Read,ACK
6.482086843750000,0,0x5D,0x00,Read,ACK
6.482108312500000,0,0x5D,0x00,Read,ACK
6.482129781250000,0,0x5D,0x00,Read,ACK
6.482151625000000,0,0x5D,0x00,Read,ACK
6.482173093750000,0,0x5D,0x00,Read,ACK
6.482195750000000,0,0x5D,0x44,Read,ACK
6.482217625000000,0,0x5D,0xB1,Read,ACK
6.482239125000000,0,0x5D,0x01,Read,ACK
6.482261968750000,0,0x5D,0x00,Read,ACK
6.482283593750000,0,0x5D,0x00,Read,ACK
6.482305062500000,0,0x5D,0x00,Read,ACK
6.482326500000000,0,0x5D,0x00,Read,ACK
6.482348000000000,0,0x5D,0x00,Read,ACK
6.482369437500000,0,0x5D,0x00,Read,ACK
6.482390906250000,0,0x5D,0x00,Read,ACK
6.482414156250000,0,0x5D,0x00,Read,ACK
6.482435625000000,0,0x5D,0x00,Read,ACK
6.482457125000000,0,0x5D,0x00,Read,ACK
6.482478625000000,0,0x5D,0x00,Read,ACK
6.482500437500000,0,0x5D,0x00,Read,ACK
6.482522093750000,0,0x5D,0x00,Read,ACK
6.482543656250000,0,0x5D,0x00,Read,ACK
6.482565125000000,0,0x5D,0x00,Read,ACK
6.482586812500000,0,0x5D,0x00,Read,ACK
6.482608281250000,0,0x5D,0x00,Read,ACK
6.482629750000000,0,0x5D,0x00,Read,NAK
6.487850531250000,0,0x5D,0x2F,Read,ACK
6.487874812500000,0,0x5D,0x00,Read,ACK
6.487896281250000,0,0x5D,0x04,Read,ACK
6.487919250000000,0,0x5D,0x03,Read,ACK
6.487941125000000,0,0x5D,0xB7,Read,ACK
6.487962593750000,0,0x5D,0x08,Read,ACK
6.487984093750000,0,0x5D,0xB4,Read,ACK
6.488005593750000,0,0x5D,0x04,Read,ACK
6.488027750000000,0,0x5D,0x03,Read,ACK
6.488049250000000,0,0x5D,0x03,Read,ACK
6.488070718750000,0,0x5D,0x20,Read,ACK
6.488092156250000,0,0x5D,0x00,Read,ACK
6.488113687500000,0,0x5D,0x00,Read,ACK
6.488135187500000,0,0x5D,0x00,Read,ACK
6.488157812500000,0,0x5D,0x00,Read,ACK
6.488179281250000,0,0x5D,0x00,Read,ACK
6.488200781250000,0,0x5D,0x00,Read,ACK
6.488222250000000,0,0x5D,0x00,Read,ACK
6.488243718750000,0,0x5D,0x00,Read,ACK
6.488265187500000,0,0x5D,0x00,Read,ACK
6.488286656250000,0,0x5D,0x00,Read,ACK
6.488308125000000,0,0x5D,0x00,Read,ACK
6.488329593750000,0,0x5D,0x00,Read,ACK
6.488351281250000,0,0x5D,0x00,Read,ACK
6.488372750000000,0,0x5D,0x00,Read,ACK
6.488394187500000,0,0x5D,0x00,Read,ACK
6.488415656250000,0,0x5D,0x00,Read,ACK
6.488437125000000,0,0x5D,0x00,Read,ACK
6.488458625000000,0,0x5D,0x00,Read,ACK
6.488480062500000,0,0x5D,0x00,Read,ACK
6.488501562500000,0,0x5D,0x00,Read,ACK
6.488524656250000,0,0x5D,0x00,Read,ACK
6.488547875000000,0,0x5D,0x00,Read,ACK
6.488569312500000,0,0x5D,0x00,Read,ACK
6.488592218750000,0,0x5D,0x00,Read,ACK
6.488613906250000,0,0x5D,0x00,Read,ACK
6.488636656250000,0,0x5D,0x00,Read,ACK
6.488658125000000,0,0x5D,0x00,Read,ACK
6.488679625000000,0,0x5D,0x00,Read,ACK
6.488701062500000,0,0x5D,0x00,Read,ACK
6.488722531250000,0,0x5D,0x00,Read,ACK
6.488744031250000,0,0x5D,0x00,Read,ACK
6.488766281250000,0,0x5D,0x00,Read,ACK
6.488787937500000,0,0x5D,0x8A,Read,ACK
6.488809406250000,0,0x5D,0xB1,Read,ACK
6.488830875000000,0,0x5D,0x01,Read,ACK
6.488852343750000,0,0x5D,0x00,Read,ACK
6.488874437500000,0,0x5D,0x00,Read,ACK
6.488895906250000,0,0x5D,0x00,Read,ACK
6.488917593750000,0,0x5D,0x00,Read,ACK
6.488940843750000,0,0x5D,0x00,Read,ACK
6.488962312500000,0,0x5D,0x00,Read,ACK
6.488983937500000,0,0x5D,0x00,Read,ACK
6.489005718750000,0,0x5D,0x00,Read,ACK
6.489027156250000,0,0x5D,0x00,Read,ACK
6.489049000000000,0,0x5D,0x00,Read,ACK
6.489070468750000,0,0x5D,0x00,Read,ACK
6.489094656250000,0,0x5D,0x00,Read,ACK
6.489116375000000,0,0x5D,0x00,Read,ACK
6.489137812500000,0,0x5D,0x00,Read,ACK
6.489159281250000,0,0x5D,0x00,Read,ACK
6.489180968750000,0,0x5D,0x00,Read,ACK
6.489203906250000,0,0x5D,0x00,Read,ACK
6.489227125000000,0,0x5D,0x00,Read,NAK
6.495058125000000,0,0x5D,0x2F,Read,ACK
6.495089062500000,0,0x5D,0x00,Read,ACK
6.495112500000000,0,0x5D,0x04,Read,ACK
6.495133937500000,0,0x5D,0x03,Read,ACK
6.495155406250000,0,0x5D,0xA8,Read,ACK
6.495176875000000,0,0x5D,0x08,Read,ACK
6.495198812500000,0,0x5D,0xC8,Read,ACK
6.495220531250000,0,0x5D,0x04,Read,ACK
6.495242031250000,0,0x5D,0x03,Read,ACK
6.495264093750000,0,0x5D,0x03,Read,ACK
6.495285593750000,0,0x5D,0x20,Read,ACK
6.495307062500000,0,0x5D,0x00,Read,ACK
6.495330125000000,0,0x5D,0x00,Read,ACK
6.495351593750000,0,0x5D,0x00,Read,ACK
6.495373281250000,0,0x5D,0x00,Read,ACK
6.495394750000000,0,0x5D,0x00,Read,ACK
6.495416218750000,0,0x5D,0x00,Read,ACK
6.495437906250000,0,0x5D,0x00,Read,ACK
6.495459312500000,0,0x5D,0x00,Read,ACK
6.495480812500000,0,0x5D,0x00,Read,ACK
6.495502281250000,0,0x5D,0x00,Read,ACK
6.495523718750000,0,0x5D,0x00,Read,ACK
6.495545375000000,0,0x5D,0x00,Read,ACK
6.495566843750000,0,0x5D,0x00,Read,ACK
6.495588312500000,0,0x5D,0x00,Read,ACK
6.495609812500000,0,0x5D,0x00,Read,ACK
6.495631281250000,0,0x5D,0x00,Read,ACK
6.495652718750000,0,0x5D,0x00,Read,ACK
6.495674218750000,0,0x5D,0x00,Read,ACK
6.495695656250000,0,0x5D,0x00,Read,ACK
6.495719687500000,0,0x5D,0x00,Read,ACK
6.495741156250000,0,0x5D,0x00,Read,ACK
6.495765406250000,0,0x5D,0x00,Read,ACK
6.495787375000000,0,0x5D,0x00,Read,ACK
6.495810468750000,0,0x5D,0x00,Read,ACK
6.495831906250000,0,0x5D,0x00,Read,ACK
6.495853375000000,0,0x5D,0x00,Read,ACK
6.495874843750000,0,0x5D,0x00,Read,ACK
6.495896312500000,0,0x5D,0x00,Read,ACK
6.495919156250000,0,0x5D,0x00,Read,ACK
6.495941843750000,0,0x5D,0x00,Read,ACK
6.495963312500000,0,0x5D,0x00,Read,ACK
6.495984781250000,0,0x5D,0x00,Read,ACK
6.496006281250000,0,0x5D,0xD0,Read,ACK
6.496027781250000,0,0x5D,0xB1,Read,ACK
6.496051500000000,0,0x5D,0x01,Read,ACK
6.496072968750000,0,0x5D,0x00,Read,ACK
6.496094437500000,0,0x5D,0x00,Read,ACK
6.496116656250000,0,0x5D,0x00,Read,ACK
6.496141593750000,0,0x5D,0x00,Read,ACK
6.496163093750000,0,0x5D,0x00,Read,ACK
6.496186312500000,0,0x5D,0x00,Read,ACK
6.496207781250000,0,0x5D,0x00,Read,ACK
6.496229562500000,0,0x5D,0x00,Read,ACK
6.496251031250000,0,0x5D,0x00,Read,ACK
6.496272562500000,0,0x5D,0x00,Read,ACK
6.496294781250000,0,0x5D,0x00,Read,ACK
6.496316562500000,0,0x5D,0x00,Read,ACK
6.496338250000000,0,0x5D,0x00,Read,ACK
6.496360656250000,0,0x5D,0x00,Read,ACK
6.496382437500000,0,0x5D,0x00,Read,ACK
6.496407781250000,0,0x5D,0x00,Read,ACK
6.496429250000000,0,0x5D,0x00,Read,ACK
6.496451843750000,0,0x5D,0x00,Read,NAK
6.502138312500000,0,0x5D,0x2F,Read,ACK
6.502162468750000,0,0x5D,0x00,Read,ACK
6.502183937500000,0,0x5D,0x04,Read,ACK
6.502205687500000,0,0x5D,0x03,Read,ACK
6.502228312500000,0,0x5D,0x97,Read,ACK
6.502249781250000,0,0x5D,0x08,Read,ACK
6.502271250000000,0,0x5D,0xDB,Read,ACK
6.502292687500000,0,0x5D,0x04,Read,ACK
6.502315468750000,0,0x5D,0x03,Read,ACK
6.502338750000000,0,0x5D,0x03,Read,ACK
6.502360218750000,0,0x5D,0x20,Read,ACK
6.502381687500000,0,0x5D,0x00,Read,ACK
6.502403187500000,0,0x5D,0x00,Read,ACK
6.502424656250000,0,0x5D,0x00,Read,ACK
6.502446093750000,0,0x5D,0x00,Read,ACK
6.502467562500000,0,0x5D,0x00,Read,ACK
6.502489031250000,0,0x5D,0x00,Read,ACK
6.502510531250000,0,0x5D,0x00,Read,ACK
6.502531968750000,0,0x5D,0x00,Read,ACK
6.502553437500000,0,0x5D,0x00,Read,ACK
6.502574906250000,0,0x5D,0x00,Read,ACK
6.502596375000000,0,0x5D,0x00,Read,ACK
6.502617843750000,0,0x5D,0x00,Read,ACK
6.502639312500000,0,0x5D,0x00,Read,ACK
6.502661281250000,0,0x5D,0x00,Read,ACK
6.502682781250000,0,0x5D,0x00,Read,ACK
6.502704218750000,0,0x5D,0x00,Read,ACK
6.502725718750000,0,0x5D,0x00,Read,ACK
6.502747187500000,0,0x5D,0x00,Read,ACK
6.502768625000000,0,0x5D,0x00,Read,ACK
6.502790093750000,0,0x5D,0x00,Read,ACK
6.502811562500000,0,0x5D,0x00,Read,ACK
6.502833062500000,0,0x5D,0x00,Read,ACK
6.502854500000000,0,0x5D,0x00,Read,ACK
6.502879500000000,0,0x5D,0x00,Read,ACK
6.502903937500000,0,0x5D,0x00,Read,ACK
6.502925531250000,0,0x5D,0x00,Read,ACK
6.502947156250000,0,0x5D,0x00,Read,ACK
6.502968750000000,0,0x5D,0x00,Read,ACK
6.502991093750000,0,0x5D,0x00,Read,ACK
6.503012531250000,0,0x5D,0x00,Read,ACK
6.5030