Time [s],Packet ID,Address,Data,Read/Write,ACK/NAK
0.006330760000000,0,0x5D,0x2F,Read,ACK
0.006355380000000,0,0x5D,0x00,Read,ACK
0.006376860000000,0,0x5D,0x04,Read,ACK
0.006398320000000,0,0x5D,0x03,Read,ACK
0.006419800000000,0,0x5D,0xFC,Read,ACK
0.006441300000000,0,0x5D,0x00,Read,ACK
0.006462740000000,0,0x5D,0xF3,Read,ACK
0.006484920000000,0,0x5D,0x08,Read,ACK
0.006506400000000,0,0x5D,0x03,Read,ACK
0.006527840000000,0,0x5D,0x03,Read,ACK
0.006549400000000,0,0x5D,0x20,Read,ACK
0.006571520000000,0,0x5D,0x13,Read,ACK
0.006594360000000,0,0x5D,0xCA,Read,ACK
0.006615840000000,0,0x5D,0x05,Read,ACK
0.006637300000000,0,0x5D,0x81,Read,ACK
0.006658740000000,0,0x5D,0x05,Read,ACK
0.006680220000000,0,0x5D,0x04,Read,ACK
0.006701720000000,0,0x5D,0x03,Read,ACK
0.006723980000000,0,0x5D,0x20,Read,ACK
0.006745440000000,0,0x5D,0x00,Read,ACK
0.006768140000000,0,0x5D,0x00,Read,ACK
0.006789600000000,0,0x5D,0x00,Read,ACK
0.006811060000000,0,0x5D,0x00,Read,ACK
0.006832500000000,0,0x5D,0x00,Read,ACK
0.006853960000000,0,0x5D,0x00,Read,ACK
0.006875420000000,0,0x5D,0x00,Read,ACK
0.006896920000000,0,0x5D,0x00,Read,ACK
0.006918380000000,0,0x5D,0x00,Read,ACK
0.006939840000000,0,0x5D,0x00,Read,ACK
0.006961540000000,0,0x5D,0x00,Read,ACK
0.006983400000000,0,0x5D,0x00,Read,ACK
0.007004880000000,0,0x5D,0x00,Read,ACK
0.007026320000000,0,0x5D,0x00,Read,ACK
0.007047800000000,0,0x5D,0x00,Read,ACK
0.007069300000000,0,0x5D,0x00,Read,ACK
0.007090760000000,0,0x5D,0x00,Read,ACK
0.007112260000000,0,0x5D,0x00,Read,ACK
0.007133720000000,0,0x5D,0x00,Read,ACK
0.007155180000000,0,0x5D,0x00,Read,ACK
0.007176660000000,0,0x5D,0x00,Read,ACK
0.007198140000000,0,0x5D,0x00,Read,ACK
0.007219620000000,0,0x5D,0x00,Read,ACK
0.007241140000000,0,0x5D,0x00,Read,ACK
0.007262900000000,0,0x5D,0x72,Read,ACK
0.007284440000000,0,0x5D,0x87,Read,ACK
0.007305920000000,0,0x5D,0x02,Read,ACK
0.007327380000000,0,0x5D,0x00,Read,ACK
0.007348880000000,0,0x5D,0x00,Read,ACK
0.007370340000000,0,0x5D,0x00,Read,ACK
0.007391860000000,0,0x5D,0x00,Read,ACK
0.007413320000000,0,0x5D,0x00,Read,ACK
0.007434760000000,0,0x5D,0x00,Read,ACK
0.007456220000000,0,0x5D,0x00,Read,ACK
0.007477660000000,0,0x5D,0x00,Read,ACK
0.007499120000000,0,0x5D,0x00,Read,ACK
0.007520580000000,0,0x5D,0x00,Read,ACK
0.007542120000000,0,0x5D,0x00,Read,ACK
0.007563620000000,0,0x5D,0x00,Read,ACK
0.007585120000000,0,0x5D,0x00,Read,ACK
0.007607460000000,0,0x5D,0x00,Read,ACK
0.007628960000000,0,0x5D,0x00,Read,ACK
0.007650440000000,0,0x5D,0x00,Read,ACK
0.007672240000000,0,0x5D,0x00,Read,ACK
0.007694560000000,0,0x5D,0x00,Read,NAK
0.013429720000000,0,0x5D,0x2F,Read,ACK
0.013454640000000,0,0x5D,0x00,Read,ACK
0.013476080000000,0,0x5D,0x04,Read,ACK
0.013497560000000,0,0x5D,0x03,Read,ACK
0.013519060000000,0,0x5D,0xFC,Read,ACK
0.013540500000000,0,0x5D,0x00,Read,ACK
0.013561960000000,0,0x5D,0xF3,Read,ACK
0.013583420000000,0,0x5D,0x08,Read,ACK
0.013604880000000,0,0x5D,0x03,Read,ACK
0.013626320000000,0,0x5D,0x03,Read,ACK
0.013647780000000,0,0x5D,0x20,Read,ACK
0.013669240000000,0,0x5D,0x13,Read,ACK
0.013690860000000,0,0x5D,0xC9,Read,ACK
0.013712720000000,0,0x5D,0x05,Read,ACK
0.013734220000000,0,0x5D,0x80,Read,ACK
0.013755700000000,0,0x5D,0x05,Read,ACK
0.013777200000000,0,0x5D,0x04,Read,ACK
0.013798680000000,0,0x5D,0x03,Read,ACK
0.013820180000000,0,0x5D,0x20,Read,ACK
0.013841640000000,0,0x5D,0x00,Read,ACK
0.013863080000000,0,0x5D,0x00,Read,ACK
0.013884540000000,0,0x5D,0x00,Read,ACK
0.013906000000000,0,0x5D,0x00,Read,ACK
0.013927480000000,0,0x5D,0x00,Read,ACK
0.013948960000000,0,0x5D,0x00,Read,ACK
0.013970420000000,0,0x5D,0x00,Read,ACK
0.013993060000000,0,0x5D,0x00,Read,ACK
0.014014580000000,0,0x5D,0x00,Read,ACK
0.014036020000000,0,0x5D,0x00,Read,ACK
0.014057500000000,0,0x5D,0x00,Read,ACK
0.014079000000000,0,0x5D,0x00,Read,ACK
0.014100580000000,0,0x5D,0x00,Read,ACK
0.014122300000000,0,0x5D,0x00,Read,ACK
0.014143800000000,0,0x5D,0x00,Read,ACK
0.014165300000000,0,0x5D,0x00,Read,ACK
0.014186820000000,0,0x5D,0x00,Read,ACK
0.014208280000000,0,0x5D,0x00,Read,ACK
0.014229720000000,0,0x5D,0x00,Read,ACK
0.014251180000000,0,0x5D,0x00,Read,ACK
0.014272640000000,0,0x5D,0x00,Read,ACK
0.014294140000000,0,0x5D,0x00,Read,ACK
0.014315620000000,0,0x5D,0x00,Read,ACK
0.014337120000000,0,0x5D,0x00,Read,ACK
0.014358640000000,0,0x5D,0xB8,Read,ACK
0.014380140000000,0,0x5D,0x87,Read,ACK
0.014401640000000,0,0x5D,0x02,Read,ACK
0.014423100000000,0,0x5D,0x00,Read,ACK
0.014444560000000,0,0x5D,0x00,Read,ACK
0.014466020000000,0,0x5D,0x00,Read,ACK
0.014487460000000,0,0x5D,0x00,Read,ACK
0.014509200000000,0,0x5D,0x00,Read,ACK
0.014530680000000,0,0x5D,0x00,Read,ACK
0.014552140000000,0,0x5D,0x00,Read,ACK
0.014573660000000,0,0x5D,0x00,Read,ACK
0.014595160000000,0,0x5D,0x00,Read,ACK
0.014616640000000,0,0x5D,0x00,Read,ACK
0.014638120000000,0,0x5D,0x00,Read,ACK
0.014659640000000,0,0x5D,0x00,Read,ACK
0.014681100000000,0,0x5D,0x00,Read,ACK
0.014702560000000,0,0x5D,0x00,Read,ACK
0.014724020000000,0,0x5D,0x00,Read,ACK
0.014747480000000,0,0x5D,0x00,Read,ACK
0.014769300000000,0,0x5D,0x00,Read,ACK
0.014790900000000,0,0x5D,0x00,Read,NAK
0.020689080000000,0,0x5D,0x2F,Read,ACK
0.020711860000000,0,0x5D,0x00,Read,ACK
0.020733320000000,0,0x5D,0x04,Read,ACK
0.020754780000000,0,0x5D,0x03,Read,ACK
0.020776920000000,0,0x5D,0xFC,Read,ACK
0.020798380000000,0,0x5D,0x00,Read,ACK
0.020819880000000,0,0x5D,0xF3,Read,ACK
0.020841740000000,0,0x5D,0x08,Read,ACK
0.020863680000000,0,0x5D,0x03,Read,ACK
0.020885180000000,0,0x5D,0x03,Read,ACK
0.020906640000000,0,0x5D,0x20,Read,ACK
0.020928140000000,0,0x5D,0x13,Read,ACK
0.020949620000000,0,0x5D,0xC8,Read,ACK
0.020971120000000,0,0x5D,0x05,Read,ACK
0.020993660000000,0,0x5D,0x80,Read,ACK
0.021015160000000,0,0x5D,0x05,Read,ACK
0.021036660000000,0,0x5D,0x04,Read,ACK
0.021058140000000,0,0x5D,0x03,Read,ACK
0.021082140000000,0,0x5D,0x20,Read,ACK
0.021106040000000,0,0x5D,0x00,Read,ACK
0.021127520000000,0,0x5D,0x00,Read,ACK
0.021148960000000,0,0x5D,0x00,Read,ACK
0.021170420000000,0,0x5D,0x00,Read,ACK
0.021191900000000,0,0x5D,0x00,Read,ACK
0.021213420000000,0,0x5D,0x00,Read,ACK
0.021234920000000,0,0x5D,0x00,Read,ACK
0.021258500000000,0,0x5D,0x00,Read,ACK
0.021279940000000,0,0x5D,0x00,Read,ACK
0.021301400000000,0,0x5D,0x00,Read,ACK
0.021322920000000,0,0x5D,0x00,Read,ACK
0.021344440000000,0,0x5D,0x00,Read,ACK
0.021365940000000,0,0x5D,0x00,Read,ACK
0.021387400000000,0,0x5D,0x00,Read,ACK
0.021408860000000,0,0x5D,0x00,Read,ACK
0.021430300000000,0,0x5D,0x00,Read,ACK
0.021451760000000,0,0x5D,0x00,Read,ACK
0.021473240000000,0,0x5D,0x00,Read,ACK
0.021494740000000,0,0x5D,0x00,Read,ACK
0.021516200000000,0,0x5D,0x00,Read,ACK
0.021537860000000,0,0x5D,0x00,Read,ACK
0.021559340000000,0,0x5D,0x00,Read,ACK
0.021580800000000,0,0x5D,0x00,Read,ACK
0.021602260000000,0,0x5D,0x00,Read,ACK
0.021623780000000,0,0x5D,0xFE,Read,ACK
0.021645320000000,0,0x5D,0x87,Read,ACK
0.021666800000000,0,0x5D,0x02,Read,ACK
0.021688320000000,0,0x5D,0x00,Read,ACK
0.021709760000000,0,0x5D,0x00,Read,ACK
0.021731260000000,0,0x5D,0x00,Read,ACK
0.021752740000000,0,0x5D,0x00,Read,ACK
0.021774200000000,0,0x5D,0x00,Read,ACK
0.021795660000000,0,0x5D,0x00,Read,ACK
0.021817140000000,0,0x5D,0x00,Read,ACK
0.021838620000000,0,0x5D,0x00,Read,ACK
0.021860080000000,0,0x5D,0x00,Read,ACK
0.021882780000000,0,0x5D,0x00,Read,ACK
0.021904240000000,0,0x5D,0x00,Read,ACK
0.021925700000000,0,0x5D,0x00,Read,ACK
0.021948160000000,0,0x5D,0x00,Read,ACK
0.021971180000000,0,0x5D,0x00,Read,ACK
0.021992700000000,0,0x5D,0x00,Read,ACK
0.022014220000000,0,0x5D,0x00,Read,ACK
0.022035700000000,0,0x5D,0x00,Read,ACK
0.022058000000000,0,0x5D,0x00,Read,NAK
0.027894280000000,0,0x5D,0x2F,Read,ACK
0.027917000000000,0,0x5D,0x00,Read,ACK
0.027939280000000,0,0x5D,0x04,Read,ACK
0.027961000000000,0,0x5D,0x03,Read,ACK
0.027982660000000,0,0x5D,0xFC,Read,ACK
0.028004120000000,0,0x5D,0x00,Read,ACK
0.028025580000000,0,0x5D,0xF3,Read,ACK
0.028047040000000,0,0x5D,0x08,Read,ACK
0.028068500000000,0,0x5D,0x03,Read,ACK
0.028090020000000,0,0x5D,0x03,Read,ACK
0.028111520000000,0,0x5D,0x20,Read,ACK
0.028134240000000,0,0x5D,0x13,Read,ACK
0.028156820000000,0,0x5D,0xC7,Read,ACK
0.028178780000000,0,0x5D,0x05,Read,ACK
0.028200280000000,0,0x5D,0x80,Read,ACK
0.028221780000000,0,0x5D,0x05,Read,ACK
0.028244620000000,0,0x5D,0x04,Read,ACK
0.028266180000000,0,0x5D,0x03,Read,ACK
0.028287640000000,0,0x5D,0x20,Read,ACK
0.028309120000000,0,0x5D,0x00,Read,ACK
0.028330600000000,0,0x5D,0x00,Read,ACK
0.028352100000000,0,0x5D,0x00,Read,ACK
0.028374660000000,0,0x5D,0x00,Read,ACK
0.028396280000000,0,0x5D,0x00,Read,ACK
0.028418180000000,0,0x5D,0x00,Read,ACK
0.028439660000000,0,0x5D,0x00,Read,ACK
0.028461140000000,0,0x5D,0x00,Read,ACK
0.028482600000000,0,0x5D,0x00,Read,ACK
0.028504080000000,0,0x5D,0x00,Read,ACK
0.028525560000000,0,0x5D,0x00,Read,ACK
0.028547020000000,0,0x5D,0x00,Read,ACK
0.028568480000000,0,0x5D,0x00,Read,ACK
0.028589980000000,0,0x5D,0x00,Read,ACK
0.028611460000000,0,0x5D,0x00,Read,ACK
0.028632960000000,0,0x5D,0x00,Read,ACK
0.028654400000000,0,0x5D,0x00,Read,ACK
0.028675860000000,0,0x5D,0x00,Read,ACK
0.028697320000000,0,0x5D,0x00,Read,ACK
0.028718780000000,0,0x5D,0x00,Read,ACK
0.028740220000000,0,0x5D,0x00,Read,ACK
0.028761700000000,0,0x5D,0x00,Read,ACK
0.028783200000000,0,0x5D,0x00,Read,ACK
0.028804640000000,0,0x5D,0x00,Read,ACK
0.028826100000000,0,0x5D,0x44,Read,ACK
0.028847560000000,0,0x5D,0x88,Read,ACK
0.028869000000000,0,0x5D,0x02,Read,ACK
0.028890460000000,0,0x5D,0x00,Read,ACK
0.028911920000000,0,0x5D,0x00,Read,ACK
0.028933380000000,0,0x5D,0x00,Read,ACK
0.028954820000000,0,0x5D,0x00,Read,ACK
0.028976340000000,0,0x5D,0x00,Read,ACK
0.028999140000000,0,0x5D,0x00,Read,ACK
0.029021100000000,0,0x5D,0x00,Read,ACK
0.029043620000000,0,0x5D,0x00,Read,ACK
0.029065080000000,0,0x5D,0x00,Read,ACK
0.029086540000000,0,0x5D,0x00,Read,ACK
0.029108020000000,0,0x5D,0x00,Read,ACK
0.029129960000000,0,0x5D,0x00,Read,ACK
0.029151400000000,0,0x5D,0x00,Read,ACK
0.029172860000000,0,0x5D,0x00,Read,ACK
0.029194300000000,0,0x5D,0x00,Read,ACK
0.029215760000000,0,0x5D,0x00,Read,ACK
0.029237500000000,0,0x5D,0x00,Read,ACK
0.029260500000000,0,0x5D,0x00,Read,NAK
0.034957980000000,0,0x5D,0x2F,Read,ACK
0.034982540000000,0,0x5D,0x00,Read,ACK
0.035004000000000,0,0x5D,0x04,Read,ACK
0.035025520000000,0,0x5D,0x03,Read,ACK
0.035046960000000,0,0x5D,0xFC,Read,ACK
0.035068420000000,0,0x5D,0x00,Read,ACK
0.035089920000000,0,0x5D,0xF3,Read,ACK
0.035113400000000,0,0x5D,0x08,Read,ACK
0.035134980000000,0,0x5D,0x03,Read,ACK
0.035156660000000,0,0x5D,0x03,Read,ACK
0.035178140000000,0,0x5D,0x20,Read,ACK
0.035199640000000,0,0x5D,0x13,Read,ACK
0.035221100000000,0,0x5D,0xC6,Read,ACK
0.035242580000000,0,0x5D,0x05,Read,ACK
0.035264060000000,0,0x5D,0x7F,Read,ACK
0.035285540000000,0,0x5D,0x05,Read,ACK
0.035307200000000,0,0x5D,0x04,Read,ACK
0.035328680000000,0,0x5D,0x03,Read,ACK
0.035350120000000,0,0x5D,0x20,Read,ACK
0.035371580000000,0,0x5D,0x00,Read,ACK
0.035393200000000,0,0x5D,0x00,Read,ACK
0.035414660000000,0,0x5D,0x00,Read,ACK
0.035436120000000,0,0x5D,0x00,Read,ACK
0.035457600000000,0,0x5D,0x00,Read,ACK
0.035479100000000,0,0x5D,0x00,Read,ACK
0.035500600000000,0,0x5D,0x00,Read,ACK
0.035522060000000,0,0x5D,0x00,Read,ACK
0.035543540000000,0,0x5D,0x00,Read,ACK
0.035565780000000,0,0x5D,0x00,Read,ACK
0.035587280000000,0,0x5D,0x00,Read,ACK
0.035608740000000,0,0x5D,0x00,Read,ACK
0.035630320000000,0,0x5D,0x00,Read,ACK
0.035651840000000,0,0x5D,0x00,Read,ACK
0.035673280000000,0,0x5D,0x00,Read,ACK
0.035694760000000,0,0x5D,0x00,Read,ACK
0.035716260000000,0,0x5D,0x00,Read,ACK
0.035737700000000,0,0x5D,0x00,Read,ACK
0.035759180000000,0,0x5D,0x00,Read,ACK
0.035780960000000,0,0x5D,0x00,Read,ACK
0.035802460000000,0,0x5D,0x00,Read,ACK
0.035823980000000,0,0x5D,0x00,Read,ACK
0.035845600000000,0,0x5D,0x00,Read,ACK
0.035867060000000,0,0x5D,0x00,Read,ACK
0.035888520000000,0,0x5D,0x8A,Read,ACK
0.035909980000000,0,0x5D,0x88,Read,ACK
0.035931480000000,0,0x5D,0x02,Read,ACK
0.035953020000000,0,0x5D,0x00,Read,ACK
0.035974520000000,0,0x5D,0x00,Read,ACK
0.035995980000000,0,0x5D,0x00,Read,ACK
0.036017420000000,0,0x5D,0x00,Read,ACK
0.036038880000000,0,0x5D,0x00,Read,ACK
0.036060340000000,0,0x5D,0x00,Read,ACK
0.036081840000000,0,0x5D,0x00,Read,ACK
0.036103300000000,0,0x5D,0x00,Read,ACK
0.036126620000000,0,0x5D,0x00,Read,ACK
0.036148080000000,0,0x5D,0x00,Read,ACK
0.036170720000000,0,0x5D,0x00,Read,ACK
0.036192500000000,0,0x5D,0x00,Read,ACK
0.036214200000000,0,0x5D,0x00,Read,ACK
0.036235700000000,0,0x5D,0x00,Read,ACK
0.036257160000000,0,0x5D,0x00,Read,ACK
0.036278660000000,0,0x5D,0x00,Read,ACK
0.036300120000000,0,0x5D,0x00,Read,ACK
0.036321580000000,0,0x5D,0x00,Read,NAK
0.042375760000000,0,0x5D,0x2F,Read,ACK
0.042400720000000,0,0x5D,0x00,Read,ACK
0.042422420000000,0,0x5D,0x04,Read,ACK
0.042445000000000,0,0x5D,0x03,Read,ACK
0.042466500000000,0,0x5D,0xFC,Read,ACK
0.042488000000000,0,0x5D,0x00,Read,ACK
0.042509480000000,0,0x5D,0xF3,Read,ACK
0.042530980000000,0,0x5D,0x08,Read,ACK
0.042552440000000,0,0x5D,0x03,Read,ACK
0.042573880000000,0,0x5D,0x03,Read,ACK
0.042595360000000,0,0x5D,0x20,Read,ACK
0.042616860000000,0,0x5D,0x13,Read,ACK
0.042638360000000,0,0x5D,0xC5,Read,ACK
0.042659920000000,0,0x5D,0x05,Read,ACK
0.042681820000000,0,0x5D,0x7F,Read,ACK
0.042703300000000,0,0x5D,0x05,Read,ACK
0.042724760000000,0,0x5D,0x04,Read,ACK
0.042746260000000,0,0x5D,0x03,Read,ACK
0.042767720000000,0,0x5D,0x20,Read,ACK
0.042789220000000,0,0x5D,0x00,Read,ACK
0.042810700000000,0,0x5D,0x00,Read,ACK
0.042832200000000,0,0x5D,0x00,Read,ACK
0.042853660000000,0,0x5D,0x00,Read,ACK
0.042875180000000,0,0x5D,0x00,Read,ACK
0.042896680000000,0,0x5D,0x00,Read,ACK
0.042918140000000,0,0x5D,0x00,Read,ACK
0.042939600000000,0,0x5D,0x00,Read,ACK
0.042961160000000,0,0x5D,0x00,Read,ACK
0.042982620000000,0,0x5D,0x00,Read,ACK
0.043004080000000,0,0x5D,0x00,Read,ACK
0.043025540000000,0,0x5D,0x00,Read,ACK
0.043046980000000,0,0x5D,0x00,Read,ACK
0.043068420000000,0,0x5D,0x00,Read,ACK
0.043089880000000,0,0x5D,0x00,Read,ACK
0.043111360000000,0,0x5D,0x00,Read,ACK
0.043132860000000,0,0x5D,0x00,Read,ACK
0.043154300000000,0,0x5D,0x00,Read,ACK
0.043175760000000,0,0x5D,0x00,Read,ACK
0.043197220000000,0,0x5D,0x00,Read,ACK
0.043222860000000,0,0x5D,0x00,Read,ACK
0.043244340000000,0,0x5D,0x00,Read,ACK
0.043265920000000,0,0x5D,0x00,Read,ACK
0.043287880000000,0,0x5D,0x00,Read,ACK
0.043309660000000,0,0x5D,0xD0,Read,ACK
0.043331120000000,0,0x5D,0x88,Read,ACK
0.043352660000000,0,0x5D,0x02,Read,ACK
0.043374140000000,0,0x5D,0x00,Read,ACK
0.043395600000000,0,0x5D,0x00,Read,ACK
0.043417180000000,0,0x5D,0x00,Read,ACK
0.043438680000000,0,0x5D,0x00,Read,ACK
0.043461500000000,0,0x5D,0x00,Read,ACK
0.043482980000000,0,0x5D,0x00,Read,ACK
0.043505640000000,0,0x5D,0x00,Read,ACK
0.043527160000000,0,0x5D,0x00,Read,ACK
0.043549900000000,0,0x5D,0x00,Read,ACK
0.043571420000000,0,0x5D,0x00,Read,ACK
0.043592920000000,0,0x5D,0x00,Read,ACK
0.043614400000000,0,0x5D,0x00,Read,ACK
0.043635880000000,0,0x5D,0x00,Read,ACK
0.043657360000000,0,0x5D,0x00,Read,ACK
0.043680220000000,0,0x5D,0x00,Read,ACK
0.043703740000000,0,0x5D,0x00,Read,ACK
0.043725200000000,0,0x5D,0x00,Read,ACK
0.043746720000000,0,0x5D,0x00,Read,NAK
0.049182920000000,0,0x5D,0x2F,Read,ACK
0.049207680000000,0,0x5D,0x00,Read,ACK
0.049229120000000,0,0x5D,0x04,Read,ACK
0.049250580000000,0,0x5D,0x03,Read,ACK
0.049272040000000,0,0x5D,0xFC,Read,ACK
0.049293540000000,0,0x5D,0x00,Read,ACK
0.049315000000000,0,0x5D,0xF3,Read,ACK
0.049336440000000,0,0x5D,0x08,Read,ACK
0.049357900000000,0,0x5D,0x03,Read,ACK
0.049379540000000,0,0x5D,0x03,Read,ACK
0.049401480000000,0,0x5D,0x20,Read,ACK
0.049424760000000,0,0x5D,0x13,Read,ACK
0.049446320000000,0,0x5D,0xC3,Read,ACK
0.049467800000000,0,0x5D,0x05,Read,ACK
0.049489300000000,0,0x5D,0x7E,Read,ACK
0.049510740000000,0,0x5D,0x05,Read,ACK
0.049532200000000,0,0x5D,0x04,Read,ACK
0.049553640000000,0,0x5D,0x03,Read,ACK
0.049576260000000,0,0x5D,0x20,Read,ACK
0.049597760000000,0,0x5D,0x00,Read,ACK
0.049619220000000,0,0x5D,0x00,Read,ACK
0.049640760000000,0,0x5D,0x00,Read,ACK
0.049662260000000,0,0x5D,0x00,Read,ACK
0.049684500000000,0,0x5D,0x00,Read,ACK
0.049705960000000,0,0x5D,0x00,Read,ACK
0.049727500000000,0,0x5D,0x00,Read,ACK
0.049749240000000,0,0x5D,0x00,Read,ACK
0.049771700000000,0,0x5D,0x00,Read,ACK
0.049793200000000,0,0x5D,0x00,Read,ACK
0.049814720000000,0,0x5D,0x00,Read,ACK
0.049837740000000,0,0x5D,0x00,Read,ACK
0.049859680000000,0,0x5D,0x00,Read,ACK
0.049881320000000,0,0x5D,0x00,Read,ACK
0.049902860000000,0,0x5D,0x00,Read,ACK
0.049924340000000,0,0x5D,0x00,Read,ACK
0.049945800000000,0,0x5D,0x00,Read,ACK
0.049967240000000,0,0x5D,0x00,Read,ACK
0.049988720000000,0,0x5D,0x00,Read,ACK
0.050010220000000,0,0x5D,0x00,Read,ACK
0.050031680000000,0,0x5D,0x00,Read,ACK
0.050053160000000,0,0x5D,0x00,Read,ACK
0.050074980000000,0,0x5D,0x00,Read,ACK
0.050096480000000,0,0x5D,0x00,Read,ACK
0.050117920000000,0,0x5D,0x16,Read,ACK
0.050139380000000,0,0x5D,0x89,Read,ACK
0.050160820000000,0,0x5D,0x02,Read,ACK
0.050182280000000,0,0x5D,0x00,Read,ACK
0.050203760000000,0,0x5D,0x00,Read,ACK
0.050225260000000,0,0x5D,0x00,Read,ACK
0.050246760000000,0,0x5D,0x00,Read,ACK
0.050268220000000,0,0x5D,0x00,Read,ACK
0.050289680000000,0,0x5D,0x00,Read,ACK
0.050311180000000,0,0x5D,0x00,Read,ACK
0.050332860000000,0,0x5D,0x00,Read,ACK
0.050354340000000,0,0x5D,0x00,Read,ACK
0.050375780000000,0,0x5D,0x00,Read,ACK
0.050399260000000,0,0x5D,0x00,Read,ACK
0.050423040000000,0,0x5D,0x00,Read,ACK
0.050444540000000,0,0x5D,0x00,Read,ACK
0.050466780000000,0,0x5D,0x00,Read,ACK
0.050488560000000,0,0x5D,0x00,Read,ACK
0.050510220000000,0,0x5D,0x00,Read,ACK
0.050531700000000,0,0x5D,0x00,Read,ACK
0.050553160000000,0,0x5D,0x00,Read,NAK
0.056313360000000,0,0x5D,0x2F,Read,ACK
0.056337960000000,0,0x5D,0x00,Read,ACK
0.056359420000000,0,0x5D,0x04,Read,ACK
0.056380880000000,0,0x5D,0x03,Read,ACK
0.056402340000000,0,0x5D,0xFC,Read,ACK
0.056423780000000,0,0x5D,0x00,Read,ACK
0.056445240000000,0,0x5D,0xF3,Read,ACK
0.056466700000000,0,0x5D,0x08,Read,ACK
0.056488140000000,0,0x5D,0x03,Read,ACK
0.056509600000000,0,0x5D,0x03,Read,ACK
0.056531060000000,0,0x5D,0x20,Read,ACK
0.056554260000000,0,0x5D,0x13,Read,ACK
0.056576140000000,0,0x5D,0xC1,Read,ACK
0.056597720000000,0,0x5D,0x05,Read,ACK
0.056619180000000,0,0x5D,0x7D,Read,ACK
0.056640640000000,0,0x5D,0x05,Read,ACK
0.056662140000000,0,0x5D,0x04,Read,ACK
0.056683600000000,0,0x5D,0x03,Read,ACK
0.056705040000000,0,0x5D,0x20,Read,ACK
0.056726500000000,0,0x5D,0x00,Read,ACK
0.056749620000000,0,0x5D,0x00,Read,ACK
0.056771520000000,0,0x5D,0x00,Read,ACK
0.056793020000000,0,0x5D,0x00,Read,ACK
0.056814540000000,0,0x5D,0x00,Read,ACK
0.056836020000000,0,0x5D,0x00,Read,ACK
0.056858940000000,0,0x5D,0x00,Read,ACK
0.056881160000000,0,0x5D,0x00,Read,ACK
0.056904200000000,0,0x5D,0x00,Read,ACK
0.056925660000000,0,0x5D,0x00,Read,ACK
0.056947100000000,0,0x5D,0x00,Read,ACK
0.056968620000000,0,0x5D,0x00,Read,ACK
0.056990760000000,0,0x5D,0x00,Read,ACK
0.057012620000000,0,0x5D,0x00,Read,ACK
0.057034120000000,0,0x5D,0x00,Read,ACK
0.057055600000000,0,0x5D,0x00,Read,ACK
0.057077060000000,0,0x5D,0x00,Read,ACK
0.057098760000000,0,0x5D,0x00,Read,ACK
0.057120220000000,0,0x5D,0x00,Read,ACK
0.057141680000000,0,0x5D,0x00,Read,ACK
0.057163180000000,0,0x5D,0x00,Read,ACK
0.057184640000000,0,0x5D,0x00,Read,ACK
0.057206200000000,0,0x5D,0x00,Read,ACK
0.057227660000000,0,0x5D,0x00,Read,ACK
0.057249120000000,0,0x5D,0x5C,Read,ACK
0.057270560000000,0,0x5D,0x89,Read,ACK
0.057292020000000,0,0x5D,0x02,Read,ACK
0.057313680000000,0,0x5D,0x00,Read,ACK
0.057335180000000,0,0x5D,0x00,Read,ACK
0.057356640000000,0,0x5D,0x00,Read,ACK
0.057378160000000,0,0x5D,0x00,Read,ACK
0.057399680000000,0,0x5D,0x00,Read,ACK
0.057421180000000,0,0x5D,0x00,Read,ACK
0.057442700000000,0,0x5D,0x00,Read,ACK
0.057464160000000,0,0x5D,0x00,Read,ACK
0.057485660000000,0,0x5D,0x00,Read,ACK
0.057507140000000,0,0x5D,0x00,Read,ACK
0.057528620000000,0,0x5D,0x00,Read,ACK
0.057550080000000,0,0x5D,0x00,Read,ACK
0.057571540000000,0,0x5D,0x00,Read,ACK
0.057592980000000,0,0x5D,0x00,Read,ACK
0.057614440000000,0,0x5D,0x00,Read,ACK
0.057636200000000,0,0x5D,0x00,Read,ACK
0.057658400000000,0,0x5D,0x00,Read,ACK
0.057679860000000,0,0x5D,0x00,Read,NAK
0.063433340000000,0,0x5D,0x2F,Read,ACK
0.063458660000000,0,0x5D,0x00,Read,ACK
0.063480160000000,0,0x5D,0x04,Read,ACK
0.063502160000000,0,0x5D,0x03,Read,ACK
0.063523620000000,0,0x5D,0xFC,Read,ACK
0.063545060000000,0,0x5D,0x00,Read,ACK
0.063566540000000,0,0x5D,0xF3,Read,ACK
0.063588080000000,0,0x5D,0x08,Read,ACK
0.063609560000000,0,0x5D,0x03,Read,ACK
0.063631080000000,0,0x5D,0x03,Read,ACK
0.063652520000000,0,0x5D,0x20,Read,ACK
0.063675860000000,0,0x5D,0x13,Read,ACK
0.063697400000000,0,0x5D,0xBF,Read,ACK
0.063718880000000,0,0x5D,0x05,Read,ACK
0.063741660000000,0,0x5D,0x7C,Read,ACK
0.063763160000000,0,0x5D,0x05,Read,ACK
0.063784600000000,0,0x5D,0x04,Read,ACK
0.063806060000000,0,0x5D,0x03,Read,ACK
0.063827520000000,0,0x5D,0x20,Read,ACK
0.063848980000000,0,0x5D,0x00,Read,ACK
0.063871680000000,0,0x5D,0x00,Read,ACK
0.063895600000000,0,0x5D,0x00,Read,ACK
0.063917060000000,0,0x5D,0x00,Read,ACK
0.063938520000000,0,0x5D,0x00,Read,ACK
0.063959960000000,0,0x5D,0x00,Read,ACK
0.063981420000000,0,0x5D,0x00,Read,ACK
0.064003980000000,0,0x5D,0x00,Read,ACK
0.064025440000000,0,0x5D,0x00,Read,ACK
0.064046900000000,0,0x5D,0x00,Read,ACK
0.064068380000000,0,0x5D,0x00,Read,ACK
0.064089880000000,0,0x5D,0x00,Read,ACK
0.064111980000000,0,0x5D,0x00,Read,ACK
0.064133760000000,0,0x5D,0x00,Read,ACK
0.064155240000000,0,0x5D,0x00,Read,ACK
0.064176720000000,0,0x5D,0x00,Read,ACK
0.064198200000000,0,0x5D,0x00,Read,ACK
0.064219680000000,0,0x5D,0x00,Read,ACK
0.064241200000000,0,0x5D,0x00,Read,ACK
0.064263140000000,0,0x5D,0x00,Read,ACK
0.064284660000000,0,0x5D,0x00,Read,ACK
0.064306140000000,0,0x5D,0x00,Read,ACK
0.064327640000000,0,0x5D,0x00,Read,ACK
0.064349140000000,0,0x5D,0x00,Read,ACK
0.064370600000000,0,0x5D,0xA2,Read,ACK
0.064392100000000,0,0x5D,0x89,Read,ACK
0.064413660000000,0,0x5D,0x02,Read,ACK
0.064435820000000,0,0x5D,0x00,Read,ACK
0.064457280000000,0,0x5D,0x00,Read,ACK
0.064478760000000,0,0x5D,0x00,Read,ACK
0.064500240000000,0,0x5D,0x00,Read,ACK
0.064521700000000,0,0x5D,0x00,Read,ACK
0.064543260000000,0,0x5D,0x00,Read,ACK
0.064564740000000,0,0x5D,0x00,Read,ACK
0.064586280000000,0,0x5D,0x00,Read,ACK
0.064607800000000,0,0x5D,0x00,Read,ACK
0.064629500000000,0,0x5D,0x00,Read,ACK
0.064651020000000,0,0x5D,0x00,Read,ACK
0.064672520000000,0,0x5D,0x00,Read,ACK
0.064694240000000,0,0x5D,0x00,Read,ACK
0.064715740000000,0,0x5D,0x00,Read,ACK
0.064737740000000,0,0x5D,0x00,Read,ACK
0.064759220000000,0,0x5D,0x00,Read,ACK
0.064781280000000,0,0x5D,0x00,Read,ACK
0.064802920000000,0,0x5D,0x00,Read,NAK
0.070650360000000,0,0x5D,0x2F,Read,ACK
0.070674700000000,0,0x5D,0x00,Read,ACK
0.070696160000000,0,0x5D,0x04,Read,ACK
0.070717680000000,0,0x5D,0x03,Read,ACK
0.070739180000000,0,0x5D,0xFC,Read,ACK
0.070760700000000,0,0x5D,0x00,Read,ACK
0.070782200000000,0,0x5D,0xF3,Read,ACK
0.070803680000000,0,0x5D,0x08,Read,ACK
0.070826960000000,0,0x5D,0x03,Read,ACK
0.070848740000000,0,0x5D,0x03,Read,ACK
0.070871380000000,0,0x5D,0x20,Read,ACK
0.070892820000000,0,0x5D,0x13,Read,ACK
0.070914280000000,0,0x5D,0xBD,Read,ACK
0.070935740000000,0,0x5D,0x05,Read,ACK
0.070957200000000,0,0x5D,0x7B,Read,ACK
0.070978640000000,0,0x5D,0x05,Read,ACK
0.071000140000000,0,0x5D,0x04,Read,ACK
0.071022080000000,0,0x5D,0x03,Read,ACK
0.071043560000000,0,0x5D,0x20,Read,ACK
0.071065040000000,0,0x5D,0x00,Read,ACK
0.071086520000000,0,0x5D,0x00,Read,ACK
0.071110860000000,0,0x5D,0x00,Read,ACK
0.071133460000000,0,0x5D,0x00,Read,ACK
0.071154920000000,0,0x5D,0x00,Read,ACK
0.071176380000000,0,0x5D,0x00,Read,ACK
0.071197840000000,0,0x5D,0x00,Read,ACK
0.071219320000000,0,0x5D,0x00,Read,ACK
0.071240860000000,0,0x5D,0x00,Read,ACK
0.071262420000000,0,0x5D,0x00,Read,ACK
0.071283900000000,0,0x5D,0x00,Read,ACK
0.071306440000000,0,0x5D,0x00,Read,ACK
0.071328220000000,0,0x5D,0x00,Read,ACK
0.071349700000000,0,0x5D,0x00,Read,ACK
0.071371200000000,0,0x5D,0x00,Read,ACK
0.071392660000000,0,0x5D,0x00,Read,ACK
0.071414100000000,0,0x5D,0x00,Read,ACK
0.071435600000000,0,0x5D,0x00,Read,ACK
0.071457100000000,0,0x5D,0x00,Read,ACK
0.071478600000000,0,0x5D,0x00,Read,ACK
0.071500080000000,0,0x5D,0x00,Read,ACK
0.071521560000000,0,0x5D,0x00,Read,ACK
0.071543020000000,0,0x5D,0x00,Read,ACK
0.071564480000000,0,0x5D,0x00,Read,ACK
0.071586320000000,0,0x5D,0xE8,Read,ACK
0.071607800000000,0,0x5D,0x89,Read,ACK
0.071629260000000,0,0x5D,0x02,Read,ACK
0.071650720000000,0,0x5D,0x00,Read,ACK
0.071672180000000,0,0x5D,0x00,Read,ACK
0.071693620000000,0,0x5D,0x00,Read,ACK
0.071715100000000,0,0x5D,0x00,Read,ACK
0.071736600000000,0,0x5D,0x00,Read,ACK
0.071758100000000,0,0x5D,0x00,Read,ACK
0.071779580000000,0,0x5D,0x00,Read,ACK
0.071801040000000,0,0x5D,0x00,Read,ACK
0.071822540000000,0,0x5D,0x00,Read,ACK
0.071844000000000,0,0x5D,0x00,Read,ACK
0.071865520000000,0,0x5D,0x00,Read,ACK
0.071889180000000,0,0x5D,0x00,Read,ACK
0.071910660000000,0,0x5D,0x00,Read,ACK
0.071932120000000,0,0x5D,0x00,Read,ACK
0.071954680000000,0,0x5D,0x00,Read,ACK
0.071976220000000,0,0x5D,0x00,Read,ACK
0.071997960000000,0,0x5D,0x00,Read,ACK
0.072019600000000,0,0x5D,0x00,Read,NAK
0.077925500000000,0,0x5D,0x2F,Read,ACK
0.077949240000000,0,0x5D,0x00,Read,ACK
0.077970920000000,0,0x5D,0x04,Read,ACK
0.077993020000000,0,0x5D,0x03,Read,ACK
0.078016760000000,0,0x5D,0xFC,Read,ACK
0.078038240000000,0,0x5D,0x00,Read,ACK
0.078059720000000,0,0x5D,0xF3,Read,ACK
0.078081240000000,0,0x5D,0x08,Read,ACK
0.078102740000000,0,0x5D,0x03,Read,ACK
0.078124200000000,0,0x5D,0x03,Read,ACK
0.078145720000000,0,0x5D,0x20,Read,ACK
0.078168280000000,0,0x5D,0x13,Read,ACK
0.078189740000000,0,0x5D,0xBA,Read,ACK
0.078211220000000,0,0x5D,0x05,Read,ACK
0.078232700000000,0,0x5D,0x7B,Read,ACK
0.078254580000000,0,0x5D,0x05,Read,ACK
0.078276680000000,0,0x5D,0x04,Read,ACK
0.078298140000000,0,0x5D,0x03,Read,ACK
0.078319600000000,0,0x5D,0x20,Read,ACK
0.078341120000000,0,0x5D,0x00,Read,ACK
0.078362600000000,0,0x5D,0x00,Read,ACK
0.078384100000000,0,0x5D,0x00,Read,ACK
0.078406420000000,0,0x5D,0x00,Read,ACK
0.078428720000000,0,0x5D,0x00,Read,ACK
0.078450180000000,0,0x5D,0x00,Read,ACK
0.078471640000000,0,0x5D,0x00,Read,ACK
0.078493100000000,0,0x5D,0x00,Read,ACK
0.078514600000000,0,0x5D,0x00,Read,ACK
0.078536060000000,0,0x5D,0x00,Read,ACK
0.078557500000000,0,0x5D,0x00,Read,ACK
0.078578960000000,0,0x5D,0x00,Read,ACK
0.078600540000000,0,0x5D,0x00,Read,ACK
0.078622000000000,0,0x5D,0x00,Read,ACK
0.078645180000000,0,0x5D,0x00,Read,ACK
0.078666640000000,0,0x5D,0x00,Read,ACK
0.078688100000000,0,0x5D,0x00,Read,ACK
0.078709560000000,0,0x5D,0x00,Read,ACK
0.078732760000000,0,0x5D,0x00,Read,ACK
0.078754220000000,0,0x5D,0x00,Read,ACK
0.078775740000000,0,0x5D,0x00,Read,ACK
0.078797240000000,0,0x5D,0x00,Read,ACK
0.078818700000000,0,0x5D,0x00,Read,ACK
0.078840140000000,0,0x5D,0x00,Read,ACK
0.078861600000000,0,0x5D,0x2E,Read,ACK
0.078883060000000,0,0x5D,0x8A,Read,ACK
0.078904520000000,0,0x5D,0x02,Read,ACK
0.078925960000000,0,0x5D,0x00,Read,ACK
0.078947440000000,0,0x5D,0x00,Read,ACK
0.078968880000000,0,0x5D,0x00,Read,ACK
0.078990340000000,0,0x5D,0x00,Read,ACK
0.079011780000000,0,0x5D,0x00,Read,ACK
0.079035360000000,0,0x5D,0x00,Read,ACK
0.079056820000000,0,0x5D,0x00,Read,ACK
0.079078280000000,0,0x5D,0x00,Read,ACK
0.079101920000000,0,0x5D,0x00,Read,ACK
0.079123600000000,0,0x5D,0x00,Read,ACK
0.079145060000000,0,0x5D,0x00,Read,ACK
0.079166520000000,0,0x5D,0x00,Read,ACK
0.079188480000000,0,0x5D,0x00,Read,ACK
0.079209920000000,0,0x5D,0x00,Read,ACK
0.079231580000000,0,0x5D,0x00,Read,ACK
0.079253080000000,0,0x5D,0x00,Read,ACK
0.079275840000000,0,0x5D,0x00,Read,ACK
0.079297300000000,0,0x5D,0x00,Read,NAK
0.085193020000000,0,0x5D,0x2F,Read,ACK
0.085214500000000,0,0x5D,0x00,Read,ACK
0.085236000000000,0,0x5D,0x04,Read,ACK
0.085257500000000,0,0x5D,0x03,Read,ACK
0.085280000000000,0,0x5D,0xFC,Read,ACK
0.085301940000000,0,0x5D,0x00,Read,ACK
0.085323420000000,0,0x5D,0xF3,Read,ACK
0.085344860000000,0,0x5D,0x08,Read,ACK
0.085366320000000,0,0x5D,0x03,Read,ACK
0.085387780000000,0,0x5D,0x03,Read,ACK
0.085409240000000,0,0x5D,0x20,Read,ACK
0.085430680000000,0,0x5D,0x13,Read,ACK
0.085452160000000,0,0x5D,0xB8,Read,ACK
0.085473720000000,0,0x5D,0x05,Read,ACK
0.085495200000000,0,0x5D,0x7A,Read,ACK
0.085516980000000,0,0x5D,0x05,Read,ACK
0.085538440000000,0,0x5D,0x04,Read,ACK
0.085559900000000,0,0x5D,0x03,Read,ACK
0.085581380000000,0,0x5D,0x20,Read,ACK
0.085602860000000,0,0x5D,0x00,Read,ACK
0.085624860000000,0,0x5D,0x00,Read,ACK
0.085646340000000,0,0x5D,0x00,Read,ACK
0.085667840000000,0,0x5D,0x00,Read,ACK
0.085689320000000,0,0x5D,0x00,Read,ACK
0.085710800000000,0,0x5D,0x00,Read,ACK
0.085732280000000,0,0x5D,0x00,Read,ACK
0.085753720000000,0,0x5D,0x00,Read,ACK
0.085775180000000,0,0x5D,0x00,Read,ACK
0.085796620000000,0,0x5D,0x00,Read,ACK
0.085818080000000,0,0x5D,0x00,Read,ACK
0.085839540000000,0,0x5D,0x00,Read,ACK
0.085860980000000,0,0x5D,0x00,Read,ACK
0.085882440000000,0,0x5D,0x00,Read,ACK
0.085903900000000,0,0x5D,0x00,Read,ACK
0.085925340000000,0,0x5D,0x00,Read,ACK
0.085946800000000,0,0x5D,0x00,Read,ACK
0.085968260000000,0,0x5D,0x00,Read,ACK
0.085989700000000,0,0x5D,0x00,Read,ACK
0.086011160000000,0,0x5D,0x00,Read,ACK
0.086032600000000,0,0x5D,0x00,Read,ACK
0.086054080000000,0,0x5D,0x00,Read,ACK
0.086075580000000,0,0x5D,0x00,Read,ACK
0.086097040000000,0,0x5D,0x00,Read,ACK
0.086119480000000,0,0x5D,0x74,Read,ACK
0.086141000000000,0,0x5D,0x8A,Read,ACK
0.086163280000000,0,0x5D,0x02,Read,ACK
0.086184780000000,0,0x5D,0x00,Read,ACK
0.086206240000000,0,0x5D,0x00,Read,ACK
0.086228440000000,0,0x5D,0x00,Read,ACK
0.086249960000000,0,0x5D,0x00,Read,ACK
0.086271540000000,0,0x5D,0x00,Read,ACK
0.086293000000000,0,0x5D,0x00,Read,ACK
0.086314500000000,0,0x5D,0x00,Read,ACK
0.086337200000000,0,0x5D,0x00,Read,ACK
0.086358720000000,0,0x5D,0x00,Read,ACK
0.086380540000000,0,0x5D,0x00,Read,ACK
0.086403020000000,0,0x5D,0x00,Read,ACK
0.086425600000000,0,0x5D,0x00,Read,ACK
0.086447440000000,0,0x5D,0x00,Read,ACK
0.086468940000000,0,0x5D,0x00,Read,ACK
0.086490660000000,0,0x5D,0x00,Read,ACK
0.086512120000000,0,0x5D,0x00,Read,ACK
0.086534400000000,0,0x5D,0x00,Read,ACK
0.086555840000000,0,0x5D,0x00,Read,NAK
0.092298500000000,0,0x5D,0x2F,Read,ACK
0.092323460000000,0,0x5D,0x00,Read,ACK
0.092344920000000,0,0x5D,0x04,Read,ACK
0.092366360000000,0,0x5D,0x03,Read,ACK
0.092387800000000,0,0x5D,0xFC,Read,ACK
0.092409260000000,0,0x5D,0x00,Read,ACK
0.092431240000000,0,0x5D,0xF3,Read,ACK
0.092453280000000,0,0x5D,0x08,Read,ACK
0.092474780000000,0,0x5D,0x03,Read,ACK
0.092496280000000,0,0x5D,0x03,Read,ACK
0.092517800000000,0,0x5D,0x20,Read,ACK
0.092539720000000,0,0x5D,0x13,Read,ACK
0.092561900000000,0,0x5D,0xB6,Read,ACK
0.092583340000000,0,0x5D,0x05,Read,ACK
0.092604800000000,0,0x5D,0x79,Read,ACK
0.092626280000000,0,0x5D,0x05,Read,ACK
0.092647780000000,0,0x5D,0x04,Read,ACK
0.092669300000000,0,0x5D,0x03,Read,ACK
0.092692000000000,0,0x5D,0x20,Read,ACK
0.092713440000000,0,0x5D,0x00,Read,ACK
0.092734900000000,0,0x5D,0x00,Read,ACK
0.092756440000000,0,0x5D,0x00,Read,ACK
0.092777940000000,0,0x5D,0x00,Read,ACK
0.092799400000000,0,0x5D,0x00,Read,ACK
0.092820900000000,0,0x5D,0x00,Read,ACK
0.092842360000000,0,0x5D,0x00,Read,ACK
0.092863820000000,0,0x5D,0x00,Read,ACK
0.092885280000000,0,0x5D,0x00,Read,ACK
0.092906740000000,0,0x5D,0x00,Read,ACK
0.092928200000000,0,0x5D,0x00,Read,ACK
0.092949700000000,0,0x5D,0x00,Read,ACK
0.092971160000000,0,0x5D,0x00,Read,ACK
0.092992620000000,0,0x5D,0x00,Read,ACK
0.093014060000000,0,0x5D,0x00,Read,ACK
0.093035540000000,0,0x5D,0x00,Read,ACK
0.093057040000000,0,0x5D,0x00,Read,ACK
0.093078500000000,0,0x5D,0x00,Read,ACK
0.093099980000000,0,0x5D,0x00,Read,ACK
0.093121480000000,0,0x5D,0x00,Read,ACK
0.093142940000000,0,0x5D,0x00,Read,ACK
0.093164460000000,0,0x5D,0x00,Read,ACK
0.093186020000000,0,0x5D,0x00,Read,ACK
0.093207480000000,0,0x5D,0x00,Read,ACK
0.093228940000000,0,0x5D,0xBA,Read,ACK
0.093250400000000,0,0x5D,0x8A,Read,ACK
0.093271900000000,0,0x5D,0x02,Read,ACK
0.093295300000000,0,0x5D,0x00,Read,ACK
0.093317060000000,0,0x5D,0x00,Read,ACK
0.093338560000000,0,0x5D,0x00,Read,ACK
0.093360020000000,0,0x5D,0x00,Read,ACK
0.093381480000000,0,0x5D,0x00,Read,ACK
0.093402940000000,0,0x5D,0x00,Read,ACK
0.093424480000000,0,0x5D,0x00,Read,ACK
0.093446000000000,0,0x5D,0x00,Read,ACK
0.093467820000000,0,0x5D,0x00,Read,ACK
0.093489340000000,0,0x5D,0x00,Read,ACK
0.093511220000000,0,0x5D,0x00,Read,ACK
0.093534460000000,0,0x5D,0x00,Read,ACK
0.093556140000000,0,0x5D,0x00,Read,ACK
0.093579660000000,0,0x5D,0x00,Read,ACK
0.093602320000000,0,0x5D,0x00,Read,ACK
0.093623800000000,0,0x5D,0x00,Read,ACK
0.093646080000000,0,0x5D,0x00,Read,ACK
0.093667600000000,0,0x5D,0x00,Read,NAK
0.099222620000000,0,0x5D,0x2F,Read,ACK
0.099247600000000,0,0x5D,0x00,Read,ACK
0.099269060000000,0,0x5D,0x04,Read,ACK
0.099290520000000,0,0x5D,0x03,Read,ACK
0.099312020000000,0,0x5D,0xFC,Read,ACK
0.099333480000000,0,0x5D,0x00,Read,ACK
0.099354940000000,0,0x5D,0xF3,Read,ACK
0.099376720000000,0,0x5D,0x08,Read,ACK
0.099398240000000,0,0x5D,0x03,Read,ACK
0.099419740000000,0,0x5D,0x03,Read,ACK
0.099441780000000,0,0x5D,0x20,Read,ACK
0.099463260000000,0,0x5D,0x13,Read,ACK
0.099484820000000,0,0x5D,0xB4,Read,ACK
0.099506300000000,0,0x5D,0x05,Read,ACK
0.099527760000000,0,0x5D,0x79,Read,ACK
0.099549200000000,0,0x5D,0x05,Read,ACK
0.099570660000000,0,0x5D,0x04,Read,ACK
0.099592300000000,0,0x5D,0x03,Read,ACK
0.099615400000000,0,0x5D,0x20,Read,ACK
0.099636900000000,0,0x5D,0x00,Read,ACK
0.099658380000000,0,0x5D,0x00,Read,ACK
0.099679880000000,0,0x5D,0x00,Read,ACK
0.099701340000000,0,0x5D,0x00,Read,ACK
0.099722960000000,0,0x5D,0x00,Read,ACK
0.099744420000000,0,0x5D,0x00,Read,ACK
0.099765880000000,0,0x5D,0x00,Read,ACK
0.099787340000000,0,0x5D,0x00,Read,ACK
0.099808800000000,0,0x5D,0x00,Read,ACK
0.099830300000000,0,0x5D,0x00,Read,ACK
0.099851760000000,0,0x5D,0x00,Read,ACK
0.099873520000000,0,0x5D,0x00,Read,ACK
0.099894980000000,0,0x5D,0x00,Read,ACK
0.099916440000000,0,0x5D,0x00,Read,ACK
0.099937960000000,0,0x5D,0x00,Read,ACK
0.099959460000000,0,0x5D,0x00,Read,ACK
0.099980980000000,0,0x5D,0x00,Read,ACK
0.100002440000000,0,0x5D,0x00,Read,ACK
0.100023900000000,0,0x5D,0x00,Read,ACK
0.100045360000000,0,0x5D,0x00,Read,ACK
0.100066800000000,0,0x5D,0x00,Read,ACK
0.100088260000000,0,0x5D,0x00,Read,ACK
0.100109700000000,0,0x5D,0x00,Read,ACK
0.100131160000000,0,0x5D,0x00,Read,ACK
0.100152620000000,0,0x5D,0x00,Read,ACK
0.100174120000000,0,0x5D,0x8B,Read,ACK
0.100195580000000,0,0x5D,0x02,Read,ACK
0.100217040000000,0,0x5D,0x00,Read,ACK
0.100238500000000,0,0x5D,0x00,Read,ACK
0.100260000000000,0,0x5D,0x00,Read,ACK
0.100281440000000,0,0x5D,0x00,Read,ACK
0.100302900000000,0,0x5D,0x00,Read,ACK
0.100324360000000,0,0x5D,0x00,Read,ACK
0.100345820000000,0,0x5D,0x00,Read,ACK
0.100367260000000,0,0x5D,0x00,Read,ACK
0.100388740000000,0,0x5D,0x00,Read,ACK
0.100410240000000,0,0x5D,0x00,Read,ACK
0.100431720000000,0,0x5D,0x00,Read,ACK
0.100453380000000,0,0x5D,0x00,Read,ACK
0.100474840000000,0,0x5D,0x00,Read,ACK
0.100497840000000,0,0x5D,0x00,Read,ACK
0.100519300000000,0,0x5D,0x00,Read,ACK
0.100540760000000,0,0x5D,0x00,Read,ACK
0.100562680000000,0,0x5D,0x00,Read,ACK
0.100584960000000,0,0x5D,0x00,Read,NAK
0.106319460000000,0,0x5D,0x2F,Read,ACK
0.106344860000000,0,0x5D,0x00,Read,ACK
0.106366320000000,0,0x5D,0x04,Read,ACK
0.106388360000000,0,0x5D,0x03,Read,ACK
0.106409860000000,0,0x5D,0xFC,Read,ACK
0.106431340000000,0,0x5D,0x00,Read,ACK
0.106452820000000,0,0x5D,0xF3,Read,ACK
0.106474300000000,0,0x5D,0x08,Read,ACK
0.106495800000000,0,0x5D,0x03,Read,ACK
0.106517260000000,0,0x5D,0x03,Read,ACK
0.106538720000000,0,0x5D,0x20,Read,ACK
0.106560180000000,0,0x5D,0x13,Read,ACK
0.106582120000000,0,0x5D,0xB2,Read,ACK
0.106603780000000,0,0x5D,0x05,Read,ACK
0.106628040000000,0,0x5D,0x78,Read,ACK
0.106649540000000,0,0x5D,0x05,Read,ACK
0.106671000000000,0,0x5D,0x04,Read,ACK
0.106692500000000,0,0x5D,0x03,Read,ACK
0.106713960000000,0,0x5D,0x20,Read,ACK
0.106735400000000,0,0x5D,0x00,Read,ACK
0.106756880000000,0,0x5D,0x00,Read,ACK
0.106778320000000,0,0x5D,0x00,Read,ACK
0.106799800000000,0,0x5D,0x00,Read,ACK
0.106821280000000,0,0x5D,0x00,Read,ACK
0.106842760000000,0,0x5D,0x00,Read,ACK
0.106866860000000,0,0x5D,0x00,Read,ACK
0.106889540000000,0,0x5D,0x00,Read,ACK
0.106911020000000,0,0x5D,0x00,Read,ACK
0.106932540000000,0,0x5D,0x00,Read,ACK
0.106954000000000,0,0x5D,0x00,Read,ACK
0.106975460000000,0,0x5D,0x00,Read,ACK
0.106996940000000,0,0x5D,0x00,Read,ACK
0.107018440000000,0,0x5D,0x00,Read,ACK
0.107039940000000,0,0x5D,0x00,Read,ACK
0.107061400000000,0,0x5D,0x00,Read,ACK
0.107082860000000,0,0x5D,0x00,Read,ACK
0.107104300000000,0,0x5D,0x00,Read,ACK
0.107125760000000,0,0x5D,0x00,Read,ACK
0.107147380000000,0,0x5D,0x00,Read,ACK
0.107168860000000,0,0x5D,0x00,Read,ACK
0.107190320000000,0,0x5D,0x00,Read,ACK
0.107211760000000,0,0x5D,0x00,Read,ACK
0.107233240000000,0,0x5D,0x00,Read,ACK
0.107254740000000,0,0x5D,0x46,Read,ACK
0.107276200000000,0,0x5D,0x8B,Read,ACK
0.107297640000000,0,0x5D,0x02,Read,ACK
0.107319120000000,0,0x5D,0x00,Read,ACK
0.107340620000000,0,0x5D,0x00,Read,ACK
0.107362080000000,0,0x5D,0x00,Read,ACK
0.107383540000000,0,0x5D,0x00,Read,ACK
0.107404980000000,0,0x5D,0x00,Read,ACK
0.107426480000000,0,0x5D,0x00,Read,ACK
0.107447960000000,0,0x5D,0x00,Read,ACK
0.107469420000000,0,0x5D,0x00,Read,ACK
0.107490920000000,0,0x5D,0x00,Read,ACK
0.107512380000000,0,0x5D,0x00,Read,ACK
0.107533840000000,0,0x5D,0x00,Read,ACK
0.107555300000000,0,0x5D,0x00,Read,ACK
0.107576740000000,0,0x5D,0x00,Read,ACK
0.107598240000000,0,0x5D,0x00,Read,ACK
0.107619720000000,0,0x5D,0x00,Read,ACK
0.107643760000000,0,0x5D,0x00,Read,ACK
0.107666540000000,0,0x5D,0x00,Read,ACK
0.107689280000000,0,0x5D,0x00,Read,NAK
0.113485120000000,0,0x5D,0x2F,Read,ACK
0.113510800000000,0,0x5D,0x00,Read,ACK
0.113532480000000,0,0x5D,0x04,Read,ACK
0.113553940000000,0,0x5D,0x03,Read,ACK
0.113575380000000,0,0x5D,0xFC,Read,ACK
0.113596860000000,0,0x5D,0x00,Read,ACK
0.113618360000000,0,0x5D,0xF3,Read,ACK
0.113639800000000,0,0x5D,0x08,Read,ACK
0.113661260000000,0,0x5D,0x03,Read,ACK
0.113682720000000,0,0x5D,0x03,Read,ACK
0.113704180000000,0,0x5D,0x20,Read,ACK
0.113726160000000,0,0x5D,0x13,Read,ACK
0.113748200000000,0,0x5D,0xB1,Read,ACK
0.113771040000000,0,0x5D,0x05,Read,ACK
0.113792560000000,0,0x5D,0x78,Read,ACK
0.113814020000000,0,0x5D,0x05,Read,ACK
0.113835500000000,0,0x5D,0x04,Read,ACK
0.113856960000000,0,0x5D,0x03,Read,ACK
0.113878420000000,0,0x5D,0x20,Read,ACK
0.113900140000000,0,0x5D,0x00,Read,ACK
0.113923220000000,0,0x5D,0x00,Read,ACK
0.113945100000000,0,0x5D,0x00,Read,ACK
0.113966560000000,0,0x5D,0x00,Read,ACK
0.113988060000000,0,0x5D,0x00,Read,ACK
0.114009560000000,0,0x5D,0x00,Read,ACK
0.114031040000000,0,0x5D,0x00,Read,ACK
0.114052480000000,0,0x5D,0x00,Read,ACK
0.114075200000000,0,0x5D,0x00,Read,ACK
0.114096740000000,0,0x5D,0x00,Read,ACK
0.114118280000000,0,0x5D,0x00,Read,ACK
0.114139800000000,0,0x5D,0x00,Read,ACK
0.114161980000000,0,0x5D,0x00,Read,ACK
0.114183440000000,0,0x5D,0x00,Read,ACK
0.114204900000000,0,0x5D,0x00,Read,ACK
0.114226360000000,0,0x5D,0x00,Read,ACK
0.114247800000000,0,0x5D,0x00,Read,ACK
0.114269260000000,0,0x5D,0x00,Read,ACK
0.114290720000000,0,0x5D,0x00,Read,ACK
0.114312180000000,0,0x5D,0x00,Read,ACK
0.114333680000000,0,0x5D,0x00,Read,ACK
0.114355140000000,0,0x5D,0x00,Read,ACK
0.114376580000000,0,0x5D,0x00,Read,ACK
0.114398040000000,0,0x5D,0x00,Read,ACK
0.114419500000000,0,0x5D,0x8C,Read,ACK
0.114440960000000,0,0x5D,0x8B,Read,ACK
0.114462400000000,0,0x5D,0x02,Read,ACK
0.114483860000000,0,0x5D,0x00,Read,ACK
0.114505320000000,0,0x5D,0x00,Read,ACK
0.114526840000000,0,0x5D,0x00,Read,ACK
0.114550180000000,0,0x5D,0x00,Read,ACK
0.114571660000000,0,0x5D,0x00,Read,ACK
0.114593140000000,0,0x5D,0x00,Read,ACK
0.114614640000000,0,0x5D,0x00,Read,ACK
0.114636100000000,0,0x5D,0x00,Read,ACK
0.114657560000000,0,0x5D,0x00,Read,ACK
0.114679000000000,0,0x5D,0x00,Read,ACK
0.114700480000000,0,0x5D,0x00,Read,ACK
0.114721980000000,0,0x5D,0x00,Read,ACK
0.114743780000000,0,0x5D,0x00,Read,ACK
0.114765280000000,0,0x5D,0x00,Read,ACK
0.114787280000000,0,0x5D,0x00,Read,ACK
0.114809460000000,0,0x5D,0x00,Read,ACK
0.114830960000000,0,0x5D,0x00,Read,ACK
0.114852660000000,0,0x5D,0x00,Read,NAK
0.120661720000000,0,0x5D,0x2F,Read,ACK
0.120684440000000,0,0x5D,0x00,Read,ACK
0.120705900000000,0,0x5D,0x04,Read,ACK
0.120727360000000,0,0x5D,0x03,Read,ACK
0.120748820000000,0,0x5D,0xFC,Read,ACK
0.120770260000000,0,0x5D,0x00,Read,ACK
0.120791720000000,0,0x5D,0xF3,Read,ACK
0.120813180000000,0,0x5D,0x08,Read,ACK
0.120835060000000,0,0x5D,0x03,Read,ACK
0.120856820000000,0,0x5D,0x03,Read,ACK
0.120878840000000,0,0x5D,0x20,Read,ACK
0.120900320000000,0,0x5D,0x13,Read,ACK
0.120921840000000,0,0x5D,0xB0,Read,ACK
0.120943280000000,0,0x5D,0x05,Read,ACK
0.120964720000000,0,0x5D,0x78,Read,ACK
0.120986180000000,0,0x5D,0x05,Read,ACK
0.121007620000000,0,0x5D,0x04,Read,ACK
0.121029080000000,0,0x5D,0x03,Read,ACK
0.121050840000000,0,0x5D,0x20,Read,ACK
0.121073340000000,0,0x5D,0x00,Read,ACK
0.121094800000000,0,0x5D,0x00,Read,ACK
0.121116260000000,0,0x5D,0x00,Read,ACK
0.121137720000000,0,0x5D,0x00,Read,ACK
0.121160340000000,0,0x5D,0x00,Read,ACK
0.121181820000000,0,0x5D,0x00,Read,ACK
0.121203280000000,0,0x5D,0x00,Read,ACK
0.121224720000000,0,0x5D,0x00,Read,ACK
0.121246180000000,0,0x5D,0x00,Read,ACK
0.121267760000000,0,0x5D,0x00,Read,ACK
0.121289280000000,0,0x5D,0x00,Read,ACK
0.121311400000000,0,0x5D,0x00,Read,ACK
0.121332860000000,0,0x5D,0x00,Read,ACK
0.121354300000000,0,0x5D,0x00,Read,ACK
0.121375760000000,0,0x5D,0x00,Read,ACK
0.121397220000000,0,0x5D,0x00,Read,ACK
0.121418700000000,0,0x5D,0x00,Read,ACK
0.121440200000000,0,0x5D,0x00,Read,ACK
0.121461660000000,0,0x5D,0x00,Read,ACK
0.121483100000000,0,0x5D,0x00,Read,ACK
0.121504580000000,0,0x5D,0x00,Read,ACK
0.121526080000000,0,0x5D,0x00,Read,ACK
0.121547540000000,0,0x5D,0x00,Read,ACK
0.121569000000000,0,0x5D,0x00,Read,ACK
0.121590940000000,0,0x5D,0xD2,Read,ACK
0.121612420000000,0,0x5D,0x8B,Read,ACK
0.121633920000000,0,0x5D,0x02,Read,ACK
0.121655380000000,0,0x5D,0x00,Read,ACK
0.121676820000000,0,0x5D,0x00,Read,ACK
0.121698380000000,0,0x5D,0x00,Read,ACK
0.121719860000000,0,0x5D,0x00,Read,ACK
0.121741320000000,0,0x5D,0x00,Read,ACK
0.121762760000000,0,0x5D,0x00,Read,ACK
0.121784220000000,0,0x5D,0x00,Read,ACK
0.121805680000000,0,0x5D,0x00,Read,ACK
0.121827140000000,0,0x5D,0x00,Read,ACK
0.121848600000000,0,0x5D,0x00,Read,ACK
0.121871900000000,0,0x5D,0x00,Read,ACK
0.121893380000000,0,0x5D,0x00,Read,ACK
0.121915540000000,0,0x5D,0x00,Read,ACK
0.121937320000000,0,0x5D,0x00,Read,ACK
0.121958800000000,0,0x5D,0x00,Read,ACK
0.121980240000000,0,0x5D,0x00,Read,ACK
0.122001700000000,0,0x5D,0x00,Read,ACK
0.122023160000000,0,0x5D,0x00,Read,NAK
0.127813120000000,0,0x5D,0x2F,Read,ACK
0.127836600000000,0,0x5D,0x00,Read,ACK
0.127858100000000,0,0x5D,0x04,Read,ACK
0.127879600000000,0,0x5D,0x03,Read,ACK
0.127901080000000,0,0x5D,0xFC,Read,ACK
0.127922600000000,0,0x5D,0x00,Read,ACK
0.127944080000000,0,0x5D,0xF3,Read,ACK
0.127965540000000,0,0x5D,0x08,Read,ACK
0.127987240000000,0,0x5D,0x03,Read,ACK
0.128009080000000,0,0x5D,0x03,Read,ACK
0.128031080000000,0,0x5D,0x20,Read,ACK
0.128053820000000,0,0x5D,0x13,Read,ACK
0.128075300000000,0,0x5D,0xAF,Read,ACK
0.128096800000000,0,0x5D,0x05,Read,ACK
0.128118280000000,0,0x5D,0x78,Read,ACK
0.128139740000000,0,0x5D,0x05,Read,ACK
0.128161880000000,0,0x5D,0x04,Read,ACK
0.128183580000000,0,0x5D,0x03,Read,ACK
0.128205080000000,0,0x5D,0x20,Read,ACK
0.128226580000000,0,0x5D,0x00,Read,ACK
0.128248600000000,0,0x5D,0x00,Read,ACK
0.128270180000000,0,0x5D,0x00,Read,ACK
0.128292500000000,0,0x5D,0x00,Read,ACK
0.128314400000000,0,0x5D,0x00,Read,ACK
0.128335940000000,0,0x5D,0x00,Read,ACK
0.128357420000000,0,0x5D,0x00,Read,ACK
0.128378900000000,0,0x5D,0x00,Read,ACK
0.128400380000000,0,0x5D,0x00,Read,ACK
0.128421880000000,0,0x5D,0x00,Read,ACK
0.128445040000000,0,0x5D,0x00,Read,ACK
0.128466500000000,0,0x5D,0x00,Read,ACK
0.128488000000000,0,0x5D,0x00,Read,ACK
0.128509800000000,0,0x5D,0x00,Read,ACK
0.128531300000000,0,0x5D,0x00,Read,ACK
0.128552760000000,0,0x5D,0x00,Read,ACK
0.128574220000000,0,0x5D,0x00,Read,ACK
0.128595660000000,0,0x5D,0x00,Read,ACK
0.128617120000000,0,0x5D,0x00,Read,ACK
0.128638580000000,0,0x5D,0x00,Read,ACK
0.128660100000000,0,0x5D,0x00,Read,ACK
0.128681560000000,0,0x5D,0x00,Read,ACK
0.128703020000000,0,0x5D,0x00,Read,ACK
0.128724460000000,0,0x5D,0x00,Read,ACK
0.128745940000000,0,0x5D,0x18,Read,ACK
0.128767480000000,0,0x5D,0x8C,Read,ACK
0.128789520000000,0,0x5D,0x02,Read,ACK
0.128810980000000,0,0x5D,0x00,Read,ACK
0.128832500000000,0,0x5D,0x00,Read,ACK
0.128854000000000,0,0x5D,0x00,Read,ACK
0.128875440000000,0,0x5D,0x00,Read,ACK
0.128896920000000,0,0x5D,0x00,Read,ACK
0.128918380000000,0,0x5D,0x00,Read,ACK
0.128939880000000,0,0x5D,0x00,Read,ACK
0.128961340000000,0,0x5D,0x00,Read,ACK
0.128982800000000,0,0x5D,0x00,Read,ACK
0.129004240000000,0,0x5D,0x00,Read,ACK
0.129028400000000,0,0x5D,0x00,Read,ACK
0.129049900000000,0,0x5D,0x00,Read,ACK
0.129072180000000,0,0x5D,0x00,Read,ACK
0.129093960000000,0,0x5D,0x00,Read,ACK
0.129116360000000,0,0x5D,0x00,Read,ACK
0.129138560000000,0,0x5D,0x00,Read,ACK
0.129161040000000,0,0x5D,0x00,Read,ACK
0.129182540000000,0,0x5D,0x00,Read,NAK
0.135113680000000,0,0x5D,0x2F,Read,ACK
0.135139040000000,0,0x5D,0x00,Read,ACK
0.135161240000000,0,0x5D,0x04,Read,ACK
0.135183280000000,0,0x5D,0x03,Read,ACK
0.135205660000000,0,0x5D,0xFC,Read,ACK
0.135227120000000,0,0x5D,0x00,Read,ACK
0.135248620000000,0,0x5D,0xF3,Read,ACK
0.135270120000000,0,0x5D,0x08,Read,ACK
0.135291580000000,0,0x5D,0x03,Read,ACK
0.135313760000000,0,0x5D,0x03,Read,ACK
0.135336160000000,0,0x5D,0x20,Read,ACK
0.135357620000000,0,0x5D,0x13,Read,ACK
0.135379080000000,0,0x5D,0xAE,Read,ACK
0.135400520000000,0,0x5D,0x05,Read,ACK
0.135422000000000,0,0x5D,0x78,Read,ACK
0.135444120000000,0,0x5D,0x05,Read,ACK
0.135465600000000,0,0x5D,0x04,Read,ACK
0.135487080000000,0,0x5D,0x03,Read,ACK
0.135508560000000,0,0x5D,0x20,Read,ACK
0.135530020000000,0,0x5D,0x00,Read,ACK
0.135551480000000,0,0x5D,0x00,Read,ACK
0.135572920000000,0,0x5D,0x00,Read,ACK
0.135594880000000,0,0x5D,0x00,Read,ACK
0.135616340000000,0,0x5D,0x00,Read,ACK
0.135637820000000,0,0x5D,0x00,Read,ACK
0.135659300000000,0,0x5D,0x00,Read,ACK
0.135680780000000,0,0x5D,0x00,Read,ACK
0.135702280000000,0,0x5D,0x00,Read,ACK
0.135723760000000,0,0x5D,0x00,Read,ACK
0.135745260000000,0,0x5D,0x00,Read,ACK
0.135766700000000,0,0x5D,0x00,Read,ACK
0.135788180000000,0,0x5D,0x00,Read,ACK
0.135809680000000,0,0x5D,0x00,Read,ACK
0.135831160000000,0,0x5D,0x00,Read,ACK
0.135852640000000,0,0x5D,0x00,Read,ACK
0.135874100000000,0,0x5D,0x00,Read,ACK
0.135895560000000,0,0x5D,0x00,Read,ACK
0.135917540000000,0,0x5D,0x00,Read,ACK
0.135939020000000,0,0x5D,0x00,Read,ACK
0.135960480000000,0,0x5D,0x00,Read,ACK
0.135981920000000,0,0x5D,0x00,Read,ACK
0.136003380000000,0,0x5D,0x00,Read,ACK
0.136024840000000,0,0x5D,0x00,Read,ACK
0.136046300000000,0,0x5D,0x5E,Read,ACK
0.136067760000000,0,0x5D,0x8C,Read,ACK
0.136089280000000,0,0x5D,0x02,Read,ACK
0.136110720000000,0,0x5D,0x00,Read,ACK
0.136132180000000,0,0x5D,0x00,Read,ACK
0.136153720000000,0,0x5D,0x00,Read,ACK
0.136175360000000,0,0x5D,0x00,Read,ACK
0.136197900000000,0,0x5D,0x00,Read,ACK
0.136219360000000,0,0x5D,0x00,Read,ACK
0.136240840000000,0,0x5D,0x00,Read,ACK
0.136262340000000,0,0x5D,0x00,Read,ACK
0.136284240000000,0,0x5D,0x00,Read,ACK
0.136305980000000,0,0x5D,0x00,Read,ACK
0.136327440000000,0,0x5D,0x00,Read,ACK
0.136350140000000,0,0x5D,0x00,Read,ACK
0.136371720000000,0,0x5D,0x00,Read,ACK
0.136393340000000,0,0x5D,0x00,Read,ACK
0.136414800000000,0,0x5D,0x00,Read,ACK
0.136436260000000,0,0x5D,0x00,Read,ACK
0.136458260000000,0,0x5D,0x00,Read,ACK
0.136481720000000,0,0x5D,0x00,Read,NAK
0.142105580000000,0,0x5D,0x2F,Read,ACK
0.142130820000000,0,0x5D,0x00,Read,ACK
0.142152260000000,0,0x5D,0x04,Read,ACK
0.142173740000000,0,0x5D,0x03,Read,ACK
0.142195180000000,0,0x5D,0xFC,Read,ACK
0.142216700000000,0,0x5D,0x00,Read,ACK
0.142238140000000,0,0x5D,0xF3,Read,ACK
0.142259600000000,0,0x5D,0x08,Read,ACK
0.142281100000000,0,0x5D,0x03,Read,ACK
0.142304100000000,0,0x5D,0x03,Read,ACK
0.142325880000000,0,0x5D,0x20,Read,ACK
0.142349000000000,0,0x5D,0x13,Read,ACK
0.142370480000000,0,0x5D,0xAD,Read,ACK
0.142391920000000,0,0x5D,0x05,Read,ACK
0.142413400000000,0,0x5D,0x78,Read,ACK
0.142434920000000,0,0x5D,0x05,Read,ACK
0.142456360000000,0,0x5D,0x04,Read,ACK
0.142477860000000,0,0x5D,0x03,Read,ACK
0.142499700000000,0,0x5D,0x20,Read,ACK
0.142521640000000,0,0x5D,0x00,Read,ACK
0.142543280000000,0,0x5D,0x00,Read,ACK
0.142564740000000,0,0x5D,0x00,Read,ACK
0.142586200000000,0,0x5D,0x00,Read,ACK
0.142607740000000,0,0x5D,0x00,Read,ACK
0.142629260000000,0,0x5D,0x00,Read,ACK
0.142650740000000,0,0x5D,0x00,Read,ACK
0.142672180000000,0,0x5D,0x00,Read,ACK
0.142693780000000,0,0x5D,0x00,Read,ACK
0.142715280000000,0,0x5D,0x00,Read,ACK
0.142737000000000,0,0x5D,0x00,Read,ACK
0.142759020000000,0,0x5D,0x00,Read,ACK
0.142780540000000,0,0x5D,0x00,Read,ACK
0.142802480000000,0,0x5D,0x00,Read,ACK
0.142823920000000,0,0x5D,0x00,Read,ACK
0.142845420000000,0,0x5D,0x00,Read,ACK
0.142866880000000,0,0x5D,0x00,Read,ACK
0.142888340000000,0,0x5D,0x00,Read,ACK
0.142909800000000,0,0x5D,0x00,Read,ACK
0.142931240000000,0,0x5D,0x00,Read,ACK
0.142952720000000,0,0x5D,0x00,Read,ACK
0.142974220000000,0,0x5D,0x00,Read,ACK
0.142995680000000,0,0x5D,0x00,Read,ACK
0.143017120000000,0,0x5D,0x00,Read,ACK
0.143038580000000,0,0x5D,0xA4,Read,ACK
0.143060020000000,0,0x5D,0x8C,Read,ACK
0.143081480000000,0,0x5D,0x02,Read,ACK
0.143102940000000,0,0x5D,0x00,Read,ACK
0.143124380000000,0,0x5D,0x00,Read,ACK
0.143145840000000,0,0x5D,0x00,Read,ACK
0.143167300000000,0,0x5D,0x00,Read,ACK
0.143188760000000,0,0x5D,0x00,Read,ACK
0.143210260000000,0,0x5D,0x00,Read,ACK
0.143231720000000,0,0x5D,0x00,Read,ACK
0.143253180000000,0,0x5D,0x00,Read,ACK
0.143274620000000,0,0x5D,0x00,Read,ACK
0.143296080000000,0,0x5D,0x00,Read,ACK
0.143317700000000,0,0x5D,0x00,Read,ACK
0.143339180000000,0,0x5D,0x00,Read,ACK
0.143360640000000,0,0x5D,0x00,Read,ACK
0.143383080000000,0,0x5D,0x00,Read,ACK
0.143405280000000,0,0x5D,0x00,Read,ACK
0.143427280000000,0,0x5D,0x00,Read,ACK
0.143448740000000,0,0x5D,0x00,Read,ACK
0.143470540000000,0,0x5D,0x00,Read,NAK
0.149214580000000,0,0x5D,0x2F,Read,ACK
0.149239820000000,0,0x5D,0x00,Read,ACK
0.149262980000000,0,0x5D,0x04,Read,ACK
0.149284440000000,0,0x5D,0x03,Read,ACK
0.149305940000000,0,0x5D,0xFC,Read,ACK
0.149327440000000,0,0x5D,0x00,Read,ACK
0.149348940000000,0,0x5D,0xF3,Read,ACK
0.149370440000000,0,0x5D,0x08,Read,ACK
0.149391900000000,0,0x5D,0x03,Read,ACK
0.149413420000000,0,0x5D,0x03,Read,ACK
0.149434920000000,0,0x5D,0x20,Read,ACK
0.149457600000000,0,0x5D,0x13,Read,ACK
0.149479360000000,0,0x5D,0xAC,Read,ACK
0.149500960000000,0,0x5D,0x05,Read,ACK
0.149522460000000,0,0x5D,0x78,Read,ACK
0.149543940000000,0,0x5D,0x05,Read,ACK
0.149565440000000,0,0x5D,0x04,Read,ACK
0.149586920000000,0,0x5D,0x03,Read,ACK
0.149608360000000,0,0x5D,0x20,Read,ACK
0.149630000000000,0,0x5D,0x00,Read,ACK
0.149651460000000,0,0x5D,0x00,Read,ACK
0.149673360000000,0,0x5D,0x00,Read,ACK
0.149694880000000,0,0x5D,0x00,Read,ACK
0.149716380000000,0,0x5D,0x00,Read,ACK
0.149737860000000,0,0x5D,0x00,Read,ACK
0.149759360000000,0,0x5D,0x00,Read,ACK
0.149780840000000,0,0x5D,0x00,Read,ACK
0.149802340000000,0,0x5D,0x00,Read,ACK
0.149823860000000,0,0x5D,0x00,Read,ACK
0.149845440000000,0,0x5D,0x00,Read,ACK
0.149866920000000,0,0x5D,0x00,Read,ACK
0.149889920000000,0,0x5D,0x00,Read,ACK
0.149911400000000,0,0x5D,0x00,Read,ACK
0.149932860000000,0,0x5D,0x00,Read,ACK
0.149954300000000,0,0x5D,0x00,Read,ACK
0.149975820000000,0,0x5D,0x00,Read,ACK
0.149997260000000,0,0x5D,0x00,Read,ACK
0.150018740000000,0,0x5D,0x00,Read,ACK
0.150040180000000,0,0x5D,0x00,Read,ACK
0.150061660000000,0,0x5D,0x00,Read,ACK
0.150083160000000,0,0x5D,0x00,Read,ACK
0.150104860000000,0,0x5D,0x00,Read,ACK
0.150126300000000,0,0x5D,0x00,Read,ACK
0.150147800000000,0,0x5D,0xEA,Read,ACK
0.150169280000000,0,0x5D,0x8C,Read,ACK
0.150190740000000,0,0x5D,0x02,Read,ACK
0.150212180000000,0,0x5D,0x00,Read,ACK
0.150233680000000,0,0x5D,0x00,Read,ACK
0.150255880000000,0,0x5D,0x00,Read,ACK
0.150277360000000,0,0x5D,0x00,Read,ACK
0.150298820000000,0,0x5D,0x00,Read,ACK
0.150320260000000,0,0x5D,0x00,Read,ACK
0.150341720000000,0,0x5D,0x00,Read,ACK
0.150363180000000,0,0x5D,0x00,Read,ACK
0.150384640000000,0,0x5D,0x00,Read,ACK
0.150406100000000,0,0x5D,0x00,Read,ACK
0.150427600000000,0,0x5D,0x00,Read,ACK
0.150449080000000,0,0x5D,0x00,Read,ACK
0.150470580000000,0,0x5D,0x00,Read,ACK
0.150492020000000,0,0x5D,0x00,Read,ACK
0.150514800000000,0,0x5D,0x00,Read,ACK
0.150536300000000,0,0x5D,0x00,Read,ACK
0.150557760000000,0,0x5D,0x00,Read,ACK
0.150579240000000,0,0x5D,0x00,Read,NAK
0.156365100000000,0,0x5D,0x2F,Read,ACK
0.156388320000000,0,0x5D,0x00,Read,ACK
0.156409800000000,0,0x5D,0x04,Read,ACK
0.156431440000000,0,0x5D,0x03,Read,ACK
0.156452880000000,0,0x5D,0xFC,Read,ACK
0.156474340000000,0,0x5D,0x00,Read,ACK
0.156495780000000,0,0x5D,0xF3,Read,ACK
0.156517260000000,0,0x5D,0x08,Read,ACK
0.156538760000000,0,0x5D,0x03,Read,ACK
0.156560220000000,0,0x5D,0x03,Read,ACK
0.156581680000000,0,0x5D,0x20,Read,ACK
0.156603200000000,0,0x5D,0x13,Read,ACK
0.156625700000000,0,0x5D,0xAB,Read,ACK
0.156647620000000,0,0x5D,0x05,Read,ACK
0.156671460000000,0,0x5D,0x77,Read,ACK
0.156692940000000,0,0x5D,0x05,Read,ACK
0.156714480000000,0,0x5D,0x04,Read,ACK
0.156735980000000,0,0x5D,0x03,Read,ACK
0.156757440000000,0,0x5D,0x20,Read,ACK
0.156778960000000,0,0x5D,0x00,Read,ACK
0.156800500000000,0,0x5D,0x00,Read,ACK
0.156822900000000,0,0x5D,0x00,Read,ACK
0.156844960000000,0,0x5D,0x00,Read,ACK
0.156866460000000,0,0x5D,0x00,Read,ACK
0.156887960000000,0,0x5D,0x00,Read,ACK
0.156909420000000,0,0x5D,0x00,Read,ACK
0.156930860000000,0,0x5D,0x00,Read,ACK
0.156953400000000,0,0x5D,0x00,Read,ACK
0.156974920000000,0,0x5D,0x00,Read,ACK
0.156996420000000,0,0x5D,0x00,Read,ACK
0.157018460000000,0,0x5D,0x00,Read,ACK
0.157039940000000,0,0x5D,0x00,Read,ACK
0.157061400000000,0,0x5D,0x00,Read,ACK
0.157082860000000,0,0x5D,0x00,Read,ACK
0.157104480000000,0,0x5D,0x00,Read,ACK
0.157125940000000,0,0x5D,0x00,Read,ACK
0.157147400000000,0,0x5D,0x00,Read,ACK
0.157168860000000,0,0x5D,0x00,Read,ACK
0.157190300000000,0,0x5D,0x00,Read,ACK
0.157211760000000,0,0x5D,0x00,Read,ACK
0.157233220000000,0,0x5D,0x00,Read,ACK
0.157254720000000,0,0x5D,0x00,Read,ACK
0.157276200000000,0,0x5D,0x00,Read,ACK
0.157297700000000,0,0x5D,0x30,Read,ACK
0.157319140000000,0,0x5D,0x8D,Read,ACK
0.157340620000000,0,0x5D,0x02,Read,ACK
0.157362380000000,0,0x5D,0x00,Read,ACK
0.157383900000000,0,0x5D,0x00,Read,ACK
0.157405400000000,0,0x5D,0x00,Read,ACK
0.157426940000000,0,0x5D,0x00,Read,ACK
0.157448440000000,0,0x5D,0x00,Read,ACK
0.157469900000000,0,0x5D,0x00,Read,ACK
0.157491420000000,0,0x5D,0x00,Read,ACK
0.157512920000000,0,0x5D,0x00,Read,ACK
0.157534400000000,0,0x5D,0x00,Read,ACK
0.157555880000000,0,0x5D,0x00,Read,ACK
0.157577340000000,0,0x5D,0x00,Read,ACK
0.157598800000000,0,0x5D,0x00,Read,ACK
0.157620260000000,0,0x5D,0x00,Read,ACK
0.157641700000000,0,0x5D,0x00,Read,ACK
0.157665620000000,0,0x5D,0x00,Read,ACK
0.157687940000000,0,0x5D,0x00,Read,ACK
0.157709440000000,0,0x5D,0x00,Read,ACK
0.157731980000000,0,0x5D,0x00,Read,NAK
0.163658400000000,0,0x5D,0x2F,Read,ACK
0.163685060000000,0,0x5D,0x00,Read,ACK
0.163708160000000,0,0x5D,0x04,Read,ACK
0.163730020000000,0,0x5D,0x03,Read,ACK
0.163752320000000,0,0x5D,0xFC,Read,ACK
0.163773800000000,0,0x5D,0x00,Read,ACK
0.163795260000000,0,0x5D,0xF3,Read,ACK
0.163816720000000,0,0x5D,0x08,Read,ACK
0.163838240000000,0,0x5D,0x03,Read,ACK
0.163859700000000,0,0x5D,0x03,Read,ACK
0.163881140000000,0,0x5D,0x20,Read,ACK
0.163903700000000,0,0x5D,0x13,Read,ACK
0.163925580000000,0,0x5D,0xAA,Read,ACK
0.163947200000000,0,0x5D,0x05,Read,ACK
0.163968660000000,0,0x5D,0x77,Read,ACK
0.163990160000000,0,0x5D,0x05,Read,ACK
0.164011760000000,0,0x5D,0x04,Read,ACK
0.164033260000000,0,0x5D,0x03,Read,ACK
0.164054720000000,0,0x5D,0x20,Read,ACK
0.164076160000000,0,0x5D,0x00,Read,ACK
0.164097620000000,0,0x5D,0x00,Read,ACK
0.164119420000000,0,0x5D,0x00,Read,ACK
0.164140900000000,0,0x5D,0x00,Read,ACK
0.164163780000000,0,0x5D,0x00,Read,ACK
0.164185240000000,0,0x5D,0x00,Read,ACK
0.164206720000000,0,0x5D,0x00,Read,ACK
0.164228300000000,0,0x5D,0x00,Read,ACK
0.164249780000000,0,0x5D,0x00,Read,ACK
0.164271280000000,0,0x5D,0x00,Read,ACK
0.164292760000000,0,0x5D,0x00,Read,ACK
0.164314200000000,0,0x5D,0x00,Read,ACK
0.164335680000000,0,0x5D,0x00,Read,ACK
0.164357180000000,0,0x5D,0x00,Read,ACK
0.164378640000000,0,0x5D,0x00,Read,ACK
0.164400160000000,0,0x5D,0x00,Read,ACK
0.164421600000000,0,0x5D,0x00,Read,ACK
0.164443060000000,0,0x5D,0x00,Read,ACK
0.164464620000000,0,0x5D,0x00,Read,ACK
0.164486100000000,0,0x5D,0x00,Read,ACK
0.164507560000000,0,0x5D,0x00,Read,ACK
0.164529000000000,0,0x5D,0x00,Read,ACK
0.164550440000000,0,0x5D,0x00,Read,ACK
0.164571920000000,0,0x5D,0x00,Read,ACK
0.164593440000000,0,0x5D,0x76,Read,ACK
0.164614900000000,0,0x5D,0x8D,Read,ACK
0.164636420000000,0,0x5D,0x02,Read,ACK
0.164658140000000,0,0x5D,0x00,Read,ACK
0.164679640000000,0,0x5D,0x00,Read,ACK
0.164701140000000,0,0x5D,0x00,Read,ACK
0.164722720000000,0,0x5D,0x00,Read,ACK
0.164744300000000,0,0x5D,0x00,Read,ACK
0.164766220000000,0,0x5D,0x00,Read,ACK
0.164787880000000,0,0x5D,0x00,Read,ACK
0.164809840000000,0,0x5D,0x00,Read,ACK
0.164831280000000,0,0x5D,0x00,Read,ACK
0.164854020000000,0,0x5D,0x00,Read,ACK
0.164875500000000,0,0x5D,0x00,Read,ACK
0.164896960000000,0,0x5D,0x00,Read,ACK
0.164918460000000,0,0x5D,0x00,Read,ACK
0.164940040000000,0,0x5D,0x00,Read,ACK
0.164961680000000,0,0x5D,0x00,Read,ACK
0.164983140000000,0,0x5D,0x00,Read,ACK
0.165004800000000,0,0x5D,0x00,Read,ACK
0.165027780000000,0,0x5D,0x00,Read,NAK
0.170681720000000,0,0x5D,0x2F,Read,ACK
0.170704940000000,0,0x5D,0x00,Read,ACK
0.170726440000000,0,0x5D,0x04,Read,ACK
0.170747900000000,0,0x5D,0x03,Read,ACK
0.170769360000000,0,0x5D,0xFC,Read,ACK
0.170790820000000,0,0x5D,0x00,Read,ACK
0.170812320000000,0,0x5D,0xF3,Read,ACK
0.170833780000000,0,0x5D,0x08,Read,ACK
0.170856280000000,0,0x5D,0x03,Read,ACK
0.170877960000000,0,0x5D,0x03,Read,ACK
0.170902580000000,0,0x5D,0x20,Read,ACK
0.170924080000000,0,0x5D,0x13,Read,ACK
0.170945540000000,0,0x5D,0xA9,Read,ACK
0.170966980000000,0,0x5D,0x05,Read,ACK
0.170988440000000,0,0x5D,0x76,Read,ACK
0.171009900000000,0,0x5D,0x05,Read,ACK
0.171031360000000,0,0x5D,0x04,Read,ACK
0.171054020000000,0,0x5D,0x03,Read,ACK
0.171075500000000,0,0x5D,0x20,Read,ACK
0.171096960000000,0,0x5D,0x00,Read,ACK
0.171118400000000,0,0x5D,0x00,Read,ACK
0.171139860000000,0,0x5D,0x00,Read,ACK
0.171161300000000,0,0x5D,0x00,Read,ACK
0.171182760000000,0,0x5D,0x00,Read,ACK
0.171204240000000,0,0x5D,0x00,Read,ACK
0.171225680000000,0,0x5D,0x00,Read,ACK
0.171247140000000,0,0x5D,0x00,Read,ACK
0.171268640000000,0,0x5D,0x00,Read,ACK
0.171290380000000,0,0x5D,0x00,Read,ACK
0.171312320000000,0,0x5D,0x00,Read,ACK
0.171333820000000,0,0x5D,0x00,Read,ACK
0.171355280000000,0,0x5D,0x00,Read,ACK
0.171376720000000,0,0x5D,0x00,Read,ACK
0.171398180000000,0,0x5D,0x00,Read,ACK
0.171419620000000,0,0x5D,0x00,Read,ACK
0.171441200000000,0,0x5D,0x00,Read,ACK
0.171462660000000,0,0x5D,0x00,Read,ACK
0.171484120000000,0,0x5D,0x00,Read,ACK
0.171505580000000,0,0x5D,0x00,Read,ACK
0.171527020000000,0,0x5D,0x00,Read,ACK
0.171548500000000,0,0x5D,0x00,Read,ACK
0.171570020000000,0,0x5D,0x00,Read,ACK
0.171592240000000,0,0x5D,0x00,Read,ACK
0.171613720000000,0,0x5D,0xBC,Read,ACK
0.171635760000000,0,0x5D,0x8D,Read,ACK
0.171657240000000,0,0x5D,0x02,Read,ACK
0.171678700000000,0,0x5D,0x00,Read,ACK
0.171700160000000,0,0x5D,0x00,Read,ACK
0.171721600000000,0,0x5D,0x00,Read,ACK
0.171743080000000,0,0x5D,0x00,Read,ACK
0.171764580000000,0,0x5D,0x00,Read,ACK
0.171786100000000,0,0x5D,0x00,Read,ACK
0.171807560000000,0,0x5D,0x00,Read,ACK
0.171829000000000,0,0x5D,0x00,Read,ACK
0.171850440000000,0,0x5D,0x00,Read,ACK
0.171871900000000,0,0x5D,0x00,Read,ACK
0.171893560000000,0,0x5D,0x00,Read,ACK
0.171915240000000,0,0x5D,0x00,Read,ACK
0.171936780000000,0,0x5D,0x00,Read,ACK
0.171958280000000,0,0x5D,0x00,Read,ACK
0.171979860000000,0,0x5D,0x00,Read,ACK
0.172001320000000,0,0x5D,0x00,Read,ACK
0.172022840000000,0,0x5D,0x00,Read,ACK
0.172046380000000,0,0x5D,0x00,Read,NAK
0.178209020000000,0,0x5D,0x2F,Read,ACK
0.178233720000000,0,0x5D,0x00,Read,ACK
0.178255220000000,0,0x5D,0x04,Read,ACK
0.178276660000000,0,0x5D,0x03,Read,ACK
0.178298380000000,0,0x5D,0xFC,Read,ACK
0.178319840000000,0,0x5D,0x00,Read,ACK
0.178341340000000,0,0x5D,0xF3,Read,ACK
0.178363460000000,0,0x5D,0x08,Read,ACK
0.178384960000000,0,0x5D,0x03,Read,ACK
0.178406440000000,0,0x5D,0x03,Read,ACK
0.178428040000000,0,0x5D,0x20,Read,ACK
0.178450600000000,0,0x5D,0x13,Read,ACK
0.178473400000000,0,0x5D,0xA7,Read,ACK
0.178494900000000,0,0x5D,0x05,Read,ACK
0.178516380000000,0,0x5D,0x76,Read,ACK
0.178537840000000,0,0x5D,0x05,Read,ACK
0.178559300000000,0,0x5D,0x04,Read,ACK
0.178581020000000,0,0x5D,0x03,Read,ACK
0.178602520000000,0,0x5D,0x20,Read,ACK
0.178623960000000,0,0x5D,0x00,Read,ACK
0.178645420000000,0,0x5D,0x00,Read,ACK
0.178666880000000,0,0x5D,0x00,Read,ACK
0.178688340000000,0,0x5D,0x00,Read,ACK
0.178710020000000,0,0x5D,0x00,Read,ACK
0.178731500000000,0,0x5D,0x00,Read,ACK
0.178753020000000,0,0x5D,0x00,Read,ACK
0.178774520000000,0,0x5D,0x00,Read,ACK
0.178795980000000,0,0x5D,0x00,Read,ACK
0.178817480000000,0,0x5D,0x00,Read,ACK
0.178838940000000,0,0x5D,0x00,Read,ACK
0.178860400000000,0,0x5D,0x00,Read,ACK
0.178881900000000,0,0x5D,0x00,Read,ACK
0.178903360000000,0,0x5D,0x00,Read,ACK
0.178924820000000,0,0x5D,0x00,Read,ACK
0.178946300000000,0,0x5D,0x00,Read,ACK
0.178967760000000,0,0x5D,0x00,Read,ACK
0.178989800000000,0,0x5D,0x00,Read,ACK
0.179011300000000,0,0x5D,0x00,Read,ACK
0.179033160000000,0,0x5D,0x00,Read,ACK
0.179054640000000,0,0x5D,0x00,Read,ACK
0.179076960000000,0,0x5D,0x00,Read,ACK
0.179099860000000,0,0x5D,0x00,Read,ACK
0.179122580000000,0,0x5D,0x00,Read,ACK
0.179144060000000,0,0x5D,0x02,Read,ACK
0.179165520000000,0,0x5D,0x8E,Read,ACK
0.179186980000000,0,0x5D,0x02,Read,ACK
0.179208740000000,0,0x5D,0x00,Read,ACK
0.179230180000000,0,0x5D,0x00,Read,ACK
0.179251660000000,0,0x5D,0x00,Read,ACK
0.179273220000000,0,0x5D,0x00,Read,ACK
0.179295700000000,0,0x5D,0x00,Read,ACK
0.179317560000000,0,0x5D,0x00,Read,ACK
0.179339180000000,0,0x5D,0x00,Read,ACK
0.179360660000000,0,0x5D,0x00,Read,ACK
0.179382100000000,0,0x5D,0x00,Read,ACK
0.179403560000000,0,0x5D,0x00,Read,ACK
0.179425020000000,0,0x5D,0x00,Read,ACK
0.179447220000000,0,0x5D,0x00,Read,ACK
0.179470800000000,0,0x5D,0x00,Read,ACK
0.179493560000000,0,0x5D,0x00,Read,ACK
0.179515000000000,0,0x5D,0x00,Read,ACK
0.179536520000000,0,0x5D,0x00,Read,ACK
0.179559460000000,0,0x5D,0x00,Read,ACK
0.179582160000000,0,0x5D,0x00,Read,NAK
0.184946220000000,0,0x5D,0x2F,Read,ACK
0.184974300000000,0,0x5D,0x00,Read,ACK
0.184995780000000,0,0x5D,0x04,Read,ACK
0.185017240000000,0,0x5D,0x03,Read,ACK
0.185038720000000,0,0x5D,0xFC,Read,ACK
0.185060220000000,0,0x5D,0x00,Read,ACK
0.185081660000000,0,0x5D,0xF3,Read,ACK
0.185103120000000,0,0x5D,0x08,Read,ACK
0.185124580000000,0,0x5D,0x03,Read,ACK
0.185146840000000,0,0x5D,0x03,Read,ACK
0.185168700000000,0,0x5D,0x20,Read,ACK
0.185190380000000,0,0x5D,0x13,Read,ACK
0.185213220000000,0,0x5D,0xA6,Read,ACK
0.185234720000000,0,0x5D,0x05,Read,ACK
0.185256180000000,0,0x5D,0x75,Read,ACK
0.185277620000000,0,0x5D,0x05,Read,ACK
0.185299080000000,0,0x5D,0x04,Read,ACK
0.185320520000000,0,0x5D,0x03,Read,ACK
0.185343320000000,0,0x5D,0x20,Read,ACK
0.185364820000000,0,0x5D,0x00,Read,ACK
0.185386260000000,0,0x5D,0x00,Read,ACK
0.185408660000000,0,0x5D,0x00,Read,ACK
0.185430120000000,0,0x5D,0x00,Read,ACK
0.185451580000000,0,0x5D,0x00,Read,ACK
0.185473200000000,0,0x5D,0x00,Read,ACK
0.185494700000000,0,0x5D,0x00,Read,ACK
0.185516540000000,0,0x5D,0x00,Read,ACK
0.185538240000000,0,0x5D,0x00,Read,ACK
0.185559720000000,0,0x5D,0x00,Read,ACK
0.185581580000000,0,0x5D,0x00,Read,ACK
0.185603060000000,0,0x5D,0x00,Read,ACK
0.185624520000000,0,0x5D,0x00,Read,ACK
0.185646020000000,0,0x5D,0x00,Read,ACK
0.185667480000000,0,0x5D,0x00,Read,ACK
0.185688940000000,0,0x5D,0x00,Read,ACK
0.185710380000000,0,0x5D,0x00,Read,ACK
0.185732040000000,0,0x5D,0x00,Read,ACK
0.185753540000000,0,0x5D,0x00,Read,ACK
0.185775020000000,0,0x5D,0x00,Read,ACK
0.185796520000000,0,0x5D,0x00,Read,ACK
0.185817980000000,0,0x5D,0x00,Read,ACK
0.185839440000000,0,0x5D,0x00,Read,ACK
0.185860920000000,0,0x5D,0x00,Read,ACK
0.185882380000000,0,0x5D,0x48,Read,ACK
0.185903840000000,0,0x5D,0x8E,Read,ACK
0.185925280000000,0,0x5D,0x02,Read,ACK
0.185946760000000,0,0x5D,0x00,Read,ACK
0.185968200000000,0,0x5D,0x00,Read,ACK
0.185989860000000,0,0x5D,0x00,Read,ACK
0.186011360000000,0,0x5D,0x00,Read,ACK
0.186032880000000,0,0x5D,0x00,Read,ACK
0.186054380000000,0,0x5D,0x00,Read,ACK
0.186075820000000,0,0x5D,0x00,Read,ACK
0.186097300000000,0,0x5D,0x00,Read,ACK
0.186118800000000,0,0x5D,0x00,Read,ACK
0.186140260000000,0,0x5D,0x00,Read,ACK
0.186163740000000,0,0x5D,0x00,Read,ACK
0.186185240000000,0,0x5D,0x00,Read,ACK
0.186206720000000,0,0x5D,0x00,Read,ACK
0.186228680000000,0,0x5D,0x00,Read,ACK
0.186250440000000,0,0x5D,0x00,Read,ACK
0.186274860000000,0,0x5D,0x00,Read,ACK
0.186296480000000,0,0x5D,0x00,Read,ACK
0.186317920000000,0,0x5D,0x00,Read,NAK
0.192104600000000,0,0x5D,0x2F,Read,ACK
0.192128800000000,0,0x5D,0x00,Read,ACK
0.192150280000000,0,0x5D,0x04,Read,ACK
0.192171740000000,0,0x5D,0x03,Read,ACK
0.192193200000000,0,0x5D,0xFC,Read,ACK
0.192214660000000,0,0x5D,0x00,Read,ACK
0.192236160000000,0,0x5D,0xF3,Read,ACK
0.192257620000000,0,0x5D,0x08,Read,ACK
0.192279140000000,0,0x5D,0x03,Read,ACK
0.192300660000000,0,0x5D,0x03,Read,ACK
0.192322160000000,0,0x5D,0x20,Read,ACK
0.192343640000000,0,0x5D,0x13,Read,ACK
0.192366340000000,0,0x5D,0xA4,Read,ACK
0.192387820000000,0,0x5D,0x05,Read,ACK
0.192409280000000,0,0x5D,0x75,Read,ACK
0.192430780000000,0,0x5D,0x05,Read,ACK
0.192452240000000,0,0x5D,0x04,Read,ACK
0.192473760000000,0,0x5D,0x03,Read,ACK
0.192495700000000,0,0x5D,0x20,Read,ACK
0.192518180000000,0,0x5D,0x00,Read,ACK
0.192539700000000,0,0x5D,0x00,Read,ACK
0.192561420000000,0,0x5D,0x00,Read,ACK
0.192582880000000,0,0x5D,0x00,Read,ACK
0.192605920000000,0,0x5D,0x00,Read,ACK
0.192627780000000,0,0x5D,0x00,Read,ACK
0.192649240000000,0,0x5D,0x00,Read,ACK
0.192670940000000,0,0x5D,0x00,Read,ACK
0.192692420000000,0,0x5D,0x00,Read,ACK
0.192713920000000,0,0x5D,0x00,Read,ACK
0.192735360000000,0,0x5D,0x00,Read,ACK
0.192756820000000,0,0x5D,0x00,Read,ACK
0.192778300000000,0,0x5D,0x00,Read,ACK
0.192799800000000,0,0x5D,0x00,Read,ACK
0.192821420000000,0,0x5D,0x00,Read,ACK
0.192842880000000,0,0x5D,0x00,Read,ACK
0.192864340000000,0,0x5D,0x00,Read,ACK
0.192885920000000,0,0x5D,0x00,Read,ACK
0.192907420000000,0,0x5D,0x00,Read,ACK
0.192928900000000,0,0x5D,0x00,Read,ACK
0.192950400000000,0,0x5D,0x00,Read,ACK
0.192971840000000,0,0x5D,0x00,Read,ACK
0.192993300000000,0,0x5D,0x00,Read,ACK
0.193014760000000,0,0x5D,0x00,Read,ACK
0.193036220000000,0,0x5D,0x8E,Read,ACK
0.193057660000000,0,0x5D,0x8E,Read,ACK
0.193079120000000,0,0x5D,0x02,Read,ACK
0.193100580000000,0,0x5D,0x00,Read,ACK
0.193122980000000,0,0x5D,0x00,Read,ACK
0.193144420000000,0,0x5D,0x00,Read,ACK
0.193165880000000,0,0x5D,0x00,Read,ACK
0.193187320000000,0,0x5D,0x00,Read,ACK
0.193208780000000,0,0x5D,0x00,Read,ACK
0.193230240000000,0,0x5D,0x00,Read,ACK
0.193251800000000,0,0x5D,0x00,Read,ACK
0.193273260000000,0,0x5D,0x00,Read,ACK
0.193294800000000,0,0x5D,0x00,Read,ACK
0.193316280000000,0,0x5D,0x00,Read,ACK
0.193337740000000,0,0x5D,0x00,Read,ACK
0.193359200000000,0,0x5D,0x00,Read,ACK
0.193381080000000,0,0x5D,0x00,Read,ACK
0.193403440000000,0,0x5D,0x00,Read,ACK
0.193424920000000,0,0x5D,0x00,Read,ACK
0.193446640000000,0,0x5D,0x00,Read,ACK
0.193468860000000,0,0x5D,0x00,Read,NAK
0.199205140000000,0,0x5D,0x2F,Read,ACK
0.199230140000000,0,0x5D,0x00,Read,ACK
0.199251600000000,0,0x5D,0x04,Read,ACK
0.199275420000000,0,0x5D,0x03,Read,ACK
0.199296880000000,0,0x5D,0xFC,Read,ACK
0.199318380000000,0,0x5D,0x00,Read,ACK
0.199339860000000,0,0x5D,0xF3,Read,ACK
0.199361340000000,0,0x5D,0x08,Read,ACK
0.199382800000000,0,0x5D,0x03,Read,ACK
0.199404520000000,0,0x5D,0x03,Read,ACK
0.199426020000000,0,0x5D,0x20,Read,ACK
0.199447480000000,0,0x5D,0x13,Read,ACK
0.199470120000000,0,0x5D,0xA3,Read,ACK
0.199492520000000,0,0x5D,0x05,Read,ACK
0.199514300000000,0,0x5D,0x75,Read,ACK
0.199535780000000,0,0x5D,0x05,Read,ACK
0.199557240000000,0,0x5D,0x04,Read,ACK
0.199578700000000,0,0x5D,0x03,Read,ACK
0.199600220000000,0,0x5D,0x20,Read,ACK
0.199621740000000,0,0x5D,0x00,Read,ACK
0.199643240000000,0,0x5D,0x00,Read,ACK
0.199665220000000,0,0x5D,0x00,Read,ACK
0.199686960000000,0,0x5D,0x00,Read,ACK
0.199709140000000,0,0x5D,0x00,Read,ACK
0.199730600000000,0,0x5D,0x00,Read,ACK
0.199752060000000,0,0x5D,0x00,Read,ACK
0.199773540000000,0,0x5D,0x00,Read,ACK
0.199795040000000,0,0x5D,0x00,Read,ACK
0.199817420000000,0,0x5D,0x00,Read,ACK
0.199838860000000,0,0x5D,0x00,Read,ACK
0.199860340000000,0,0x5D,0x00,Read,ACK
0.199881860000000,0,0x5D,0x00,Read,ACK
0.199903540000000,0,0x5D,0x00,Read,ACK
0.199926480000000,0,0x5D,0x00,Read,ACK
0.199947940000000,0,0x5D,0x00,Read,ACK
0.199969400000000,0,0x5D,0x00,Read,ACK
0.199990900000000,0,0x5D,0x00,Read,ACK
0.200012380000000,0,0x5D,0x00,Read,ACK
0.200033860000000,0,0x5D,0x00,Read,ACK
0.200055320000000,0,0x5D,0x00,Read,ACK
0.200076780000000,0,0x5D,0x00,Read,ACK
0.200098240000000,0,0x5D,0x00,Read,ACK
0.200119700000000,0,0x5D,0x00,Read,ACK
0.200141200000000,0,0x5D,0xD4,Read,ACK
0.200162660000000,0,0x5D,0x8E,Read,ACK
0.200184120000000,0,0x5D,0x02,Read,ACK
0.200205580000000,0,0x5D,0x00,Read,ACK
0.200227560000000,0,0x5D,0x00,Read,ACK
0.200249100000000,0,0x5D,0x00,Read,ACK
0.200270560000000,0,0x5D,0x00,Read,ACK
0.200292080000000,0,0x5D,0x00,Read,ACK
0.200313580000000,0,0x5D,0x00,Read,ACK
0.200335040000000,0,0x5D,0x00,Read,ACK
0.200356500000000,0,0x5D,0x00,Read,ACK
0.200378000000000,0,0x5D,0x00,Read,ACK
0.200399460000000,0,0x5D,0x00,Read,ACK
0.200421060000000,0,0x5D,0x00,Read,ACK
0.200442560000000,0,0x5D,0x00,Read,ACK
0.200464020000000,0,0x5D,0x00,Read,ACK
0.200485520000000,0,0x5D,0x00,Read,ACK
0.200506960000000,0,0x5D,0x00,Read,ACK
0.200529720000000,0,0x5D,0x00,Read,ACK
0.200551320000000,0,0x5D,0x00,Read,ACK
0.200573180000000,0,0x5D,0x00,Read,NAK
0.206367440000000,0,0x5D,0x2F,Read,ACK
0.206390700000000,0,0x5D,0x00,Read,ACK
0.206412160000000,0,0x5D,0x04,Read,ACK
0.206433600000000,0,0x5D,0x03,Read,ACK
0.206455060000000,0,0x5D,0xFC,Read,ACK
0.206476520000000,0,0x5D,0x00,Read,ACK
0.206497960000000,0,0x5D,0xF3,Read,ACK
0.206519420000000,0,0x5D,0x08,Read,ACK
0.206541820000000,0,0x5D,0x03,Read,ACK
0.206563320000000,0,0x5D,0x03,Read,ACK
0.206584780000000,0,0x5D,0x20,Read,ACK
0.206608280000000,0,0x5D,0x13,Read,ACK
0.206630720000000,0,0x5D,0xA1,Read,ACK
0.206652420000000,0,0x5D,0x05,Read,ACK
0.206673920000000,0,0x5D,0x74,Read,ACK
0.206695420000000,0,0x5D,0x05,Read,ACK
0.206716920000000,0,0x5D,0x04,Read,ACK
0.206738360000000,0,0x5D,0x03,Read,ACK
0.206759820000000,0,0x5D,0x20,Read,ACK
0.206781260000000,0,0x5D,0x00,Read,ACK
0.206802720000000,0,0x5D,0x00,Read,ACK
0.206824180000000,0,0x5D,0x00,Read,ACK
0.206845620000000,0,0x5D,0x00,Read,ACK
0.206867080000000,0,0x5D,0x00,Read,ACK
0.206889640000000,0,0x5D,0x00,Read,ACK
0.206911100000000,0,0x5D,0x00,Read,ACK
0.206933040000000,0,0x5D,0x00,Read,ACK
0.206955320000000,0,0x5D,0x00,Read,ACK
0.206976780000000,0,0x5D,0x00,Read,ACK
0.206998220000000,0,0x5D,0x00,Read,ACK
0.207019680000000,0,0x5D,0x00,Read,ACK
0.207041120000000,0,0x5D,0x00,Read,ACK
0.207062580000000,0,0x5D,0x00,Read,ACK
0.207084040000000,0,0x5D,0x00,Read,ACK
0.207105540000000,0,0x5D,0x00,Read,ACK
0.207127000000000,0,0x5D,0x00,Read,ACK
0.207148440000000,0,0x5D,0x00,Read,ACK
0.207169900000000,0,0x5D,0x00,Read,ACK
0.207191340000000,0,0x5D,0x00,Read,ACK
0.207212800000000,0,0x5D,0x00,Read,ACK
0.207234260000000,0,0x5D,0x00,Read,ACK
0.207255720000000,0,0x5D,0x00,Read,ACK
0.207277220000000,0,0x5D,0x00,Read,ACK
0.207298680000000,0,0x5D,0x1A,Read,ACK
0.207320140000000,0,0x5D,0x8F,Read,ACK
0.207341580000000,0,0x5D,0x02,Read,ACK
0.207363280000000,0,0x5D,0x00,Read,ACK
0.207384800000000,0,0x5D,0x00,Read,ACK
0.207406260000000,0,0x5D,0x00,Read,ACK
0.207427880000000,0,0x5D,0x00,Read,ACK
0.207449340000000,0,0x5D,0x00,Read,ACK
0.207470840000000,0,0x5D,0x00,Read,ACK
0.207492320000000,0,0x5D,0x00,Read,ACK
0.207513960000000,0,0x5D,0x00,Read,ACK
0.207535560000000,0,0x5D,0x00,Read,ACK
0.207557040000000,0,0x5D,0x00,Read,ACK
0.207578500000000,0,0x5D,0x00,Read,ACK
0.207599940000000,0,0x5D,0x00,Read,ACK
0.207621400000000,0,0x5D,0x00,Read,ACK
0.207642860000000,0,0x5D,0x00,Read,ACK
0.207666260000000,0,0x5D,0x00,Read,ACK
0.207689140000000,0,0x5D,0x00,Read,ACK
0.207710640000000,0,0x5D,0x00,Read,ACK
0.207732540000000,0,0x5D,0x00,Read,NAK
0.213597180000000,0,0x5D,0x2F,Read,ACK
0.213621980000000,0,0x5D,0x00,Read,ACK
0.213643460000000,0,0x5D,0x04,Read,ACK
0.213664960000000,0,0x5D,0x03,Read,ACK
0.213686420000000,0,0x5D,0xFC,Read,ACK
0.213707880000000,0,0x5D,0x00,Read,ACK
0.213731340000000,0,0x5D,0xF3,Read,ACK
0.213754000000000,0,0x5D,0x08,Read,ACK
0.213775600000000,0,0x5D,0x03,Read,ACK
0.213797880000000,0,0x5D,0x03,Read,ACK
0.213819400000000,0,0x5D,0x20,Read,ACK
0.213840900000000,0,0x5D,0x13,Read,ACK
0.213862400000000,0,0x5D,0xA0,Read,ACK
0.213883860000000,0,0x5D,0x05,Read,ACK
0.213905300000000,0,0x5D,0x73,Read,ACK
0.213926920000000,0,0x5D,0x05,Read,ACK
0.213949460000000,0,0x5D,0x04,Read,ACK
0.213970920000000,0,0x5D,0x03,Read,ACK
0.213992360000000,0,0x5D,0x20,Read,ACK
0.214014020000000,0,0x5D,0x00,Read,ACK
0.214035520000000,0,0x5D,0x00,Read,ACK
0.214058580000000,0,0x5D,0x00,Read,ACK
0.214080040000000,0,0x5D,0x00,Read,ACK
0.214101780000000,0,0x5D,0x00,Read,ACK
0.214123240000000,0,0x5D,0x00,Read,ACK
0.214144720000000,0,0x5D,0x00,Read,ACK
0.214166400000000,0,0x5D,0x00,Read,ACK
0.214187860000000,0,0x5D,0x00,Read,ACK
0.214209300000000,0,0x5D,0x00,Read,ACK
0.214230780000000,0,0x5D,0x00,Read,ACK
0.214252280000000,0,0x5D,0x00,Read,ACK
0.214273740000000,0,0x5D,0x00,Read,ACK
0.214295640000000,0,0x5D,0x00,Read,ACK
0.214317140000000,0,0x5D,0x00,Read,ACK
0.214338600000000,0,0x5D,0x00,Read,ACK
0.214360100000000,0,0x5D,0x00,Read,ACK
0.214381560000000,0,0x5D,0x00,Read,ACK
0.214403200000000,0,0x5D,0x00,Read,ACK
0.214424640000000,0,0x5D,0x00,Read,ACK
0.214446100000000,0,0x5D,0x00,Read,ACK
0.214467540000000,0,0x5D,0x00,Read,ACK
0.214489000000000,0,0x5D,0x00,Read,ACK
0.214510440000000,0,0x5D,0x00,Read,ACK
0.214531920000000,0,0x5D,0x60,Read,ACK
0.214553360000000,0,0x5D,0x8F,Read,ACK
0.214574800000000,0,0x5D,0x02,Read,ACK
0.214596260000000,0,0x5D,0x00,Read,ACK
0.214617720000000,0,0x5D,0x00,Read,ACK
0.214639180000000,0,0x5D,0x00,Read,ACK
0.214660620000000,0,0x5D,0x00,Read,ACK
0.214682080000000,0,0x5D,0x00,Read,ACK
0.214703520000000,0,0x5D,0x00,Read,ACK
0.214724980000000,0,0x5D,0x00,Read,ACK
0.214746440000000,0,0x5D,0x00,Read,ACK
0.214767900000000,0,0x5D,0x00,Read,ACK
0.214791880000000,0,0x5D,0x00,Read,ACK
0.214814360000000,0,0x5D,0x00,Read,ACK
0.214836420000000,0,0x5D,0x00,Read,ACK
0.214857940000000,0,0x5D,0x00,Read,ACK
0.214879440000000,0,0x5D,0x00,Read,ACK
0.214901100000000,0,0x5D,0x00,Read,ACK
0.214922600000000,0,0x5D,0x00,Read,ACK
0.214944060000000,0,0x5D,0x00,Read,ACK
0.214965500000000,0,0x5D,0x00,Read,NAK
0.220696420000000,0,0x5D,0x2F,Read,ACK
0.220721320000000,0,0x5D,0x00,Read,ACK
0.220742780000000,0,0x5D,0x04,Read,ACK
0.220764260000000,0,0x5D,0x03,Read,ACK
0.220785760000000,0,0x5D,0xFC,Read,ACK
0.220807220000000,0,0x5D,0x00,Read,ACK
0.220828720000000,0,0x5D,0xF3,Read,ACK
0.220850180000000,0,0x5D,0x08,Read,ACK
0.220871640000000,0,0x5D,0x03,Read,ACK
0.220893140000000,0,0x5D,0x03,Read,ACK
0.220914640000000,0,0x5D,0x20,Read,ACK
0.220936220000000,0,0x5D,0x13,Read,ACK
0.220958240000000,0,0x5D,0x9F,Read,ACK
0.220979700000000,0,0x5D,0x05,Read,ACK
0.221001220000000,0,0x5D,0x73,Read,ACK
0.221022740000000,0,0x5D,0x05,Read,ACK
0.221044240000000,0,0x5D,0x04,Read,ACK
0.221065680000000,0,0x5D,0x03,Read,ACK
0.221088240000000,0,0x5D,0x20,Read,ACK
0.221109820000000,0,0x5D,0x00,Read,ACK
0.221131300000000,0,0x5D,0x00,Read,ACK
0.221152800000000,0,0x5D,0x00,Read,ACK
0.221174240000000,0,0x5D,0x00,Read,ACK
0.221195800000000,0,0x5D,0x00,Read,ACK
0.221217400000000,0,0x5D,0x00,Read,ACK
0.221238860000000,0,0x5D,0x00,Read,ACK
0.221260300000000,0,0x5D,0x00,Read,ACK
0.221281780000000,0,0x5D,0x00,Read,ACK
0.221303260000000,0,0x5D,0x00,Read,ACK
0.221325860000000,0,0x5D,0x00,Read,ACK
0.221347360000000,0,0x5D,0x00,Read,ACK
0.221370040000000,0,0x5D,0x00,Read,ACK
0.221391500000000,0,0x5D,0x00,Read,ACK
0.221412960000000,0,0x5D,0x00,Read,ACK
0.221434500000000,0,0x5D,0x00,Read,ACK
0.221455980000000,0,0x5D,0x00,Read,ACK
0.221477460000000,0,0x5D,0x00,Read,ACK
0.221498980000000,0,0x5D,0x00,Read,ACK
0.221520480000000,0,0x5D,0x00,Read,ACK
0.221541980000000,0,0x5D,0x00,Read,ACK
0.221563440000000,0,0x5D,0x00,Read,ACK
0.221584900000000,0,0x5D,0x00,Read,ACK
0.221606360000000,0,0x5D,0x00,Read,ACK
0.221627880000000,0,0x5D,0xA6,Read,ACK
0.221649360000000,0,0x5D,0x8F,Read,ACK
0.221671400000000,0,0x5D,0x02,Read,ACK
0.221692900000000,0,0x5D,0x00,Read,ACK
0.221714360000000,0,0x5D,0x00,Read,ACK
0.221735820000000,0,0x5D,0x00,Read,ACK
0.221757460000000,0,0x5D,0x00,Read,ACK
0.221778940000000,0,0x5D,0x00,Read,ACK
0.221800420000000,0,0x5D,0x00,Read,ACK
0.221821860000000,0,0x5D,0x00,Read,ACK
0.221843300000000,0,0x5D,0x00,Read,ACK
0.221864760000000,0,0x5D,0x00,Read,ACK
0.221886220000000,0,0x5D,0x00,Read,ACK
0.221907660000000,0,0x5D,0x00,Read,ACK
0.221929120000000,0,0x5D,0x00,Read,ACK
0.221950880000000,0,0x5D,0x00,Read,ACK
0.221972360000000,0,0x5D,0x00,Read,ACK
0.221993860000000,0,0x5D,0x00,Read,ACK
0.222017220000000,0,0x5D,0x00,Read,ACK
0.222040620000000,0,0x5D,0x00,Read,ACK
0.222062060000000,0,0x5D,0x00,Read,NAK
0.228179120000000,0,0x5D,0x2F,Read,ACK
0.228203300000000,0,0x5D,0x00,Read,ACK
0.228224780000000,0,0x5D,0x04,Read,ACK
0.228246940000000,0,0x5D,0x03,Read,ACK
0.228268420000000,0,0x5D,0xFC,Read,ACK
0.228289900000000,0,0x5D,0x00,Read,ACK
0.228312620000000,0,0x5D,0xF3,Read,ACK
0.228334220000000,0,0x5D,0x08,Read,ACK
0.228355700000000,0,0x5D,0x03,Read,ACK
0.228377720000000,0,0x5D,0x03,Read,ACK
0.228399880000000,0,0x5D,0x20,Read,ACK
0.228422460000000,0,0x5D,0x13,Read,ACK
0.228443920000000,0,0x5D,0x9E,Read,ACK
0.228465800000000,0,0x5D,0x05,Read,ACK
0.228487260000000,0,0x5D,0x73,Read,ACK
0.228508700000000,0,0x5D,0x05,Read,ACK
0.228530200000000,0,0x5D,0x04,Read,ACK
0.228551680000000,0,0x5D,0x03,Read,ACK
0.228573200000000,0,0x5D,0x20,Read,ACK
0.228594660000000,0,0x5D,0x00,Read,ACK
0.228616160000000,0,0x5D,0x00,Read,ACK
0.228637600000000,0,0x5D,0x00,Read,ACK
0.228659180000000,0,0x5D,0x00,Read,ACK
0.228680660000000,0,0x5D,0x00,Read,ACK
0.228702160000000,0,0x5D,0x00,Read,ACK
0.228723600000000,0,0x5D,0x00,Read,ACK
0.228745060000000,0,0x5D,0x00,Read,ACK
0.228766900000000,0,0x5D,0x00,Read,ACK
0.228788340000000,0,0x5D,0x00,Read,ACK
0.228809780000000,0,0x5D,0x00,Read,ACK
0.228831240000000,0,0x5D,0x00,Read,ACK
0.228852700000000,0,0x5D,0x00,Read,ACK
0.228874240000000,0,0x5D,0x00,Read,ACK
0.228895720000000,0,0x5D,0x00,Read,ACK
0.228917180000000,0,0x5D,0x00,Read,ACK
0.228938640000000,0,0x5D,0x00,Read,ACK
0.228960160000000,0,0x5D,0x00,Read,ACK
0.228981600000000,0,0x5D,0x00,Read,ACK
0.229003120000000,0,0x5D,0x00,Read,ACK
0.229026400000000,0,0x5D,0x00,Read,ACK
0.229047880000000,0,0x5D,0x00,Read,ACK
0.229069360000000,0,0x5D,0x00,Read,ACK
0.229091120000000,0,0x5D,0x00,Read,ACK
0.229112640000000,0,0x5D,0xEC,Read,ACK
0.229134780000000,0,0x5D,0x8F,Read,ACK
0.229156280000000,0,0x5D,0x02,Read,ACK
0.229177780000000,0,0x5D,0x00,Read,ACK
0.229199280000000,0,0x5D,0x00,Read,ACK
0.229220740000000,0,0x5D,0x00,Read,ACK
0.229243400000000,0,0x5D,0x00,Read,ACK
0.229264920000000,0,0x5D,0x00,Read,ACK
0.229286400000000,0,0x5D,0x00,Read,ACK
0.229308160000000,0,0x5D,0x00,Read,ACK
0.229331040000000,0,0x5D,0x00,Read,ACK
0.229353180000000,0,0x5D,0x00,Read,ACK
0.229374660000000,0,0x5D,0x00,Read,ACK
0.229396160000000,0,0x5D,0x00,Read,ACK
0.229417600000000,0,0x5D,0x00,Read,ACK
0.229439060000000,0,0x5D,0x00,Read,ACK
0.229460520000000,0,0x5D,0x00,Read,ACK
0.229483140000000,0,0x5D,0x00,Read,ACK
0.229504600000000,0,0x5D,0x00,Read,ACK
0.229526060000000,0,0x5D,0x00,Read,ACK
0.229547500000000,0,0x5D,0x00,Read,NAK
0.234968120000000,0,0x5D,0x2F,Read,ACK
0.234994300000000,0,0x5D,0x00,Read,ACK
0.235015800000000,0,0x5D,0x04,Read,ACK
0.235037320000000,0,0x5D,0x03,Read,ACK
0.235058820000000,0,0x5D,0xFC,Read,ACK
0.235080260000000,0,0x5D,0x00,Read,ACK
0.235101740000000,0,0x5D,0xF3,Read,ACK
0.235123240000000,0,0x5D,0x08,Read,ACK
0.235144700000000,0,0x5D,0x03,Read,ACK
0.235166160000000,0,0x5D,0x03,Read,ACK
0.235188120000000,0,0x5D,0x20,Read,ACK
0.235209780000000,0,0x5D,0x13,Read,ACK
0.235233100000000,0,0x5D,0x9D,Read,ACK
0.235254580000000,0,0x5D,0x05,Read,ACK
0.235276040000000,0,0x5D,0x72,Read,ACK
0.235297480000000,0,0x5D,0x05,Read,ACK
0.235318940000000,0,0x5D,0x04,Read,ACK
0.235340400000000,0,0x5D,0x03,Read,ACK
0.235363680000000,0,0x5D,0x20,Read,ACK
0.235385180000000,0,0x5D,0x00,Read,ACK
0.235406680000000,0,0x5D,0x00,Read,ACK
0.235428140000000,0,0x5D,0x00,Read,ACK
0.235449600000000,0,0x5D,0x00,Read,ACK
0.235471060000000,0,0x5D,0x00,Read,ACK
0.235492580000000,0,0x5D,0x00,Read,ACK
0.235514480000000,0,0x5D,0x00,Read,ACK
0.235535960000000,0,0x5D,0x00,Read,ACK
0.235557420000000,0,0x5D,0x00,Read,ACK
0.235578920000000,0,0x5D,0x00,Read,ACK
0.235600380000000,0,0x5D,0x00,Read,ACK
0.235621840000000,0,0x5D,0x00,Read,ACK
0.235643280000000,0,0x5D,0x00,Read,ACK
0.235664740000000,0,0x5D,0x00,Read,ACK
0.235686200000000,0,0x5D,0x00,Read,ACK
0.235707660000000,0,0x5D,0x00,Read,ACK
0.235729100000000,0,0x5D,0x00,Read,ACK
0.235750560000000,0,0x5D,0x00,Read,ACK
0.235772020000000,0,0x5D,0x00,Read,ACK
0.235793460000000,0,0x5D,0x00,Read,ACK
0.235814920000000,0,0x5D,0x00,Read,ACK
0.235836460000000,0,0x5D,0x00,Read,ACK
0.235857940000000,0,0x5D,0x00,Read,ACK
0.235879420000000,0,0x5D,0x00,Read,ACK
0.235900920000000,0,0x5D,0x32,Read,ACK
0.235922360000000,0,0x5D,0x90,Read,ACK
0.235944240000000,0,0x5D,0x02,Read,ACK
0.235965700000000,0,0x5D,0x00,Read,ACK
0.235987180000000,0,0x5D,0x00,Read,ACK
0.236008680000000,0,0x5D,0x00,Read,ACK
0.236030120000000,0,0x5D,0x00,Read,ACK
0.236051580000000,0,0x5D,0x00,Read,ACK
0.236073040000000,0,0x5D,0x00,Read,ACK
0.236094480000000,0,0x5D,0x00,Read,ACK
0.236115960000000,0,0x5D,0x00,Read,ACK
0.236137460000000,0,0x5D,0x00,Read,ACK
0.236158900000000,0,0x5D,0x00,Read,ACK
0.236180380000000,0,0x5D,0x00,Read,ACK
0.236201820000000,0,0x5D,0x00,Read,ACK
0.236224960000000,0,0x5D,0x00,Read,ACK
0.236246480000000,0,0x5D,0x00,Read,ACK
0.236268260000000,0,0x5D,0x00,Read,ACK
0.236290140000000,0,0x5D,0x00,Read,ACK
0.236311840000000,0,0x5D,0x00,Read,ACK
0.236333480000000,0,0x5D,0x00,Read,NAK
0.242094020000000,0,0x5D,0x2F,Read,ACK
0.242119240000000,0,0x5D,0x00,Read,ACK
0.242140760000000,0,0x5D,0x04,Read,ACK
0.242162260000000,0,0x5D,0x03,Read,ACK
0.242183720000000,0,0x5D,0xFC,Read,ACK
0.242205240000000,0,0x5D,0x00,Read,ACK
0.242226740000000,0,0x5D,0xF3,Read,ACK
0.242248200000000,0,0x5D,0x08,Read,ACK
0.242270400000000,0,0x5D,0x03,Read,ACK
0.242291840000000,0,0x5D,0x03,Read,ACK
0.242313300000000,0,0x5D,0x20,Read,ACK
0.242335240000000,0,0x5D,0x13,Read,ACK
0.242357440000000,0,0x5D,0x9C,Read,ACK
0.242381960000000,0,0x5D,0x05,Read,ACK
0.242403420000000,0,0x5D,0x72,Read,ACK
0.242424860000000,0,0x5D,0x05,Read,ACK
0.242446320000000,0,0x5D,0x04,Read,ACK
0.242467760000000,0,0x5D,0x03,Read,ACK
0.242489220000000,0,0x5D,0x20,Read,ACK
0.242511820000000,0,0x5D,0x00,Read,ACK
0.242534480000000,0,0x5D,0x00,Read,ACK
0.242555960000000,0,0x5D,0x00,Read,ACK
0.242577480000000,0,0x5D,0x00,Read,ACK
0.242599020000000,0,0x5D,0x00,Read,ACK
0.242620680000000,0,0x5D,0x00,Read,ACK
0.242642160000000,0,0x5D,0x00,Read,ACK
0.242664440000000,0,0x5D,0x00,Read,ACK
0.242686000000000,0,0x5D,0x00,Read,ACK
0.242707500000000,0,0x5D,0x00,Read,ACK
0.242728940000000,0,0x5D,0x00,Read,ACK
0.242750420000000,0,0x5D,0x00,Read,ACK
0.242771920000000,0,0x5D,0x00,Read,ACK
0.242793600000000,0,0x5D,0x00,Read,ACK
0.242815380000000,0,0x5D,0x00,Read,ACK
0.242836940000000,0,0x5D,0x00,Read,ACK
0.242858420000000,0,0x5D,0x00,Read,ACK
0.242879900000000,0,0x5D,0x00,Read,ACK
0.242901380000000,0,0x5D,0x00,Read,ACK
0.242922840000000,0,0x5D,0x00,Read,ACK
0.242944280000000,0,0x5D,0x00,Read,ACK
0.242965740000000,0,0x5D,0x00,Read,ACK
0.242987200000000,0,0x5D,0x00,Read,ACK
0.243008720000000,0,0x5D,0x00,Read,ACK
0.243030160000000,0,0x5D,0x78,Read,ACK
0.243051640000000,0,0x5D,0x90,Read,ACK
0.243073140000000,0,0x5D,0x02,Read,ACK
0.243094620000000,0,0x5D,0x00,Read,ACK
0.243116120000000,0,0x5D,0x00,Read,ACK
0.243137640000000,0,0x5D,0x00,Read,ACK
0.243159140000000,0,0x5D,0x00,Read,ACK
0.243180840000000,0,0x5D,0x00,Read,ACK
0.243202300000000,0,0x5D,0x00,Read,ACK
0.243223760000000,0,0x5D,0x00,Read,ACK
0.243245220000000,0,0x5D,0x00,Read,ACK
0.243266660000000,0,0x5D,0x00,Read,ACK
0.243288120000000,0,0x5D,0x00,Read,ACK
0.243309580000000,0,0x5D,0x00,Read,ACK
0.243331020000000,0,0x5D,0x00,Read,ACK
0.243352520000000,0,0x5D,0x00,Read,ACK
0.243374000000000,0,0x5D,0x00,Read,ACK
0.243396400000000,0,0x5D,0x00,Read,ACK
0.243421380000000,0,0x5D,0x00,Read,ACK
0.243443020000000,0,0x5D,0x00,Read,ACK
0.243464980000000,0,0x5D,0x00,Read,NAK
0.249264460000000,0,0x5D,0x2F,Read,ACK
0.249290320000000,0,0x5D,0x00,Read,ACK
0.249311800000000,0,0x5D,0x04,Read,ACK
0.249333320000000,0,0x5D,0x03,Read,ACK
0.249354820000000,0,0x5D,0xFC,Read,ACK
0.249376300000000,0,0x5D,0x00,Read,ACK
0.249397780000000,0,0x5D,0xF3,Read,ACK
0.249419240000000,0,0x5D,0x08,Read,ACK
0.249440700000000,0,0x5D,0x03,Read,ACK
0.249462140000000,0,0x5D,0x03,Read,ACK
0.249483600000000,0,0x5D,0x20,Read,ACK
0.249505120000000,0,0x5D,0x13,Read,ACK
0.249527120000000,0,0x5D,0x9B,Read,ACK
0.249551400000000,0,0x5D,0x05,Read,ACK
0.249572920000000,0,0x5D,0x72,Read,ACK
0.249594420000000,0,0x5D,0x05,Read,ACK
0.249615880000000,0,0x5D,0x04,Read,ACK
0.249637340000000,0,0x5D,0x03,Read,ACK
0.249659040000000,0,0x5D,0x20,Read,ACK
0.249680520000000,0,0x5D,0x00,Read,ACK
0.249702020000000,0,0x5D,0x00,Read,ACK
0.249723480000000,0,0x5D,0x00,Read,ACK
0.249745000000000,0,0x5D,0x00,Read,ACK
0.249766540000000,0,0x5D,0x00,Read,ACK
0.249788000000000,0,0x5D,0x00,Read,ACK
0.249809440000000,0,0x5D,0x00,Read,ACK
0.249830900000000,0,0x5D,0x00,Read,ACK
0.249852380000000,0,0x5D,0x00,Read,ACK
0.249873900000000,0,0x5D,0x00,Read,ACK
0.249896340000000,0,0x5D,0x00,Read,ACK
0.249919000000000,0,0x5D,0x00,Read,ACK
0.249941500000000,0,0x5D,0x00,Read,ACK
0.249962980000000,0,0x5D,0x00,Read,ACK
0.249984440000000,0,0x5D,0x00,Read,ACK
0.250005880000000,0,0x5D,0x00,Read,ACK
0.250027340000000,0,0x5D,0x00,Read,ACK
0.250048780000000,0,0x5D,0x00,Read,ACK
0.250070240000000,0,0x5D,0x00,Read,ACK
0.250091700000000,0,0x5D,0x00,Read,ACK
0.250113240000000,0,0x5D,0x00,Read,ACK
0.250134740000000,0,0x5D,0x00,Read,ACK
0.250156200000000,0,0x5D,0x00,Read,ACK
0.250177640000000,0,0x5D,0x00,Read,ACK
0.250199080000000,0,0x5D,0xBE,Read,ACK
0.250220560000000,0,0x5D,0x90,Read,ACK
0.250242060000000,0,0x5D,0x02,Read,ACK
0.250263520000000,0,0x5D,0x00,Read,ACK
0.250285580000000,0,0x5D,0x00,Read,ACK
0.250309400000000,0,0x5D,0x00,Read,ACK
0.250330880000000,0,0x5D,0x00,Read,ACK
0.250352320000000,0,0x5D,0x00,Read,ACK
0.250373840000000,0,0x5D,0x00,Read,ACK
0.250395320000000,0,0x5D,0x00,Read,ACK
0.250416800000000,0,0x5D,0x00,Read,ACK
0.250438260000000,0,0x5D,0x00,Read,ACK
0.250459720000000,0,0x5D,0x00,Read,ACK
0.250481240000000,0,0x5D,0x00,Read,ACK
0.250502920000000,0,0x5D,0x00,Read,ACK
0.250524400000000,0,0x5D,0x00,Read,ACK
0.250546260000000,0,0x5D,0x00,Read,ACK
0.250568960000000,0,0x5D,0x00,Read,ACK
0.250590580000000,0,0x5D,0x00,Read,ACK
0.250612080000000,0,0x5D,0x00,Read,ACK
0.250635520000000,0,0x5D,0x00,Read,NAK
0.256413380000000,0,0x5D,0x2F,Read,ACK
0.256440120000000,0,0x5D,0x00,Read,ACK
0.256461600000000,0,0x5D,0x04,Read,ACK
0.256483060000000,0,0x5D,0x03,Read,ACK
0.256504520000000,0,0x5D,0xFC,Read,ACK
0.256526020000000,0,0x5D,0x00,Read,ACK
0.256547500000000,0,0x5D,0xF3,Read,ACK
0.256569000000000,0,0x5D,0x08,Read,ACK
0.256590440000000,0,0x5D,0x03,Read,ACK
0.256611900000000,0,0x5D,0x03,Read,ACK
0.256633660000000,0,0x5D,0x20,Read,ACK
0.256655620000000,0,0x5D,0x13,Read,ACK
0.256677120000000,0,0x5D,0x9A,Read,ACK
0.256698620000000,0,0x5D,0x05,Read,ACK
0.256720100000000,0,0x5D,0x72,Read,ACK
0.256741560000000,0,0x5D,0x05,Read,ACK
0.256763000000000,0,0x5D,0x04,Read,ACK
0.256784860000000,0,0x5D,0x03,Read,ACK
0.256808100000000,0,0x5D,0x20,Read,ACK
0.256830060000000,0,0x5D,0x00,Read,ACK
0.256851520000000,0,0x5D,0x00,Read,ACK
0.256872960000000,0,0x5D,0x00,Read,ACK
0.256895340000000,0,0x5D,0x00,Read,ACK
0.256916820000000,0,0x5D,0x00,Read,ACK
0.256938340000000,0,0x5D,0x00,Read,ACK
0.256959840000000,0,0x5D,0x00,Read,ACK
0.256981360000000,0,0x5D,0x00,Read,ACK
0.257002840000000,0,0x5D,0x00,Read,ACK
0.257024340000000,0,0x5D,0x00,Read,ACK
0.257045860000000,0,0x5D,0x00,Read,ACK
0.257067360000000,0,0x5D,0x00,Read,ACK
0.257088860000000,0,0x5D,0x00,Read,ACK
0.257110320000000,0,0x5D,0x00,Read,ACK
0.257131780000000,0,0x5D,0x00,Read,ACK
0.257153280000000,0,0x5D,0x00,Read,ACK
0.257174760000000,0,0x5D,0x00,Read,ACK
0.257196260000000,0,0x5D,0x00,Read,ACK
0.257217720000000,0,0x5D,0x00,Read,ACK
0.257239240000000,0,0x5D,0x00,Read,ACK
0.257260740000000,0,0x5D,0x00,Read,ACK
0.257282200000000,0,0x5D,0x00,Read,ACK
0.257303640000000,0,0x5D,0x00,Read,ACK
0.257325120000000,0,0x5D,0x00,Read,ACK
0.257346640000000,0,0x5D,0x04,Read,ACK
0.257368140000000,0,0x5D,0x91,Read,ACK
0.257389660000000,0,0x5D,0x02,Read,ACK
0.257411620000000,0,0x5D,0x00,Read,ACK
0.257433340000000,0,0x5D,0x00,Read,ACK
0.257454840000000,0,0x5D,0x00,Read,ACK
0.257476340000000,0,0x5D,0x00,Read,ACK
0.257497800000000,0,0x5D,0x00,Read,ACK
0.257519300000000,0,0x5D,0x00,Read,ACK
0.257541000000000,0,0x5D,0x00,Read,ACK
0.257562500000000,0,0x5D,0x00,Read,ACK
0.257584000000000,0,0x5D,0x00,Read,ACK
0.257605500000000,0,0x5D,0x00,Read,ACK
0.257626940000000,0,0x5D,0x00,Read,ACK
0.257648400000000,0,0x5D,0x00,Read,ACK
0.257670640000000,0,0x5D,0x00,Read,ACK
0.257693040000000,0,0x5D,0x00,Read,ACK
0.257714740000000,0,0x5D,0x00,Read,ACK
0.257736620000000,0,0x5D,0x00,Read,ACK
0.257758660000000,0,0x5D,0x00,Read,ACK
0.257780120000000,0,0x5D,0x00,Read,NAK
0.263586980000000,0,0x5D,0x2F,Read,ACK
0.263610440000000,0,0x5D,0x00,Read,ACK
0.263631920000000,0,0x5D,0x04,Read,ACK
0.263653420000000,0,0x5D,0x03,Read,ACK
0.263674940000000,0,0x5D,0xFC,Read,ACK
0.263696400000000,0,0x5D,0x00,Read,ACK
0.263717840000000,0,0x5D,0xF3,Read,ACK
0.263739660000000,0,0x5D,0x08,Read,ACK
0.263762340000000,0,0x5D,0x03,Read,ACK
0.263783900000000,0,0x5D,0x03,Read,ACK
0.263805420000000,0,0x5D,0x20,Read,ACK
0.263826920000000,0,0x5D,0x13,Read,ACK
0.263848380000000,0,0x5D,0x99,Read,ACK
0.263869820000000,0,0x5D,0x05,Read,ACK
0.263891280000000,0,0x5D,0x72,Read,ACK
0.263912740000000,0,0x5D,0x05,Read,ACK
0.263935680000000,0,0x5D,0x04,Read,ACK
0.263957200000000,0,0x5D,0x03,Read,ACK
0.263978660000000,0,0x5D,0x20,Read,ACK
0.264000120000000,0,0x5D,0x00,Read,ACK
0.264021580000000,0,0x5D,0x00,Read,ACK
0.264044500000000,0,0x5D,0x00,Read,ACK
0.264065980000000,0,0x5D,0x00,Read,ACK
0.264087440000000,0,0x5D,0x00,Read,ACK
0.264108880000000,0,0x5D,0x00,Read,ACK
0.264130340000000,0,0x5D,0x00,Read,ACK
0.264151780000000,0,0x5D,0x00,Read,ACK
0.264173240000000,0,0x5D,0x00,Read,ACK
0.264195560000000,0,0x5D,0x00,Read,ACK
0.264217040000000,0,0x5D,0x00,Read,ACK
0.264238480000000,0,0x5D,0x00,Read,ACK
0.264259940000000,0,0x5D,0x00,Read,ACK
0.264281380000000,0,0x5D,0x00,Read,ACK
0.264302840000000,0,0x5D,0x00,Read,ACK
0.264324300000000,0,0x5D,0x00,Read,ACK
0.264345760000000,0,0x5D,0x00,Read,ACK
0.264367200000000,0,0x5D,0x00,Read,ACK
0.264388660000000,0,0x5D,0x00,Read,ACK
0.264410100000000,0,0x5D,0x00,Read,ACK
0.264431580000000,0,0x5D,0x00,Read,ACK
0.264453080000000,0,0x5D,0x00,Read,ACK
0.264474540000000,0,0x5D,0x00,Read,ACK
0.264496020000000,0,0x5D,0x00,Read,ACK
0.264517700000000,0,0x5D,0x4A,Read,ACK
0.264539160000000,0,0x5D,0x91,Read,ACK
0.264560600000000,0,0x5D,0x02,Read,ACK
0.264582080000000,0,0x5D,0x00,Read,ACK
0.264603580000000,0,0x5D,0x00,Read,ACK
0.264625040000000,0,0x5D,0x00,Read,ACK
0.264646540000000,0,0x5D,0x00,Read,ACK
0.264668060000000,0,0x5D,0x00,Read,ACK
0.264689500000000,0,0x5D,0x00,Read,ACK
0.264710960000000,0,0x5D,0x00,Read,ACK
0.264732420000000,0,0x5D,0x00,Read,ACK
0.264753880000000,0,0x5D,0x00,Read,ACK
0.264775540000000,0,0x5D,0x00,Read,ACK
0.264797060000000,0,0x5D,0x00,Read,ACK
0.264820740000000,0,0x5D,0x00,Read,ACK
0.264843000000000,0,0x5D,0x00,Read,ACK
0.264865280000000,0,0x5D,0x00,Read,ACK
0.264887080000000,0,0x5D,0x00,Read,ACK
0.264910920000000,0,0x5D,0x00,Read,ACK
0.264932420000000,0,0x5D,0x00,Read,ACK
0.264953900000000,0,0x5D,0x00,Read,NAK
0.270974500000000,0,0x5D,0x2F,Read,ACK
0.270998940000000,0,0x5D,0x00,Read,ACK
0.271020440000000,0,0x5D,0x04,Read,ACK
0.271041920000000,0,0x5D,0x03,Read,ACK
0.271063920000000,0,0x5D,0xFC,Read,ACK
0.271085540000000,0,0x5D,0x00,Read,ACK
0.271108420000000,0,0x5D,0xF3,Read,ACK
0.271130080000000,0,0x5D,0x08,Read,ACK
0.271151620000000,0,0x5D,0x03,Read,ACK
0.271173120000000,0,0x5D,0x03,Read,ACK
0.271196120000000,0,0x5D,0x20,Read,ACK
0.271218780000000,0,0x5D,0x13,Read,ACK
0.271240340000000,0,0x5D,0x97,Read,ACK
0.271261860000000,0,0x5D,0x05,Read,ACK
0.271283360000000,0,0x5D,0x71,Read,ACK
0.271306260000000,0,0x5D,0x05,Read,ACK
0.271328780000000,0,0x5D,0x04,Read,ACK
0.271350300000000,0,0x5D,0x03,Read,ACK
0.271371800000000,0,0x5D,0x20,Read,ACK
0.271393260000000,0,0x5D,0x00,Read,ACK
0.271414760000000,0,0x5D,0x00,Read,ACK
0.271436240000000,0,0x5D,0x00,Read,ACK
0.271457800000000,0,0x5D,0x00,Read,ACK
0.271479300000000,0,0x5D,0x00,Read,ACK
0.271500760000000,0,0x5D,0x00,Read,ACK
0.271522220000000,0,0x5D,0x00,Read,ACK
0.271543740000000,0,0x5D,0x00,Read,ACK
0.271565180000000,0,0x5D,0x00,Read,ACK
0.271586620000000,0,0x5D,0x00,Read,ACK
0.271608100000000,0,0x5D,0x00,Read,ACK
0.271629540000000,0,0x5D,0x00,Read,ACK
0.271651060000000,0,0x5D,0x00,Read,ACK
0.271672520000000,0,0x5D,0x00,Read,ACK
0.271694040000000,0,0x5D,0x00,Read,ACK
0.271715540000000,0,0x5D,0x00,Read,ACK
0.271737000000000,0,0x5D,0x00,Read,ACK
0.271758460000000,0,0x5D,0x00,Read,ACK
0.271779960000000,0,0x5D,0x00,Read,ACK
0.271801420000000,0,0x5D,0x00,Read,ACK
0.271823340000000,0,0x5D,0x00,Read,ACK
0.271844820000000,0,0x5D,0x00,Read,ACK
0.271866300000000,0,0x5D,0x00,Read,ACK
0.271887780000000,0,0x5D,0x00,Read,ACK
0.271909240000000,0,0x5D,0x90,Read,ACK
0.271930780000000,0,0x5D,0x91,Read,ACK
0.271952580000000,0,0x5D,0x02,Read,ACK
0.271975900000000,0,0x5D,0x00,Read,ACK
0.271997580000000,0,0x5D,0x00,Read,ACK
0.272019440000000,0,0x5D,0x00,Read,ACK
0.272041100000000,0,0x5D,0x00,Read,ACK
0.272062540000000,0,0x5D,0x00,Read,ACK
0.272084000000000,0,0x5D,0x00,Read,ACK
0.272105440000000,0,0x5D,0x00,Read,ACK
0.272126900000000,0,0x5D,0x00,Read,ACK
0.272149060000000,0,0x5D,0x00,Read,ACK
0.272170500000000,0,0x5D,0x00,Read,ACK
0.272192500000000,0,0x5D,0x00,Read,ACK
0.272215760000000,0,0x5D,0x00,Read,ACK
0.272237240000000,0,0x5D,0x00,Read,ACK
0.272259120000000,0,0x5D,0x00,Read,ACK
0.272280580000000,0,0x5D,0x00,Read,ACK
0.272302040000000,0,0x5D,0x00,Read,ACK
0.272323620000000,0,0x5D,0x00,Read,ACK
0.272345060000000,0,0x5D,0x00,Read,NAK
0.278104080000000,0,0x5D,0x2F,Read,ACK
0.278129020000000,0,0x5D,0x00,Read,ACK
0.278150460000000,0,0x5D,0x04,Read,ACK
0.278171940000000,0,0x5D,0x03,Read,ACK
0.278193440000000,0,0x5D,0xFC,Read,ACK
0.278215400000000,0,0x5D,0x00,Read,ACK
0.278237000000000,0,0x5D,0xF3,Read,ACK
0.278259040000000,0,0x5D,0x08,Read,ACK
0.278280500000000,0,0x5D,0x03,Read,ACK
0.278302100000000,0,0x5D,0x03,Read,ACK
0.278326220000000,0,0x5D,0x20,Read,ACK
0.278347800000000,0,0x5D,0x13,Read,ACK
0.278369320000000,0,0x5D,0x96,Read,ACK
0.278391320000000,0,0x5D,0x05,Read,ACK
0.278412780000000,0,0x5D,0x71,Read,ACK
0.278434240000000,0,0x5D,0x05,Read,ACK
0.278455760000000,0,0x5D,0x04,Read,ACK
0.278478440000000,0,0x5D,0x03,Read,ACK
0.278499920000000,0,0x5D,0x20,Read,ACK
0.278521440000000,0,0x5D,0x00,Read,ACK
0.278542980000000,0,0x5D,0x00,Read,ACK
0.278564460000000,0,0x5D,0x00,Read,ACK
0.278585940000000,0,0x5D,0x00,Read,ACK
0.278607420000000,0,0x5D,0x00,Read,ACK
0.278628900000000,0,0x5D,0x00,Read,ACK
0.278650400000000,0,0x5D,0x00,Read,ACK
0.278671860000000,0,0x5D,0x00,Read,ACK
0.278693320000000,0,0x5D,0x00,Read,ACK
0.278714780000000,0,0x5D,0x00,Read,ACK
0.278736280000000,0,0x5D,0x00,Read,ACK
0.278757720000000,0,0x5D,0x00,Read,ACK
0.278780060000000,0,0x5D,0x00,Read,ACK
0.278801520000000,0,0x5D,0x00,Read,ACK
0.278822960000000,0,0x5D,0x00,Read,ACK
0.278844420000000,0,0x5D,0x00,Read,ACK
0.278865860000000,0,0x5D,0x00,Read,ACK
0.278887320000000,0,0x5D,0x00,Read,ACK
0.278908780000000,0,0x5D,0x00,Read,ACK
0.278930300000000,0,0x5D,0x00,Read,ACK
0.278951740000000,0,0x5D,0x00,Read,ACK
0.278973200000000,0,0x5D,0x00,Read,ACK
0.278994660000000,0,0x5D,0x00,Read,ACK
0.279016120000000,0,0x5D,0x00,Read,ACK
0.279037620000000,0,0x5D,0xD6,Read,ACK
0.279059080000000,0,0x5D,0x91,Read,ACK
0.279082020000000,0,0x5D,0x02,Read,ACK
0.279104740000000,0,0x5D,0x00,Read,ACK
0.279128160000000,0,0x5D,0x00,Read,ACK
0.279149840000000,0,0x5D,0x00,Read,ACK
0.279171640000000,0,0x5D,0x00,Read,ACK
0.279193100000000,0,0x5D,0x00,Read,ACK
0.279214560000000,0,0x5D,0x00,Read,ACK
0.279236000000000,0,0x5D,0x00,Read,ACK
0.279257460000000,0,0x5D,0x00,Read,ACK
0.279279600000000,0,0x5D,0x00,Read,ACK
0.279301980000000,0,0x5D,0x00,Read,ACK
0.279324400000000,0,0x5D,0x00,Read,ACK
0.279346160000000,0,0x5D,0x00,Read,ACK
0.279368100000000,0,0x5D,0x00,Read,ACK
0.279390160000000,0,0x5D,0x00,Read,ACK
0.279411660000000,0,0x5D,0x00,Read,ACK
0.279433180000000,0,0x5D,0x00,Read,ACK
0.279455040000000,0,0x5D,0x00,Read,ACK
0.279476960000000,0,0x5D,0x00,Read,NAK
0.285014940000000,0,0x5D,0x2F,Read,ACK
0.285038900000000,0,0x5D,0x00,Read,ACK
0.285060380000000,0,0x5D,0x04,Read,ACK
0.285081860000000,0,0x5D,0x03,Read,ACK
0.285103360000000,0,0x5D,0xFC,Read,ACK
0.285124840000000,0,0x5D,0x00,Read,ACK
0.285146300000000,0,0x5D,0xF3,Read,ACK
0.285167760000000,0,0x5D,0x08,Read,ACK
0.285191100000000,0,0x5D,0x03,Read,ACK
0.285212980000000,0,0x5D,0x03,Read,ACK
0.285234460000000,0,0x5D,0x20,Read,ACK
0.285255960000000,0,0x5D,0x13,Read,ACK
0.285277400000000,0,0x5D,0x95,Read,ACK
0.285298860000000,0,0x5D,0x05,Read,ACK
0.285320320000000,0,0x5D,0x70,Read,ACK
0.285341760000000,0,0x5D,0x05,Read,ACK
0.285364880000000,0,0x5D,0x04,Read,ACK
0.285386760000000,0,0x5D,0x03,Read,ACK
0.285408240000000,0,0x5D,0x20,Read,ACK
0.285429720000000,0,0x5D,0x00,Read,ACK
0.285452100000000,0,0x5D,0x00,Read,ACK
0.285473600000000,0,0x5D,0x00,Read,ACK
0.285495080000000,0,0x5D,0x00,Read,ACK
0.285516580000000,0,0x5D,0x00,Read,ACK
0.285538020000000,0,0x5D,0x00,Read,ACK
0.285559480000000,0,0x5D,0x00,Read,ACK
0.285580960000000,0,0x5D,0x00,Read,ACK
0.285602460000000,0,0x5D,0x00,Read,ACK
0.285624480000000,0,0x5D,0x00,Read,ACK
0.285645980000000,0,0x5D,0x00,Read,ACK
0.285667440000000,0,0x5D,0x00,Read,ACK
0.285688900000000,0,0x5D,0x00,Read,ACK
0.285710340000000,0,0x5D,0x00,Read,ACK
0.285731800000000,0,0x5D,0x00,Read,ACK
0.285753260000000,0,0x5D,0x00,Read,ACK
0.285774760000000,0,0x5D,0x00,Read,ACK
0.285796240000000,0,0x5D,0x00,Read,ACK
0.285817740000000,0,0x5D,0x00,Read,ACK
0.285839220000000,0,0x5D,0x00,Read,ACK
0.285860720000000,0,0x5D,0x00,Read,ACK
0.285882180000000,0,0x5D,0x00,Read,ACK
0.285903860000000,0,0x5D,0x00,Read,ACK
0.285925320000000,0,0x5D,0x00,Read,ACK
0.285946800000000,0,0x5D,0x1C,Read,ACK
0.285969100000000,0,0x5D,0x92,Read,ACK
0.285990580000000,0,0x5D,0x02,Read,ACK
0.286012100000000,0,0x5D,0x00,Read,ACK
0.286033600000000,0,0x5D,0x00,Read,ACK
0.286055060000000,0,0x5D,0x00,Read,ACK
0.286076520000000,0,0x5D,0x00,Read,ACK
0.286098060000000,0,0x5D,0x00,Read,ACK
0.286119560000000,0,0x5D,0x00,Read,ACK
0.286141040000000,0,0x5D,0x00,Read,ACK
0.286162540000000,0,0x5D,0x00,Read,ACK
0.286184060000000,0,0x5D,0x00,Read,ACK
0.286205540000000,0,0x5D,0x00,Read,ACK
0.286227740000000,0,0x5D,0x00,Read,ACK
0.286249540000000,0,0x5D,0x00,Read,ACK
0.286271040000000,0,0x5D,0x00,Read,ACK
0.286292500000000,0,0x5D,0x00,Read,ACK
0.286315740000000,0,0x5D,0x00,Read,ACK
0.286337880000000,0,0x5D,0x00,Read,ACK
0.286359520000000,0,0x5D,0x00,Read,ACK
0.286381020000000,0,0x5D,0x00,Read,NAK
0.292158880000000,0,0x5D,0x2F,Read,ACK
0.292181820000000,0,0x5D,0x00,Read,ACK
0.292203280000000,0,0x5D,0x04,Read,ACK
0.292224760000000,0,0x5D,0x03,Read,ACK
0.292246280000000,0,0x5D,0xFC,Read,ACK
0.292267780000000,0,0x5D,0x00,Read,ACK
0.292289440000000,0,0x5D,0xF3,Read,ACK
0.292310960000000,0,0x5D,0x08,Read,ACK
0.292332460000000,0,0x5D,0x03,Read,ACK
0.292354600000000,0,0x5D,0x03,Read,ACK
0.292376820000000,0,0x5D,0x20,Read,ACK
0.292399840000000,0,0x5D,0x13,Read,ACK
0.292421340000000,0,0x5D,0x94,Read,ACK
0.292442800000000,0,0x5D,0x05,Read,ACK
0.292464300000000,0,0x5D,0x70,Read,ACK
0.292485780000000,0,0x5D,0x05,Read,ACK
0.292507540000000,0,0x5D,0x04,Read,ACK
0.292529020000000,0,0x5D,0x03,Read,ACK
0.292550500000000,0,0x5D,0x20,Read,ACK
0.292571960000000,0,0x5D,0x00,Read,ACK
0.292593400000000,0,0x5D,0x00,Read,ACK
0.292614960000000,0,0x5D,0x00,Read,ACK
0.292636840000000,0,0x5D,0x00,Read,ACK
0.292658280000000,0,0x5D,0x00,Read,ACK
0.292679740000000,0,0x5D,0x00,Read,ACK
0.292701220000000,0,0x5D,0x00,Read,ACK
0.292722720000000,0,0x5D,0x00,Read,ACK
0.292744420000000,0,0x5D,0x00,Read,ACK
0.292766620000000,0,0x5D,0x00,Read,ACK
0.292788280000000,0,0x5D,0x00,Read,ACK
0.292809780000000,0,0x5D,0x00,Read,ACK
0.292831220000000,0,0x5D,0x00,Read,ACK
0.292852680000000,0,0x5D,0x00,Read,ACK
0.292874140000000,0,0x5D,0x00,Read,ACK
0.292895600000000,0,0x5D,0x00,Read,ACK
0.292917060000000,0,0x5D,0x00,Read,ACK
0.292938500000000,0,0x5D,0x00,Read,ACK
0.292960000000000,0,0x5D,0x00,Read,ACK
0.292981880000000,0,0x5D,0x00,Read,ACK
0.293003380000000,0,0x5D,0x00,Read,ACK
0.293024820000000,0,0x5D,0x00,Read,ACK
0.293046280000000,0,0x5D,0x00,Read,ACK
0.293067740000000,0,0x5D,0x00,Read,ACK
0.293089220000000,0,0x5D,0x62,Read,ACK
0.293110700000000,0,0x5D,0x92,Read,ACK
0.293132600000000,0,0x5D,0x02,Read,ACK
0.293154120000000,0,0x5D,0x00,Read,ACK
0.293175560000000,0,0x5D,0x00,Read,ACK
0.293197020000000,0,0x5D,0x00,Read,ACK
0.293218480000000,0,0x5D,0x00,Read,ACK
0.293240040000000,0,0x5D,0x00,Read,ACK
0.293261540000000,0,0x5D,0x00,Read,ACK
0.293283040000000,0,0x5D,0x00,Read,ACK
0.293304540000000,0,0x5D,0x00,Read,ACK
0.293326000000000,0,0x5D,0x00,Read,ACK
0.293347460000000,0,0x5D,0x00,Read,ACK
0.293373620000000,0,0x5D,0x00,Read,ACK
0.293395760000000,0,0x5D,0x00,Read,ACK
0.293417340000000,0,0x5D,0x00,Read,ACK
0.293438840000000,0,0x5D,0x00,Read,ACK
0.293460520000000,0,0x5D,0x00,Read,ACK
0.293481980000000,0,0x5D,0x00,Read,ACK
0.293503460000000,0,0x5D,0x00,Read,ACK
0.293524960000000,0,0x5D,0x00,Read,NAK
0.299250580000000,0,0x5D,0x2F,Read,ACK
0.299273540000000,0,0x5D,0x00,Read,ACK
0.299296980000000,0,0x5D,0x04,Read,ACK
0.299318460000000,0,0x5D,0x03,Read,ACK
0.299339960000000,0,0x5D,0xFC,Read,ACK
0.299361460000000,0,0x5D,0x00,Read,ACK
0.299382960000000,0,0x5D,0xF3,Read,ACK
0.299404420000000,0,0x5D,0x08,Read,ACK
0.299427080000000,0,0x5D,0x03,Read,ACK
0.299448580000000,0,0x5D,0x03,Read,ACK
0.299470080000000,0,0x5D,0x20,Read,ACK
0.299493340000000,0,0x5D,0x13,Read,ACK
0.299515640000000,0,0x5D,0x93,Read,ACK
0.299538160000000,0,0x5D,0x05,Read,ACK
0.299559640000000,0,0x5D,0x70,Read,ACK
0.299581100000000,0,0x5D,0x05,Read,ACK
0.299602600000000,0,0x5D,0x04,Read,ACK
0.299624060000000,0,0x5D,0x03,Read,ACK
0.299645520000000,0,0x5D,0x20,Read,ACK
0.299667280000000,0,0x5D,0x00,Read,ACK
0.299688760000000,0,0x5D,0x00,Read,ACK
0.299710620000000,0,0x5D,0x00,Read,ACK
0.299732100000000,0,0x5D,0x00,Read,ACK
0.299753600000000,0,0x5D,0x00,Read,ACK
0.299776760000000,0,0x5D,0x00,Read,ACK
0.299798280000000,0,0x5D,0x00,Read,ACK
0.299819800000000,0,0x5D,0x00,Read,ACK
0.299841300000000,0,0x5D,0x00,Read,ACK
0.299862760000000,0,0x5D,0x00,Read,ACK
0.299884200000000,0,0x5D,0x00,Read,ACK
0.299905660000000,0,0x5D,0x00,Read,ACK
0.299928360000000,0,0x5D,0x00,Read,ACK
0.299952600000000,0,0x5D,0x00,Read,ACK
0.299974520000000,0,0x5D,0x00,Read,ACK
0.299995980000000,0,0x5D,0x00,Read,ACK
0.300017480000000,0,0x5D,0x00,Read,ACK
0.300038960000000,0,0x5D,0x00,Read,ACK
0.300060480000000,0,0x5D,0x00,Read,ACK
0.300081980000000,0,0x5D,0x00,Read,ACK
0.300103440000000,0,0x5D,0x00,Read,ACK
0.300124880000000,0,0x5D,0x00,Read,ACK
0.300146340000000,0,0x5D,0x00,Read,ACK
0.300167800000000,0,0x5D,0x00,Read,ACK
0.300189260000000,0,0x5D,0xA8,Read,ACK
0.300210740000000,0,0x5D,0x92,Read,ACK
0.300232220000000,0,0x5D,0x02,Read,ACK
0.300253700000000,0,0x5D,0x00,Read,ACK
0.300275200000000,0,0x5D,0x00,Read,ACK
0.300296680000000,0,0x5D,0x00,Read,ACK
0.300318200000000,0,0x5D,0x00,Read,ACK
0.300339700000000,0,0x5D,0x00,Read,ACK
0.300361160000000,0,0x5D,0x00,Read,ACK
0.300382600000000,0,0x5D,0x00,Read,ACK
0.300404040000000,0,0x5D,0x00,Read,ACK
0.300425520000000,0,0x5D,0x00,Read,ACK
0.300446960000000,0,0x5D,0x00,Read,ACK
0.300468420000000,0,0x5D,0x00,Read,ACK
0.300489960000000,0,0x5D,0x00,Read,ACK
0.300511460000000,0,0x5D,0x00,Read,ACK
0.300532920000000,0,0x5D,0x00,Read,ACK
0.300556160000000,0,0x5D,0x00,Read,ACK
0.300578180000000,0,0x5D,0x00,Read,ACK
0.300600320000000,0,0x5D,0x00,Read,ACK
0.300623880000000,0,0x5D,0x00,Read,NAK
0.306412320000000,0,0x5D,0x2F,Read,ACK
0.306437600000000,0,0x5D,0x00,Read,ACK
0.306459080000000,0,0x5D,0x04,Read,ACK
0.306480520000000,0,0x5D,0x03,Read,ACK
0.306501980000000,0,0x5D,0xFC,Read,ACK
0.306523500000000,0,0x5D,0x00,Read,ACK
0.306544940000000,0,0x5D,0xF3,Read,ACK
0.306566400000000,0,0x5D,0x08,Read,ACK
0.306587860000000,0,0x5D,0x03,Read,ACK
0.306609320000000,0,0x5D,0x03,Read,ACK
0.306630760000000,0,0x5D,0x20,Read,ACK
0.306653000000000,0,0x5D,0x13,Read,ACK
0.306675660000000,0,0x5D,0x93,Read,ACK
0.306697120000000,0,0x5D,0x05,Read,ACK
0.306718600000000,0,0x5D,0x70,Read,ACK
0.306740100000000,0,0x5D,0x05,Read,ACK
0.306761580000000,0,0x5D,0x04,Read,ACK
0.306783060000000,0,0x5D,0x03,Read,ACK
0.306804540000000,0,0x5D,0x20,Read,ACK
0.306827100000000,0,0x5D,0x00,Read,ACK
0.306848580000000,0,0x5D,0x00,Read,ACK
0.306870080000000,0,0x5D,0x00,Read,ACK
0.306891520000000,0,0x5D,0x00,Read,ACK
0.306914300000000,0,0x5D,0x00,Read,ACK
0.306935740000000,0,0x5D,0x00,Read,ACK
0.306957200000000,0,0x5D,0x00,Read,ACK
0.306979020000000,0,0x5D,0x00,Read,ACK
0.307000500000000,0,0x5D,0x00,Read,ACK
0.307021960000000,0,0x5D,0x00,Read,ACK
0.307043480000000,0,0x5D,0x00,Read,ACK
0.307066200000000,0,0x5D,0x00,Read,ACK
0.307087720000000,0,0x5D,0x00,Read,ACK
0.307109200000000,0,0x5D,0x00,Read,ACK
0.307130680000000,0,0x5D,0x00,Read,ACK
0.307152180000000,0,0x5D,0x00,Read,ACK
0.307174080000000,0,0x5D,0x00,Read,ACK
0.307195520000000,0,0x5D,0x00,Read,ACK
0.307216980000000,0,0x5D,0x00,Read,ACK
0.307238440000000,0,0x5D,0x00,Read,ACK
0.307259880000000,0,0x5D,0x00,Read,ACK
0.307281500000000,0,0x5D,0x00,Read,ACK
0.307303020000000,0,0x5D,0x00,Read,ACK
0.307324500000000,0,0x5D,0x00,Read,ACK
0.307345940000000,0,0x5D,0xEE,Read,ACK
0.307367400000000,0,0x5D,0x92,Read,ACK
0.307388880000000,0,0x5D,0x02,Read,ACK
0.307410380000000,0,0x5D,0x00,Read,ACK
0.307432760000000,0,0x5D,0x00,Read,ACK
0.307454220000000,0,0x5D,0x00,Read,ACK
0.307475900000000,0,0x5D,0x00,Read,ACK
0.307497400000000,0,0x5D,0x00,Read,ACK
0.307518920000000,0,0x5D,0x00,Read,ACK
0.307540420000000,0,0x5D,0x00,Read,ACK
0.307561860000000,0,0x5D,0x00,Read,ACK
0.307583320000000,0,0x5D,0x00,Read,ACK
0.307604780000000,0,0x5D,0x00,Read,ACK
0.307626220000000,0,0x5D,0x00,Read,ACK
0.307647680000000,0,0x5D,0x00,Read,ACK
0.307669140000000,0,0x5D,0x00,Read,ACK
0.307691400000000,0,0x5D,0x00,Read,ACK
0.307712860000000,0,0x5D,0x00,Read,ACK
0.307734300000000,0,0x5D,0x00,Read,ACK
0.307755780000000,0,0x5D,0x00,Read,ACK
0.307777540000000,0,0x5D,0x00,Read,NAK
0.313638240000000,0,0x5D,0x2F,Read,ACK
0.313660960000000,0,0x5D,0x00,Read,ACK
0.313682420000000,0,0x5D,0x04,Read,ACK
0.313703860000000,0,0x5D,0x03,Read,ACK
0.313725320000000,0,0x5D,0xFC,Read,ACK
0.313746780000000,0,0x5D,0x00,Read,ACK
0.313768320000000,0,0x5D,0xF3,Read,ACK
0.313789840000000,0,0x5D,0x08,Read,ACK
0.313811840000000,0,0x5D,0x03,Read,ACK
0.313833340000000,0,0x5D,0x03,Read,ACK
0.313854800000000,0,0x5D,0x20,Read,ACK
0.313876260000000,0,0x5D,0x13,Read,ACK
0.313897720000000,0,0x5D,0x92,Read,ACK
0.313919160000000,0,0x5D,0x05,Read,ACK
0.313942100000000,0,0x5D,0x70,Read,ACK
0.313963560000000,0,0x5D,0x05,Read,ACK
0.313985020000000,0,0x5D,0x04,Read,ACK
0.314006480000000,0,0x5D,0x03,Read,ACK
0.314027920000000,0,0x5D,0x20,Read,ACK
0.314049840000000,0,0x5D,0x00,Read,ACK
0.314071320000000,0,0x5D,0x00,Read,ACK
0.314092780000000,0,0x5D,0x00,Read,ACK
0.314114240000000,0,0x5D,0x00,Read,ACK
0.314135760000000,0,0x5D,0x00,Read,ACK
0.314157200000000,0,0x5D,0x00,Read,ACK
0.314178660000000,0,0x5D,0x00,Read,ACK
0.314200100000000,0,0x5D,0x00,Read,ACK
0.314221560000000,0,0x5D,0x00,Read,ACK
0.314243120000000,0,0x5D,0x00,Read,ACK
0.314264600000000,0,0x5D,0x00,Read,ACK
0.314286180000000,0,0x5D,0x00,Read,ACK
0.314307620000000,0,0x5D,0x00,Read,ACK
0.314329080000000,0,0x5D,0x00,Read,ACK
0.314350540000000,0,0x5D,0x00,Read,ACK
0.314372040000000,0,0x5D,0x00,Read,ACK
0.314393500000000,0,0x5D,0x00,Read,ACK
0.314414940000000,0,0x5D,0x00,Read,ACK
0.314436420000000,0,0x5D,0x00,Read,ACK
0.314457860000000,0,0x5D,0x00,Read,ACK
0.314479320000000,0,0x5D,0x00,Read,ACK
0.314500960000000,0,0x5D,0x00,Read,ACK
0.314522420000000,0,0x5D,0x00,Read,ACK
0.314543860000000,0,0x5D,0x00,Read,ACK
0.314565320000000,0,0x5D,0x34,Read,ACK
0.314586760000000,0,0x5D,0x93,Read,ACK
0.314608240000000,0,0x5D,0x02,Read,ACK
0.314629740000000,0,0x5D,0x00,Read,ACK
0.314651180000000,0,0x5D,0x00,Read,ACK
0.314672640000000,0,0x5D,0x00,Read,ACK
0.314694100000000,0,0x5D,0x00,Read,ACK
0.314715580000000,0,0x5D,0x00,Read,ACK
0.314737060000000,0,0x5D,0x00,Read,ACK
0.314758540000000,0,0x5D,0x00,Read,ACK
0.314780040000000,0,0x5D,0x00,Read,ACK
0.314801480000000,0,0x5D,0x00,Read,ACK
0.314825460000000,0,0x5D,0x00,Read,ACK
0.314847980000000,0,0x5D,0x00,Read,ACK
0.314871360000000,0,0x5D,0x00,Read,ACK
0.314893160000000,0,0x5D,0x00,Read,ACK
0.314916580000000,0,0x5D,0x00,Read,ACK
0.314938060000000,0,0x5D,0x00,Read,ACK
0.314959500000000,0,0x5D,0x00,Read,ACK
0.314980960000000,0,0x5D,0x00,Read,ACK
0.315003440000000,0,0x5D,0x00,Read,NAK
0.320956000000000,0,0x5D,0x2F,Read,ACK
0.320981360000000,0,0x5D,0x00,Read,ACK
0.321002840000000,0,0x5D,0x04,Read,ACK
0.321024300000000,0,0x5D,0x03,Read,ACK
0.321045740000000,0,0x5D,0xFC,Read,ACK
0.321067420000000,0,0x5D,0x00,Read,ACK
0.321090420000000,0,0x5D,0xF3,Read,ACK
0.321112860000000,0,0x5D,0x08,Read,ACK
0.321134980000000,0,0x5D,0x03,Read,ACK
0.321156500000000,0,0x5D,0x03,Read,ACK
0.321177980000000,0,0x5D,0x20,Read,ACK
0.321200600000000,0,0x5D,0x13,Read,ACK
0.321222080000000,0,0x5D,0x91,Read,ACK
0.321243520000000,0,0x5D,0x05,Read,ACK
0.321264980000000,0,0x5D,0x6F,Read,ACK
0.321286440000000,0,0x5D,0x05,Read,ACK
0.321308520000000,0,0x5D,0x04,Read,ACK
0.321330160000000,0,0x5D,0x03,Read,ACK
0.321353700000000,0,0x5D,0x20,Read,ACK
0.321375200000000,0,0x5D,0x00,Read,ACK
0.321397540000000,0,0x5D,0x00,Read,ACK
0.321419060000000,0,0x5D,0x00,Read,ACK
0.321440560000000,0,0x5D,0x00,Read,ACK
0.321462020000000,0,0x5D,0x00,Read,ACK
0.321483460000000,0,0x5D,0x00,Read,ACK
0.321504920000000,0,0x5D,0x00,Read,ACK
0.321526400000000,0,0x5D,0x00,Read,ACK
0.321547840000000,0,0x5D,0x00,Read,ACK
0.321569320000000,0,0x5D,0x00,Read,ACK
0.321590820000000,0,0x5D,0x00,Read,ACK
0.321612300000000,0,0x5D,0x00,Read,ACK
0.321633800000000,0,0x5D,0x00,Read,ACK
0.321655260000000,0,0x5D,0x00,Read,ACK
0.321676700000000,0,0x5D,0x00,Read,ACK
0.321698160000000,0,0x5D,0x00,Read,ACK
0.321719800000000,0,0x5D,0x00,Read,ACK
0.321741260000000,0,0x5D,0x00,Read,ACK
0.321762720000000,0,0x5D,0x00,Read,ACK
0.321784240000000,0,0x5D,0x00,Read,ACK
0.321805700000000,0,0x5D,0x00,Read,ACK
0.321827160000000,0,0x5D,0x00,Read,ACK
0.321848660000000,0,0x5D,0x00,Read,ACK
0.321870120000000,0,0x5D,0x00,Read,ACK
0.321891580000000,0,0x5D,0x7A,Read,ACK
0.321913100000000,0,0x5D,0x93,Read,ACK
0.321934700000000,0,0x5D,0x02,Read,ACK
0.321957220000000,0,0x5D,0x00,Read,ACK
0.321979620000000,0,0x5D,0x00,Read,ACK
0.322001100000000,0,0x5D,0x00,Read,ACK
0.322022620000000,0,0x5D,0x00,Read,ACK
0.322044780000000,0,0x5D,0x00,Read,ACK
0.322066540000000,0,0x5D,0x00,Read,ACK
0.322088040000000,0,0x5D,0x00,Read,ACK
0.322109520000000,0,0x5D,0x00,Read,ACK
0.322131020000000,0,0x5D,0x00,Read,ACK
0.322153780000000,0,0x5D,0x00,Read,ACK
0.322175480000000,0,0x5D,0x00,Read,ACK
0.322198360000000,0,0x5D,0x00,Read,ACK
0.322219940000000,0,0x5D,0x00,Read,ACK
0.322241640000000,0,0x5D,0x00,Read,ACK
0.322263160000000,0,0x5D,0x00,Read,ACK
0.322285000000000,0,0x5D,0x00,Read,ACK
0.322306480000000,0,0x5D,0x00,Read,ACK
0.322327920000000,0,0x5D,0x00,Read,NAK
0.328041380000000,0,0x5D,0x2F,Read,ACK
0.328066560000000,0,0x5D,0x00,Read,ACK
0.328089960000000,0,0x5D,0x04,Read,ACK
0.328111440000000,0,0x5D,0x03,Read,ACK
0.328132960000000,0,0x5D,0xFC,Read,ACK
0.328154460000000,0,0x5D,0x00,Read,ACK
0.328175920000000,0,0x5D,0xF3,Read,ACK
0.328197360000000,0,0x5D,0x08,Read,ACK
0.328219600000000,0,0x5D,0x03,Read,ACK
0.328242140000000,0,0x5D,0x03,Read,ACK
0.328265060000000,0,0x5D,0x20,Read,ACK
0.328286560000000,0,0x5D,0x13,Read,ACK
0.328308020000000,0,0x5D,0x90,Read,ACK
0.328329540000000,0,0x5D,0x05,Read,ACK
0.328350980000000,0,0x5D,0x6F,Read,ACK
0.328372440000000,0,0x5D,0x05,Read,ACK
0.328393880000000,0,0x5D,0x04,Read,ACK
0.328415340000000,0,0x5D,0x03,Read,ACK
0.328436800000000,0,0x5D,0x20,Read,ACK
0.328458260000000,0,0x5D,0x00,Read,ACK
0.328479760000000,0,0x5D,0x00,Read,ACK
0.328501720000000,0,0x5D,0x00,Read,ACK
0.328523180000000,0,0x5D,0x00,Read,ACK
0.328544640000000,0,0x5D,0x00,Read,ACK
0.328566080000000,0,0x5D,0x00,Read,ACK
0.328587540000000,0,0x5D,0x00,Read,ACK
0.328608980000000,0,0x5D,0x00,Read,ACK
0.328630440000000,0,0x5D,0x00,Read,ACK
0.328651920000000,0,0x5D,0x00,Read,ACK
0.328673400000000,0,0x5D,0x00,Read,ACK
0.328694860000000,0,0x5D,0x00,Read,ACK
0.328716320000000,0,0x5D,0x00,Read,ACK
0.328737780000000,0,0x5D,0x00,Read,ACK
0.328759240000000,0,0x5D,0x00,Read,ACK
0.328780700000000,0,0x5D,0x00,Read,ACK
0.328802200000000,0,0x5D,0x00,Read,ACK
0.328824700000000,0,0x5D,0x00,Read,ACK
0.328846180000000,0,0x5D,0x00,Read,ACK
0.328867720000000,0,0x5D,0x00,Read,ACK
0.328889200000000,0,0x5D,0x00,Read,ACK
0.328910660000000,0,0x5D,0x00,Read,ACK
0.328932120000000,0,0x5D,0x00,Read,ACK
0.328953600000000,0,0x5D,0x00,Read,ACK
0.328975080000000,0,0x5D,0xC0,Read,ACK
0.328996540000000,0,0x5D,0x93,Read,ACK
0.329018020000000,0,0x5D,0x02,Read,ACK
0.329039520000000,0,0x5D,0x00,Read,ACK
0.329061160000000,0,0x5D,0x00,Read,ACK
0.329085440000000,0,0x5D,0x00,Read,ACK
0.329106920000000,0,0x5D,0x00,Read,ACK
0.329129400000000,0,0x5D,0x00,Read,ACK
0.329152240000000,0,0x5D,0x00,Read,ACK
0.329173720000000,0,0x5D,0x00,Read,ACK
0.329196500000000,0,0x5D,0x00,Read,ACK
0.329218020000000,0,0x5D,0x00,Read,ACK
0.329239480000000,0,0x5D,0x00,Read,ACK
0.329262520000000,0,0x5D,0x00,Read,ACK
0.329284000000000,0,0x5D,0x00,Read,ACK
0.329305740000000,0,0x5D,0x00,Read,ACK
0.329327220000000,0,0x5D,0x00,Read,ACK
0.329348740000000,0,0x5D,0x00,Read,ACK
0.329371740000000,0,0x5D,0x00,Read,ACK
0.329393360000000,0,0x5D,0x00,Read,ACK
0.329414840000000,0,0x5D,0x00,Read,NAK
0.334948660000000,0,0x5D,0x2F,Read,ACK
0.334972200000000,0,0x5D,0x00,Read,ACK
0.334994340000000,0,0x5D,0x04,Read,ACK
0.335015840000000,0,0x5D,0x03,Read,ACK
0.335037340000000,0,0x5D,0xFC,Read,ACK
0.335058780000000,0,0x5D,0x00,Read,ACK
0.335080240000000,0,0x5D,0xF3,Read,ACK
0.335101700000000,0,0x5D,0x08,Read,ACK
0.335123180000000,0,0x5D,0x03,Read,ACK
0.335144680000000,0,0x5D,0x03,Read,ACK
0.335166120000000,0,0x5D,0x20,Read,ACK
0.335187580000000,0,0x5D,0x13,Read,ACK
0.335210040000000,0,0x5D,0x8F,Read,ACK
0.335232260000000,0,0x5D,0x05,Read,ACK
0.335254120000000,0,0x5D,0x6F,Read,ACK
0.335275600000000,0,0x5D,0x05,Read,ACK
0.335297120000000,0,0x5D,0x04,Read,ACK
0.335318620000000,0,0x5D,0x03,Read,ACK
0.335340080000000,0,0x5D,0x20,Read,ACK
0.335361580000000,0,0x5D,0x00,Read,ACK
0.335383040000000,0,0x5D,0x00,Read,ACK
0.335406080000000,0,0x5D,0x00,Read,ACK
0.335427580000000,0,0x5D,0x00,Read,ACK
0.335449060000000,0,0x5D,0x00,Read,ACK
0.335470560000000,0,0x5D,0x00,Read,ACK
0.335492020000000,0,0x5D,0x00,Read,ACK
0.335513520000000,0,0x5D,0x00,Read,ACK
0.335534980000000,0,0x5D,0x00,Read,ACK
0.335556420000000,0,0x5D,0x00,Read,ACK
0.335577880000000,0,0x5D,0x00,Read,ACK
0.335599340000000,0,0x5D,0x00,Read,ACK
0.335620780000000,0,0x5D,0x00,Read,ACK
0.335642240000000,0,0x5D,0x00,Read,ACK
0.335664840000000,0,0x5D,0x00,Read,ACK
0.335686320000000,0,0x5D,0x00,Read,ACK
0.335707840000000,0,0x5D,0x00,Read,ACK
0.335729420000000,0,0x5D,0x00,Read,ACK
0.335750880000000,0,0x5D,0x00,Read,ACK
0.335772320000000,0,0x5D,0x00,Read,ACK
0.335793780000000,0,0x5D,0x00,Read,ACK
0.335815240000000,0,0x5D,0x00,Read,ACK
0.335836760000000,0,0x5D,0x00,Read,ACK
0.335858220000000,0,0x5D,0x00,Read,ACK
0.335879680000000,0,0x5D,0x06,Read,ACK
0.335901120000000,0,0x5D,0x94,Read,ACK
0.335922640000000,0,0x5D,0x02,Read,ACK
0.335944100000000,0,0x5D,0x00,Read,ACK
0.335965580000000,0,0x5D,0x00,Read,ACK
0.335987080000000,0,0x5D,0x00,Read,ACK
0.336010160000000,0,0x5D,0x00,Read,ACK
0.336031620000000,0,0x5D,0x00,Read,ACK
0.336053080000000,0,0x5D,0x00,Read,ACK
0.336074540000000,0,0x5D,0x00,Read,ACK
0.336096060000000,0,0x5D,0x00,Read,ACK
0.336117560000000,0,0x5D,0x00,Read,ACK
0.336139000000000,0,0x5D,0x00,Read,ACK
0.336160460000000,0,0x5D,0x00,Read,ACK
0.336181920000000,0,0x5D,0x00,Read,ACK
0.336203380000000,0,0x5D,0x00,Read,ACK
0.336224900000000,0,0x5D,0x00,Read,ACK
0.336246500000000,0,0x5D,0x00,Read,ACK
0.336268240000000,0,0x5D,0x00,Read,ACK
0.336290000000000,0,0x5D,0x00,Read,ACK
0.336311720000000,0,0x5D,0x00,Read,NAK
0.342086280000000,0,0x5D,0x2F,Read,ACK
0.342113840000000,0,0x5D,0x00,Read,ACK
0.342135480000000,0,0x5D,0x04,Read,ACK
0.342157660000000,0,0x5D,0x03,Read,ACK
0.342179120000000,0,0x5D,0xFC,Read,ACK
0.342200580000000,0,0x5D,0x00,Read,ACK
0.342222060000000,0,0x5D,0xF3,Read,ACK
0.342243580000000,0,0x5D,0x08,Read,ACK
0.342265080000000,0,0x5D,0x03,Read,ACK
0.342286600000000,0,0x5D,0x03,Read,ACK
0.342308120000000,0,0x5D,0x20,Read,ACK
0.342329560000000,0,0x5D,0x13,Read,ACK
0.342352660000000,0,0x5D,0x8D,Read,ACK
0.342374140000000,0,0x5D,0x05,Read,ACK
0.342396620000000,0,0x5D,0x6E,Read,ACK
0.342418140000000,0,0x5D,0x05,Read,ACK
0.342439640000000,0,0x5D,0x04,Read,ACK
0.342461100000000,0,0x5D,0x03,Read,ACK
0.342482600000000,0,0x5D,0x20,Read,ACK
0.342504060000000,0,0x5D,0x00,Read,ACK
0.342525760000000,0,0x5D,0x00,Read,ACK
0.342547880000000,0,0x5D,0x00,Read,ACK
0.342569920000000,0,0x5D,0x00,Read,ACK
0.342591360000000,0,0x5D,0x00,Read,ACK
0.342612840000000,0,0x5D,0x00,Read,ACK
0.342634380000000,0,0x5D,0x00,Read,ACK
0.342655860000000,0,0x5D,0x00,Read,ACK
0.342677380000000,0,0x5D,0x00,Read,ACK
0.342698840000000,0,0x5D,0x00,Read,ACK
0.342720720000000,0,0x5D,0x00,Read,ACK
0.342742200000000,0,0x5D,0x00,Read,ACK
0.342763700000000,0,0x5D,0x00,Read,ACK
0.342785360000000,0,0x5D,0x00,Read,ACK
0.342807080000000,0,0x5D,0x00,Read,ACK
0.342828560000000,0,0x5D,0x00,Read,ACK
0.342850060000000,0,0x5D,0x00,Read,ACK
0.342871520000000,0,0x5D,0x00,Read,ACK
0.342893000000000,0,0x5D,0x00,Read,ACK
0.342914500000000,0,0x5D,0x00,Read,ACK
0.342935940000000,0,0x5D,0x00,Read,ACK
0.342957420000000,0,0x5D,0x00,Read,ACK
0.342978920000000,0,0x5D,0x00,Read,ACK
0.343000380000000,0,0x5D,0x00,Read,ACK
0.343021820000000,0,0x5D,0x4C,Read,ACK
0.343043280000000,0,0x5D,0x94,Read,ACK
0.343064760000000,0,0x5D,0x02,Read,ACK
0.343086200000000,0,0x5D,0x00,Read,ACK
0.343107660000000,0,0x5D,0x00,Read,ACK
0.343129100000000,0,0x5D,0x00,Read,ACK
0.343150560000000,0,0x5D,0x00,Read,ACK
0.343172020000000,0,0x5D,0x00,Read,ACK
0.343193480000000,0,0x5D,0x00,Read,ACK
0.343215400000000,0,0x5D,0x00,Read,ACK
0.343236880000000,0,0x5D,0x00,Read,ACK
0.343258340000000,0,0x5D,0x00,Read,ACK
0.343279800000000,0,0x5D,0x00,Read,ACK
0.343301260000000,0,0x5D,0x00,Read,ACK
0.343322720000000,0,0x5D,0x00,Read,ACK
0.343344220000000,0,0x5D,0x00,Read,ACK
0.343368200000000,0,0x5D,0x00,Read,ACK
0.343389700000000,0,0x5D,0x00,Read,ACK
0.343411160000000,0,0x5D,0x00,Read,ACK
0.343433940000000,0,0x5D,0x00,Read,ACK
0.343456940000000,0,0x5D,0x00,Read,NAK
0.349361680000000,0,0x5D,0x2F,Read,ACK
0.349384360000000,0,0x5D,0x00,Read,ACK
0.349405860000000,0,0x5D,0x04,Read,ACK
0.349427340000000,0,0x5D,0x03,Read,ACK
0.349448860000000,0,0x5D,0xFC,Read,ACK
0.349471600000000,0,0x5D,0x00,Read,ACK
0.349494000000000,0,0x5D,0xF3,Read,ACK
0.349516040000000,0,0x5D,0x08,Read,ACK
0.349537480000000,0,0x5D,0x03,Read,ACK
0.349558920000000,0,0x5D,0x03,Read,ACK
0.349580380000000,0,0x5D,0x20,Read,ACK
0.349601860000000,0,0x5D,0x13,Read,ACK
0.349623320000000,0,0x5D,0x8B,Read,ACK
0.349644820000000,0,0x5D,0x05,Read,ACK
0.349667220000000,0,0x5D,0x6E,Read,ACK
0.349690720000000,0,0x5D,0x05,Read,ACK
0.349712180000000,0,0x5D,0x04,Read,ACK
0.349733640000000,0,0x5D,0x03,Read,ACK
0.349755140000000,0,0x5D,0x20,Read,ACK
0.349776620000000,0,0x5D,0x00,Read,ACK
0.349798120000000,0,0x5D,0x00,Read,ACK
0.349819560000000,0,0x5D,0x00,Read,ACK
0.349841020000000,0,0x5D,0x00,Read,ACK
0.349862580000000,0,0x5D,0x00,Read,ACK
0.349884120000000,0,0x5D,0x00,Read,ACK
0.349905580000000,0,0x5D,0x00,Read,ACK
0.349928420000000,0,0x5D,0x00,Read,ACK
0.349949920000000,0,0x5D,0x00,Read,ACK
0.349971440000000,0,0x5D,0x00,Read,ACK
0.349992880000000,0,0x5D,0x00,Read,ACK
0.350014340000000,0,0x5D,0x00,Read,ACK
0.350036140000000,0,0x5D,0x00,Read,ACK
0.350057640000000,0,0x5D,0x00,Read,ACK
0.350079140000000,0,0x5D,0x00,Read,ACK
0.350100580000000,0,0x5D,0x00,Read,ACK
0.350122060000000,0,0x5D,0x00,Read,ACK
0.350143560000000,0,0x5D,0x00,Read,ACK
0.350165000000000,0,0x5D,0x00,Read,ACK
0.350186480000000,0,0x5D,0x00,Read,ACK
0.350207980000000,0,0x5D,0x00,Read,ACK
0.350229660000000,0,0x5D,0x00,Read,ACK
0.350251140000000,0,0x5D,0x00,Read,ACK
0.350272600000000,0,0x5D,0x00,Read,ACK
0.350294060000000,0,0x5D,0x92,Read,ACK
0.350315520000000,0,0x5D,0x94,Read,ACK
0.350336960000000,0,0x5D,0x02,Read,ACK
0.350358440000000,0,0x5D,0x00,Read,ACK
0.350379920000000,0,0x5D,0x00,Read,ACK
0.350401380000000,0,0x5D,0x00,Read,ACK
0.350422860000000,0,0x5D,0x00,Read,ACK
0.350444360000000,0,0x5D,0x00,Read,ACK
0.350466680000000,0,0x5D,0x00,Read,ACK
0.350488160000000,0,0x5D,0x00,Read,ACK
0.350509660000000,0,0x5D,0x00,Read,ACK
0.350531300000000,0,0x5D,0x00,Read,ACK
0.350554280000000,0,0x5D,0x00,Read,ACK
0.350575800000000,0,0x5D,0x00,Read,ACK
0.350597300000000,0,0x5D,0x00,Read,ACK
0.350618820000000,0,0x5D,0x00,Read,ACK
0.350640280000000,0,0x5D,0x00,Read,ACK
0.350661740000000,0,0x5D,0x00,Read,ACK
0.350683240000000,0,0x5D,0x00,Read,ACK
0.350705400000000,0,0x5D,0x00,Read,ACK
0.350727700000000,0,0x5D,0x00,Read,NAK
0.356512120000000,0,0x5D,0x2F,Read,ACK
0.356535620000000,0,0x5D,0x00,Read,ACK
0.356557080000000,0,0x5D,0x04,Read,ACK
0.356578540000000,0,0x5D,0x03,Read,ACK
0.356600680000000,0,0x5D,0xFC,Read,ACK
0.356622200000000,0,0x5D,0x00,Read,ACK
0.356643640000000,0,0x5D,0xF3,Read,ACK
0.356665260000000,0,0x5D,0x08,Read,ACK
0.356686940000000,0,0x5D,0x02,Read,ACK
0.356710060000000,0,0x5D,0x03,Read,ACK
0.356731540000000,0,0x5D,0x20,Read,ACK
0.356753000000000,0,0x5D,0x13,Read,ACK
0.356774460000000,0,0x5D,0x89,Read,ACK
0.356795920000000,0,0x5D,0x05,Read,ACK
0.356817860000000,0,0x5D,0x6D,Read,ACK
0.356839340000000,0,0x5D,0x05,Read,ACK
0.356860780000000,0,0x5D,0x04,Read,ACK
0.356882260000000,0,0x5D,0x03,Read,ACK
0.356903760000000,0,0x5D,0x20,Read,ACK
0.356926200000000,0,0x5D,0x00,Read,ACK
0.356948400000000,0,0x5D,0x00,Read,ACK
0.356969860000000,0,0x5D,0x00,Read,ACK
0.356991320000000,0,0x5D,0x00,Read,ACK
0.357012760000000,0,0x5D,0x00,Read,ACK
0.357034220000000,0,0x5D,0x00,Read,ACK
0.357056000000000,0,0x5D,0x00,Read,ACK
0.357077820000000,0,0x5D,0x00,Read,ACK
0.357099280000000,0,0x5D,0x00,Read,ACK
0.357120720000000,0,0x5D,0x00,Read,ACK
0.357142200000000,0,0x5D,0x00,Read,ACK
0.357163900000000,0,0x5D,0x00,Read,ACK
0.357185420000000,0,0x5D,0x00,Read,ACK
0.357207180000000,0,0x5D,0x00,Read,ACK
0.357228640000000,0,0x5D,0x00,Read,ACK
0.357250160000000,0,0x5D,0x00,Read,ACK
0.357271680000000,0,0x5D,0x00,Read,ACK
0.357293140000000,0,0x5D,0x00,Read,ACK
0.357314640000000,0,0x5D,0x00,Read,ACK
0.357336100000000,0,0x5D,0x00,Read,ACK
0.357357540000000,0,0x5D,0x00,Read,ACK
0.357379020000000,0,0x5D,0x00,Read,ACK
0.357400640000000,0,0x5D,0x00,Read,ACK
0.357422100000000,0,0x5D,0x00,Read,ACK
0.357443560000000,0,0x5D,0xD8,Read,ACK
0.357465940000000,0,0x5D,0x94,Read,ACK
0.357487400000000,0,0x5D,0x02,Read,ACK
0.357509000000000,0,0x5D,0x00,Read,ACK
0.357530520000000,0,0x5D,0x00,Read,ACK
0.357552020000000,0,0x5D,0x00,Read,ACK
0.357573680000000,0,0x5D,0x00,Read,ACK
0.357595200000000,0,0x5D,0x00,Read,ACK
0.357616640000000,0,0x5D,0x00,Read,ACK
0.357638080000000,0,0x5D,0x00,Read,ACK
0.357659620000000,0,0x5D,0x00,Read,ACK
0.357681140000000,0,0x5D,0x00,Read,ACK
0.357702600000000,0,0x5D,0x00,Read,ACK
0.357726900000000,0,0x5D,0x00,Read,ACK
0.357748360000000,0,0x5D,0x00,Read,ACK
0.357769820000000,0,0x5D,0x00,Read,ACK
0.357792320000000,0,0x5D,0x00,Read,ACK
0.357814700000000,0,0x5D,0x00,Read,ACK
0.357836460000000,0,0x5D,0x00,Read,ACK
0.357857960000000,0,0x5D,0x00,Read,ACK
0.357879460000000,0,0x5D,0x00,Read,NAK
0.363610620000000,0,0x5D,0x2F,Read,ACK
0.363632080000000,0,0x5D,0x00,Read,ACK
0.363653580000000,0,0x5D,0x04,Read,ACK
0.363675040000000,0,0x5D,0x03,Read,ACK
0.363696820000000,0,0x5D,0xFC,Read,ACK
0.363718340000000,0,0x5D,0x00,Read,ACK
0.363739840000000,0,0x5D,0xF3,Read,ACK
0.363762160000000,0,0x5D,0x08,Read,ACK
0.363784360000000,0,0x5D,0x02,Read,ACK
0.363807160000000,0,0x5D,0x03,Read,ACK
0.363828640000000,0,0x5D,0x20,Read,ACK
0.363850120000000,0,0x5D,0x13,Read,ACK
0.363871600000000,0,0x5D,0x86,Read,ACK
0.363893080000000,0,0x5D,0x05,Read,ACK
0.363914560000000,0,0x5D,0x6C,Read,ACK
0.363936060000000,0,0x5D,0x05,Read,ACK
0.363957820000000,0,0x5D,0x04,Read,ACK
0.363979780000000,0,0x5D,0x03,Read,ACK
0.364002440000000,0,0x5D,0x20,Read,ACK
0.364023920000000,0,0x5D,0x00,Read,ACK
0.364046280000000,0,0x5D,0x00,Read,ACK
0.364068400000000,0,0x5D,0x00,Read,ACK
0.364091080000000,0,0x5D,0x00,Read,ACK
0.364112540000000,0,0x5D,0x00,Read,ACK
0.364134000000000,0,0x5D,0x00,Read,ACK
0.364155460000000,0,0x5D,0x00,Read,ACK
0.364176920000000,0,0x5D,0x00,Read,ACK
0.364198700000000,0,0x5D,0x00,Read,ACK
0.364220760000000,0,0x5D,0x00,Read,ACK
0.364242200000000,0,0x5D,0x00,Read,ACK
0.364263680000000,0,0x5D,0x00,Read,ACK
0.364285180000000,0,0x5D,0x00,Read,ACK
0.364306640000000,0,0x5D,0x00,Read,ACK
0.364328080000000,0,0x5D,0x00,Read,ACK
0.364349540000000,0,0x5D,0x00,Read,ACK
0.364371000000000,0,0x5D,0x00,Read,ACK
0.364392460000000,0,0x5D,0x00,Read,ACK
0.364413920000000,0,0x5D,0x00,Read,ACK
0.364435360000000,0,0x5D,0x00,Read,ACK
0.364456840000000,0,0x5D,0x00,Read,ACK
0.364478280000000,0,0x5D,0x00,Read,ACK
0.364499740000000,0,0x5D,0x00,Read,ACK
0.364521220000000,0,0x5D,0x00,Read,ACK
0.364542700000000,0,0x5D,0x1E,Read,ACK
0.364564160000000,0,0x5D,0x95,Read,ACK
0.364585620000000,0,0x5D,0x02,Read,ACK
0.364607080000000,0,0x5D,0x00,Read,ACK
0.364628600000000,0,0x5D,0x00,Read,ACK
0.364650040000000,0,0x5D,0x00,Read,ACK
0.364671500000000,0,0x5D,0x00,Read,ACK
0.364692960000000,0,0x5D,0x00,Read,ACK
0.364714460000000,0,0x5D,0x00,Read,ACK
0.364735940000000,0,0x5D,0x00,Read,ACK
0.364757440000000,0,0x5D,0x00,Read,ACK
0.364780360000000,0,0x5D,0x00,Read,ACK
0.364802140000000,0,0x5D,0x00,Read,ACK
0.364823620000000,0,0x5D,0x00,Read,ACK
0.364845700000000,0,0x5D,0x00,Read,ACK
0.364868620000000,0,0x5D,0x00,Read,ACK
0.364890100000000,0,0x5D,0x00,Read,ACK
0.364911720000000,0,0x5D,0x00,Read,ACK
0.364933200000000,0,0x5D,0x00,Read,ACK
0.364954640000000,0,0x5D,0x00,Read,ACK
0.364976900000000,0,0x5D,0x00,Read,NAK
0.370735920000000,0,0x5D,0x2F,Read,ACK
0.370757420000000,0,0x5D,0x00,Read,ACK
0.370778880000000,0,0x5D,0x04,Read,ACK
0.370800320000000,0,0x5D,0x03,Read,ACK
0.370821780000000,0,0x5D,0xFC,Read,ACK
0.370843240000000,0,0x5D,0x00,Read,ACK
0.370864840000000,0,0x5D,0xF3,Read,ACK
0.370886320000000,0,0x5D,0x08,Read,ACK
0.370907780000000,0,0x5D,0x02,Read,ACK
0.370930280000000,0,0x5D,0x03,Read,ACK
0.370951860000000,0,0x5D,0x20,Read,ACK
0.370975240000000,0,0x5D,0x13,Read,ACK
0.370996700000000,0,0x5D,0x83,Read,ACK
0.371018160000000,0,0x5D,0x05,Read,ACK
0.371039620000000,0,0x5D,0x6B,Read,ACK
0.371061080000000,0,0x5D,0x05,Read,ACK
0.371082540000000,0,0x5D,0x04,Read,ACK
0.371104040000000,0,0x5D,0x03,Read,ACK
0.371125500000000,0,0x5D,0x20,Read,ACK
0.371146980000000,0,0x5D,0x00,Read,ACK
0.371168480000000,0,0x5D,0x00,Read,ACK
0.371191260000000,0,0x5D,0x00,Read,ACK
0.371212760000000,0,0x5D,0x00,Read,ACK
0.371234220000000,0,0x5D,0x00,Read,ACK
0.371255720000000,0,0x5D,0x00,Read,ACK
0.371277220000000,0,0x5D,0x00,Read,ACK
0.371298700000000,0,0x5D,0x00,Read,ACK
0.371320500000000,0,0x5D,0x00,Read,ACK
0.371343200000000,0,0x5D,0x00,Read,ACK
0.371364780000000,0,0x5D,0x00,Read,ACK
0.371386280000000,0,0x5D,0x00,Read,ACK
0.371407780000000,0,0x5D,0x00,Read,ACK
0.371429240000000,0,0x5D,0x00,Read,ACK
0.371450700000000,0,0x5D,0x00,Read,ACK
0.371472200000000,0,0x5D,0x00,Read,ACK
0.371493660000000,0,0x5D,0x00,Read,ACK
0.371515180000000,0,0x5D,0x00,Read,ACK
0.371536640000000,0,0x5D,0x00,Read,ACK
0.371558380000000,0,0x5D,0x00,Read,ACK
0.371579860000000,0,0x5D,0x00,Read,ACK
0.371601320000000,0,0x5D,0x00,Read,ACK
0.371622820000000,0,0x5D,0x00,Read,ACK
0.371644280000000,0,0x5D,0x00,Read,ACK
0.371665760000000,0,0x5D,0x64,Read,ACK
0.371687740000000,0,0x5D,0x95,Read,ACK
0.371709200000000,0,0x5D,0x02,Read,ACK
0.371730660000000,0,0x5D,0x00,Read,ACK
0.371752140000000,0,0x5D,0x00,Read,ACK
0.371773620000000,0,0x5D,0x00,Read,ACK
0.371795080000000,0,0x5D,0x00,Read,ACK
0.371816560000000,0,0x5D,0x00,Read,ACK
0.371838060000000,0,0x5D,0x00,Read,ACK
0.371859500000000,0,0x5D,0x00,Read,ACK
0.371880940000000,0,0x5D,0x00,Read,ACK
0.371902400000000,0,0x5D,0x00,Read,ACK
0.371923960000000,0,0x5D,0x00,Read,ACK
0.371945460000000,0,0x5D,0x00,Read,ACK
0.371968000000000,0,0x5D,0x00,Read,ACK
0.371992100000000,0,0x5D,0x00,Read,ACK
0.372013600000000,0,0x5D,0x00,Read,ACK
0.372035060000000,0,0x5D,0x00,Read,ACK
0.372056840000000,0,0x5D,0x00,Read,ACK
0.372078540000000,0,0x5D,0x00,Read,ACK
0.372099980000000,0,0x5D,0x00,Read,NAK
0.377874160000000,0,0x5D,0x2F,Read,ACK
0.377900480000000,0,0x5D,0x00,Read,ACK
0.377922000000000,0,0x5D,0x04,Read,ACK
0.377943460000000,0,0x5D,0x03,Read,ACK
0.377964980000000,0,0x5D,0xFC,Read,ACK
0.377986480000000,0,0x5D,0x00,Read,ACK
0.378007960000000,0,0x5D,0xF3,Read,ACK
0.378029460000000,0,0x5D,0x08,Read,ACK
0.378050900000000,0,0x5D,0x02,Read,ACK
0.378073060000000,0,0x5D,0x03,Read,ACK
0.378094660000000,0,0x5D,0x20,Read,ACK
0.378116260000000,0,0x5D,0x13,Read,ACK
0.378140980000000,0,0x5D,0x80,Read,ACK
0.378162480000000,0,0x5D,0x05,Read,ACK
0.378184000000000,0,0x5D,0x6A,Read,ACK
0.378205500000000,0,0x5D,0x05,Read,ACK
0.378226960000000,0,0x5D,0x04,Read,ACK
0.378248880000000,0,0x5D,0x03,Read,ACK
0.378271360000000,0,0x5D,0x20,Read,ACK
0.378292840000000,0,0x5D,0x00,Read,ACK
0.378314340000000,0,0x5D,0x00,Read,ACK
0.378335960000000,0,0x5D,0x00,Read,ACK
0.378357460000000,0,0x5D,0x00,Read,ACK
0.378378960000000,0,0x5D,0x00,Read,ACK
0.378401100000000,0,0x5D,0x00,Read,ACK
0.378422600000000,0,0x5D,0x00,Read,ACK
0.378444080000000,0,0x5D,0x00,Read,ACK
0.378465580000000,0,0x5D,0x00,Read,ACK
0.378487980000000,0,0x5D,0x00,Read,ACK
0.378510260000000,0,0x5D,0x00,Read,ACK
0.378532860000000,0,0x5D,0x00,Read,ACK
0.378554700000000,0,0x5D,0x00,Read,ACK
0.378576160000000,0,0x5D,0x00,Read,ACK
0.378597620000000,0,0x5D,0x00,Read,ACK
0.378619100000000,0,0x5D,0x00,Read,ACK
0.378640700000000,0,0x5D,0x00,Read,ACK
0.378662160000000,0,0x5D,0x00,Read,ACK
0.378683620000000,0,0x5D,0x00,Read,ACK
0.378705120000000,0,0x5D,0x00,Read,ACK
0.378726580000000,0,0x5D,0x00,Read,ACK
0.378748020000000,0,0x5D,0x00,Read,ACK
0.378769480000000,0,0x5D,0x00,Read,ACK
0.378790940000000,0,0x5D,0x00,Read,ACK
0.378812560000000,0,0x5D,0xAA,Read,ACK
0.378834040000000,0,0x5D,0x95,Read,ACK
0.378855500000000,0,0x5D,0x02,Read,ACK
0.378876940000000,0,0x5D,0x00,Read,ACK
0.378898400000000,0,0x5D,0x00,Read,ACK
0.378919860000000,0,0x5D,0x00,Read,ACK
0.378941300000000,0,0x5D,0x00,Read,ACK
0.378962760000000,0,0x5D,0x00,Read,ACK
0.378984220000000,0,0x5D,0x00,Read,ACK
0.379005700000000,0,0x5D,0x00,Read,ACK
0.379027340000000,0,0x5D,0x00,Read,ACK
0.379048820000000,0,0x5D,0x00,Read,ACK
0.379070280000000,0,0x5D,0x00,Read,ACK
0.379094120000000,0,0x5D,0x00,Read,ACK
0.379115820000000,0,0x5D,0x00,Read,ACK
0.379139280000000,0,0x5D,0x00,Read,ACK
0.379163200000000,0,0x5D,0x00,Read,ACK
0.379185680000000,0,0x5D,0x00,Read,ACK
0.379207180000000,0,0x5D,0x00,Read,ACK
0.379228620000000,0,0x5D,0x00,Read,ACK
0.379250080000000,0,0x5D,0x00,Read,NAK
0.384957760000000,0,0x5D,0x2F,Read,ACK
0.384980720000000,0,0x5D,0x00,Read,ACK
0.385002300000000,0,0x5D,0x04,Read,ACK
0.385024160000000,0,0x5D,0x03,Read,ACK
0.385045680000000,0,0x5D,0xFC,Read,ACK
0.385067160000000,0,0x5D,0x00,Read,ACK
0.385088620000000,0,0x5D,0xF3,Read,ACK
0.385110120000000,0,0x5D,0x08,Read,ACK
0.385131580000000,0,0x5D,0x02,Read,ACK
0.385153040000000,0,0x5D,0x03,Read,ACK
0.385174560000000,0,0x5D,0x20,Read,ACK
0.385196020000000,0,0x5D,0x13,Read,ACK
0.385217860000000,0,0x5D,0x7D,Read,ACK
0.385240340000000,0,0x5D,0x05,Read,ACK
0.385261860000000,0,0x5D,0x6A,Read,ACK
0.385283540000000,0,0x5D,0x05,Read,ACK
0.385305020000000,0,0x5D,0x04,Read,ACK
0.385326480000000,0,0x5D,0x03,Read,ACK
0.385347940000000,0,0x5D,0x20,Read,ACK
0.385369400000000,0,0x5D,0x00,Read,ACK
0.385390840000000,0,0x5D,0x00,Read,ACK
0.385412800000000,0,0x5D,0x00,Read,ACK
0.385434260000000,0,0x5D,0x00,Read,ACK
0.385455700000000,0,0x5D,0x00,Read,ACK
0.385478200000000,0,0x5D,0x00,Read,ACK
0.385499680000000,0,0x5D,0x00,Read,ACK
0.385522560000000,0,0x5D,0x00,Read,ACK
0.385544780000000,0,0x5D,0x00,Read,ACK
0.385566260000000,0,0x5D,0x00,Read,ACK
0.385587740000000,0,0x5D,0x00,Read,ACK
0.385609260000000,0,0x5D,0x00,Read,ACK
0.385630760000000,0,0x5D,0x00,Read,ACK
0.385653620000000,0,0x5D,0x00,Read,ACK
0.385675920000000,0,0x5D,0x00,Read,ACK
0.385697360000000,0,0x5D,0x00,Read,ACK
0.385719240000000,0,0x5D,0x00,Read,ACK
0.385740700000000,0,0x5D,0x00,Read,ACK
0.385762160000000,0,0x5D,0x00,Read,ACK
0.385783620000000,0,0x5D,0x00,Read,ACK
0.385805100000000,0,0x5D,0x00,Read,ACK
0.385826580000000,0,0x5D,0x00,Read,ACK
0.385848040000000,0,0x5D,0x00,Read,ACK
0.385869500000000,0,0x5D,0x00,Read,ACK
0.385890960000000,0,0x5D,0xF0,Read,ACK
0.385912460000000,0,0x5D,0x95,Read,ACK
0.385933920000000,0,0x5D,0x02,Read,ACK
0.385955380000000,0,0x5D,0x00,Read,ACK
0.385976920000000,0,0x5D,0x00,Read,ACK
0.385998600000000,0,0x5D,0x00,Read,ACK
0.386020040000000,0,0x5D,0x00,Read,ACK
0.386041580000000,0,0x5D,0x00,Read,ACK
0.386063060000000,0,0x5D,0x00,Read,ACK
0.386084780000000,0,0x5D,0x00,Read,ACK
0.386106220000000,0,0x5D,0x00,Read,ACK
0.386127680000000,0,0x5D,0x00,Read,ACK
0.386149140000000,0,0x5D,0x00,Read,ACK
0.386170580000000,0,0x5D,0x00,Read,ACK
0.386192060000000,0,0x5D,0x00,Read,ACK
0.386213560000000,0,0x5D,0x00,Read,ACK
0.386235020000000,0,0x5D,0x00,Read,ACK
0.386256520000000,0,0x5D,0x00,Read,ACK
0.386278900000000,0,0x5D,0x00,Read,ACK
0.386300400000000,0,0x5D,0x00,Read,ACK
0.386322220000000,0,0x5D,0x00,Read,NAK
0.392122520000000,0,0x5D,0x2F,Read,ACK
0.392148700000000,0,0x5D,0x00,Read,ACK
0.392172500000000,0,0x5D,0x04,Read,ACK
0.392194000000000,0,0x5D,0x03,Read,ACK
0.392215500000000,0,0x5D,0xFC,Read,ACK
0.392236940000000,0,0x5D,0x00,Read,ACK
0.392258400000000,0,0x5D,0xF3,Read,ACK
0.392279860000000,0,0x5D,0x08,Read,ACK
0.392301300000000,0,0x5D,0x02,Read,ACK
0.392322760000000,0,0x5D,0x03,Read,ACK
0.392344220000000,0,0x5D,0x20,Read,ACK
0.392365820000000,0,0x5D,0x13,Read,ACK
0.392387520000000,0,0x5D,0x7A,Read,ACK
0.392409760000000,0,0x5D,0x05,Read,ACK
0.392431220000000,0,0x5D,0x69,Read,ACK
0.392452680000000,0,0x5D,0x05,Read,ACK
0.392474140000000,0,0x5D,0x04,Read,ACK
0.392495600000000,0,0x5D,0x03,Read,ACK
0.392517060000000,0,0x5D,0x20,Read,ACK
0.392539520000000,0,0x5D,0x00,Read,ACK
0.392561380000000,0,0x5D,0x00,Read,ACK
0.392583340000000,0,0x5D,0x00,Read,ACK
0.392605520000000,0,0x5D,0x00,Read,ACK
0.392627020000000,0,0x5D,0x00,Read,ACK
0.392648540000000,0,0x5D,0x00,Read,ACK
0.392671520000000,0,0x5D,0x00,Read,ACK
0.392693120000000,0,0x5D,0x00,Read,ACK
0.392714560000000,0,0x5D,0x00,Read,ACK
0.392737260000000,0,0x5D,0x00,Read,ACK
0.392758740000000,0,0x5D,0x00,Read,ACK
0.392780280000000,0,0x5D,0x00,Read,ACK
0.392802460000000,0,0x5D,0x00,Read,ACK
0.392825200000000,0,0x5D,0x00,Read,ACK
0.392846660000000,0,0x5D,0x00,Read,ACK
0.392869300000000,0,0x5D,0x00,Read,ACK
0.392891120000000,0,0x5D,0x00,Read,ACK
0.392912580000000,0,0x5D,0x00,Read,ACK
0.392934040000000,0,0x5D,0x00,Read,ACK
0.392955480000000,0,0x5D,0x00,Read,ACK
0.392976960000000,0,0x5D,0x00,Read,ACK
0.392998480000000,0,0x5D,0x00,Read,ACK
0.393019960000000,0,0x5D,0x00,Read,ACK
0.393041440000000,0,0x5D,0x00,Read,ACK
0.393062900000000,0,0x5D,0x36,Read,ACK
0.393084400000000,0,0x5D,0x96,Read,ACK
0.393105860000000,0,0x5D,0x02,Read,ACK
0.393127320000000,0,0x5D,0x00,Read,ACK
0.393148760000000,0,0x5D,0x00,Read,ACK
0.393170220000000,0,0x5D,0x00,Read,ACK
0.393191680000000,0,0x5D,0x00,Read,ACK
0.393213180000000,0,0x5D,0x00,Read,ACK
0.393234640000000,0,0x5D,0x00,Read,ACK
0.393256100000000,0,0x5D,0x00,Read,ACK
0.393277560000000,0,0x5D,0x00,Read,ACK
0.393299020000000,0,0x5D,0x00,Read,ACK
0.393320520000000,0,0x5D,0x00,Read,ACK
0.393341980000000,0,0x5D,0x00,Read,ACK
0.393363440000000,0,0x5D,0x00,Read,ACK
0.393385460000000,0,0x5D,0x00,Read,ACK
0.393406960000000,0,0x5D,0x00,Read,ACK
0.393429720000000,0,0x5D,0x00,Read,ACK
0.393453080000000,0,0x5D,0x00,Read,ACK
0.393474980000000,0,0x5D,0x00,Read,ACK
0.393496460000000,0,0x5D,0x00,Read,NAK
0.399369800000000,0,0x5D,0x2F,Read,ACK
0.399392480000000,0,0x5D,0x00,Read,ACK
0.399413960000000,0,0x5D,0x04,Read,ACK
0.399435420000000,0,0x5D,0x03,Read,ACK
0.399456880000000,0,0x5D,0xFC,Read,ACK
0.399478400000000,0,0x5D,0x00,Read,ACK
0.399502120000000,0,0x5D,0xF3,Read,ACK
0.399523740000000,0,0x5D,0x08,Read,ACK
0.399546680000000,0,0x5D,0x02,Read,ACK
0.399568120000000,0,0x5D,0x03,Read,ACK
0.399589580000000,0,0x5D,0x20,Read,ACK
0.399611040000000,0,0x5D,0x13,Read,ACK
0.399632560000000,0,0x5D,0x77,Read,ACK
0.399654020000000,0,0x5D,0x05,Read,ACK
0.399677140000000,0,0x5D,0x69,Read,ACK
0.399698620000000,0,0x5D,0x05,Read,ACK
0.399720140000000,0,0x5D,0x04,Read,ACK
0.399741660000000,0,0x5D,0x03,Read,ACK
0.399763660000000,0,0x5D,0x20,Read,ACK
0.399785100000000,0,0x5D,0x00,Read,ACK
0.399806560000000,0,0x5D,0x00,Read,ACK
0.399828020000000,0,0x5D,0x00,Read,ACK
0.399849460000000,0,0x5D,0x00,Read,ACK
0.399870920000000,0,0x5D,0x00,Read,ACK
0.399893140000000,0,0x5D,0x00,Read,ACK
0.399915260000000,0,0x5D,0x00,Read,ACK
0.399936780000000,0,0x5D,0x00,Read,ACK
0.399958300000000,0,0x5D,0x00,Read,ACK
0.399979800000000,0,0x5D,0x00,Read,ACK
0.400001260000000,0,0x5D,0x00,Read,ACK
0.400022720000000,0,0x5D,0x00,Read,ACK
0.400044160000000,0,0x5D,0x00,Read,ACK
0.400065840000000,0,0x5D,0x00,Read,ACK
0.400087340000000,0,0x5D,0x00,Read,ACK
0.400108780000000,0,0x5D,0x00,Read,ACK
0.400130240000000,0,0x5D,0x00,Read,ACK
0.400151700000000,0,0x5D,0x00,Read,ACK
0.400173140000000,0,0x5D,0x00,Read,ACK
0.400194600000000,0,0x5D,0x00,Read,ACK
0.400216260000000,0,0x5D,0x00,Read,ACK
0.400237760000000,0,0x5D,0x00,Read,ACK
0.400259220000000,0,0x5D,0x00,Read,ACK
0.400280680000000,0,0x5D,0x00,Read,ACK
0.400302180000000,0,0x5D,0x7C,Read,ACK
0.400323660000000,0,0x5D,0x96,Read,ACK
0.400345160000000,0,0x5D,0x02,Read,ACK
0.400366620000000,0,0x5D,0x00,Read,ACK
0.400388120000000,0,0x5D,0x00,Read,ACK
0.400409580000000,0,0x5D,0x00,Read,ACK
0.400431040000000,0,0x5D,0x00,Read,ACK
0.400452480000000,0,0x5D,0x00,Read,ACK
0.400473940000000,0,0x5D,0x00,Read,ACK
0.400495420000000,0,0x5D,0x00,Read,ACK
0.400516920000000,0,0x5D,0x00,Read,ACK
0.400538440000000,0,0x5D,0x00,Read,ACK
0.400561320000000,0,0x5D,0x00,Read,ACK
0.400582760000000,0,0x5D,0x00,Read,ACK
0.400604300000000,0,0x5D,0x00,Read,ACK
0.400625920000000,0,0x5D,0x00,Read,ACK
0.400647700000000,0,0x5D,0x00,Read,ACK
0.400669460000000,0,0x5D,0x00,Read,ACK
0.400690920000000,0,0x5D,0x00,Read,ACK
0.400712400000000,0,0x5D,0x00,Read,ACK
0.400733880000000,0,0x5D,0x00,Read,NAK
0.406473340000000,0,0x5D,0x2F,Read,ACK
0.406494860000000,0,0x5D,0x00,Read,ACK
0.406516320000000,0,0x5D,0x04,Read,ACK
0.406537840000000,0,0x5D,0x03,Read,ACK
0.406559340000000,0,0x5D,0xFC,Read,ACK
0.406580800000000,0,0x5D,0x00,Read,ACK
0.406602260000000,0,0x5D,0xF3,Read,ACK
0.406623720000000,0,0x5D,0x08,Read,ACK
0.406645320000000,0,0x5D,0x02,Read,ACK
0.406668060000000,0,0x5D,0x03,Read,ACK
0.406691560000000,0,0x5D,0x20,Read,ACK
0.406713060000000,0,0x5D,0x13,Read,ACK
0.406734560000000,0,0x5D,0x75,Read,ACK
0.406756060000000,0,0x5D,0x05,Read,ACK
0.406777520000000,0,0x5D,0x69,Read,ACK
0.406799020000000,0,0x5D,0x05,Read,ACK
0.406822060000000,0,0x5D,0x04,Read,ACK
0.406843960000000,0,0x5D,0x03,Read,ACK
0.406865460000000,0,0x5D,0x20,Read,ACK
0.406886960000000,0,0x5D,0x00,Read,ACK
0.406909360000000,0,0x5D,0x00,Read,ACK
0.406932260000000,0,0x5D,0x00,Read,ACK
0.406954840000000,0,0x5D,0x00,Read,ACK
0.406976340000000,0,0x5D,0x00,Read,ACK
0.406998320000000,0,0x5D,0x00,Read,ACK
0.407019800000000,0,0x5D,0x00,Read,ACK
0.407041300000000,0,0x5D,0x00,Read,ACK
0.407062800000000,0,0x5D,0x00,Read,ACK
0.407084300000000,0,0x5D,0x00,Read,ACK
0.407105740000000,0,0x5D,0x00,Read,ACK
0.407127220000000,0,0x5D,0x00,Read,ACK
0.407148740000000,0,0x5D,0x00,Read,ACK
0.407170240000000,0,0x5D,0x00,Read,ACK
0.407191680000000,0,0x5D,0x00,Read,ACK
0.407213140000000,0,0x5D,0x00,Read,ACK
0.407234680000000,0,0x5D,0x00,Read,ACK
0.407256200000000,0,0x5D,0x00,Read,ACK
0.407277720000000,0,0x5D,0x00,Read,ACK
0.407299360000000,0,0x5D,0x00,Read,ACK
0.407320860000000,0,0x5D,0x00,Read,ACK
0.407342300000000,0,0x5D,0x00,Read,ACK
0.407363760000000,0,0x5D,0x00,Read,ACK
0.407385500000000,0,0x5D,0x00,Read,ACK
0.407406980000000,0,0x5D,0xC2,Read,ACK
0.407428440000000,0,0x5D,0x96,Read,ACK
0.407449900000000,0,0x5D,0x02,Read,ACK
0.407471360000000,0,0x5D,0x00,Read,ACK
0.407492860000000,0,0x5D,0x00,Read,ACK
0.407514320000000,0,0x5D,0x00,Read,ACK
0.407535780000000,0,0x5D,0x00,Read,ACK
0.407557540000000,0,0x5D,0x00,Read,ACK
0.407579020000000,0,0x5D,0x00,Read,ACK
0.407600520000000,0,0x5D,0x00,Read,ACK
0.407622040000000,0,0x5D,0x00,Read,ACK
0.407643580000000,0,0x5D,0x00,Read,ACK
0.407665060000000,0,0x5D,0x00,Read,ACK
0.407686540000000,0,0x5D,0x00,Read,ACK
0.407708920000000,0,0x5D,0x00,Read,ACK
0.407730600000000,0,0x5D,0x00,Read,ACK
0.407752060000000,0,0x5D,0x00,Read,ACK
0.407773500000000,0,0x5D,0x00,Read,ACK
0.407795680000000,0,0x5D,0x00,Read,ACK
0.407817160000000,0,0x5D,0x00,Read,ACK
0.407838620000000,0,0x5D,0x00,Read,NAK
0.413983820000000,0,0x5D,0x2F,Read,ACK
0.414007060000000,0,0x5D,0x00,Read,ACK
0.414028600000000,0,0x5D,0x04,Read,ACK
0.414050060000000,0,0x5D,0x03,Read,ACK
0.414071520000000,0,0x5D,0xFC,Read,ACK
0.414092980000000,0,0x5D,0x00,Read,ACK
0.414115780000000,0,0x5D,0xF3,Read,ACK
0.414137240000000,0,0x5D,0x08,Read,ACK
0.414158700000000,0,0x5D,0x03,Read,ACK
0.414180180000000,0,0x5D,0x03,Read,ACK
0.414201680000000,0,0x5D,0x20,Read,ACK
0.414223320000000,0,0x5D,0x13,Read,ACK
0.414246880000000,0,0x5D,0x72,Read,ACK
0.414268420000000,0,0x5D,0x05,Read,ACK
0.414289920000000,0,0x5D,0x68,Read,ACK
0.414311440000000,0,0x5D,0x05,Read,ACK
0.414332960000000,0,0x5D,0x04,Read,ACK
0.414354480000000,0,0x5D,0x03,Read,ACK
0.414375980000000,0,0x5D,0x20,Read,ACK
0.414397420000000,0,0x5D,0x00,Read,ACK
0.414418880000000,0,0x5D,0x00,Read,ACK
0.414440340000000,0,0x5D,0x00,Read,ACK
0.414461800000000,0,0x5D,0x00,Read,ACK
0.414483240000000,0,0x5D,0x00,Read,ACK
0.414504700000000,0,0x5D,0x00,Read,ACK
0.414527400000000,0,0x5D,0x00,Read,ACK
0.414548840000000,0,0x5D,0x00,Read,ACK
0.414570360000000,0,0x5D,0x00,Read,ACK
0.414591840000000,0,0x5D,0x00,Read,ACK
0.414613360000000,0,0x5D,0x00,Read,ACK
0.414634940000000,0,0x5D,0x00,Read,ACK
0.414656440000000,0,0x5D,0x00,Read,ACK
0.414677940000000,0,0x5D,0x00,Read,ACK
0.414699400000000,0,0x5D,0x00,Read,ACK
0.414720860000000,0,0x5D,0x00,Read,ACK
0.414742300000000,0,0x5D,0x00,Read,ACK
0.414763740000000,0,0x5D,0x00,Read,ACK
0.414787220000000,0,0x5D,0x00,Read,ACK
0.414810760000000,0,0x5D,0x00,Read,ACK
0.414832220000000,0,0x5D,0x00,Read,ACK
0.414853860000000,0,0x5D,0x00,Read,ACK
0.414875560000000,0,0x5D,0x00,Read,ACK
0.414897080000000,0,0x5D,0x00,Read,ACK
0.414919040000000,0,0x5D,0x08,Read,ACK
0.414940580000000,0,0x5D,0x97,Read,ACK
0.414962060000000,0,0x5D,0x02,Read,ACK
0.414983500000000,0,0x5D,0x00,Read,ACK
0.415004960000000,0,0x5D,0x00,Read,ACK
0.415026420000000,0,0x5D,0x00,Read,ACK
0.415048860000000,0,0x5D,0x00,Read,ACK
0.415071500000000,0,0x5D,0x00,Read,ACK
0.415096100000000,0,0x5D,0x00,Read,ACK
0.415117600000000,0,0x5D,0x00,Read,ACK
0.415140240000000,0,0x5D,0x00,Read,ACK
0.415161700000000,0,0x5D,0x00,Read,ACK
0.415183140000000,0,0x5D,0x00,Read,ACK
0.415205260000000,0,0x5D,0x00,Read,ACK
0.415226960000000,0,0x5D,0x00,Read,ACK
0.415249280000000,0,0x5D,0x00,Read,ACK
0.415270760000000,0,0x5D,0x00,Read,ACK
0.415292240000000,0,0x5D,0x00,Read,ACK
0.415313740000000,0,0x5D,0x00,Read,ACK
0.415338360000000,0,0x5D,0x00,Read,ACK
0.415359820000000,0,0x5D,0x00,Read,NAK
0.420728560000000,0,0x5D,0x2F,Read,ACK
0.420752960000000,0,0x5D,0x00,Read,ACK
0.420774460000000,0,0x5D,0x04,Read,ACK
0.420795980000000,0,0x5D,0x03,Read,ACK
0.420817520000000,0,0x5D,0xFC,Read,ACK
0.420839000000000,0,0x5D,0x00,Read,ACK
0.420860460000000,0,0x5D,0xF3,Read,ACK
0.420881920000000,0,0x5D,0x08,Read,ACK
0.420904700000000,0,0x5D,0x03,Read,ACK
0.420926400000000,0,0x5D,0x03,Read,ACK
0.420948120000000,0,0x5D,0x20,Read,ACK
0.420969620000000,0,0x5D,0x13,Read,ACK
0.420991120000000,0,0x5D,0x6E,Read,ACK
0.421012620000000,0,0x5D,0x05,Read,ACK
0.421034080000000,0,0x5D,0x67,Read,ACK
0.421055540000000,0,0x5D,0x05,Read,ACK
0.421076980000000,0,0x5D,0x04,Read,ACK
0.421099540000000,0,0x5D,0x03,Read,ACK
0.421121800000000,0,0x5D,0x20,Read,ACK
0.421143280000000,0,0x5D,0x00,Read,ACK
0.421164740000000,0,0x5D,0x00,Read,ACK
0.421186260000000,0,0x5D,0x00,Read,ACK
0.421207720000000,0,0x5D,0x00,Read,ACK
0.421229220000000,0,0x5D,0x00,Read,ACK
0.421250700000000,0,0x5D,0x00,Read,ACK
0.421272180000000,0,0x5D,0x00,Read,ACK
0.421293660000000,0,0x5D,0x00,Read,ACK
0.421315100000000,0,0x5D,0x00,Read,ACK
0.421337900000000,0,0x5D,0x00,Read,ACK
0.421359620000000,0,0x5D,0x00,Read,ACK
0.421381080000000,0,0x5D,0x00,Read,ACK
0.421402560000000,0,0x5D,0x00,Read,ACK
0.421424060000000,0,0x5D,0x00,Read,ACK
0.421445580000000,0,0x5D,0x00,Read,ACK
0.421467100000000,0,0x5D,0x00,Read,ACK
0.421488800000000,0,0x5D,0x00,Read,ACK
0.421510300000000,0,0x5D,0x00,Read,ACK
0.421531760000000,0,0x5D,0x00,Read,ACK
0.421553240000000,0,0x5D,0x00,Read,ACK
0.421574720000000,0,0x5D,0x00,Read,ACK
0.421596180000000,0,0x5D,0x00,Read,ACK
0.421617620000000,0,0x5D,0x00,Read,ACK
0.421639080000000,0,0x5D,0x00,Read,ACK
0.421660620000000,0,0x5D,0x4E,Read,ACK
0.421682420000000,0,0x5D,0x97,Read,ACK
0.421703880000000,0,0x5D,0x02,Read,ACK
0.421725540000000,0,0x5D,0x00,Read,ACK
0.421747040000000,0,0x5D,0x00,Read,ACK
0.421768500000000,0,0x5D,0x00,Read,ACK
0.421790020000000,0,0x5D,0x00,Read,ACK
0.421811460000000,0,0x5D,0x00,Read,ACK
0.421832920000000,0,0x5D,0x00,Read,ACK
0.421854440000000,0,0x5D,0x00,Read,ACK
0.421875940000000,0,0x5D,0x00,Read,ACK
0.421897400000000,0,0x5D,0x00,Read,ACK
0.421921280000000,0,0x5D,0x00,Read,ACK
0.421942740000000,0,0x5D,0x00,Read,ACK
0.421964300000000,0,0x5D,0x00,Read,ACK
0.421987580000000,0,0x5D,0x00,Read,ACK
0.422009400000000,0,0x5D,0x00,Read,ACK
0.422030860000000,0,0x5D,0x00,Read,ACK
0.422052320000000,0,0x5D,0x00,Read,ACK
0.422073780000000,0,0x5D,0x00,Read,ACK
0.422095280000000,0,0x5D,0x00,Read,NAK
0.427872800000000,0,0x5D,0x2F,Read,ACK
0.427897260000000,0,0x5D,0x00,Read,ACK
0.427918740000000,0,0x5D,0x04,Read,ACK
0.427940200000000,0,0x5D,0x03,Read,ACK
0.427961660000000,0,0x5D,0xFC,Read,ACK
0.427983160000000,0,0x5D,0x00,Read,ACK
0.428004620000000,0,0x5D,0xF3,Read,ACK
0.428026080000000,0,0x5D,0x08,Read,ACK
0.428047580000000,0,0x5D,0x03,Read,ACK
0.428069880000000,0,0x5D,0x03,Read,ACK
0.428092400000000,0,0x5D,0x20,Read,ACK
0.428113900000000,0,0x5D,0x13,Read,ACK
0.428137080000000,0,0x5D,0x6A,Read,ACK
0.428158540000000,0,0x5D,0x05,Read,ACK
0.428180020000000,0,0x5D,0x66,Read,ACK
0.428201520000000,0,0x5D,0x05,Read,ACK
0.428223020000000,0,0x5D,0x04,Read,ACK
0.428244660000000,0,0x5D,0x03,Read,ACK
0.428266840000000,0,0x5D,0x20,Read,ACK
0.428288360000000,0,0x5D,0x00,Read,ACK
0.428309840000000,0,0x5D,0x00,Read,ACK
0.428331400000000,0,0x5D,0x00,Read,ACK
0.428353840000000,0,0x5D,0x00,Read,ACK
0.428375320000000,0,0x5D,0x00,Read,ACK
0.428396780000000,0,0x5D,0x00,Read,ACK
0.428418300000000,0,0x5D,0x00,Read,ACK
0.428439800000000,0,0x5D,0x00,Read,ACK
0.428461260000000,0,0x5D,0x00,Read,ACK
0.428483960000000,0,0x5D,0x00,Read,ACK
0.428505400000000,0,0x5D,0x00,Read,ACK
0.428526900000000,0,0x5D,0x00,Read,ACK
0.428548380000000,0,0x5D,0x00,Read,ACK
0.428569840000000,0,0x5D,0x00,Read,ACK
0.428591280000000,0,0x5D,0x00,Read,ACK
0.428612740000000,0,0x5D,0x00,Read,ACK
0.428634220000000,0,0x5D,0x00,Read,ACK
0.428655700000000,0,0x5D,0x00,Read,ACK
0.428677200000000,0,0x5D,0x00,Read,ACK
0.428698660000000,0,0x5D,0x00,Read,ACK
0.428720140000000,0,0x5D,0x00,Read,ACK
0.428741660000000,0,0x5D,0x00,Read,ACK
0.428763160000000,0,0x5D,0x00,Read,ACK
0.428784660000000,0,0x5D,0x00,Read,ACK
0.428806140000000,0,0x5D,0x94,Read,ACK
0.428827620000000,0,0x5D,0x97,Read,ACK
0.428849080000000,0,0x5D,0x02,Read,ACK
0.428870540000000,0,0x5D,0x00,Read,ACK
0.428891980000000,0,0x5D,0x00,Read,ACK
0.428913440000000,0,0x5D,0x00,Read,ACK
0.428934900000000,0,0x5D,0x00,Read,ACK
0.428956420000000,0,0x5D,0x00,Read,ACK
0.428977920000000,0,0x5D,0x00,Read,ACK
0.428999380000000,0,0x5D,0x00,Read,ACK
0.429020900000000,0,0x5D,0x00,Read,ACK
0.429042360000000,0,0x5D,0x00,Read,ACK
0.429063880000000,0,0x5D,0x00,Read,ACK
0.429087160000000,0,0x5D,0x00,Read,ACK
0.429109000000000,0,0x5D,0x00,Read,ACK
0.429130980000000,0,0x5D,0x00,Read,ACK
0.429152700000000,0,0x5D,0x00,Read,ACK
0.429175480000000,0,0x5D,0x00,Read,ACK
0.429197580000000,0,0x5D,0x00,Read,ACK
0.429219080000000,0,0x5D,0x00,Read,ACK
0.429240520000000,0,0x5D,0x00,Read,NAK
0.434988320000000,0,0x5D,0x2F,Read,ACK
0.435013280000000,0,0x5D,0x00,Read,ACK
0.435035320000000,0,0x5D,0x04,Read,ACK
0.435056800000000,0,0x5D,0x03,Read,ACK
0.435078280000000,0,0x5D,0xFC,Read,ACK
0.435099780000000,0,0x5D,0x00,Read,ACK
0.435121240000000,0,0x5D,0xF3,Read,ACK
0.435142760000000,0,0x5D,0x08,Read,ACK
0.435164260000000,0,0x5D,0x03,Read,ACK
0.435185740000000,0,0x5D,0x03,Read,ACK
0.435208180000000,0,0x5D,0x20,Read,ACK
0.435230160000000,0,0x5D,0x13,Read,ACK
0.435253080000000,0,0x5D,0x66,Read,ACK
0.435275900000000,0,0x5D,0x05,Read,ACK
0.435297340000000,0,0x5D,0x64,Read,ACK
0.435318800000000,0,0x5D,0x05,Read,ACK
0.435340280000000,0,0x5D,0x04,Read,ACK
0.435361780000000,0,0x5D,0x03,Read,ACK
0.435383220000000,0,0x5D,0x20,Read,ACK
0.435406000000000,0,0x5D,0x00,Read,ACK
0.435428420000000,0,0x5D,0x00,Read,ACK
0.435449920000000,0,0x5D,0x00,Read,ACK
0.435471420000000,0,0x5D,0x00,Read,ACK
0.435492860000000,0,0x5D,0x00,Read,ACK
0.435514460000000,0,0x5D,0x00,Read,ACK
0.435535980000000,0,0x5D,0x00,Read,ACK
0.435557460000000,0,0x5D,0x00,Read,ACK
0.435579140000000,0,0x5D,0x00,Read,ACK
0.435600620000000,0,0x5D,0x00,Read,ACK
0.435623080000000,0,0x5D,0x00,Read,ACK
0.435644540000000,0,0x5D,0x00,Read,ACK
0.435666040000000,0,0x5D,0x00,Read,ACK
0.435687700000000,0,0x5D,0x00,Read,ACK
0.435709220000000,0,0x5D,0x00,Read,ACK
0.435730740000000,0,0x5D,0x00,Read,ACK
0.435752240000000,0,0x5D,0x00,Read,ACK
0.435773720000000,0,0x5D,0x00,Read,ACK
0.435795220000000,0,0x5D,0x00,Read,ACK
0.435816740000000,0,0x5D,0x00,Read,ACK
0.435838260000000,0,0x5D,0x00,Read,ACK
0.435859760000000,0,0x5D,0x00,Read,ACK
0.435881200000000,0,0x5D,0x00,Read,ACK
0.435902680000000,0,0x5D,0x00,Read,ACK
0.435924180000000,0,0x5D,0xDA,Read,ACK
0.435946100000000,0,0x5D,0x97,Read,ACK
0.435967940000000,0,0x5D,0x02,Read,ACK
0.435989840000000,0,0x5D,0x00,Read,ACK
0.436011300000000,0,0x5D,0x00,Read,ACK
0.436032760000000,0,0x5D,0x00,Read,ACK
0.436054200000000,0,0x5D,0x00,Read,ACK
0.436075660000000,0,0x5D,0x00,Read,ACK
0.436097180000000,0,0x5D,0x00,Read,ACK
0.436118640000000,0,0x5D,0x00,Read,ACK
0.436140080000000,0,0x5D,0x00,Read,ACK
0.436161540000000,0,0x5D,0x00,Read,ACK
0.436183020000000,0,0x5D,0x00,Read,ACK
0.436204800000000,0,0x5D,0x00,Read,ACK
0.436227960000000,0,0x5D,0x00,Read,ACK
0.436249440000000,0,0x5D,0x00,Read,ACK
0.436270980000000,0,0x5D,0x00,Read,ACK
0.436292860000000,0,0x5D,0x00,Read,ACK
0.436315540000000,0,0x5D,0x00,Read,ACK
0.436337060000000,0,0x5D,0x00,Read,ACK
0.436358560000000,0,0x5D,0x00,Read,NAK
0.442224580000000,0,0x5D,0x2F,Read,ACK
0.442249220000000,0,0x5D,0x00,Read,ACK
0.442270720000000,0,0x5D,0x04,Read,ACK
0.442292160000000,0,0x5D,0x03,Read,ACK
0.442313600000000,0,0x5D,0xFC,Read,ACK
0.442335120000000,0,0x5D,0x00,Read,ACK
0.442357140000000,0,0x5D,0xF3,Read,ACK
0.442379380000000,0,0x5D,0x08,Read,ACK
0.442401060000000,0,0x5D,0x03,Read,ACK
0.442422500000000,0,0x5D,0x03,Read,ACK
0.442443960000000,0,0x5D,0x20,Read,ACK
0.442465400000000,0,0x5D,0x13,Read,ACK
0.442486860000000,0,0x5D,0x62,Read,ACK
0.442509600000000,0,0x5D,0x05,Read,ACK
0.442533120000000,0,0x5D,0x63,Read,ACK
0.442554580000000,0,0x5D,0x05,Read,ACK
0.442576040000000,0,0x5D,0x04,Read,ACK
0.442598640000000,0,0x5D,0x03,Read,ACK
0.442620140000000,0,0x5D,0x20,Read,ACK
0.442642440000000,0,0x5D,0x00,Read,ACK
0.442664740000000,0,0x5D,0x00,Read,ACK
0.442686240000000,0,0x5D,0x00,Read,ACK
0.442707700000000,0,0x5D,0x00,Read,ACK
0.442729220000000,0,0x5D,0x00,Read,ACK
0.442750680000000,0,0x5D,0x00,Read,ACK
0.442772140000000,0,0x5D,0x00,Read,ACK
0.442794520000000,0,0x5D,0x00,Read,ACK
0.442816040000000,0,0x5D,0x00,Read,ACK
0.442838440000000,0,0x5D,0x00,Read,ACK
0.442861180000000,0,0x5D,0x00,Read,ACK
0.442882640000000,0,0x5D,0x00,Read,ACK
0.442904080000000,0,0x5D,0x00,Read,ACK
0.442925560000000,0,0x5D,0x00,Read,ACK
0.442947020000000,0,0x5D,0x00,Read,ACK
0.442968520000000,0,0x5D,0x00,Read,ACK
0.442989960000000,0,0x5D,0x00,Read,ACK
0.443011420000000,0,0x5D,0x00,Read,ACK
0.443032880000000,0,0x5D,0x00,Read,ACK
0.443054340000000,0,0x5D,0x00,Read,ACK
0.443075780000000,0,0x5D,0x00,Read,ACK
0.443097240000000,0,0x5D,0x00,Read,ACK
0.443118700000000,0,0x5D,0x00,Read,ACK
0.443140240000000,0,0x5D,0x00,Read,ACK
0.443161720000000,0,0x5D,0x20,Read,ACK
0.443183180000000,0,0x5D,0x98,Read,ACK
0.443204640000000,0,0x5D,0x02,Read,ACK
0.443226100000000,0,0x5D,0x00,Read,ACK
0.443247540000000,0,0x5D,0x00,Read,ACK
0.443269000000000,0,0x5D,0x00,Read,ACK
0.443290440000000,0,0x5D,0x00,Read,ACK
0.443311900000000,0,0x5D,0x00,Read,ACK
0.443333360000000,0,0x5D,0x00,Read,ACK
0.443354820000000,0,0x5D,0x00,Read,ACK
0.443376320000000,0,0x5D,0x00,Read,ACK
0.443397960000000,0,0x5D,0x00,Read,ACK
0.443419420000000,0,0x5D,0x00,Read,ACK
0.443443060000000,0,0x5D,0x00,Read,ACK
0.443464680000000,0,0x5D,0x00,Read,ACK
0.443486340000000,0,0x5D,0x00,Read,ACK
0.443507920000000,0,0x5D,0x00,Read,ACK
0.443530240000000,0,0x5D,0x00,Read,ACK
0.443551900000000,0,0x5D,0x00,Read,ACK
0.443573500000000,0,0x5D,0x00,Read,ACK
0.443594980000000,0,0x5D,0x00,Read,NAK
0.449391440000000,0,0x5D,0x2F,Read,ACK
0.449414720000000,0,0x5D,0x00,Read,ACK
0.449436220000000,0,0x5D,0x04,Read,ACK
0.449457680000000,0,0x5D,0x03,Read,ACK
0.449479120000000,0,0x5D,0xFC,Read,ACK
0.449500580000000,0,0x5D,0x00,Read,ACK
0.449522040000000,0,0x5D,0xF3,Read,ACK
0.449543560000000,0,0x5D,0x08,Read,ACK
0.449566980000000,0,0x5D,0x03,Read,ACK
0.449588460000000,0,0x5D,0x03,Read,ACK
0.449610000000000,0,0x5D,0x20,Read,ACK
0.449631480000000,0,0x5D,0x13,Read,ACK
0.449652960000000,0,0x5D,0x5D,Read,ACK
0.449674460000000,0,0x5D,0x05,Read,ACK
0.449697380000000,0,0x5D,0x62,Read,ACK
0.449719240000000,0,0x5D,0x05,Read,ACK
0.449740700000000,0,0x5D,0x04,Read,ACK
0.449762160000000,0,0x5D,0x03,Read,ACK
0.449783620000000,0,0x5D,0x20,Read,ACK
0.449805420000000,0,0x5D,0x00,Read,ACK
0.449827660000000,0,0x5D,0x00,Read,ACK
0.449849100000000,0,0x5D,0x00,Read,ACK
0.449870580000000,0,0x5D,0x00,Read,ACK
0.449892080000000,0,0x5D,0x00,Read,ACK
0.449913540000000,0,0x5D,0x00,Read,ACK
0.449935000000000,0,0x5D,0x00,Read,ACK
0.449957720000000,0,0x5D,0x00,Read,ACK
0.449979200000000,0,0x5D,0x00,Read,ACK
0.450000660000000,0,0x5D,0x00,Read,ACK
0.450022120000000,0,0x5D,0x00,Read,ACK
0.450043580000000,0,0x5D,0x00,Read,ACK
0.450065060000000,0,0x5D,0x00,Read,ACK
0.450086540000000,0,0x5D,0x00,Read,ACK
0.450108000000000,0,0x5D,0x00,Read,ACK
0.450129460000000,0,0x5D,0x00,Read,ACK
0.450150900000000,0,0x5D,0x00,Read,ACK
0.450172380000000,0,0x5D,0x00,Read,ACK
0.450193820000000,0,0x5D,0x00,Read,ACK
0.450216520000000,0,0x5D,0x00,Read,ACK
0.450237980000000,0,0x5D,0x00,Read,ACK
0.450259460000000,0,0x5D,0x00,Read,ACK
0.450280960000000,0,0x5D,0x00,Read,ACK
0.450302420000000,0,0x5D,0x00,Read,ACK
0.450323920000000,0,0x5D,0x66,Read,ACK
0.450345400000000,0,0x5D,0x98,Read,ACK
0.450366900000000,0,0x5D,0x02,Read,ACK
0.450388340000000,0,0x5D,0x00,Read,ACK
0.450409820000000,0,0x5D,0x00,Read,ACK
0.450431360000000,0,0x5D,0x00,Read,ACK
0.450452940000000,0,0x5D,0x00,Read,ACK
0.450474440000000,0,0x5D,0x00,Read,ACK
0.450495940000000,0,0x5D,0x00,Read,ACK
0.450517420000000,0,0x5D,0x00,Read,ACK
0.450538900000000,0,0x5D,0x00,Read,ACK
0.450561540000000,0,0x5D,0x00,Read,ACK
0.450583240000000,0,0x5D,0x00,Read,ACK
0.450604700000000,0,0x5D,0x00,Read,ACK
0.450626160000000,0,0x5D,0x00,Read,ACK
0.450648000000000,0,0x5D,0x00,Read,ACK
0.450669500000000,0,0x5D,0x00,Read,ACK
0.450690960000000,0,0x5D,0x00,Read,ACK
0.450712900000000,0,0x5D,0x00,Read,ACK
0.450734380000000,0,0x5D,0x00,Read,ACK
0.450755880000000,0,0x5D,0x00,Read,NAK
0.456451200000000,0,0x5D,0x2F,Read,ACK
0.456475640000000,0,0x5D,0x00,Read,ACK
0.456497140000000,0,0x5D,0x04,Read,ACK
0.456518600000000,0,0x5D,0x03,Read,ACK
0.456540120000000,0,0x5D,0xFC,Read,ACK
0.456561640000000,0,0x5D,0x00,Read,ACK
0.456583080000000,0,0x5D,0xF3,Read,ACK
0.456604540000000,0,0x5D,0x08,Read,ACK
0.456626000000000,0,0x5D,0x03,Read,ACK
0.456648760000000,0,0x5D,0x03,Read,ACK
0.456670500000000,0,0x5D,0x20,Read,ACK
0.456692280000000,0,0x5D,0x13,Read,ACK
0.456713740000000,0,0x5D,0x58,Read,ACK
0.456735200000000,0,0x5D,0x05,Read,ACK
0.456756640000000,0,0x5D,0x60,Read,ACK
0.456778080000000,0,0x5D,0x05,Read,ACK
0.456799540000000,0,0x5D,0x04,Read,ACK
0.456821000000000,0,0x5D,0x03,Read,ACK
0.456844060000000,0,0x5D,0x20,Read,ACK
0.456865520000000,0,0x5D,0x00,Read,ACK
0.456887160000000,0,0x5D,0x00,Read,ACK
0.456908620000000,0,0x5D,0x00,Read,ACK
0.456930300000000,0,0x5D,0x00,Read,ACK
0.456952080000000,0,0x5D,0x00,Read,ACK
0.456973560000000,0,0x5D,0x00,Read,ACK
0.456995060000000,0,0x5D,0x00,Read,ACK
0.457016520000000,0,0x5D,0x00,Read,ACK
0.457038020000000,0,0x5D,0x00,Read,ACK
0.457060160000000,0,0x5D,0x00,Read,ACK
0.457082820000000,0,0x5D,0x00,Read,ACK
0.457105300000000,0,0x5D,0x00,Read,ACK
0.457126760000000,0,0x5D,0x00,Read,ACK
0.457148240000000,0,0x5D,0x00,Read,ACK
0.457169740000000,0,0x5D,0x00,Read,ACK
0.457191180000000,0,0x5D,0x00,Read,ACK
0.457212640000000,0,0x5D,0x00,Read,ACK
0.457234120000000,0,0x5D,0x00,Read,ACK
0.457255600000000,0,0x5D,0x00,Read,ACK
0.457277060000000,0,0x5D,0x00,Read,ACK
0.457298520000000,0,0x5D,0x00,Read,ACK
0.457320060000000,0,0x5D,0x00,Read,ACK
0.457341560000000,0,0x5D,0x00,Read,ACK
0.457363140000000,0,0x5D,0x00,Read,ACK
0.457384920000000,0,0x5D,0xAC,Read,ACK
0.457407520000000,0,0x5D,0x98,Read,ACK
0.457428980000000,0,0x5D,0x02,Read,ACK
0.457450440000000,0,0x5D,0x00,Read,ACK
0.457471900000000,0,0x5D,0x00,Read,ACK
0.457493340000000,0,0x5D,0x00,Read,ACK
0.457514780000000,0,0x5D,0x00,Read,ACK
0.457536260000000,0,0x5D,0x00,Read,ACK
0.457557760000000,0,0x5D,0x00,Read,ACK
0.457579200000000,0,0x5D,0x00,Read,ACK
0.457600660000000,0,0x5D,0x00,Read,ACK
0.457622100000000,0,0x5D,0x00,Read,ACK
0.457643580000000,0,0x5D,0x00,Read,ACK
0.457665080000000,0,0x5D,0x00,Read,ACK
0.457687180000000,0,0x5D,0x00,Read,ACK
0.457711760000000,0,0x5D,0x00,Read,ACK
0.457733240000000,0,0x5D,0x00,Read,ACK
0.457754700000000,0,0x5D,0x00,Read,ACK
0.457776220000000,0,0x5D,0x00,Read,ACK
0.457797660000000,0,0x5D,0x00,Read,ACK
0.457819120000000,0,0x5D,0x00,Read,NAK
0.463902700000000,0,0x5D,0x2F,Read,ACK
0.463927160000000,0,0x5D,0x00,Read,ACK
0.463948620000000,0,0x5D,0x04,Read,ACK
0.463970900000000,0,0x5D,0x03,Read,ACK
0.463993400000000,0,0x5D,0xFC,Read,ACK
0.464014880000000,0,0x5D,0x00,Read,ACK
0.464036400000000,0,0x5D,0xF3,Read,ACK
0.464057900000000,0,0x5D,0x08,Read,ACK
0.464079340000000,0,0x5D,0x03,Read,ACK
0.464101460000000,0,0x5D,0x03,Read,ACK
0.464122940000000,0,0x5D,0x20,Read,ACK
0.464145380000000,0,0x5D,0x13,Read,ACK
0.464166840000000,0,0x5D,0x54,Read,ACK
0.464188280000000,0,0x5D,0x05,Read,ACK
0.464209740000000,0,0x5D,0x5F,Read,ACK
0.464231200000000,0,0x5D,0x05,Read,ACK
0.464252660000000,0,0x5D,0x04,Read,ACK
0.464274160000000,0,0x5D,0x03,Read,ACK
0.464295620000000,0,0x5D,0x20,Read,ACK
0.464317060000000,0,0x5D,0x00,Read,ACK
0.464338540000000,0,0x5D,0x00,Read,ACK
0.464359980000000,0,0x5D,0x00,Read,ACK
0.464381440000000,0,0x5D,0x00,Read,ACK
0.464402880000000,0,0x5D,0x00,Read,ACK
0.464424340000000,0,0x5D,0x00,Read,ACK
0.464446180000000,0,0x5D,0x00,Read,ACK
0.464467620000000,0,0x5D,0x00,Read,ACK
0.464489080000000,0,0x5D,0x00,Read,ACK
0.464510520000000,0,0x5D,0x00,Read,ACK
0.464532000000000,0,0x5D,0x00,Read,ACK
0.464553480000000,0,0x5D,0x00,Read,ACK
0.464574940000000,0,0x5D,0x00,Read,ACK
0.464596400000000,0,0x5D,0x00,Read,ACK
0.464617860000000,0,0x5D,0x00,Read,ACK
0.464639360000000,0,0x5D,0x00,Read,ACK
0.464660820000000,0,0x5D,0x00,Read,ACK
0.464682300000000,0,0x5D,0x00,Read,ACK
0.464703800000000,0,0x5D,0x00,Read,ACK
0.464725260000000,0,0x5D,0x00,Read,ACK
0.464746760000000,0,0x5D,0x00,Read,ACK
0.464768220000000,0,0x5D,0x00,Read,ACK
0.464791340000000,0,0x5D,0x00,Read,ACK
0.464812880000000,0,0x5D,0x00,Read,ACK
0.464835760000000,0,0x5D,0xF2,Read,ACK
0.464857360000000,0,0x5D,0x98,Read,ACK
0.464881220000000,0,0x5D,0x02,Read,ACK
0.464902980000000,0,0x5D,0x00,Read,ACK
0.464924440000000,0,0x5D,0x00,Read,ACK
0.464945900000000,0,0x5D,0x00,Read,ACK
0.464967360000000,0,0x5D,0x00,Read,ACK
0.464988860000000,0,0x5D,0x00,Read,ACK
0.465010420000000,0,0x5D,0x00,Read,ACK
0.465031900000000,0,0x5D,0x00,Read,ACK
0.465053720000000,0,0x5D,0x00,Read,ACK
0.465075280000000,0,0x5D,0x00,Read,ACK
0.465097360000000,0,0x5D,0x00,Read,ACK
0.465119220000000,0,0x5D,0x00,Read,ACK
0.465141360000000,0,0x5D,0x00,Read,ACK
0.465162820000000,0,0x5D,0x00,Read,ACK
0.465184340000000,0,0x5D,0x00,Read,ACK
0.465205840000000,0,0x5D,0x00,Read,ACK
0.465227280000000,0,0x5D,0x00,Read,ACK
0.465249560000000,0,0x5D,0x00,Read,ACK
0.465272640000000,0,0x5D,0x00,Read,NAK
0.470781100000000,0,0x5D,0x2F,Read,ACK
0.470803900000000,0,0x5D,0x00,Read,ACK
0.470825360000000,0,0x5D,0x04,Read,ACK
0.470846820000000,0,0x5D,0x03,Read,ACK
0.470868320000000,0,0x5D,0xFC,Read,ACK
0.470890500000000,0,0x5D,0x00,Read,ACK
0.470911980000000,0,0x5D,0xF3,Read,ACK
0.470933440000000,0,0x5D,0x08,Read,ACK
0.470956480000000,0,0x5D,0x03,Read,ACK
0.470978060000000,0,0x5D,0x03,Read,ACK
0.471000540000000,0,0x5D,0x20,Read,ACK
0.471021980000000,0,0x5D,0x13,Read,ACK
0.471043480000000,0,0x5D,0x4F,Read,ACK
0.471064960000000,0,0x5D,0x05,Read,ACK
0.471086420000000,0,0x5D,0x5E,Read,ACK
0.471107880000000,0,0x5D,0x05,Read,ACK
0.471130220000000,0,0x5D,0x04,Read,ACK
0.471152060000000,0,0x5D,0x03,Read,ACK
0.471173540000000,0,0x5D,0x20,Read,ACK
0.471195000000000,0,0x5D,0x00,Read,ACK
0.471216520000000,0,0x5D,0x00,Read,ACK
0.471238020000000,0,0x5D,0x00,Read,ACK
0.471259540000000,0,0x5D,0x00,Read,ACK
0.471281000000000,0,0x5D,0x00,Read,ACK
0.471302440000000,0,0x5D,0x00,Read,ACK
0.471323940000000,0,0x5D,0x00,Read,ACK
0.471345420000000,0,0x5D,0x00,Read,ACK
0.471366880000000,0,0x5D,0x00,Read,ACK
0.471389780000000,0,0x5D,0x00,Read,ACK
0.471411320000000,0,0x5D,0x00,Read,ACK
0.471433320000000,0,0x5D,0x00,Read,ACK
0.471454800000000,0,0x5D,0x00,Read,ACK
0.471476260000000,0,0x5D,0x00,Read,ACK
0.471497880000000,0,0x5D,0x00,Read,ACK
0.471519360000000,0,0x5D,0x00,Read,ACK
0.471540800000000,0,0x5D,0x00,Read,ACK
0.471562280000000,0,0x5D,0x00,Read,ACK
0.471583800000000,0,0x5D,0x00,Read,ACK
0.471605300000000,0,0x5D,0x00,Read,ACK
0.471626760000000,0,0x5D,0x00,Read,ACK
0.471648280000000,0,0x5D,0x00,Read,ACK
0.471669720000000,0,0x5D,0x00,Read,ACK
0.471691380000000,0,0x5D,0x00,Read,ACK
0.471712880000000,0,0x5D,0x38,Read,ACK
0.471734320000000,0,0x5D,0x99,Read,ACK
0.471755780000000,0,0x5D,0x02,Read,ACK
0.471777300000000,0,0x5D,0x00,Read,ACK
0.471798760000000,0,0x5D,0x00,Read,ACK
0.471820240000000,0,0x5D,0x00,Read,ACK
0.471841720000000,0,0x5D,0x00,Read,ACK
0.471863180000000,0,0x5D,0x00,Read,ACK
0.471884620000000,0,0x5D,0x00,Read,ACK
0.471906100000000,0,0x5D,0x00,Read,ACK
0.471927600000000,0,0x5D,0x00,Read,ACK
0.471949080000000,0,0x5D,0x00,Read,ACK
0.471970920000000,0,0x5D,0x00,Read,ACK
0.471995120000000,0,0x5D,0x00,Read,ACK
0.472016940000000,0,0x5D,0x00,Read,ACK
0.472040120000000,0,0x5D,0x00,Read,ACK
0.472061620000000,0,0x5D,0x00,Read,ACK
0.472083080000000,0,0x5D,0x00,Read,ACK
0.472104560000000,0,0x5D,0x00,Read,ACK
0.472126400000000,0,0x5D,0x00,Read,ACK
0.472147900000000,0,0x5D,0x00,Read,NAK
0.477901560000000,0,0x5D,0x2F,Read,ACK
0.477926700000000,0,0x5D,0x00,Read,ACK
0.477948200000000,0,0x5D,0x04,Read,ACK
0.477969680000000,0,0x5D,0x03,Read,ACK
0.477991140000000,0,0x5D,0xFC,Read,ACK
0.478012600000000,0,0x5D,0x00,Read,ACK
0.478034060000000,0,0x5D,0xF3,Read,ACK
0.478055520000000,0,0x5D,0x08,Read,ACK
0.478077020000000,0,0x5D,0x03,Read,ACK
0.478100540000000,0,0x5D,0x03,Read,ACK
0.478123380000000,0,0x5D,0x20,Read,ACK
0.478145540000000,0,0x5D,0x13,Read,ACK
0.478167020000000,0,0x5D,0x4A,Read,ACK
0.478188480000000,0,0x5D,0x05,Read,ACK
0.478209940000000,0,0x5D,0x5D,Read,ACK
0.478231440000000,0,0x5D,0x05,Read,ACK
0.478252900000000,0,0x5D,0x04,Read,ACK
0.478274640000000,0,0x5D,0x03,Read,ACK
0.478296100000000,0,0x5D,0x20,Read,ACK
0.478317560000000,0,0x5D,0x00,Read,ACK
0.478339020000000,0,0x5D,0x00,Read,ACK
0.478360480000000,0,0x5D,0x00,Read,ACK
0.478384660000000,0,0x5D,0x00,Read,ACK
0.478407480000000,0,0x5D,0x00,Read,ACK
0.478429580000000,0,0x5D,0x00,Read,ACK
0.478451080000000,0,0x5D,0x00,Read,ACK
0.478472540000000,0,0x5D,0x00,Read,ACK
0.478493980000000,0,0x5D,0x00,Read,ACK
0.478516640000000,0,0x5D,0x00,Read,ACK
0.478538360000000,0,0x5D,0x00,Read,ACK
0.478559920000000,0,0x5D,0x00,Read,ACK
0.478581420000000,0,0x5D,0x00,Read,ACK
0.478602880000000,0,0x5D,0x00,Read,ACK
0.478624340000000,0,0x5D,0x00,Read,ACK
0.478645980000000,0,0x5D,0x00,Read,ACK
0.478667580000000,0,0x5D,0x00,Read,ACK
0.478689080000000,0,0x5D,0x00,Read,ACK
0.478710520000000,0,0x5D,0x00,Read,ACK
0.478731980000000,0,0x5D,0x00,Read,ACK
0.478753420000000,0,0x5D,0x00,Read,ACK
0.478774900000000,0,0x5D,0x00,Read,ACK
0.478796400000000,0,0x5D,0x00,Read,ACK
0.478817840000000,0,0x5D,0x00,Read,ACK
0.478839300000000,0,0x5D,0x7E,Read,ACK
0.478862220000000,0,0x5D,0x99,Read,ACK
0.478883700000000,0,0x5D,0x02,Read,ACK
0.478905160000000,0,0x5D,0x00,Read,ACK
0.478926640000000,0,0x5D,0x00,Read,ACK
0.478948560000000,0,0x5D,0x00,Read,ACK
0.478970080000000,0,0x5D,0x00,Read,ACK
0.478991600000000,0,0x5D,0x00,Read,ACK
0.479013040000000,0,0x5D,0x00,Read,ACK
0.479034740000000,0,0x5D,0x00,Read,ACK
0.479056200000000,0,0x5D,0x00,Read,ACK
0.479077660000000,0,0x5D,0x00,Read,ACK
0.479102800000000,0,0x5D,0x00,Read,ACK
0.479124240000000,0,0x5D,0x00,Read,ACK
0.479145700000000,0,0x5D,0x00,Read,ACK
0.479167200000000,0,0x5D,0x00,Read,ACK
0.479189960000000,0,0x5D,0x00,Read,ACK
0.479211420000000,0,0x5D,0x00,Read,ACK
0.479234820000000,0,0x5D,0x00,Read,ACK
0.479256300000000,0,0x5D,0x00,Read,ACK
0.479277760000000,0,0x5D,0x00,Read,NAK
0.485037700000000,0,0x5D,0x2F,Read,ACK
0.485060400000000,0,0x5D,0x00,Read,ACK
0.485081900000000,0,0x5D,0x04,Read,ACK
0.485103360000000,0,0x5D,0x03,Read,ACK
0.485124800000000,0,0x5D,0xFC,Read,ACK
0.485146280000000,0,0x5D,0x00,Read,ACK
0.485167800000000,0,0x5D,0xF3,Read,ACK
0.485189300000000,0,0x5D,0x08,Read,ACK
0.485213500000000,0,0x5D,0x03,Read,ACK
0.485235420000000,0,0x5D,0x03,Read,ACK
0.485258140000000,0,0x5D,0x20,Read,ACK
0.485281440000000,0,0x5D,0x13,Read,ACK
0.485302940000000,0,0x5D,0x46,Read,ACK
0.485324400000000,0,0x5D,0x05,Read,ACK
0.485345860000000,0,0x5D,0x5C,Read,ACK
0.485367300000000,0,0x5D,0x05,Read,ACK
0.485388760000000,0,0x5D,0x04,Read,ACK
0.485410540000000,0,0x5D,0x03,Read,ACK
0.485432040000000,0,0x5D,0x20,Read,ACK
0.485453520000000,0,0x5D,0x00,Read,ACK
0.485475000000000,0,0x5D,0x00,Read,ACK
0.485496460000000,0,0x5D,0x00,Read,ACK
0.485518700000000,0,0x5D,0x00,Read,ACK
0.485540820000000,0,0x5D,0x00,Read,ACK
0.485562260000000,0,0x5D,0x00,Read,ACK
0.485584540000000,0,0x5D,0x00,Read,ACK
0.485606060000000,0,0x5D,0x00,Read,ACK
0.485628420000000,0,0x5D,0x00,Read,ACK
0.485649900000000,0,0x5D,0x00,Read,ACK
0.485671860000000,0,0x5D,0x00,Read,ACK
0.485693360000000,0,0x5D,0x00,Read,ACK
0.485714820000000,0,0x5D,0x00,Read,ACK
0.485736280000000,0,0x5D,0x00,Read,ACK
0.485757780000000,0,0x5D,0x00,Read,ACK
0.485779240000000,0,0x5D,0x00,Read,ACK
0.485800740000000,0,0x5D,0x00,Read,ACK
0.485822220000000,0,0x5D,0x00,Read,ACK
0.485843680000000,0,0x5D,0x00,Read,ACK
0.485865200000000,0,0x5D,0x00,Read,ACK
0.485886640000000,0,0x5D,0x00,Read,ACK
0.485908100000000,0,0x5D,0x00,Read,ACK
0.485929560000000,0,0x5D,0x00,Read,ACK
0.485951060000000,0,0x5D,0x00,Read,ACK
0.485972540000000,0,0x5D,0xC4,Read,ACK
0.485994400000000,0,0x5D,0x99,Read,ACK
0.486015860000000,0,0x5D,0x02,Read,ACK
0.486037340000000,0,0x5D,0x00,Read,ACK
0.486058860000000,0,0x5D,0x00,Read,ACK
0.486080360000000,0,0x5D,0x00,Read,ACK
0.486101820000000,0,0x5D,0x00,Read,ACK
0.486123280000000,0,0x5D,0x00,Read,ACK
0.486144780000000,0,0x5D,0x00,Read,ACK
0.486166240000000,0,0x5D,0x00,Read,ACK
0.486187700000000,0,0x5D,0x00,Read,ACK
0.486209200000000,0,0x5D,0x00,Read,ACK
0.486231580000000,0,0x5D,0x00,Read,ACK
0.486253040000000,0,0x5D,0x00,Read,ACK
0.486274500000000,0,0x5D,0x00,Read,ACK
0.486297220000000,0,0x5D,0x00,Read,ACK
0.486319260000000,0,0x5D,0x00,Read,ACK
0.486341120000000,0,0x5D,0x00,Read,ACK
0.486362560000000,0,0x5D,0x00,Read,ACK
0.486384020000000,0,0x5D,0x00,Read,ACK
0.486405480000000,0,0x5D,0x00,Read,NAK
0.492213080000000,0,0x5D,0x2F,Read,ACK
0.492235780000000,0,0x5D,0x00,Read,ACK
0.492257460000000,0,0x5D,0x04,Read,ACK
0.492279000000000,0,0x5D,0x03,Read,ACK
0.492300480000000,0,0x5D,0xFC,Read,ACK
0.492321960000000,0,0x5D,0x00,Read,ACK
0.492343440000000,0,0x5D,0xF3,Read,ACK
0.492364920000000,0,0x5D,0x08,Read,ACK
0.492386660000000,0,0x5D,0x03,Read,ACK
0.492409120000000,0,0x5D,0x03,Read,ACK
0.492431100000000,0,0x5D,0x20,Read,ACK
0.492452580000000,0,0x5D,0x13,Read,ACK
0.492474060000000,0,0x5D,0x41,Read,ACK
0.492495560000000,0,0x5D,0x05,Read,ACK
0.492517000000000,0,0x5D,0x5B,Read,ACK
0.492538440000000,0,0x5D,0x05,Read,ACK
0.492559980000000,0,0x5D,0x04,Read,ACK
0.492583560000000,0,0x5D,0x03,Read,ACK
0.492605060000000,0,0x5D,0x20,Read,ACK
0.492626500000000,0,0x5D,0x00,Read,ACK
0.492647940000000,0,0x5D,0x00,Read,ACK
0.492669400000000,0,0x5D,0x00,Read,ACK
0.492690880000000,0,0x5D,0x00,Read,ACK
0.492712380000000,0,0x5D,0x00,Read,ACK
0.492733920000000,0,0x5D,0x00,Read,ACK
0.492755420000000,0,0x5D,0x00,Read,ACK
0.492777020000000,0,0x5D,0x00,Read,ACK
0.492799140000000,0,0x5D,0x00,Read,ACK
0.492820980000000,0,0x5D,0x00,Read,ACK
0.492843360000000,0,0x5D,0x00,Read,ACK
0.492864840000000,0,0x5D,0x00,Read,ACK
0.492886300000000,0,0x5D,0x00,Read,ACK
0.492907760000000,0,0x5D,0x00,Read,ACK
0.492929220000000,0,0x5D,0x00,Read,ACK
0.492950660000000,0,0x5D,0x00,Read,ACK
0.492972120000000,0,0x5D,0x00,Read,ACK
0.492993620000000,0,0x5D,0x00,Read,ACK
0.493015080000000,0,0x5D,0x00,Read,ACK
0.493036540000000,0,0x5D,0x00,Read,ACK
0.493057980000000,0,0x5D,0x00,Read,ACK
0.493079440000000,0,0x5D,0x00,Read,ACK
0.493101140000000,0,0x5D,0x00,Read,ACK
0.493122580000000,0,0x5D,0x00,Read,ACK
0.493144060000000,0,0x5D,0x0A,Read,ACK
0.493165500000000,0,0x5D,0x9A,Read,ACK
0.493186940000000,0,0x5D,0x02,Read,ACK
0.493208400000000,0,0x5D,0x00,Read,ACK
0.493229860000000,0,0x5D,0x00,Read,ACK
0.493251380000000,0,0x5D,0x00,Read,ACK
0.493272880000000,0,0x5D,0x00,Read,ACK
0.493294340000000,0,0x5D,0x00,Read,ACK
0.493315840000000,0,0x5D,0x00,Read,ACK
0.493337300000000,0,0x5D,0x00,Read,ACK
0.493358760000000,0,0x5D,0x00,Read,ACK
0.493380200000000,0,0x5D,0x00,Read,ACK
0.493401660000000,0,0x5D,0x00,Read,ACK
0.493423100000000,0,0x5D,0x00,Read,ACK
0.493446920000000,0,0x5D,0x00,Read,ACK
0.493468380000000,0,0x5D,0x00,Read,ACK
0.493489840000000,0,0x5D,0x00,Read,ACK
0.493513120000000,0,0x5D,0x00,Read,ACK
0.493535520000000,0,0x5D,0x00,Read,ACK
0.493557220000000,0,0x5D,0x00,Read,ACK
0.493579940000000,0,0x5D,0x00,Read,NAK
0.499445140000000,0,0x5D,0x2F,Read,ACK
0.499470000000000,0,0x5D,0x00,Read,ACK
0.499491500000000,0,0x5D,0x04,Read,ACK
0.499514600000000,0,0x5D,0x03,Read,ACK
0.499537000000000,0,0x5D,0xFC,Read,ACK
0.499558500000000,0,0x5D,0x00,Read,ACK
0.499580000000000,0,0x5D,0xF3,Read,ACK
0.499601440000000,0,0x5D,0x08,Read,ACK
0.499622900000000,0,0x5D,0x03,Read,ACK
0.499644360000000,0,0x5D,0x03,Read,ACK
0.499665800000000,0,0x5D,0x20,Read,ACK
0.499687260000000,0,0x5D,0x13,Read,ACK
0.499709000000000,0,0x5D,0x3D,Read,ACK
0.499733140000000,0,0x5D,0x05,Read,ACK
0.499754620000000,0,0x5D,0x5B,Read,ACK
0.499776120000000,0,0x5D,0x05,Read,ACK
0.499797600000000,0,0x5D,0x04,Read,ACK
0.499819100000000,0,0x5D,0x03,Read,ACK
0.499841060000000,0,0x5D,0x20,Read,ACK
0.499862560000000,0,0x5D,0x00,Read,ACK
0.499884040000000,0,0x5D,0x00,Read,ACK
0.499905520000000,0,0x5D,0x00,Read,ACK
0.499927220000000,0,0x5D,0x00,Read,ACK
0.499948700000000,0,0x5D,0x00,Read,ACK
0.499971300000000,0,0x5D,0x00,Read,ACK
0.499992780000000,0,0x5D,0x00,Read,ACK
0.500014280000000,0,0x5D,0x00,Read,ACK
0.500035720000000,0,0x5D,0x00,Read,ACK
0.500057180000000,0,0x5D,0x00,Read,ACK
0.500078620000000,0,0x5D,0x00,Read,ACK
0.500100080000000,0,0x5D,0x00,Read,ACK
0.500121540000000,0,0x5D,0x00,Read,ACK
0.500143040000000,0,0x5D,0x00,Read,ACK
0.500164500000000,0,0x5D,0x00,Read,ACK
0.500186020000000,0,0x5D,0x00,Read,ACK
0.500207480000000,0,0x5D,0x00,Read,ACK
0.500228920000000,0,0x5D,0x00,Read,ACK
0.500250420000000,0,0x5D,0x00,Read,ACK
0.500271900000000,0,0x5D,0x00,Read,ACK
0.500293360000000,0,0x5D,0x00,Read,ACK
0.500314880000000,0,0x5D,0x00,Read,ACK
0.500336360000000,0,0x5D,0x00,Read,ACK
0.500357960000000,0,0x5D,0x00,Read,ACK
0.500379480000000,0,0x5D,0x50,Read,ACK
0.500400960000000,0,0x5D,0x9A,Read,ACK
0.500422420000000,0,0x5D,0x02,Read,ACK
0.500443880000000,0,0x5D,0x00,Read,ACK
0.500465340000000,0,0x5D,0x00,Read,ACK
0.500486800000000,0,0x5D,0x00,Read,ACK
0.500508300000000,0,0x5D,0x00,Read,ACK
0.500531440000000,0,0x5D,0x00,Read,ACK
0.500553240000000,0,0x5D,0x00,Read,ACK
0.500575980000000,0,0x5D,0x00,Read,ACK
0.500598240000000,0,0x5D,0x00,Read,ACK
0.500619720000000,0,0x5D,0x00,Read,ACK
0.500642300000000,0,0x5D,0x00,Read,ACK
0.500663760000000,0,0x5D,0x00,Read,ACK
0.500685220000000,0,0x5D,0x00,Read,ACK
0.500707240000000,0,0x5D,0x00,Read,ACK
0.500729240000000,0,0x5D,0x00,Read,ACK
0.500750740000000,0,0x5D,0x00,Read,ACK
0.500772200000000,0,0x5D,0x00,Read,ACK
0.500794000000000,0,0x5D,0x00,Read,ACK
0.500815520000000,0,0x5D,0x00,Read,NAK
0.506743120000000,0,0x5D,0x2F,Read,ACK
0.506768080000000,0,0x5D,0x00,Read,ACK
0.506789560000000,0,0x5D,0x04,Read,ACK
0.506811060000000,0,0x5D,0x03,Read,ACK
0.506833500000000,0,0x5D,0xFC,Read,ACK
0.506855000000000,0,0x5D,0x00,Read,ACK
0.506876500000000,0,0x5D,0xF3,Read,ACK
0.506897960000000,0,0x5D,0x08,Read,ACK
0.506919460000000,0,0x5D,0x03,Read,ACK
0.506941580000000,0,0x5D,0x03,Read,ACK
0.506963060000000,0,0x5D,0x20,Read,ACK
0.506984500000000,0,0x5D,0x13,Read,ACK
0.507006400000000,0,0x5D,0x3A,Read,ACK
0.507027860000000,0,0x5D,0x05,Read,ACK
0.507049320000000,0,0x5D,0x5A,Read,ACK
0.507070780000000,0,0x5D,0x05,Read,ACK
0.507093580000000,0,0x5D,0x04,Read,ACK
0.507115060000000,0,0x5D,0x03,Read,ACK
0.507137760000000,0,0x5D,0x20,Read,ACK
0.507159220000000,0,0x5D,0x00,Read,ACK
0.507180720000000,0,0x5D,0x00,Read,ACK
0.507202200000000,0,0x5D,0x00,Read,ACK
0.507223800000000,0,0x5D,0x00,Read,ACK
0.507245280000000,0,0x5D,0x00,Read,ACK
0.507266740000000,0,0x5D,0x00,Read,ACK
0.507288260000000,0,0x5D,0x00,Read,ACK
0.507309700000000,0,0x5D,0x00,Read,ACK
0.507331180000000,0,0x5D,0x00,Read,ACK
0.507352680000000,0,0x5D,0x00,Read,ACK
0.507374320000000,0,0x5D,0x00,Read,ACK
0.507395780000000,0,0x5D,0x00,Read,ACK
0.507417220000000,0,0x5D,0x00,Read,ACK
0.507439160000000,0,0x5D,0x00,Read,ACK
0.507460640000000,0,0x5D,0x00,Read,ACK
0.507482100000000,0,0x5D,0x00,Read,ACK
0.507503620000000,0,0x5D,0x00,Read,ACK
0.507525140000000,0,0x5D,0x00,Read,ACK
0.507546600000000,0,0x5D,0x00,Read,ACK
0.507568060000000,0,0x5D,0x00,Read,ACK
0.507589560000000,0,0x5D,0x00,Read,ACK
0.507611020000000,0,0x5D,0x00,Read,ACK
0.507632460000000,0,0x5D,0x00,Read,ACK
0.507653960000000,0,0x5D,0x00,Read,ACK
0.507675600000000,0,0x5D,0x96,Read,ACK
0.507697220000000,0,0x5D,0x9A,Read,ACK
0.507718720000000,0,0x5D,0x02,Read,ACK
0.507740160000000,0,0x5D,0x00,Read,ACK
0.507761640000000,0,0x5D,0x00,Read,ACK
0.507783240000000,0,0x5D,0x00,Read,ACK
0.507805600000000,0,0x5D,0x00,Read,ACK
0.507827120000000,0,0x5D,0x00,Read,ACK
0.507848620000000,0,0x5D,0x00,Read,ACK
0.507870080000000,0,0x5D,0x00,Read,ACK
0.507891540000000,0,0x5D,0x00,Read,ACK
0.507913300000000,0,0x5D,0x00,Read,ACK
0.507934980000000,0,0x5D,0x00,Read,ACK
0.507957420000000,0,0x5D,0x00,Read,ACK
0.507978920000000,0,0x5D,0x00,Read,ACK
0.508000660000000,0,0x5D,0x00,Read,ACK
0.508022160000000,0,0x5D,0x00,Read,ACK
0.508043640000000,0,0x5D,0x00,Read,ACK
0.508066100000000,0,0x5D,0x00,Read,ACK
0.508087680000000,0,0x5D,0x00,Read,ACK
0.508110060000000,0,0x5D,0x00,Read,NAK
0.513624260000000,0,0x5D,0x2F,Read,ACK
0.513648740000000,0,0x5D,0x00,Read,ACK
0.513670200000000,0,0x5D,0x04,Read,ACK
0.513691660000000,0,0x5D,0x03,Read,ACK
0.513713120000000,0,0x5D,0xFC,Read,ACK
0.513734580000000,0,0x5D,0x00,Read,ACK
0.513756040000000,0,0x5D,0xF3,Read,ACK
0.513777480000000,0,0x5D,0x08,Read,ACK
0.513799020000000,0,0x5D,0x03,Read,ACK
0.513821420000000,0,0x5D,0x03,Read,ACK
0.513842980000000,0,0x5D,0x20,Read,ACK
0.513867280000000,0,0x5D,0x13,Read,ACK
0.513888740000000,0,0x5D,0x37,Read,ACK
0.513910200000000,0,0x5D,0x05,Read,ACK
0.513931660000000,0,0x5D,0x59,Read,ACK
0.513953100000000,0,0x5D,0x05,Read,ACK
0.513974580000000,0,0x5D,0x04,Read,ACK
0.513997440000000,0,0x5D,0x03,Read,ACK
0.514018940000000,0,0x5D,0x20,Read,ACK
0.514041600000000,0,0x5D,0x00,Read,ACK
0.514063080000000,0,0x5D,0x00,Read,ACK
0.514084580000000,0,0x5D,0x00,Read,ACK
0.514106200000000,0,0x5D,0x00,Read,ACK
0.514127760000000,0,0x5D,0x00,Read,ACK
0.514149260000000,0,0x5D,0x00,Read,ACK
0.514172080000000,0,0x5D,0x00,Read,ACK
0.514193620000000,0,0x5D,0x00,Read,ACK
0.514215140000000,0,0x5D,0x00,Read,ACK
0.514236960000000,0,0x5D,0x00,Read,ACK
0.514258480000000,0,0x5D,0x00,Read,ACK
0.514280080000000,0,0x5D,0x00,Read,ACK
0.514301560000000,0,0x5D,0x00,Read,ACK
0.514323020000000,0,0x5D,0x00,Read,ACK
0.514344480000000,0,0x5D,0x00,Read,ACK
0.514365920000000,0,0x5D,0x00,Read,ACK
0.514387380000000,0,0x5D,0x00,Read,ACK
0.514408960000000,0,0x5D,0x00,Read,ACK
0.514430440000000,0,0x5D,0x00,Read,ACK
0.514451940000000,0,0x5D,0x00,Read,ACK
0.514473400000000,0,0x5D,0x00,Read,ACK
0.514494840000000,0,0x5D,0x00,Read,ACK
0.514516300000000,0,0x5D,0x00,Read,ACK
0.514537820000000,0,0x5D,0x00,Read,ACK
0.514559260000000,0,0x5D,0xDC,Read,ACK
0.514580720000000,0,0x5D,0x9A,Read,ACK
0.514602180000000,0,0x5D,0x02,Read,ACK
0.514623620000000,0,0x5D,0x00,Read,ACK
0.514645120000000,0,0x5D,0x00,Read,ACK
0.514666600000000,0,0x5D,0x00,Read,ACK
0.514688060000000,0,0x5D,0x00,Read,ACK
0.514709500000000,0,0x5D,0x00,Read,ACK
0.514730980000000,0,0x5D,0x00,Read,ACK
0.514752740000000,0,0x5D,0x00,Read,ACK
0.514774260000000,0,0x5D,0x00,Read,ACK
0.514795760000000,0,0x5D,0x00,Read,ACK
0.514817220000000,0,0x5D,0x00,Read,ACK
0.514838680000000,0,0x5D,0x00,Read,ACK
0.514860120000000,0,0x5D,0x00,Read,ACK
0.514881580000000,0,0x5D,0x00,Read,ACK
0.514903440000000,0,0x5D,0x00,Read,ACK
0.514926160000000,0,0x5D,0x00,Read,ACK
0.514948120000000,0,0x5D,0x00,Read,ACK
0.514969700000000,0,0x5D,0x00,Read,ACK
0.514991220000000,0,0x5D,0x00,Read,NAK
0.520749160000000,0,0x5D,0x2F,Read,ACK
0.520772180000000,0,0x5D,0x00,Read,ACK
0.520793640000000,0,0x5D,0x04,Read,ACK
0.520815080000000,0,0x5D,0x03,Read,ACK
0.520836540000000,0,0x5D,0xFC,Read,ACK
0.520858020000000,0,0x5D,0x00,Read,ACK
0.520879500000000,0,0x5D,0xF3,Read,ACK
0.520900960000000,0,0x5D,0x08,Read,ACK
0.520922420000000,0,0x5D,0x03,Read,ACK
0.520943880000000,0,0x5D,0x03,Read,ACK
0.520965380000000,0,0x5D,0x20,Read,ACK
0.520987360000000,0,0x5D,0x13,Read,ACK
0.521010980000000,0,0x5D,0x35,Read,ACK
0.521032440000000,0,0x5D,0x05,Read,ACK
0.521053880000000,0,0x5D,0x59,Read,ACK
0.521075360000000,0,0x5D,0x05,Read,ACK
0.521096860000000,0,0x5D,0x04,Read,ACK
0.521118320000000,0,0x5D,0x03,Read,ACK
0.521139780000000,0,0x5D,0x20,Read,ACK
0.521161300000000,0,0x5D,0x00,Read,ACK
0.521183220000000,0,0x5D,0x00,Read,ACK
0.521204700000000,0,0x5D,0x00,Read,ACK
0.521226180000000,0,0x5D,0x00,Read,ACK
0.521247660000000,0,0x5D,0x00,Read,ACK
0.521269100000000,0,0x5D,0x00,Read,ACK
0.521293140000000,0,0x5D,0x00,Read,ACK
0.521314680000000,0,0x5D,0x00,Read,ACK
0.521336840000000,0,0x5D,0x00,Read,ACK
0.521358280000000,0,0x5D,0x00,Read,ACK
0.521379760000000,0,0x5D,0x00,Read,ACK
0.521401260000000,0,0x5D,0x00,Read,ACK
0.521423340000000,0,0x5D,0x00,Read,ACK
0.521444780000000,0,0x5D,0x00,Read,ACK
0.521466240000000,0,0x5D,0x00,Read,ACK
0.521487680000000,0,0x5D,0x00,Read,ACK
0.521509140000000,0,0x5D,0x00,Read,ACK
0.521530660000000,0,0x5D,0x00,Read,ACK
0.521552100000000,0,0x5D,0x00,Read,ACK
0.521573580000000,0,0x5D,0x00,Read,ACK
0.521595080000000,0,0x5D,0x00,Read,ACK
0.521616520000000,0,0x5D,0x00,Read,ACK
0.521637980000000,0,0x5D,0x00,Read,ACK
0.521659440000000,0,0x5D,0x00,Read,ACK
0.521680900000000,0,0x5D,0x22,Read,ACK
0.521702340000000,0,0x5D,0x9B,Read,ACK
0.521723840000000,0,0x5D,0x02,Read,ACK
0.521745300000000,0,0x5D,0x00,Read,ACK
0.521766760000000,0,0x5D,0x00,Read,ACK
0.521788220000000,0,0x5D,0x00,Read,ACK
0.521809680000000,0,0x5D,0x00,Read,ACK
0.521831120000000,0,0x5D,0x00,Read,ACK
0.521852580000000,0,0x5D,0x00,Read,ACK
0.521874100000000,0,0x5D,0x00,Read,ACK
0.521895540000000,0,0x5D,0x00,Read,ACK
0.521917000000000,0,0x5D,0x00,Read,ACK
0.521938460000000,0,0x5D,0x00,Read,ACK
0.521959900000000,0,0x5D,0x00,Read,ACK
0.521982220000000,0,0x5D,0x00,Read,ACK
0.522003700000000,0,0x5D,0x00,Read,ACK
0.522026140000000,0,0x5D,0x00,Read,ACK
0.522049080000000,0,0x5D,0x00,Read,ACK
0.522070760000000,0,0x5D,0x00,Read,ACK
0.522093120000000,0,0x5D,0x00,Read,ACK
0.522114640000000,0,0x5D,0x00,Read,NAK
0.527861120000000,0,0x5D,0x2F,Read,ACK
0.527884440000000,0,0x5D,0x00,Read,ACK
0.527906100000000,0,0x5D,0x04,Read,ACK
0.527927560000000,0,0x5D,0x03,Read,ACK
0.527949000000000,0,0x5D,0xFC,Read,ACK
0.527970460000000,0,0x5D,0x00,Read,ACK
0.527991920000000,0,0x5D,0xF3,Read,ACK
0.528013380000000,0,0x5D,0x08,Read,ACK
0.528034860000000,0,0x5D,0x03,Read,ACK
0.528056360000000,0,0x5D,0x03,Read,ACK
0.528078180000000,0,0x5D,0x20,Read,ACK
0.528099700000000,0,0x5D,0x13,Read,ACK
0.528121460000000,0,0x5D,0x33,Read,ACK
0.528144580000000,0,0x5D,0x05,Read,ACK
0.528166060000000,0,0x5D,0x58,Read,ACK
0.528187580000000,0,0x5D,0x05,Read,ACK
0.528209020000000,0,0x5D,0x04,Read,ACK
0.528230480000000,0,0x5D,0x03,Read,ACK
0.528251940000000,0,0x5D,0x20,Read,ACK
0.528274700000000,0,0x5D,0x00,Read,ACK
0.528296160000000,0,0x5D,0x00,Read,ACK
0.528317660000000,0,0x5D,0x00,Read,ACK
0.528339160000000,0,0x5D,0x00,Read,ACK
0.528360660000000,0,0x5D,0x00,Read,ACK
0.528382160000000,0,0x5D,0x00,Read,ACK
0.528403600000000,0,0x5D,0x00,Read,ACK
0.528425060000000,0,0x5D,0x00,Read,ACK
0.528446540000000,0,0x5D,0x00,Read,ACK
0.528468040000000,0,0x5D,0x00,Read,ACK
0.528489480000000,0,0x5D,0x00,Read,ACK
0.528512500000000,0,0x5D,0x00,Read,ACK
0.528533940000000,0,0x5D,0x00,Read,ACK
0.528555600000000,0,0x5D,0x00,Read,ACK
0.528577100000000,0,0x5D,0x00,Read,ACK
0.528598560000000,0,0x5D,0x00,Read,ACK
0.528620020000000,0,0x5D,0x00,Read,ACK
0.528641580000000,0,0x5D,0x00,Read,ACK
0.528663060000000,0,0x5D,0x00,Read,ACK
0.528684500000000,0,0x5D,0x00,Read,ACK
0.528705960000000,0,0x5D,0x00,Read,ACK
0.528727400000000,0,0x5D,0x00,Read,ACK
0.528748860000000,0,0x5D,0x00,Read,ACK
0.528770320000000,0,0x5D,0x00,Read,ACK
0.528791780000000,0,0x5D,0x68,Read,ACK
0.528813220000000,0,0x5D,0x9B,Read,ACK
0.528834700000000,0,0x5D,0x02,Read,ACK
0.528856140000000,0,0x5D,0x00,Read,ACK
0.528877580000000,0,0x5D,0x00,Read,ACK
0.528899060000000,0,0x5D,0x00,Read,ACK
0.528920500000000,0,0x5D,0x00,Read,ACK
0.528941980000000,0,0x5D,0x00,Read,ACK
0.528963480000000,0,0x5D,0x00,Read,ACK
0.528984940000000,0,0x5D,0x00,Read,ACK
0.529006440000000,0,0x5D,0x00,Read,ACK
0.529027920000000,0,0x5D,0x00,Read,ACK
0.529049420000000,0,0x5D,0x00,Read,ACK
0.529074140000000,0,0x5D,0x00,Read,ACK
0.529096020000000,0,0x5D,0x00,Read,ACK
0.529118580000000,0,0x5D,0x00,Read,ACK
0.529140380000000,0,0x5D,0x00,Read,ACK
0.529161860000000,0,0x5D,0x00,Read,ACK
0.529183320000000,0,0x5D,0x00,Read,ACK
0.529205220000000,0,0x5D,0x00,Read,ACK
0.529226740000000,0,0x5D,0x00,Read,NAK
0.535150760000000,0,0x5D,0x2F,Read,ACK
0.535174060000000,0,0x5D,0x00,Read,ACK
0.535195520000000,0,0x5D,0x04,Read,ACK
0.535217020000000,0,0x5D,0x03,Read,ACK
0.535239500000000,0,0x5D,0xFC,Read,ACK
0.535261440000000,0,0x5D,0x00,Read,ACK
0.535283460000000,0,0x5D,0xF3,Read,ACK
0.535304960000000,0,0x5D,0x08,Read,ACK
0.535326440000000,0,0x5D,0x03,Read,ACK
0.535347920000000,0,0x5D,0x03,Read,ACK
0.535369380000000,0,0x5D,0x20,Read,ACK
0.535390840000000,0,0x5D,0x13,Read,ACK
0.535412700000000,0,0x5D,0x32,Read,ACK
0.535434640000000,0,0x5D,0x05,Read,ACK
0.535456120000000,0,0x5D,0x58,Read,ACK
0.535477600000000,0,0x5D,0x05,Read,ACK
0.535499100000000,0,0x5D,0x04,Read,ACK
0.535520880000000,0,0x5D,0x03,Read,ACK
0.535543000000000,0,0x5D,0x20,Read,ACK
0.535564440000000,0,0x5D,0x00,Read,ACK
0.535586600000000,0,0x5D,0x00,Read,ACK
0.535608120000000,0,0x5D,0x00,Read,ACK
0.535629620000000,0,0x5D,0x00,Read,ACK
0.535652240000000,0,0x5D,0x00,Read,ACK
0.535675220000000,0,0x5D,0x00,Read,ACK
0.535696720000000,0,0x5D,0x00,Read,ACK
0.535718160000000,0,0x5D,0x00,Read,ACK
0.535739900000000,0,0x5D,0x00,Read,ACK
0.535761400000000,0,0x5D,0x00,Read,ACK
0.535782900000000,0,0x5D,0x00,Read,ACK
0.535804400000000,0,0x5D,0x00,Read,ACK
0.535825860000000,0,0x5D,0x00,Read,ACK
0.535847300000000,0,0x5D,0x00,Read,ACK
0.535868760000000,0,0x5D,0x00,Read,ACK
0.535890220000000,0,0x5D,0x00,Read,ACK
0.535911660000000,0,0x5D,0x00,Read,ACK
0.535933100000000,0,0x5D,0x00,Read,ACK
0.535954720000000,0,0x5D,0x00,Read,ACK
0.535976200000000,0,0x5D,0x00,Read,ACK
0.535997660000000,0,0x5D,0x00,Read,ACK
0.536019120000000,0,0x5D,0x00,Read,ACK
0.536040640000000,0,0x5D,0x00,Read,ACK
0.536062280000000,0,0x5D,0x00,Read,ACK
0.536083760000000,0,0x5D,0xAE,Read,ACK
0.536105220000000,0,0x5D,0x9B,Read,ACK
0.536126680000000,0,0x5D,0x02,Read,ACK
0.536148160000000,0,0x5D,0x00,Read,ACK
0.536169640000000,0,0x5D,0x00,Read,ACK
0.536191100000000,0,0x5D,0x00,Read,ACK
0.536212620000000,0,0x5D,0x00,Read,ACK
0.536234140000000,0,0x5D,0x00,Read,ACK
0.536255900000000,0,0x5D,0x00,Read,ACK
0.536281100000000,0,0x5D,0x00,Read,ACK
0.536303040000000,0,0x5D,0x00,Read,ACK
0.536324500000000,0,0x5D,0x00,Read,ACK
0.536346160000000,0,0x5D,0x00,Read,ACK
0.536367660000000,0,0x5D,0x00,Read,ACK
0.536389120000000,0,0x5D,0x00,Read,ACK
0.536410620000000,0,0x5D,0x00,Read,ACK
0.536432060000000,0,0x5D,0x00,Read,ACK
0.536453520000000,0,0x5D,0x00,Read,ACK
0.536478080000000,0,0x5D,0x00,Read,ACK
0.536499560000000,0,0x5D,0x00,Read,ACK
0.536521020000000,0,0x5D,0x00,Read,NAK
0.542268220000000,0,0x5D,0x2F,Read,ACK
0.542290940000000,0,0x5D,0x00,Read,ACK
0.542312440000000,0,0x5D,0x04,Read,ACK
0.542333940000000,0,0x5D,0x03,Read,ACK
0.542355420000000,0,0x5D,0xFC,Read,ACK
0.542376920000000,0,0x5D,0x00,Read,ACK
0.542398360000000,0,0x5D,0xF3,Read,ACK
0.542421180000000,0,0x5D,0x08,Read,ACK
0.542443160000000,0,0x5D,0x03,Read,ACK
0.542467880000000,0,0x5D,0x03,Read,ACK
0.542489380000000,0,0x5D,0x20,Read,ACK
0.542510880000000,0,0x5D,0x13,Read,ACK
0.542532340000000,0,0x5D,0x31,Read,ACK
0.542553780000000,0,0x5D,0x05,Read,ACK
0.542576640000000,0,0x5D,0x58,Read,ACK
0.542599380000000,0,0x5D,0x05,Read,ACK
0.542620840000000,0,0x5D,0x04,Read,ACK
0.542642300000000,0,0x5D,0x03,Read,ACK
0.542663740000000,0,0x5D,0x20,Read,ACK
0.542685200000000,0,0x5D,0x00,Read,ACK
0.542706720000000,0,0x5D,0x00,Read,ACK
0.542728180000000,0,0x5D,0x00,Read,ACK
0.542749640000000,0,0x5D,0x00,Read,ACK
0.542772260000000,0,0x5D,0x00,Read,ACK
0.542793720000000,0,0x5D,0x00,Read,ACK
0.542815180000000,0,0x5D,0x00,Read,ACK
0.542836620000000,0,0x5D,0x00,Read,ACK
0.542859200000000,0,0x5D,0x00,Read,ACK
0.542880840000000,0,0x5D,0x00,Read,ACK
0.542902280000000,0,0x5D,0x00,Read,ACK
0.542923740000000,0,0x5D,0x00,Read,ACK
0.542945200000000,0,0x5D,0x00,Read,ACK
0.542966720000000,0,0x5D,0x00,Read,ACK
0.542988240000000,0,0x5D,0x00,Read,ACK
0.543009680000000,0,0x5D,0x00,Read,ACK
0.543031140000000,0,0x5D,0x00,Read,ACK
0.543052600000000,0,0x5D,0x00,Read,ACK
0.543074320000000,0,0x5D,0x00,Read,ACK
0.543095820000000,0,0x5D,0x00,Read,ACK
0.543117360000000,0,0x5D,0x00,Read,ACK
0.543138840000000,0,0x5D,0x00,Read,ACK
0.543160280000000,0,0x5D,0x00,Read,ACK
0.543181740000000,0,0x5D,0x00,Read,ACK
0.543203220000000,0,0x5D,0xF4,Read,ACK
0.543224720000000,0,0x5D,0x9B,Read,ACK
0.543246180000000,0,0x5D,0x02,Read,ACK
0.543267620000000,0,0x5D,0x00,Read,ACK
0.543289100000000,0,0x5D,0x00,Read,ACK
0.543310620000000,0,0x5D,0x00,Read,ACK
0.543332300000000,0,0x5D,0x00,Read,ACK
0.543353760000000,0,0x5D,0x00,Read,ACK
0.543375220000000,0,0x5D,0x00,Read,ACK
0.543396680000000,0,0x5D,0x00,Read,ACK
0.543418120000000,0,0x5D,0x00,Read,ACK
0.543439580000000,0,0x5D,0x00,Read,ACK
0.543461040000000,0,0x5D,0x00,Read,ACK
0.543485640000000,0,0x5D,0x00,Read,ACK
0.543508040000000,0,0x5D,0x00,Read,ACK
0.543531400000000,0,0x5D,0x00,Read,ACK
0.543553340000000,0,0x5D,0x00,Read,ACK
0.543576160000000,0,0x5D,0x00,Read,ACK
0.543597620000000,0,0x5D,0x00,Read,ACK
0.543619060000000,0,0x5D,0x00,Read,ACK
0.543640520000000,0,0x5D,0x00,Read,NAK
0.549399680000000,0,0x5D,0x2F,Read,ACK
0.549423680000000,0,0x5D,0x00,Read,ACK
0.549445160000000,0,0x5D,0x04,Read,ACK
0.549466640000000,0,0x5D,0x03,Read,ACK
0.549488140000000,0,0x5D,0xFC,Read,ACK
0.549509600000000,0,0x5D,0x00,Read,ACK
0.549531060000000,0,0x5D,0xF3,Read,ACK
0.549552520000000,0,0x5D,0x08,Read,ACK
0.549574460000000,0,0x5D,0x03,Read,ACK
0.549595960000000,0,0x5D,0x03,Read,ACK
0.549618720000000,0,0x5D,0x20,Read,ACK
0.549642720000000,0,0x5D,0x13,Read,ACK
0.549664200000000,0,0x5D,0x31,Read,ACK
0.549685660000000,0,0x5D,0x05,Read,ACK
0.549707100000000,0,0x5D,0x58,Read,ACK
0.549729720000000,0,0x5D,0x05,Read,ACK
0.549752420000000,0,0x5D,0x04,Read,ACK
0.549775380000000,0,0x5D,0x03,Read,ACK
0.549796860000000,0,0x5D,0x20,Read,ACK
0.549818300000000,0,0x5D,0x00,Read,ACK
0.549840220000000,0,0x5D,0x00,Read,ACK
0.549861760000000,0,0x5D,0x00,Read,ACK
0.549883220000000,0,0x5D,0x00,Read,ACK
0.549904680000000,0,0x5D,0x00,Read,ACK
0.549926160000000,0,0x5D,0x00,Read,ACK
0.549947720000000,0,0x5D,0x00,Read,ACK
0.549970540000000,0,0x5D,0x00,Read,ACK
0.549992220000000,0,0x5D,0x00,Read,ACK
0.550014660000000,0,0x5D,0x00,Read,ACK
0.550036140000000,0,0x5D,0x00,Read,ACK
0.550057600000000,0,0x5D,0x00,Read,ACK
0.550079060000000,0,0x5D,0x00,Read,ACK
0.550100520000000,0,0x5D,0x00,Read,ACK
0.550122040000000,0,0x5D,0x00,Read,ACK
0.550143480000000,0,0x5D,0x00,Read,ACK
0.550164940000000,0,0x5D,0x00,Read,ACK
0.550186400000000,0,0x5D,0x00,Read,ACK
0.550207860000000,0,0x5D,0x00,Read,ACK
0.550229300000000,0,0x5D,0x00,Read,ACK
0.550250760000000,0,0x5D,0x00,Read,ACK
0.550272220000000,0,0x5D,0x00,Read,ACK
0.550293720000000,0,0x5D,0x00,Read,ACK
0.550315180000000,0,0x5D,0x00,Read,ACK
0.550336640000000,0,0x5D,0x3A,Read,ACK
0.550358080000000,0,0x5D,0x9C,Read,ACK
0.550380260000000,0,0x5D,0x02,Read,ACK
0.550401740000000,0,0x5D,0x00,Read,ACK
0.550423220000000,0,0x5D,0x00,Read,ACK
0.550444700000000,0,0x5D,0x00,Read,ACK
0.550466160000000,0,0x5D,0x00,Read,ACK
0.550487800000000,0,0x5D,0x00,Read,ACK
0.550509260000000,0,0x5D,0x00,Read,ACK
0.550530720000000,0,0x5D,0x00,Read,ACK
0.550552240000000,0,0x5D,0x00,Read,ACK
0.550573740000000,0,0x5D,0x00,Read,ACK
0.550595200000000,0,0x5D,0x00,Read,ACK
0.550618440000000,0,0x5D,0x00,Read,ACK
0.550639920000000,0,0x5D,0x00,Read,ACK
0.550661380000000,0,0x5D,0x00,Read,ACK
0.550683260000000,0,0x5D,0x00,Read,ACK
0.550705020000000,0,0x5D,0x00,Read,ACK
0.550726540000000,0,0x5D,0x00,Read,ACK
0.550748020000000,0,0x5D,0x00,Read,ACK
0.550769540000000,0,0x5D,0x00,Read,NAK
0.556694460000000,0,0x5D,0x2F,Read,ACK
0.556717360000000,0,0x5D,0x00,Read,ACK
0.556738820000000,0,0x5D,0x04,Read,ACK
0.556760340000000,0,0x5D,0x03,Read,ACK
0.556781780000000,0,0x5D,0xFC,Read,ACK
0.556803240000000,0,0x5D,0x00,Read,ACK
0.556824680000000,0,0x5D,0xF3,Read,ACK
0.556846140000000,0,0x5D,0x08,Read,ACK
0.556867880000000,0,0x5D,0x03,Read,ACK
0.556889820000000,0,0x5D,0x03,Read,ACK
0.556912260000000,0,0x5D,0x20,Read,ACK
0.556933720000000,0,0x5D,0x13,Read,ACK
0.556956640000000,0,0x5D,0x31,Read,ACK
0.556978240000000,0,0x5D,0x05,Read,ACK
0.556999700000000,0,0x5D,0x57,Read,ACK
0.557021200000000,0,0x5D,0x05,Read,ACK
0.557042660000000,0,0x5D,0x04,Read,ACK
0.557064120000000,0,0x5D,0x03,Read,ACK
0.557085560000000,0,0x5D,0x20,Read,ACK
0.557107040000000,0,0x5D,0x00,Read,ACK
0.557129900000000,0,0x5D,0x00,Read,ACK
0.557151360000000,0,0x5D,0x00,Read,ACK
0.557172820000000,0,0x5D,0x00,Read,ACK
0.557194280000000,0,0x5D,0x00,Read,ACK
0.557215740000000,0,0x5D,0x00,Read,ACK
0.557237240000000,0,0x5D,0x00,Read,ACK
0.557258720000000,0,0x5D,0x00,Read,ACK
0.557280220000000,0,0x5D,0x00,Read,ACK
0.557301680000000,0,0x5D,0x00,Read,ACK
0.557323180000000,0,0x5D,0x00,Read,ACK
0.557344640000000,0,0x5D,0x00,Read,ACK
0.557366100000000,0,0x5D,0x00,Read,ACK
0.557387560000000,0,0x5D,0x00,Read,ACK
0.557409000000000,0,0x5D,0x00,Read,ACK
0.557430440000000,0,0x5D,0x00,Read,ACK
0.557451920000000,0,0x5D,0x00,Read,ACK
0.557473380000000,0,0x5D,0x00,Read,ACK
0.557494880000000,0,0x5D,0x00,Read,ACK
0.557516360000000,0,0x5D,0x00,Read,ACK
0.557537860000000,0,0x5D,0x00,Read,ACK
0.557559300000000,0,0x5D,0x00,Read,ACK
0.557580760000000,0,0x5D,0x00,Read,ACK
0.557602220000000,0,0x5D,0x00,Read,ACK
0.557623660000000,0,0x5D,0x80,Read,ACK
0.557645120000000,0,0x5D,0x9C,Read,ACK
0.557667000000000,0,0x5D,0x02,Read,ACK
0.557690440000000,0,0x5D,0x00,Read,ACK
0.557712360000000,0,0x5D,0x00,Read,ACK
0.557734540000000,0,0x5D,0x00,Read,ACK
0.557756220000000,0,0x5D,0x00,Read,ACK
0.557778720000000,0,0x5D,0x00,Read,ACK
0.557800220000000,0,0x5D,0x00,Read,ACK
0.557821660000000,0,0x5D,0x00,Read,ACK
0.557843120000000,0,0x5D,0x00,Read,ACK
0.557864580000000,0,0x5D,0x00,Read,ACK
0.557886540000000,0,0x5D,0x00,Read,ACK
0.557909440000000,0,0x5D,0x00,Read,ACK
0.557930940000000,0,0x5D,0x00,Read,ACK
0.557953100000000,0,0x5D,0x00,Read,ACK
0.557975480000000,0,0x5D,0x00,Read,ACK
0.557998480000000,0,0x5D,0x00,Read,ACK
0.558021200000000,0,0x5D,0x00,Read,ACK
0.558042680000000,0,0x5D,0x00,Read,ACK
0.558064120000000,0,0x5D,0x00,Read,NAK
0.563823900000000,0,0x5D,0x2F,Read,ACK
0.563846760000000,0,0x5D,0x00,Read,ACK
0.563869040000000,0,0x5D,0x04,Read,ACK
0.563893120000000,0,0x5D,0x03,Read,ACK
0.563914560000000,0,0x5D,0xFC,Read,ACK
0.563936020000000,0,0x5D,0x00,Read,ACK
0.563957460000000,0,0x5D,0xF3,Read,ACK
0.563978920000000,0,0x5D,0x08,Read,ACK
0.564000620000000,0,0x5D,0x03,Read,ACK
0.564022840000000,0,0x5D,0x03,Read,ACK
0.564044320000000,0,0x5D,0x20,Read,ACK
0.564065800000000,0,0x5D,0x13,Read,ACK
0.564087260000000,0,0x5D,0x30,Read,ACK
0.564108840000000,0,0x5D,0x05,Read,ACK
0.564130300000000,0,0x5D,0x57,Read,ACK
0.564151780000000,0,0x5D,0x05,Read,ACK
0.564173280000000,0,0x5D,0x04,Read,ACK
0.564194760000000,0,0x5D,0x03,Read,ACK
0.564216260000000,0,0x5D,0x20,Read,ACK
0.564237720000000,0,0x5D,0x00,Read,ACK
0.564260400000000,0,0x5D,0x00,Read,ACK
0.564283280000000,0,0x5D,0x00,Read,ACK
0.564304760000000,0,0x5D,0x00,Read,ACK
0.564326220000000,0,0x5D,0x00,Read,ACK
0.564347740000000,0,0x5D,0x00,Read,ACK
0.564369240000000,0,0x5D,0x00,Read,ACK
0.564390700000000,0,0x5D,0x00,Read,ACK
0.564412160000000,0,0x5D,0x00,Read,ACK
0.564433640000000,0,0x5D,0x00,Read,ACK
0.564455120000000,0,0x5D,0x00,Read,ACK
0.564476580000000,0,0x5D,0x00,Read,ACK
0.564498100000000,0,0x5D,0x00,Read,ACK
0.564519560000000,0,0x5D,0x00,Read,ACK
0.564541000000000,0,0x5D,0x00,Read,ACK
0.564562460000000,0,0x5D,0x00,Read,ACK
0.564584300000000,0,0x5D,0x00,Read,ACK
0.564607600000000,0,0x5D,0x00,Read,ACK
0.564629080000000,0,0x5D,0x00,Read,ACK
0.564650540000000,0,0x5D,0x00,Read,ACK
0.564673360000000,0,0x5D,0x00,Read,ACK
0.564694820000000,0,0x5D,0x00,Read,ACK
0.564716340000000,0,0x5D,0x00,Read,ACK
0.564737860000000,0,0x5D,0x00,Read,ACK
0.564759360000000,0,0x5D,0xC6,Read,ACK
0.564780820000000,0,0x5D,0x9C,Read,ACK
0.564802280000000,0,0x5D,0x02,Read,ACK
0.564823720000000,0,0x5D,0x00,Read,ACK
0.564845180000000,0,0x5D,0x00,Read,ACK
0.564866660000000,0,0x5D,0x00,Read,ACK
0.564889240000000,0,0x5D,0x00,Read,ACK
0.564911980000000,0,0x5D,0x00,Read,ACK
0.564933480000000,0,0x5D,0x00,Read,ACK
0.564956460000000,0,0x5D,0x00,Read,ACK
0.564979260000000,0,0x5D,0x00,Read,ACK
0.565001140000000,0,0x5D,0x00,Read,ACK
0.565023420000000,0,0x5D,0x00,Read,ACK
0.565044880000000,0,0x5D,0x00,Read,ACK
0.565066340000000,0,0x5D,0x00,Read,ACK
0.565087800000000,0,0x5D,0x00,Read,ACK
0.565109260000000,0,0x5D,0x00,Read,ACK
0.565130760000000,0,0x5D,0x00,Read,ACK
0.565152240000000,0,0x5D,0x00,Read,ACK
0.565174900000000,0,0x5D,0x00,Read,ACK
0.565197360000000,0,0x5D,0x00,Read,NAK
0.570706840000000,0,0x5D,0x2F,Read,ACK
0.570729700000000,0,0x5D,0x00,Read,ACK
0.570752000000000,0,0x5D,0x04,Read,ACK
0.570774380000000,0,0x5D,0x03,Read,ACK
0.570797760000000,0,0x5D,0xFC,Read,ACK
0.570819240000000,0,0x5D,0x00,Read,ACK
0.570840740000000,0,0x5D,0xF3,Read,ACK
0.570862260000000,0,0x5D,0x08,Read,ACK
0.570883780000000,0,0x5D,0x03,Read,ACK
0.570905280000000,0,0x5D,0x03,Read,ACK
0.570926740000000,0,0x5D,0x20,Read,ACK
0.570948220000000,0,0x5D,0x13,Read,ACK
0.570969740000000,0,0x5D,0x30,Read,ACK
0.570992180000000,0,0x5D,0x05,Read,ACK
0.571014120000000,0,0x5D,0x57,Read,ACK
0.571035880000000,0,0x5D,0x05,Read,ACK
0.571057340000000,0,0x5D,0x04,Read,ACK
0.571078800000000,0,0x5D,0x03,Read,ACK
0.571100240000000,0,0x5D,0x20,Read,ACK
0.571121720000000,0,0x5D,0x00,Read,ACK
0.571143220000000,0,0x5D,0x00,Read,ACK
0.571165040000000,0,0x5D,0x00,Read,ACK
0.571186880000000,0,0x5D,0x00,Read,ACK
0.571209360000000,0,0x5D,0x00,Read,ACK
0.571230840000000,0,0x5D,0x00,Read,ACK
0.571252300000000,0,0x5D,0x00,Read,ACK
0.571273740000000,0,0x5D,0x00,Read,ACK
0.571295220000000,0,0x5D,0x00,Read,ACK
0.571318180000000,0,0x5D,0x00,Read,ACK
0.571339680000000,0,0x5D,0x00,Read,ACK
0.571361460000000,0,0x5D,0x00,Read,ACK
0.571382960000000,0,0x5D,0x00,Read,ACK
0.571404420000000,0,0x5D,0x00,Read,ACK
0.571425880000000,0,0x5D,0x00,Read,ACK
0.571447400000000,0,0x5D,0x00,Read,ACK
0.571469740000000,0,0x5D,0x00,Read,ACK
0.571491240000000,0,0x5D,0x00,Read,ACK
0.571512740000000,0,0x5D,0x00,Read,ACK
0.571534200000000,0,0x5D,0x00,Read,ACK
0.571555720000000,0,0x5D,0x00,Read,ACK
0.571577180000000,0,0x5D,0x00,Read,ACK
0.571598620000000,0,0x5D,0x00,Read,ACK
0.571620060000000,0,0x5D,0x00,Read,ACK
0.571641540000000,0,0x5D,0x0C,Read,ACK
0.571663040000000,0,0x5D,0x9D,Read,ACK
0.571684500000000,0,0x5D,0x02,Read,ACK
0.571705940000000,0,0x5D,0x00,Read,ACK
0.571727400000000,0,0x5D,0x00,Read,ACK
0.571750120000000,0,0x5D,0x00,Read,ACK
0.571771620000000,0,0x5D,0x00,Read,ACK
0.571793080000000,0,0x5D,0x00,Read,ACK
0.571814540000000,0,0x5D,0x00,Read,ACK
0.571836040000000,0,0x5D,0x00,Read,ACK
0.571857500000000,0,0x5D,0x00,Read,ACK
0.571878960000000,0,0x5D,0x00,Read,ACK
0.571900420000000,0,0x5D,0x00,Read,ACK
0.571921920000000,0,0x5D,0x00,Read,ACK
0.571943380000000,0,0x5D,0x00,Read,ACK
0.571964820000000,0,0x5D,0x00,Read,ACK
0.571986280000000,0,0x5D,0x00,Read,ACK
0.572007800000000,0,0x5D,0x00,Read,ACK
0.572029300000000,0,0x5D,0x00,Read,ACK
0.572051580000000,0,0x5D,0x00,Read,ACK
0.572073420000000,0,0x5D,0x00,Read,NAK
0.577889880000000,0,0x5D,0x2F,Read,ACK
0.577915280000000,0,0x5D,0x00,Read,ACK
0.577937840000000,0,0x5D,0x04,Read,ACK
0.577960440000000,0,0x5D,0x03,Read,ACK
0.577981920000000,0,0x5D,0xFC,Read,ACK
0.578003380000000,0,0x5D,0x00,Read,ACK
0.578024880000000,0,0x5D,0xF3,Read,ACK
0.578046340000000,0,0x5D,0x08,Read,ACK
0.578067800000000,0,0x5D,0x03,Read,ACK
0.578089240000000,0,0x5D,0x03,Read,ACK
0.578110720000000,0,0x5D,0x20,Read,ACK
0.578132240000000,0,0x5D,0x13,Read,ACK
0.578153680000000,0,0x5D,0x30,Read,ACK
0.578175180000000,0,0x5D,0x05,Read,ACK
0.578197180000000,0,0x5D,0x57,Read,ACK
0.578218660000000,0,0x5D,0x05,Read,ACK
0.578240160000000,0,0x5D,0x04,Read,ACK
0.578261660000000,0,0x5D,0x03,Read,ACK
0.578283100000000,0,0x5D,0x20,Read,ACK
0.578304540000000,0,0x5D,0x00,Read,ACK
0.578326020000000,0,0x5D,0x00,Read,ACK
0.578347700000000,0,0x5D,0x00,Read,ACK
0.578369160000000,0,0x5D,0x00,Read,ACK
0.578390620000000,0,0x5D,0x00,Read,ACK
0.578412120000000,0,0x5D,0x00,Read,ACK
0.578434460000000,0,0x5D,0x00,Read,ACK
0.578456640000000,0,0x5D,0x00,Read,ACK
0.578478100000000,0,0x5D,0x00,Read,ACK
0.578499560000000,0,0x5D,0x00,Read,ACK
0.578521020000000,0,0x5D,0x00,Read,ACK
0.578542460000000,0,0x5D,0x00,Read,ACK
0.578563940000000,0,0x5D,0x00,Read,ACK
0.578585440000000,0,0x5D,0x00,Read,ACK
0.578607540000000,0,0x5D,0x00,Read,ACK
0.578629120000000,0,0x5D,0x00,Read,ACK
0.578650620000000,0,0x5D,0x00,Read,ACK
0.578672120000000,0,0x5D,0x00,Read,ACK
0.578693580000000,0,0x5D,0x00,Read,ACK
0.578715040000000,0,0x5D,0x00,Read,ACK
0.578736560000000,0,0x5D,0x00,Read,ACK
0.578758060000000,0,0x5D,0x00,Read,ACK
0.578779520000000,0,0x5D,0x00,Read,ACK
0.578800980000000,0,0x5D,0x00,Read,ACK
0.578822420000000,0,0x5D,0x52,Read,ACK
0.578843880000000,0,0x5D,0x9D,Read,ACK
0.578865320000000,0,0x5D,0x02,Read,ACK
0.578886780000000,0,0x5D,0x00,Read,ACK
0.578908480000000,0,0x5D,0x00,Read,ACK
0.578929940000000,0,0x5D,0x00,Read,ACK
0.578951400000000,0,0x5D,0x00,Read,ACK
0.578972840000000,0,0x5D,0x00,Read,ACK
0.578994300000000,0,0x5D,0x00,Read,ACK
0.579015760000000,0,0x5D,0x00,Read,ACK
0.579037240000000,0,0x5D,0x00,Read,ACK
0.579058740000000,0,0x5D,0x00,Read,ACK
0.579080200000000,0,0x5D,0x00,Read,ACK
0.579101700000000,0,0x5D,0x00,Read,ACK
0.579123200000000,0,0x5D,0x00,Read,ACK
0.579144680000000,0,0x5D,0x00,Read,ACK
0.579166200000000,0,0x5D,0x00,Read,ACK
0.579187920000000,0,0x5D,0x00,Read,ACK
0.579212420000000,0,0x5D,0x00,Read,ACK
0.579235520000000,0,0x5D,0x00,Read,ACK
0.579257640000000,0,0x5D,0x00,Read,NAK
0.585191440000000,0,0x5D,0x2F,Read,ACK
0.585216480000000,0,0x5D,0x00,Read,ACK
0.585237980000000,0,0x5D,0x04,Read,ACK
0.585260500000000,0,0x5D,0x03,Read,ACK
0.585283680000000,0,0x5D,0xFC,Read,ACK
0.585305620000000,0,0x5D,0x00,Read,ACK
0.585327120000000,0,0x5D,0xF3,Read,ACK
0.585348580000000,0,0x5D,0x08,Read,ACK
0.585370020000000,0,0x5D,0x03,Read,ACK
0.585391480000000,0,0x5D,0x03,Read,ACK
0.585412940000000,0,0x5D,0x20,Read,ACK
0.585434380000000,0,0x5D,0x13,Read,ACK
0.585456860000000,0,0x5D,0x2F,Read,ACK
0.585478340000000,0,0x5D,0x05,Read,ACK
0.585499840000000,0,0x5D,0x57,Read,ACK
0.585521320000000,0,0x5D,0x05,Read,ACK
0.585543120000000,0,0x5D,0x04,Read,ACK
0.585565420000000,0,0x5D,0x03,Read,ACK
0.585586880000000,0,0x5D,0x20,Read,ACK
0.585609360000000,0,0x5D,0x00,Read,ACK
0.585630840000000,0,0x5D,0x00,Read,ACK
0.585652300000000,0,0x5D,0x00,Read,ACK
0.585675180000000,0,0x5D,0x00,Read,ACK
0.585697080000000,0,0x5D,0x00,Read,ACK
0.585718720000000,0,0x5D,0x00,Read,ACK
0.585740160000000,0,0x5D,0x00,Read,ACK
0.585761620000000,0,0x5D,0x00,Read,ACK
0.585783080000000,0,0x5D,0x00,Read,ACK
0.585804580000000,0,0x5D,0x00,Read,ACK
0.585826080000000,0,0x5D,0x00,Read,ACK
0.585847580000000,0,0x5D,0x00,Read,ACK
0.585869080000000,0,0x5D,0x00,Read,ACK
0.585890540000000,0,0x5D,0x00,Read,ACK
0.585912000000000,0,0x5D,0x00,Read,ACK
0.585933440000000,0,0x5D,0x00,Read,ACK
0.585954900000000,0,0x5D,0x00,Read,ACK
0.585976360000000,0,0x5D,0x00,Read,ACK
0.585997800000000,0,0x5D,0x00,Read,ACK
0.586019280000000,0,0x5D,0x00,Read,ACK
0.586040800000000,0,0x5D,0x00,Read,ACK
0.586062300000000,0,0x5D,0x00,Read,ACK
0.586083780000000,0,0x5D,0x00,Read,ACK
0.586105280000000,0,0x5D,0x00,Read,ACK
0.586126800000000,0,0x5D,0x98,Read,ACK
0.586148320000000,0,0x5D,0x9D,Read,ACK
0.586169760000000,0,0x5D,0x02,Read,ACK
0.586191300000000,0,0x5D,0x00,Read,ACK
0.586212820000000,0,0x5D,0x00,Read,ACK
0.586234320000000,0,0x5D,0x00,Read,ACK
0.586256020000000,0,0x5D,0x00,Read,ACK
0.586277460000000,0,0x5D,0x00,Read,ACK
0.586298920000000,0,0x5D,0x00,Read,ACK
0.586323580000000,0,0x5D,0x00,Read,ACK
0.586345540000000,0,0x5D,0x00,Read,ACK
0.586368420000000,0,0x5D,0x00,Read,ACK
0.586390360000000,0,0x5D,0x00,Read,ACK
0.586412100000000,0,0x5D,0x00,Read,ACK
0.586433580000000,0,0x5D,0x00,Read,ACK
0.586455080000000,0,0x5D,0x00,Read,ACK
0.586476580000000,0,0x5D,0x00,Read,ACK
0.586498060000000,0,0x5D,0x00,Read,ACK
0.586519760000000,0,0x5D,0x00,Read,ACK
0.586542040000000,0,0x5D,0x00,Read,ACK
0.586564420000000,0,0x5D,0x00,Read,NAK
0.592214580000000,0,0x5D,0x2F,Read,ACK
0.592238680000000,0,0x5D,0x00,Read,ACK
0.592260140000000,0,0x5D,0x04,Read,ACK
0.592281600000000,0,0x5D,0x03,Read,ACK
0.592303060000000,0,0x5D,0xFC,Read,ACK
0.592324500000000,0,0x5D,0x00,Read,ACK
0.592345980000000,0,0x5D,0xF3,Read,ACK
0.592367480000000,0,0x5D,0x08,Read,ACK
0.592389560000000,0,0x5D,0x03,Read,ACK
0.592411020000000,0,0x5D,0x03,Read,ACK
0.592432480000000,0,0x5D,0x20,Read,ACK
0.592454180000000,0,0x5D,0x13,Read,ACK
0.592476380000000,0,0x5D,0x2F,Read,ACK
0.592499100000000,0,0x5D,0x05,Read,ACK
0.592520600000000,0,0x5D,0x57,Read,ACK
0.592542060000000,0,0x5D,0x05,Read,ACK
0.592563500000000,0,0x5D,0x04,Read,ACK
0.592584960000000,0,0x5D,0x03,Read,ACK
0.592606420000000,0,0x5D,0x20,Read,ACK
0.592628860000000,0,0x5D,0x00,Read,ACK
0.592650360000000,0,0x5D,0x00,Read,ACK
0.592671860000000,0,0x5D,0x00,Read,ACK
0.592693360000000,0,0x5D,0x00,Read,ACK
0.592715680000000,0,0x5D,0x00,Read,ACK
0.592737400000000,0,0x5D,0x00,Read,ACK
0.592758840000000,0,0x5D,0x00,Read,ACK
0.592780680000000,0,0x5D,0x00,Read,ACK
0.592802160000000,0,0x5D,0x00,Read,ACK
0.592823860000000,0,0x5D,0x00,Read,ACK
0.592845380000000,0,0x5D,0x00,Read,ACK
0.592868220000000,0,0x5D,0x00,Read,ACK
0.592889680000000,0,0x5D,0x00,Read,ACK
0.592911880000000,0,0x5D,0x00,Read,ACK
0.592933360000000,0,0x5D,0x00,Read,ACK
0.592954880000000,0,0x5D,0x00,Read,ACK
0.592976400000000,0,0x5D,0x00,Read,ACK
0.592997900000000,0,0x5D,0x00,Read,ACK
0.593019360000000,0,0x5D,0x00,Read,ACK
0.593040800000000,0,0x5D,0x00,Read,ACK
0.593062260000000,0,0x5D,0x00,Read,ACK
0.593083720000000,0,0x5D,0x00,Read,ACK
0.593105220000000,0,0x5D,0x00,Read,ACK
0.593126680000000,0,0x5D,0x00,Read,ACK
0.593148120000000,0,0x5D,0xDE,Read,ACK
0.593169580000000,0,0x5D,0x9D,Read,ACK
0.593191040000000,0,0x5D,0x02,Read,ACK
0.593212480000000,0,0x5D,0x00,Read,ACK
0.593234120000000,0,0x5D,0x00,Read,ACK
0.593255600000000,0,0x5D,0x00,Read,ACK
0.593277040000000,0,0x5D,0x00,Read,ACK
0.593298520000000,0,0x5D,0x00,Read,ACK
0.593320020000000,0,0x5D,0x00,Read,ACK
0.593341480000000,0,0x5D,0x00,Read,ACK
0.593362980000000,0,0x5D,0x00,Read,ACK
0.593384440000000,0,0x5D,0x00,Read,ACK
0.593405900000000,0,0x5D,0x00,Read,ACK
0.593427380000000,0,0x5D,0x00,Read,ACK
0.593448920000000,0,0x5D,0x00,Read,ACK
0.593470380000000,0,0x5D,0x00,Read,ACK
0.593494980000000,0,0x5D,0x00,Read,ACK
0.593516460000000,0,0x5D,0x00,Read,ACK
0.593537960000000,0,0x5D,0x00,Read,ACK
0.593559880000000,0,0x5D,0x00,Read,ACK
0.593581620000000,0,0x5D,0x00,Read,NAK
0.599756820000000,0,0x5D,0x2F,Read,ACK
0.599783740000000,0,0x5D,0x00,Read,ACK
0.599805260000000,0,0x5D,0x04,Read,ACK
0.599826760000000,0,0x5D,0x03,Read,ACK
0.599848220000000,0,0x5D,0xFC,Read,ACK
0.599871380000000,0,0x5D,0x00,Read,ACK
0.599892880000000,0,0x5D,0xF3,Read,ACK
0.599914400000000,0,0x5D,0x08,Read,ACK
0.599935840000000,0,0x5D,0x03,Read,ACK
0.599957300000000,0,0x5D,0x03,Read,ACK
0.599978780000000,0,0x5D,0x20,Read,ACK
0.600000900000000,0,0x5D,0x13,Read,ACK
0.600022880000000,0,0x5D,0x2E,Read,ACK
0.600044360000000,0,0x5D,0x05,Read,ACK
0.600065880000000,0,0x5D,0x57,Read,ACK
0.600087320000000,0,0x5D,0x05,Read,ACK
0.600108780000000,0,0x5D,0x04,Read,ACK
0.600130400000000,0,0x5D,0x03,Read,ACK
0.600151860000000,0,0x5D,0x20,Read,ACK
0.600173320000000,0,0x5D,0x00,Read,ACK
0.600194960000000,0,0x5D,0x00,Read,ACK
0.600216420000000,0,0x5D,0x00,Read,ACK
0.600237860000000,0,0x5D,0x00,Read,ACK
0.600259320000000,0,0x5D,0x00,Read,ACK
0.600280760000000,0,0x5D,0x00,Read,ACK
0.600302220000000,0,0x5D,0x00,Read,ACK
0.600323680000000,0,0x5D,0x00,Read,ACK
0.600345120000000,0,0x5D,0x00,Read,ACK
0.600366580000000,0,0x5D,0x00,Read,ACK
0.600388020000000,0,0x5D,0x00,Read,ACK
0.600409480000000,0,0x5D,0x00,Read,ACK
0.600430960000000,0,0x5D,0x00,Read,ACK
0.600452460000000,0,0x5D,0x00,Read,ACK
0.600473900000000,0,0x5D,0x00,Read,ACK
0.600495360000000,0,0x5D,0x00,Read,ACK
0.600516820000000,0,0x5D,0x00,Read,ACK
0.600538280000000,0,0x5D,0x00,Read,ACK
0.600561720000000,0,0x5D,0x00,Read,ACK
0.600583240000000,0,0x5D,0x00,Read,ACK
0.600604700000000,0,0x5D,0x00,Read,ACK
0.600627780000000,0,0x5D,0x00,Read,ACK
0.600649280000000,0,0x5D,0x00,Read,ACK
0.600670760000000,0,0x5D,0x00,Read,ACK
0.600692240000000,0,0x5D,0x24,Read,ACK
0.600713680000000,0,0x5D,0x9E,Read,ACK
0.600735160000000,0,0x5D,0x02,Read,ACK
0.600756660000000,0,0x5D,0x00,Read,ACK
0.600778540000000,0,0x5D,0x00,Read,ACK
0.600800400000000,0,0x5D,0x00,Read,ACK
0.600821880000000,0,0x5D,0x00,Read,ACK
0.600843720000000,0,0x5D,0x00,Read,ACK
0.600867240000000,0,0x5D,0x00,Read,ACK
0.600888880000000,0,0x5D,0x00,Read,ACK
0.600910340000000,0,0x5D,0x00,Read,ACK
0.600931840000000,0,0x5D,0x00,Read,ACK
0.600953280000000,0,0x5D,0x00,Read,ACK
0.600974740000000,0,0x5D,0x00,Read,ACK
0.600997520000000,0,0x5D,0x00,Read,ACK
0.601019260000000,0,0x5D,0x00,Read,ACK
0.601040740000000,0,0x5D,0x00,Read,ACK
0.601062560000000,0,0x5D,0x00,Read,ACK
0.601084060000000,0,0x5D,0x00,Read,ACK
0.601107200000000,0,0x5D,0x00,Read,ACK
0.601128680000000,0,0x5D,0x00,Read,NAK
0.606513180000000,0,0x5D,0x2F,Read,ACK
0.606539280000000,0,0x5D,0x00,Read,ACK
0.606560760000000,0,0x5D,0x04,Read,ACK
0.606582240000000,0,0x5D,0x03,Read,ACK
0.606603740000000,0,0x5D,0xFC,Read,ACK
0.606625240000000,0,0x5D,0x00,Read,ACK
0.606646700000000,0,0x5D,0xF3,Read,ACK
0.606668180000000,0,0x5D,0x08,Read,ACK
0.606690800000000,0,0x5D,0x03,Read,ACK
0.606712800000000,0,0x5D,0x03,Read,ACK
0.606735920000000,0,0x5D,0x20,Read,ACK
0.606757400000000,0,0x5D,0x13,Read,ACK
0.606778860000000,0,0x5D,0x2E,Read,ACK
0.606800300000000,0,0x5D,0x05,Read,ACK
0.606821760000000,0,0x5D,0x57,Read,ACK
0.606843220000000,0,0x5D,0x05,Read,ACK
0.606865300000000,0,0x5D,0x04,Read,ACK
0.606887780000000,0,0x5D,0x03,Read,ACK
0.606909260000000,0,0x5D,0x20,Read,ACK
0.606930740000000,0,0x5D,0x00,Read,ACK
0.606952220000000,0,0x5D,0x00,Read,ACK
0.606974780000000,0,0x5D,0x00,Read,ACK
0.606997760000000,0,0x5D,0x00,Read,ACK
0.607019220000000,0,0x5D,0x00,Read,ACK
0.607040720000000,0,0x5D,0x00,Read,ACK
0.607062360000000,0,0x5D,0x00,Read,ACK
0.607083820000000,0,0x5D,0x00,Read,ACK
0.607105720000000,0,0x5D,0x00,Read,ACK
0.607127760000000,0,0x5D,0x00,Read,ACK
0.607149240000000,0,0x5D,0x00,Read,ACK
0.607170700000000,0,0x5D,0x00,Read,ACK
0.607192140000000,0,0x5D,0x00,Read,ACK
0.607213600000000,0,0x5D,0x00,Read,ACK
0.607235140000000,0,0x5D,0x00,Read,ACK
0.607256860000000,0,0x5D,0x00,Read,ACK
0.607278340000000,0,0x5D,0x00,Read,ACK
0.607299840000000,0,0x5D,0x00,Read,ACK
0.607321300000000,0,0x5D,0x00,Read,ACK
0.607342760000000,0,0x5D,0x00,Read,ACK
0.607364280000000,0,0x5D,0x00,Read,ACK
0.607385780000000,0,0x5D,0x00,Read,ACK
0.607407240000000,0,0x5D,0x00,Read,ACK
0.607428700000000,0,0x5D,0x00,Read,ACK
0.607450760000000,0,0x5D,0x6A,Read,ACK
0.607472240000000,0,0x5D,0x9E,Read,ACK
0.607493740000000,0,0x5D,0x02,Read,ACK
0.607515240000000,0,0x5D,0x00,Read,ACK
0.607536700000000,0,0x5D,0x00,Read,ACK
0.607558160000000,0,0x5D,0x00,Read,ACK
0.607579620000000,0,0x5D,0x00,Read,ACK
0.607601120000000,0,0x5D,0x00,Read,ACK
0.607622580000000,0,0x5D,0x00,Read,ACK
0.607644040000000,0,0x5D,0x00,Read,ACK
0.607665560000000,0,0x5D,0x00,Read,ACK
0.607687000000000,0,0x5D,0x00,Read,ACK
0.607708460000000,0,0x5D,0x00,Read,ACK
0.607732380000000,0,0x5D,0x00,Read,ACK
0.607756620000000,0,0x5D,0x00,Read,ACK
0.607778140000000,0,0x5D,0x00,Read,ACK
0.607799580000000,0,0x5D,0x00,Read,ACK
0.607821040000000,0,0x5D,0x00,Read,ACK
0.607842940000000,0,0x5D,0x00,Read,ACK
0.607865040000000,0,0x5D,0x00,Read,ACK
0.607886500000000,0,0x5D,0x00,Read,NAK
0.613701320000000,0,0x5D,0x2F,Read,ACK
0.613722840000000,0,0x5D,0x00,Read,ACK
0.613744340000000,0,0x5D,0x04,Read,ACK
0.613765780000000,0,0x5D,0x03,Read,ACK
0.613787240000000,0,0x5D,0xFC,Read,ACK
0.613808760000000,0,0x5D,0x00,Read,ACK
0.613831040000000,0,0x5D,0xF3,Read,ACK
0.613852540000000,0,0x5D,0x08,Read,ACK
0.613874360000000,0,0x5D,0x03,Read,ACK
0.613896520000000,0,0x5D,0x03,Read,ACK
0.613918020000000,0,0x5D,0x20,Read,ACK
0.613939520000000,0,0x5D,0x13,Read,ACK
0.613960980000000,0,0x5D,0x2D,Read,ACK
0.613982440000000,0,0x5D,0x05,Read,ACK
0.614004040000000,0,0x5D,0x57,Read,ACK
0.614025580000000,0,0x5D,0x05,Read,ACK
0.614047060000000,0,0x5D,0x04,Read,ACK
0.614068600000000,0,0x5D,0x03,Read,ACK
0.614090180000000,0,0x5D,0x20,Read,ACK
0.614111680000000,0,0x5D,0x00,Read,ACK
0.614133540000000,0,0x5D,0x00,Read,ACK
0.614155020000000,0,0x5D,0x00,Read,ACK
0.614176520000000,0,0x5D,0x00,Read,ACK
0.614198700000000,0,0x5D,0x00,Read,ACK
0.614220180000000,0,0x5D,0x00,Read,ACK
0.614242600000000,0,0x5D,0x00,Read,ACK
0.614265180000000,0,0x5D,0x00,Read,ACK
0.614286660000000,0,0x5D,0x00,Read,ACK
0.614308120000000,0,0x5D,0x00,Read,ACK
0.614329600000000,0,0x5D,0x00,Read,ACK
0.614351080000000,0,0x5D,0x00,Read,ACK
0.614372540000000,0,0x5D,0x00,Read,ACK
0.614394060000000,0,0x5D,0x00,Read,ACK
0.614415580000000,0,0x5D,0x00,Read,ACK
0.614437020000000,0,0x5D,0x00,Read,ACK
0.614458480000000,0,0x5D,0x00,Read,ACK
0.614479960000000,0,0x5D,0x00,Read,ACK
0.614501460000000,0,0x5D,0x00,Read,ACK
0.614522980000000,0,0x5D,0x00,Read,ACK
0.614544480000000,0,0x5D,0x00,Read,ACK
0.614565920000000,0,0x5D,0x00,Read,ACK
0.614587380000000,0,0x5D,0x00,Read,ACK
0.614609700000000,0,0x5D,0x00,Read,ACK
0.614631180000000,0,0x5D,0xB0,Read,ACK
0.614652620000000,0,0x5D,0x9E,Read,ACK
0.614674080000000,0,0x5D,0x02,Read,ACK
0.614695540000000,0,0x5D,0x00,Read,ACK
0.614717040000000,0,0x5D,0x00,Read,ACK
0.614738520000000,0,0x5D,0x00,Read,ACK
0.614760000000000,0,0x5D,0x00,Read,ACK
0.614781460000000,0,0x5D,0x00,Read,ACK
0.614802920000000,0,0x5D,0x00,Read,ACK
0.614824360000000,0,0x5D,0x00,Read,ACK
0.614845880000000,0,0x5D,0x00,Read,ACK
0.614867500000000,0,0x5D,0x00,Read,ACK
0.614890300000000,0,0x5D,0x00,Read,ACK
0.614914720000000,0,0x5D,0x00,Read,ACK
0.614936240000000,0,0x5D,0x00,Read,ACK
0.614959500000000,0,0x5D,0x00,Read,ACK
0.614982060000000,0,0x5D,0x00,Read,ACK
0.615003540000000,0,0x5D,0x00,Read,ACK
0.615025920000000,0,0x5D,0x00,Read,ACK
0.615047440000000,0,0x5D,0x00,Read,ACK
0.615068880000000,0,0x5D,0x00,Read,NAK
0.620766540000000,0,0x5D,0x2F,Read,ACK
0.620789380000000,0,0x5D,0x00,Read,ACK
0.620810860000000,0,0x5D,0x04,Read,ACK
0.620832300000000,0,0x5D,0x03,Read,ACK
0.620853780000000,0,0x5D,0xFC,Read,ACK
0.620875280000000,0,0x5D,0x00,Read,ACK
0.620896720000000,0,0x5D,0xF3,Read,ACK
0.620918180000000,0,0x5D,0x08,Read,ACK
0.620939640000000,0,0x5D,0x03,Read,ACK
0.620961080000000,0,0x5D,0x03,Read,ACK
0.620982660000000,0,0x5D,0x20,Read,ACK
0.621005340000000,0,0x5D,0x13,Read,ACK
0.621026820000000,0,0x5D,0x2C,Read,ACK
0.621049540000000,0,0x5D,0x05,Read,ACK
0.621071040000000,0,0x5D,0x57,Read,ACK
0.621092500000000,0,0x5D,0x05,Read,ACK
0.621113940000000,0,0x5D,0x04,Read,ACK
0.621135420000000,0,0x5D,0x03,Read,ACK
0.621156960000000,0,0x5D,0x20,Read,ACK
0.621178460000000,0,0x5D,0x00,Read,ACK
0.621199980000000,0,0x5D,0x00,Read,ACK
0.621221460000000,0,0x5D,0x00,Read,ACK
0.621242920000000,0,0x5D,0x00,Read,ACK
0.621264380000000,0,0x5D,0x00,Read,ACK
0.621285820000000,0,0x5D,0x00,Read,ACK
0.621307320000000,0,0x5D,0x00,Read,ACK
0.621330080000000,0,0x5D,0x00,Read,ACK
0.621351680000000,0,0x5D,0x00,Read,ACK
0.621373140000000,0,0x5D,0x00,Read,ACK
0.621396200000000,0,0x5D,0x00,Read,ACK
0.621417700000000,0,0x5D,0x00,Read,ACK
0.621439440000000,0,0x5D,0x00,Read,ACK
0.621462200000000,0,0x5D,0x00,Read,ACK
0.621483760000000,0,0x5D,0x00,Read,ACK
0.621505220000000,0,0x5D,0x00,Read,ACK
0.621526680000000,0,0x5D,0x00,Read,ACK
0.621548200000000,0,0x5D,0x00,Read,ACK
0.621569700000000,0,0x5D,0x00,Read,ACK
0.621591160000000,0,0x5D,0x00,Read,ACK
0.621612600000000,0,0x5D,0x00,Read,ACK
0.621634060000000,0,0x5D,0x00,Read,ACK
0.621655540000000,0,0x5D,0x00,Read,ACK
0.621677040000000,0,0x5D,0x00,Read,ACK
0.621698500000000,0,0x5D,0xF6,Read,ACK
0.621720020000000,0,0x5D,0x9E,Read,ACK
0.621741740000000,0,0x5D,0x02,Read,ACK
0.621763800000000,0,0x5D,0x00,Read,ACK
0.621785300000000,0,0x5D,0x00,Read,ACK
0.621806740000000,0,0x5D,0x00,Read,ACK
0.621828580000000,0,0x5D,0x00,Read,ACK
0.621850040000000,0,0x5D,0x00,Read,ACK
0.621871500000000,0,0x5D,0x00,Read,ACK
0.621893000000000,0,0x5D,0x00,Read,ACK
0.621914460000000,0,0x5D,0x00,Read,ACK
0.621935920000000,0,0x5D,0x00,Read,ACK
0.621957360000000,0,0x5D,0x00,Read,ACK
0.621978840000000,0,0x5D,0x00,Read,ACK
0.622000340000000,0,0x5D,0x00,Read,ACK
0.622021780000000,0,0x5D,0x00,Read,ACK
0.622044680000000,0,0x5D,0x00,Read,ACK
0.622068420000000,0,0x5D,0x00,Read,ACK
0.622091000000000,0,0x5D,0x00,Read,ACK
0.622112480000000,0,0x5D,0x00,Read,ACK
0.622134060000000,0,0x5D,0x00,Read,NAK
0.627971760000000,0,0x5D,0x2F,Read,ACK
0.627994540000000,0,0x5D,0x00,Read,ACK
0.628016000000000,0,0x5D,0x04,Read,ACK
0.628037460000000,0,0x5D,0x03,Read,ACK
0.628058960000000,0,0x5D,0xFC,Read,ACK
0.628080440000000,0,0x5D,0x00,Read,ACK
0.628101940000000,0,0x5D,0xF3,Read,ACK
0.628123440000000,0,0x5D,0x08,Read,ACK
0.628145780000000,0,0x5D,0x03,Read,ACK
0.628167640000000,0,0x5D,0x03,Read,ACK
0.628189220000000,0,0x5D,0x20,Read,ACK
0.628210700000000,0,0x5D,0x13,Read,ACK
0.628232140000000,0,0x5D,0x2A,Read,ACK
0.628253700000000,0,0x5D,0x05,Read,ACK
0.628275180000000,0,0x5D,0x56,Read,ACK
0.628296800000000,0,0x5D,0x05,Read,ACK
0.628319880000000,0,0x5D,0x04,Read,ACK
0.628341560000000,0,0x5D,0x03,Read,ACK
0.628363060000000,0,0x5D,0x20,Read,ACK
0.628384560000000,0,0x5D,0x00,Read,ACK
0.628406300000000,0,0x5D,0x00,Read,ACK
0.628429200000000,0,0x5D,0x00,Read,ACK
0.628450680000000,0,0x5D,0x00,Read,ACK
0.628472440000000,0,0x5D,0x00,Read,ACK
0.628493960000000,0,0x5D,0x00,Read,ACK
0.628515440000000,0,0x5D,0x00,Read,ACK
0.628538100000000,0,0x5D,0x00,Read,ACK
0.628559600000000,0,0x5D,0x00,Read,ACK
0.628581060000000,0,0x5D,0x00,Read,ACK
0.628602500000000,0,0x5D,0x00,Read,ACK
0.628623960000000,0,0x5D,0x00,Read,ACK
0.628645400000000,0,0x5D,0x00,Read,ACK
0.628667060000000,0,0x5D,0x00,Read,ACK
0.628688580000000,0,0x5D,0x00,Read,ACK
0.628710080000000,0,0x5D,0x00,Read,ACK
0.628731540000000,0,0x5D,0x00,Read,ACK
0.628753320000000,0,0x5D,0x00,Read,ACK
0.628774800000000,0,0x5D,0x00,Read,ACK
0.628796260000000,0,0x5D,0x00,Read,ACK
0.628817720000000,0,0x5D,0x00,Read,ACK
0.628839200000000,0,0x5D,0x00,Read,ACK
0.628860680000000,0,0x5D,0x00,Read,ACK
0.628882140000000,0,0x5D,0x00,Read,ACK
0.628903600000000,0,0x5D,0x3C,Read,ACK
0.628925240000000,0,0x5D,0x9F,Read,ACK
0.628946680000000,0,0x5D,0x02,Read,ACK
0.628968160000000,0,0x5D,0x00,Read,ACK
0.628989660000000,0,0x5D,0x00,Read,ACK
0.629011100000000,0,0x5D,0x00,Read,ACK
0.629032560000000,0,0x5D,0x00,Read,ACK
0.629054080000000,0,0x5D,0x00,Read,ACK
0.629075540000000,0,0x5D,0x00,Read,ACK
0.629096980000000,0,0x5D,0x00,Read,ACK
0.629118440000000,0,0x5D,0x00,Read,ACK
0.629139880000000,0,0x5D,0x00,Read,ACK
0.629161340000000,0,0x5D,0x00,Read,ACK
0.629184640000000,0,0x5D,0x00,Read,ACK
0.629206120000000,0,0x5D,0x00,Read,ACK
0.629227640000000,0,0x5D,0x00,Read,ACK
0.629249700000000,0,0x5D,0x00,Read,ACK
0.629271660000000,0,0x5D,0x00,Read,ACK
0.629294480000000,0,0x5D,0x00,Read,ACK
0.629315940000000,0,0x5D,0x00,Read,ACK
0.629337400000000,0,0x5D,0x00,Read,NAK
0.635095840000000,0,0x5D,0x2F,Read,ACK
0.635120280000000,0,0x5D,0x00,Read,ACK
0.635141740000000,0,0x5D,0x04,Read,ACK
0.635163240000000,0,0x5D,0x03,Read,ACK
0.635184720000000,0,0x5D,0xFC,Read,ACK
0.635206980000000,0,0x5D,0x00,Read,ACK
0.635228420000000,0,0x5D,0xF3,Read,ACK
0.635249900000000,0,0x5D,0x08,Read,ACK
0.635271600000000,0,0x5D,0x03,Read,ACK
0.635293120000000,0,0x5D,0x03,Read,ACK
0.635315500000000,0,0x5D,0x20,Read,ACK
0.635336960000000,0,0x5D,0x13,Read,ACK
0.635358400000000,0,0x5D,0x29,Read,ACK
0.635379860000000,0,0x5D,0x05,Read,ACK
0.635401340000000,0,0x5D,0x56,Read,ACK
0.635422780000000,0,0x5D,0x05,Read,ACK
0.635444240000000,0,0x5D,0x04,Read,ACK
0.635465700000000,0,0x5D,0x03,Read,ACK
0.635487160000000,0,0x5D,0x20,Read,ACK
0.635508600000000,0,0x5D,0x00,Read,ACK
0.635530060000000,0,0x5D,0x00,Read,ACK
0.635551860000000,0,0x5D,0x00,Read,ACK
0.635573340000000,0,0x5D,0x00,Read,ACK
0.635594800000000,0,0x5D,0x00,Read,ACK
0.635616260000000,0,0x5D,0x00,Read,ACK
0.635637700000000,0,0x5D,0x00,Read,ACK
0.635660420000000,0,0x5D,0x00,Read,ACK
0.635681880000000,0,0x5D,0x00,Read,ACK
0.635703640000000,0,0x5D,0x00,Read,ACK
0.635725160000000,0,0x5D,0x00,Read,ACK
0.635746640000000,0,0x5D,0x00,Read,ACK
0.635768120000000,0,0x5D,0x00,Read,ACK
0.635789580000000,0,0x5D,0x00,Read,ACK
0.635811100000000,0,0x5D,0x00,Read,ACK
0.635832560000000,0,0x5D,0x00,Read,ACK
0.635854000000000,0,0x5D,0x00,Read,ACK
0.635875460000000,0,0x5D,0x00,Read,ACK
0.635896980000000,0,0x5D,0x00,Read,ACK
0.635918440000000,0,0x5D,0x00,Read,ACK
0.635939880000000,0,0x5D,0x00,Read,ACK
0.635961340000000,0,0x5D,0x00,Read,ACK
0.635982800000000,0,0x5D,0x00,Read,ACK
0.636004280000000,0,0x5D,0x00,Read,ACK
0.636025800000000,0,0x5D,0x82,Read,ACK
0.636047280000000,0,0x5D,0x9F,Read,ACK
0.636068740000000,0,0x5D,0x02,Read,ACK
0.636090200000000,0,0x5D,0x00,Read,ACK
0.636111660000000,0,0x5D,0x00,Read,ACK
0.636133120000000,0,0x5D,0x00,Read,ACK
0.636154640000000,0,0x5D,0x00,Read,ACK
0.636176140000000,0,0x5D,0x00,Read,ACK
0.636197660000000,0,0x5D,0x00,Read,ACK
0.636219120000000,0,0x5D,0x00,Read,ACK
0.636240580000000,0,0x5D,0x00,Read,ACK
0.636262060000000,0,0x5D,0x00,Read,ACK
0.636283600000000,0,0x5D,0x00,Read,ACK
0.636305080000000,0,0x5D,0x00,Read,ACK
0.636328860000000,0,0x5D,0x00,Read,ACK
0.636351500000000,0,0x5D,0x00,Read,ACK
0.636373280000000,0,0x5D,0x00,Read,ACK
0.636394760000000,0,0x5D,0x00,Read,ACK
0.636417540000000,0,0x5D,0x00,Read,ACK
0.636439040000000,0,0x5D,0x00,Read,ACK
0.636460760000000,0,0x5D,0x00,Read,NAK
0.642187340000000,0,0x5D,0x2F,Read,ACK
0.642212440000000,0,0x5D,0x00,Read,ACK
0.642234360000000,0,0x5D,0x04,Read,ACK
0.642255880000000,0,0x5D,0x03,Read,ACK
0.642277340000000,0,0x5D,0xFC,Read,ACK
0.642298860000000,0,0x5D,0x00,Read,ACK
0.642320360000000,0,0x5D,0xF3,Read,ACK
0.642341820000000,0,0x5D,0x08,Read,ACK
0.642363260000000,0,0x5D,0x03,Read,ACK
0.642384720000000,0,0x5D,0x03,Read,ACK
0.642406180000000,0,0x5D,0x20,Read,ACK
0.642430220000000,0,0x5D,0x13,Read,ACK
0.642452700000000,0,0x5D,0x27,Read,ACK
0.642474700000000,0,0x5D,0x05,Read,ACK
0.642496180000000,0,0x5D,0x56,Read,ACK
0.642517620000000,0,0x5D,0x05,Read,ACK
0.642539080000000,0,0x5D,0x04,Read,ACK
0.642560520000000,0,0x5D,0x03,Read,ACK
0.642581980000000,0,0x5D,0x20,Read,ACK
0.642603480000000,0,0x5D,0x00,Read,ACK
0.642624980000000,0,0x5D,0x00,Read,ACK
0.642646920000000,0,0x5D,0x00,Read,ACK
0.642668380000000,0,0x5D,0x00,Read,ACK
0.642690100000000,0,0x5D,0x00,Read,ACK
0.642711620000000,0,0x5D,0x00,Read,ACK
0.642733140000000,0,0x5D,0x00,Read,ACK
0.642754660000000,0,0x5D,0x00,Read,ACK
0.642776160000000,0,0x5D,0x00,Read,ACK
0.642797960000000,0,0x5D,0x00,Read,ACK
0.642819440000000,0,0x5D,0x00,Read,ACK
0.642842400000000,0,0x5D,0x00,Read,ACK
0.642864380000000,0,0x5D,0x00,Read,ACK
0.642885880000000,0,0x5D,0x00,Read,ACK
0.642907380000000,0,0x5D,0x00,Read,ACK
0.642928840000000,0,0x5D,0x00,Read,ACK
0.642950280000000,0,0x5D,0x00,Read,ACK
0.642971740000000,0,0x5D,0x00,Read,ACK
0.642993200000000,0,0x5D,0x00,Read,ACK
0.643014700000000,0,0x5D,0x00,Read,ACK
0.643036200000000,0,0x5D,0x00,Read,ACK
0.643057720000000,0,0x5D,0x00,Read,ACK
0.643079200000000,0,0x5D,0x00,Read,ACK
0.643100660000000,0,0x5D,0x00,Read,ACK
0.643122100000000,0,0x5D,0xC8,Read,ACK
0.643144800000000,0,0x5D,0x9F,Read,ACK
0.643166260000000,0,0x5D,0x02,Read,ACK
0.643188560000000,0,0x5D,0x00,Read,ACK
0.643210060000000,0,0x5D,0x00,Read,ACK
0.643231500000000,0,0x5D,0x00,Read,ACK
0.643253000000000,0,0x5D,0x00,Read,ACK
0.643274500000000,0,0x5D,0x00,Read,ACK
0.643295980000000,0,0x5D,0x00,Read,ACK
0.643317460000000,0,0x5D,0x00,Read,ACK
0.643338960000000,0,0x5D,0x00,Read,ACK
0.643360420000000,0,0x5D,0x00,Read,ACK
0.643381880000000,0,0x5D,0x00,Read,ACK
0.643403320000000,0,0x5D,0x00,Read,ACK
0.643424940000000,0,0x5D,0x00,Read,ACK
0.643446440000000,0,0x5D,0x00,Read,ACK
0.643468700000000,0,0x5D,0x00,Read,ACK
0.643492260000000,0,0x5D,0x00,Read,ACK
0.643513780000000,0,0x5D,0x00,Read,ACK
0.643535420000000,0,0x5D,0x00,Read,ACK
0.643556900000000,0,0x5D,0x00,Read,NAK
0.649697980000000,0,0x5D,0x2F,Read,ACK
0.649724940000000,0,0x5D,0x00,Read,ACK
0.649746600000000,0,0x5D,0x04,Read,ACK
0.649768100000000,0,0x5D,0x03,Read,ACK
0.649789600000000,0,0x5D,0xFC,Read,ACK
0.649811120000000,0,0x5D,0x00,Read,ACK
0.649832560000000,0,0x5D,0xF3,Read,ACK
0.649854440000000,0,0x5D,0x08,Read,ACK
0.649875900000000,0,0x5D,0x03,Read,ACK
0.649897460000000,0,0x5D,0x03,Read,ACK
0.649918940000000,0,0x5D,0x20,Read,ACK
0.649940420000000,0,0x5D,0x13,Read,ACK
0.649963640000000,0,0x5D,0x25,Read,ACK
0.649985460000000,0,0x5D,0x05,Read,ACK
0.650006940000000,0,0x5D,0x55,Read,ACK
0.650028400000000,0,0x5D,0x05,Read,ACK
0.650049860000000,0,0x5D,0x04,Read,ACK
0.650071360000000,0,0x5D,0x03,Read,ACK
0.650092820000000,0,0x5D,0x20,Read,ACK
0.650114280000000,0,0x5D,0x00,Read,ACK
0.650135740000000,0,0x5D,0x00,Read,ACK
0.650157200000000,0,0x5D,0x00,Read,ACK
0.650178640000000,0,0x5D,0x00,Read,ACK
0.650200440000000,0,0x5D,0x00,Read,ACK
0.650221940000000,0,0x5D,0x00,Read,ACK
0.650243440000000,0,0x5D,0x00,Read,ACK
0.650264920000000,0,0x5D,0x00,Read,ACK
0.650286380000000,0,0x5D,0x00,Read,ACK
0.650307900000000,0,0x5D,0x00,Read,ACK
0.650329400000000,0,0x5D,0x00,Read,ACK
0.650350860000000,0,0x5D,0x00,Read,ACK
0.650372320000000,0,0x5D,0x00,Read,ACK
0.650393760000000,0,0x5D,0x00,Read,ACK
0.650415220000000,0,0x5D,0x00,Read,ACK
0.650436680000000,0,0x5D,0x00,Read,ACK
0.650458140000000,0,0x5D,0x00,Read,ACK
0.650479580000000,0,0x5D,0x00,Read,ACK
0.650501040000000,0,0x5D,0x00,Read,ACK
0.650522520000000,0,0x5D,0x00,Read,ACK
0.650544020000000,0,0x5D,0x00,Read,ACK
0.650565480000000,0,0x5D,0x00,Read,ACK
0.650587700000000,0,0x5D,0x00,Read,ACK
0.650611600000000,0,0x5D,0x00,Read,ACK
0.650634040000000,0,0x5D,0x0E,Read,ACK
0.650655740000000,0,0x5D,0xA0,Read,ACK
0.650677240000000,0,0x5D,0x02,Read,ACK
0.650698740000000,0,0x5D,0x00,Read,ACK
0.650721580000000,0,0x5D,0x00,Read,ACK
0.650743280000000,0,0x5D,0x00,Read,ACK
0.650764960000000,0,0x5D,0x00,Read,ACK
0.650786540000000,0,0x5D,0x00,Read,ACK
0.650808020000000,0,0x5D,0x00,Read,ACK
0.650829500000000,0,0x5D,0x00,Read,ACK
0.650851440000000,0,0x5D,0x00,Read,ACK
0.650874000000000,0,0x5D,0x00,Read,ACK
0.650896060000000,0,0x5D,0x00,Read,ACK
0.650917540000000,0,0x5D,0x00,Read,ACK
0.650939100000000,0,0x5D,0x00,Read,ACK
0.650960580000000,0,0x5D,0x00,Read,ACK
0.650982060000000,0,0x5D,0x00,Read,ACK
0.651003900000000,0,0x5D,0x00,Read,ACK
0.651025380000000,0,0x5D,0x00,Read,ACK
0.651046860000000,0,0x5D,0x00,Read,ACK
0.651068360000000,0,0x5D,0x00,Read,NAK
0.656489980000000,0,0x5D,0x2F,Read,ACK
0.656515140000000,0,0x5D,0x00,Read,ACK
0.656536600000000,0,0x5D,0x04,Read,ACK
0.656558060000000,0,0x5D,0x03,Read,ACK
0.656579560000000,0,0x5D,0xFC,Read,ACK
0.656601020000000,0,0x5D,0x00,Read,ACK
0.656622480000000,0,0x5D,0xF3,Read,ACK
0.656643940000000,0,0x5D,0x08,Read,ACK
0.656665440000000,0,0x5D,0x03,Read,ACK
0.656686900000000,0,0x5D,0x03,Read,ACK
0.656708360000000,0,0x5D,0x20,Read,ACK
0.656731200000000,0,0x5D,0x13,Read,ACK
0.656753400000000,0,0x5D,0x24,Read,ACK
0.656775480000000,0,0x5D,0x05,Read,ACK
0.656796980000000,0,0x5D,0x55,Read,ACK
0.656818440000000,0,0x5D,0x05,Read,ACK
0.656839940000000,0,0x5D,0x04,Read,ACK
0.656861400000000,0,0x5D,0x03,Read,ACK
0.656882860000000,0,0x5D,0x20,Read,ACK
0.656904720000000,0,0x5D,0x00,Read,ACK
0.656926900000000,0,0x5D,0x00,Read,ACK
0.656948360000000,0,0x5D,0x00,Read,ACK
0.656969880000000,0,0x5D,0x00,Read,ACK
0.656991380000000,0,0x5D,0x00,Read,ACK
0.657012840000000,0,0x5D,0x00,Read,ACK
0.657034300000000,0,0x5D,0x00,Read,ACK
0.657055820000000,0,0x5D,0x00,Read,ACK
0.657078120000000,0,0x5D,0x00,Read,ACK
0.657099620000000,0,0x5D,0x00,Read,ACK
0.657121120000000,0,0x5D,0x00,Read,ACK
0.657144640000000,0,0x5D,0x00,Read,ACK
0.657166160000000,0,0x5D,0x00,Read,ACK
0.657187660000000,0,0x5D,0x00,Read,ACK
0.657209120000000,0,0x5D,0x00,Read,ACK
0.657230580000000,0,0x5D,0x00,Read,ACK
0.657252020000000,0,0x5D,0x00,Read,ACK
0.657273480000000,0,0x5D,0x00,Read,ACK
0.657294940000000,0,0x5D,0x00,Read,ACK
0.657316380000000,0,0x5D,0x00,Read,ACK
0.657337840000000,0,0x5D,0x00,Read,ACK
0.657359300000000,0,0x5D,0x00,Read,ACK
0.657380820000000,0,0x5D,0x00,Read,ACK
0.657402260000000,0,0x5D,0x00,Read,ACK
0.657423740000000,0,0x5D,0x54,Read,ACK
0.657445240000000,0,0x5D,0xA0,Read,ACK
0.657466740000000,0,0x5D,0x02,Read,ACK
0.657488220000000,0,0x5D,0x00,Read,ACK
0.657509660000000,0,0x5D,0x00,Read,ACK
0.657531300000000,0,0x5D,0x00,Read,ACK
0.657552780000000,0,0x5D,0x00,Read,ACK
0.657574280000000,0,0x5D,0x00,Read,ACK
0.657595740000000,0,0x5D,0x00,Read,ACK
0.657617180000000,0,0x5D,0x00,Read,ACK
0.657638640000000,0,0x5D,0x00,Read,ACK
0.657660460000000,0,0x5D,0x00,Read,ACK
0.657681940000000,0,0x5D,0x00,Read,ACK
0.657703440000000,0,0x5D,0x00,Read,ACK
0.657724900000000,0,0x5D,0x00,Read,ACK
0.657746360000000,0,0x5D,0x00,Read,ACK
0.657767820000000,0,0x5D,0x00,Read,ACK
0.657792500000000,0,0x5D,0x00,Read,ACK
0.657815360000000,0,0x5D,0x00,Read,ACK
0.657836860000000,0,0x5D,0x00,Read,ACK
0.657859320000000,0,0x5D,0x00,Read,NAK
0.663645820000000,0,0x5D,0x2F,Read,ACK
0.663671160000000,0,0x5D,0x00,Read,ACK
0.663692640000000,0,0x5D,0x04,Read,ACK
0.663714100000000,0,0x5D,0x03,Read,ACK
0.663735640000000,0,0x5D,0xFC,Read,ACK
0.663757120000000,0,0x5D,0x00,Read,ACK
0.663778580000000,0,0x5D,0xF3,Read,ACK
0.663800080000000,0,0x5D,0x08,Read,ACK
0.663821540000000,0,0x5D,0x03,Read,ACK
0.663843000000000,0,0x5D,0x03,Read,ACK
0.663864460000000,0,0x5D,0x20,Read,ACK
0.663886440000000,0,0x5D,0x13,Read,ACK
0.663909580000000,0,0x5D,0x22,Read,ACK
0.663931040000000,0,0x5D,0x05,Read,ACK
0.663952500000000,0,0x5D,0x54,Read,ACK
0.663973940000000,0,0x5D,0x05,Read,ACK
0.663995400000000,0,0x5D,0x04,Read,ACK
0.664016860000000,0,0x5D,0x03,Read,ACK
0.664038800000000,0,0x5D,0x20,Read,ACK
0.664060260000000,0,0x5D,0x00,Read,ACK
0.664081720000000,0,0x5D,0x00,Read,ACK
0.664103160000000,0,0x5D,0x00,Read,ACK
0.664124620000000,0,0x5D,0x00,Read,ACK
0.664146080000000,0,0x5D,0x00,Read,ACK
0.664167540000000,0,0x5D,0x00,Read,ACK
0.664189060000000,0,0x5D,0x00,Read,ACK
0.664210480000000,0,0x5D,0x00,Read,ACK
0.664231940000000,0,0x5D,0x00,Read,ACK
0.664253400000000,0,0x5D,0x00,Read,ACK
0.664275500000000,0,0x5D,0x00,Read,ACK
0.664297000000000,0,0x5D,0x00,Read,ACK
0.664318700000000,0,0x5D,0x00,Read,ACK
0.664340240000000,0,0x5D,0x00,Read,ACK
0.664361740000000,0,0x5D,0x00,Read,ACK
0.664383260000000,0,0x5D,0x00,Read,ACK
0.664404740000000,0,0x5D,0x00,Read,ACK
0.664426200000000,0,0x5D,0x00,Read,ACK
0.664447660000000,0,0x5D,0x00,Read,ACK
0.664469120000000,0,0x5D,0x00,Read,ACK
0.664490560000000,0,0x5D,0x00,Read,ACK
0.664512060000000,0,0x5D,0x00,Read,ACK
0.664533520000000,0,0x5D,0x00,Read,ACK
0.664554980000000,0,0x5D,0x00,Read,ACK
0.664576420000000,0,0x5D,0x9A,Read,ACK
0.664597880000000,0,0x5D,0xA0,Read,ACK
0.664619560000000,0,0x5D,0x02,Read,ACK
0.664641060000000,0,0x5D,0x00,Read,ACK
0.664662560000000,0,0x5D,0x00,Read,ACK
0.664684000000000,0,0x5D,0x00,Read,ACK
0.664705460000000,0,0x5D,0x00,Read,ACK
0.664726900000000,0,0x5D,0x00,Read,ACK
0.664748360000000,0,0x5D,0x00,Read,ACK
0.664769820000000,0,0x5D,0x00,Read,ACK
0.664791300000000,0,0x5D,0x00,Read,ACK
0.664812780000000,0,0x5D,0x00,Read,ACK
0.664834240000000,0,0x5D,0x00,Read,ACK
0.664855700000000,0,0x5D,0x00,Read,ACK
0.664877240000000,0,0x5D,0x00,Read,ACK
0.664898820000000,0,0x5D,0x00,Read,ACK
0.664923420000000,0,0x5D,0x00,Read,ACK
0.664945060000000,0,0x5D,0x00,Read,ACK
0.664966720000000,0,0x5D,0x00,Read,ACK
0.664988240000000,0,0x5D,0x00,Read,ACK
0.665009860000000,0,0x5D,0x00,Read,NAK
0.670800220000000,0,0x5D,0x2F,Read,ACK
0.670826160000000,0,0x5D,0x00,Read,ACK
0.670847600000000,0,0x5D,0x04,Read,ACK
0.670869080000000,0,0x5D,0x03,Read,ACK
0.670890580000000,0,0x5D,0xFC,Read,ACK
0.670912040000000,0,0x5D,0x00,Read,ACK
0.670933480000000,0,0x5D,0xF3,Read,ACK
0.670954920000000,0,0x5D,0x08,Read,ACK
0.670976400000000,0,0x5D,0x03,Read,ACK
0.670997880000000,0,0x5D,0x03,Read,ACK
0.671020240000000,0,0x5D,0x20,Read,ACK
0.671041680000000,0,0x5D,0x13,Read,ACK
0.671064780000000,0,0x5D,0x21,Read,ACK
0.671086280000000,0,0x5D,0x05,Read,ACK
0.671107800000000,0,0x5D,0x54,Read,ACK
0.671129240000000,0,0x5D,0x05,Read,ACK
0.671150700000000,0,0x5D,0x04,Read,ACK
0.671172160000000,0,0x5D,0x03,Read,ACK
0.671194220000000,0,0x5D,0x20,Read,ACK
0.671216340000000,0,0x5D,0x00,Read,ACK
0.671237820000000,0,0x5D,0x00,Read,ACK
0.671259820000000,0,0x5D,0x00,Read,ACK
0.671281280000000,0,0x5D,0x00,Read,ACK
0.671302860000000,0,0x5D,0x00,Read,ACK
0.671325120000000,0,0x5D,0x00,Read,ACK
0.671346580000000,0,0x5D,0x00,Read,ACK
0.671368040000000,0,0x5D,0x00,Read,ACK
0.671389980000000,0,0x5D,0x00,Read,ACK
0.671411440000000,0,0x5D,0x00,Read,ACK
0.671432900000000,0,0x5D,0x00,Read,ACK
0.671454940000000,0,0x5D,0x00,Read,ACK
0.671476420000000,0,0x5D,0x00,Read,ACK
0.671498600000000,0,0x5D,0x00,Read,ACK
0.671520060000000,0,0x5D,0x00,Read,ACK
0.671541520000000,0,0x5D,0x00,Read,ACK
0.671563200000000,0,0x5D,0x00,Read,ACK
0.671584680000000,0,0x5D,0x00,Read,ACK
0.671606120000000,0,0x5D,0x00,Read,ACK
0.671627640000000,0,0x5D,0x00,Read,ACK
0.671649080000000,0,0x5D,0x00,Read,ACK
0.671670540000000,0,0x5D,0x00,Read,ACK
0.671691980000000,0,0x5D,0x00,Read,ACK
0.671713480000000,0,0x5D,0x00,Read,ACK
0.671734960000000,0,0x5D,0xE0,Read,ACK
0.671756680000000,0,0x5D,0xA0,Read,ACK
0.671778140000000,0,0x5D,0x02,Read,ACK
0.671799640000000,0,0x5D,0x00,Read,ACK
0.671821160000000,0,0x5D,0x00,Read,ACK
0.671842680000000,0,0x5D,0x00,Read,ACK
0.671864200000000,0,0x5D,0x00,Read,ACK
0.671885700000000,0,0x5D,0x00,Read,ACK
0.671907140000000,0,0x5D,0x00,Read,ACK
0.671928600000000,0,0x5D,0x00,Read,ACK
0.671950060000000,0,0x5D,0x00,Read,ACK
0.671971500000000,0,0x5D,0x00,Read,ACK
0.671992960000000,0,0x5D,0x00,Read,ACK
0.672015880000000,0,0x5D,0x00,Read,ACK
0.672037360000000,0,0x5D,0x00,Read,ACK
0.672058840000000,0,0x5D,0x00,Read,ACK
0.672080580000000,0,0x5D,0x00,Read,ACK
0.672102040000000,0,0x5D,0x00,Read,ACK
0.672124880000000,0,0x5D,0x00,Read,ACK
0.672146400000000,0,0x5D,0x00,Read,ACK
0.672167900000000,0,0x5D,0x00,Read,NAK
0.678010880000000,0,0x5D,0x2F,Read,ACK
0.678034140000000,0,0x5D,0x00,Read,ACK
0.678055640000000,0,0x5D,0x04,Read,ACK
0.678077120000000,0,0x5D,0x03,Read,ACK
0.678098580000000,0,0x5D,0xFC,Read,ACK
0.678120040000000,0,0x5D,0x00,Read,ACK
0.678142920000000,0,0x5D,0xF3,Read,ACK
0.678165920000000,0,0x5D,0x08,Read,ACK
0.678187960000000,0,0x5D,0x03,Read,ACK
0.678211160000000,0,0x5D,0x03,Read,ACK
0.678232620000000,0,0x5D,0x20,Read,ACK
0.678254100000000,0,0x5D,0x13,Read,ACK
0.678275600000000,0,0x5D,0x1F,Read,ACK
0.678297100000000,0,0x5D,0x05,Read,ACK
0.678320360000000,0,0x5D,0x53,Read,ACK
0.678342240000000,0,0x5D,0x05,Read,ACK
0.678363720000000,0,0x5D,0x04,Read,ACK
0.678385240000000,0,0x5D,0x03,Read,ACK
0.678406680000000,0,0x5D,0x20,Read,ACK
0.678428160000000,0,0x5D,0x00,Read,ACK
0.678449640000000,0,0x5D,0x00,Read,ACK
0.678471120000000,0,0x5D,0x00,Read,ACK
0.678492620000000,0,0x5D,0x00,Read,ACK
0.678515260000000,0,0x5D,0x00,Read,ACK
0.678536720000000,0,0x5D,0x00,Read,ACK
0.678558180000000,0,0x5D,0x00,Read,ACK
0.678579680000000,0,0x5D,0x00,Read,ACK
0.678601140000000,0,0x5D,0x00,Read,ACK
0.678622640000000,0,0x5D,0x00,Read,ACK
0.678644100000000,0,0x5D,0x00,Read,ACK
0.678665580000000,0,0x5D,0x00,Read,ACK
0.678687080000000,0,0x5D,0x00,Read,ACK
0.678708600000000,0,0x5D,0x00,Read,ACK
0.678730040000000,0,0x5D,0x00,Read,ACK
0.678751500000000,0,0x5D,0x00,Read,ACK
0.678772960000000,0,0x5D,0x00,Read,ACK
0.678794480000000,0,0x5D,0x00,Read,ACK
0.678815980000000,0,0x5D,0x00,Read,ACK
0.678837440000000,0,0x5D,0x00,Read,ACK
0.678858900000000,0,0x5D,0x00,Read,ACK
0.678880340000000,0,0x5D,0x00,Read,ACK
0.678901800000000,0,0x5D,0x00,Read,ACK
0.678923280000000,0,0x5D,0x00,Read,ACK
0.678944940000000,0,0x5D,0x26,Read,ACK
0.678966400000000,0,0x5D,0xA1,Read,ACK
0.678987860000000,0,0x5D,0x02,Read,ACK
0.679009300000000,0,0x5D,0x00,Read,ACK
0.679030780000000,0,0x5D,0x00,Read,ACK
0.679052360000000,0,0x5D,0x00,Read,ACK
0.679073860000000,0,0x5D,0x00,Read,ACK
0.679095300000000,0,0x5D,0x00,Read,ACK
0.679116760000000,0,0x5D,0x00,Read,ACK
0.679138220000000,0,0x5D,0x00,Read,ACK
0.679159680000000,0,0x5D,0x00,Read,ACK
0.679183220000000,0,0x5D,0x00,Read,ACK
0.679205380000000,0,0x5D,0x00,Read,ACK
0.679227060000000,0,0x5D,0x00,Read,ACK
0.679248540000000,0,0x5D,0x00,Read,ACK
0.679270380000000,0,0x5D,0x00,Read,ACK
0.679291820000000,0,0x5D,0x00,Read,ACK
0.679313260000000,0,0x5D,0x00,Read,ACK
0.679334720000000,0,0x5D,0x00,Read,ACK
0.679356180000000,0,0x5D,0x00,Read,ACK
0.679377620000000,0,0x5D,0x00,Read,NAK
0.685235520000000,0,0x5D,0x2F,Read,ACK
0.685263180000000,0,0x5D,0x00,Read,ACK
0.685285460000000,0,0x5D,0x04,Read,ACK
0.685306980000000,0,0x5D,0x03,Read,ACK
0.685331880000000,0,0x5D,0xFC,Read,ACK
0.685353380000000,0,0x5D,0x00,Read,ACK
0.685374840000000,0,0x5D,0xF3,Read,ACK
0.685396280000000,0,0x5D,0x08,Read,ACK
0.685417740000000,0,0x5D,0x03,Read,ACK
0.685439200000000,0,0x5D,0x03,Read,ACK
0.685462300000000,0,0x5D,0x20,Read,ACK
0.685483780000000,0,0x5D,0x13,Read,ACK
0.685505240000000,0,0x5D,0x1E,Read,ACK
0.685526720000000,0,0x5D,0x05,Read,ACK
0.685548200000000,0,0x5D,0x53,Read,ACK
0.685569920000000,0,0x5D,0x05,Read,ACK
0.685591420000000,0,0x5D,0x04,Read,ACK
0.685612980000000,0,0x5D,0x03,Read,ACK
0.685634500000000,0,0x5D,0x20,Read,ACK
0.685655960000000,0,0x5D,0x00,Read,ACK
0.685677660000000,0,0x5D,0x00,Read,ACK
0.685699320000000,0,0x5D,0x00,Read,ACK
0.685720800000000,0,0x5D,0x00,Read,ACK
0.685742260000000,0,0x5D,0x00,Read,ACK
0.685763720000000,0,0x5D,0x00,Read,ACK
0.685785180000000,0,0x5D,0x00,Read,ACK
0.685806620000000,0,0x5D,0x00,Read,ACK
0.685828080000000,0,0x5D,0x00,Read,ACK
0.685849520000000,0,0x5D,0x00,Read,ACK
0.685870980000000,0,0x5D,0x00,Read,ACK
0.685892420000000,0,0x5D,0x00,Read,ACK
0.685913880000000,0,0x5D,0x00,Read,ACK
0.685935360000000,0,0x5D,0x00,Read,ACK
0.685956860000000,0,0x5D,0x00,Read,ACK
0.685978300000000,0,0x5D,0x00,Read,ACK
0.685999760000000,0,0x5D,0x00,Read,ACK
0.686022440000000,0,0x5D,0x00,Read,ACK
0.686043920000000,0,0x5D,0x00,Read,ACK
0.686065440000000,0,0x5D,0x00,Read,ACK
0.686086940000000,0,0x5D,0x00,Read,ACK
0.686108780000000,0,0x5D,0x00,Read,ACK
0.686130220000000,0,0x5D,0x00,Read,ACK
0.686151680000000,0,0x5D,0x00,Read,ACK
0.686173160000000,0,0x5D,0x6C,Read,ACK
0.686194660000000,0,0x5D,0xA1,Read,ACK
0.686216120000000,0,0x5D,0x02,Read,ACK
0.686237660000000,0,0x5D,0x00,Read,ACK
0.686259160000000,0,0x5D,0x00,Read,ACK
0.686280660000000,0,0x5D,0x00,Read,ACK
0.686305220000000,0,0x5D,0x00,Read,ACK
0.686329300000000,0,0x5D,0x00,Read,ACK
0.686350740000000,0,0x5D,0x00,Read,ACK
0.686372200000000,0,0x5D,0x00,Read,ACK
0.686395060000000,0,0x5D,0x00,Read,ACK
0.686417380000000,0,0x5D,0x00,Read,ACK
0.686438880000000,0,0x5D,0x00,Read,ACK
0.686460340000000,0,0x5D,0x00,Read,ACK
0.686481860000000,0,0x5D,0x00,Read,ACK
0.686504280000000,0,0x5D,0x00,Read,ACK
0.686527520000000,0,0x5D,0x00,Read,ACK
0.686550780000000,0,0x5D,0x00,Read,ACK
0.686573080000000,0,0x5D,0x00,Read,ACK
0.686594520000000,0,0x5D,0x00,Read,ACK
0.686616480000000,0,0x5D,0x00,Read,NAK
0.692496900000000,0,0x5D,0x2F,Read,ACK
0.692521520000000,0,0x5D,0x00,Read,ACK
0.692542960000000,0,0x5D,0x04,Read,ACK
0.692564420000000,0,0x5D,0x03,Read,ACK
0.692585880000000,0,0x5D,0xFC,Read,ACK
0.692608420000000,0,0x5D,0x00,Read,ACK
0.692630000000000,0,0x5D,0xF3,Read,ACK
0.692651480000000,0,0x5D,0x08,Read,ACK
0.692672980000000,0,0x5D,0x03,Read,ACK
0.692694440000000,0,0x5D,0x03,Read,ACK
0.692716340000000,0,0x5D,0x20,Read,ACK
0.692738540000000,0,0x5D,0x13,Read,ACK
0.692760000000000,0,0x5D,0x1C,Read,ACK
0.692782800000000,0,0x5D,0x05,Read,ACK
0.692805140000000,0,0x5D,0x52,Read,ACK
0.692827600000000,0,0x5D,0x05,Read,ACK
0.692849100000000,0,0x5D,0x04,Read,ACK
0.692870780000000,0,0x5D,0x03,Read,ACK
0.692892260000000,0,0x5D,0x20,Read,ACK
0.692914020000000,0,0x5D,0x00,Read,ACK
0.692935480000000,0,0x5D,0x00,Read,ACK
0.692956980000000,0,0x5D,0x00,Read,ACK
0.692978460000000,0,0x5D,0x00,Read,ACK
0.692999920000000,0,0x5D,0x00,Read,ACK
0.693021440000000,0,0x5D,0x00,Read,ACK
0.693042960000000,0,0x5D,0x00,Read,ACK
0.693064480000000,0,0x5D,0x00,Read,ACK
0.693085980000000,0,0x5D,0x00,Read,ACK
0.693107440000000,0,0x5D,0x00,Read,ACK
0.693128900000000,0,0x5D,0x00,Read,ACK
0.693151600000000,0,0x5D,0x00,Read,ACK
0.693173120000000,0,0x5D,0x00,Read,ACK
0.693194840000000,0,0x5D,0x00,Read,ACK
0.693216320000000,0,0x5D,0x00,Read,ACK
0.693237820000000,0,0x5D,0x00,Read,ACK
0.693259300000000,0,0x5D,0x00,Read,ACK
0.693280940000000,0,0x5D,0x00,Read,ACK
0.693302400000000,0,0x5D,0x00,Read,ACK
0.693323860000000,0,0x5D,0x00,Read,ACK
0.693345360000000,0,0x5D,0x00,Read,ACK
0.693366800000000,0,0x5D,0x00,Read,ACK
0.693388260000000,0,0x5D,0x00,Read,ACK
0.693409720000000,0,0x5D,0x00,Read,ACK
0.693431160000000,0,0x5D,0xB2,Read,ACK
0.693452620000000,0,0x5D,0xA1,Read,ACK
0.693475120000000,0,0x5D,0x02,Read,ACK
0.693497900000000,0,0x5D,0x00,Read,ACK
0.693519980000000,0,0x5D,0x00,Read,ACK
0.693541480000000,0,0x5D,0x00,Read,ACK
0.693563020000000,0,0x5D,0x00,Read,ACK
0.693585400000000,0,0x5D,0x00,Read,ACK
0.693606860000000,0,0x5D,0x00,Read,ACK
0.693628380000000,0,0x5D,0x00,Read,ACK
0.693650740000000,0,0x5D,0x00,Read,ACK
0.693672200000000,0,0x5D,0x00,Read,ACK
0.693693840000000,0,0x5D,0x00,Read,ACK
0.693715280000000,0,0x5D,0x00,Read,ACK
0.693737700000000,0,0x5D,0x00,Read,ACK
0.693761220000000,0,0x5D,0x00,Read,ACK
0.693782720000000,0,0x5D,0x00,Read,ACK
0.693804160000000,0,0x5D,0x00,Read,ACK
0.693825620000000,0,0x5D,0x00,Read,ACK
0.693847140000000,0,0x5D,0x00,Read,ACK
0.693868820000000,0,0x5D,0x00,Read,NAK
0.699622960000000,0,0x5D,0x2F,Read,ACK
0.699647440000000,0,0x5D,0x00,Read,ACK
0.699668920000000,0,0x5D,0x04,Read,ACK
0.699690360000000,0,0x5D,0x03,Read,ACK
0.699711840000000,0,0x5D,0xFC,Read,ACK
0.699733340000000,0,0x5D,0x00,Read,ACK
0.699755420000000,0,0x5D,0xF3,Read,ACK
0.699776900000000,0,0x5D,0x08,Read,ACK
0.699798400000000,0,0x5D,0x03,Read,ACK
0.699819880000000,0,0x5D,0x03,Read,ACK
0.699841360000000,0,0x5D,0x20,Read,ACK
0.699862960000000,0,0x5D,0x13,Read,ACK
0.699885200000000,0,0x5D,0x1A,Read,ACK
0.699906660000000,0,0x5D,0x05,Read,ACK
0.699928180000000,0,0x5D,0x51,Read,ACK
0.699949620000000,0,0x5D,0x05,Read,ACK
0.699971140000000,0,0x5D,0x04,Read,ACK
0.699992600000000,0,0x5D,0x03,Read,ACK
0.700014100000000,0,0x5D,0x20,Read,ACK
0.700035580000000,0,0x5D,0x00,Read,ACK
0.700057340000000,0,0x5D,0x00,Read,ACK
0.700078800000000,0,0x5D,0x00,Read,ACK
0.700100300000000,0,0x5D,0x00,Read,ACK
0.700121760000000,0,0x5D,0x00,Read,ACK
0.700143320000000,0,0x5D,0x00,Read,ACK
0.700164800000000,0,0x5D,0x00,Read,ACK
0.700186240000000,0,0x5D,0x00,Read,ACK
0.700207720000000,0,0x5D,0x00,Read,ACK
0.700229160000000,0,0x5D,0x00,Read,ACK
0.700250600000000,0,0x5D,0x00,Read,ACK
0.700272060000000,0,0x5D,0x00,Read,ACK
0.700293540000000,0,0x5D,0x00,Read,ACK
0.700315040000000,0,0x5D,0x00,Read,ACK
0.700336500000000,0,0x5D,0x00,Read,ACK
0.700359000000000,0,0x5D,0x00,Read,ACK
0.700380460000000,0,0x5D,0x00,Read,ACK
0.700401920000000,0,0x5D,0x00,Read,ACK
0.700423440000000,0,0x5D,0x00,Read,ACK
0.700444880000000,0,0x5D,0x00,Read,ACK
0.700466340000000,0,0x5D,0x00,Read,ACK
0.700487820000000,0,0x5D,0x00,Read,ACK
0.700509340000000,0,0x5D,0x00,Read,ACK
0.700530840000000,0,0x5D,0x00,Read,ACK
0.700552340000000,0,0x5D,0xF8,Read,ACK
0.700574000000000,0,0x5D,0xA1,Read,ACK
0.700595500000000,0,0x5D,0x02,Read,ACK
0.700618200000000,0,0x5D,0x00,Read,ACK
0.700641120000000,0,0x5D,0x00,Read,ACK
0.700662600000000,0,0x5D,0x00,Read,ACK
0.700684080000000,0,0x5D,0x00,Read,ACK
0.700706540000000,0,0x5D,0x00,Read,ACK
0.700728060000000,0,0x5D,0x00,Read,ACK
0.700749560000000,0,0x5D,0x00,Read,ACK
0.700771080000000,0,0x5D,0x00,Read,ACK
0.700793900000000,0,0x5D,0x00,Read,ACK
0.700816840000000,0,0x5D,0x00,Read,ACK
0.700839740000000,0,0x5D,0x00,Read,ACK
0.700861200000000,0,0x5D,0x00,Read,ACK
0.700883080000000,0,0x5D,0x00,Read,ACK
0.700906100000000,0,0x5D,0x00,Read,ACK
0.700927540000000,0,0x5D,0x00,Read,ACK
0.700950500000000,0,0x5D,0x00,Read,ACK
0.700971960000000,0,0x5D,0x00,Read,ACK
0.700993620000000,0,0x5D,0x00,Read,NAK
0.706507260000000,0,0x5D,0x2F,Read,ACK
0.706530100000000,0,0x5D,0x00,Read,ACK
0.706552200000000,0,0x5D,0x04,Read,ACK
0.706573660000000,0,0x5D,0x03,Read,ACK
0.706595260000000,0,0x5D,0xFC,Read,ACK
0.706616740000000,0,0x5D,0x00,Read,ACK
0.706638180000000,0,0x5D,0xF3,Read,ACK
0.706659640000000,0,0x5D,0x08,Read,ACK
0.706681600000000,0,0x5D,0x03,Read,ACK
0.706703120000000,0,0x5D,0x03,Read,ACK
0.706724580000000,0,0x5D,0x20,Read,ACK
0.706746520000000,0,0x5D,0x13,Read,ACK
0.706769440000000,0,0x5D,0x19,Read,ACK
0.706793900000000,0,0x5D,0x05,Read,ACK
0.706815380000000,0,0x5D,0x51,Read,ACK
0.706836880000000,0,0x5D,0x05,Read,ACK
0.706858340000000,0,0x5D,0x04,Read,ACK
0.706879780000000,0,0x5D,0x03,Read,ACK
0.706901240000000,0,0x5D,0x20,Read,ACK
0.706924300000000,0,0x5D,0x00,Read,ACK
0.706945780000000,0,0x5D,0x00,Read,ACK
0.706967220000000,0,0x5D,0x00,Read,ACK
0.706988740000000,0,0x5D,0x00,Read,ACK
0.707010280000000,0,0x5D,0x00,Read,ACK
0.707031780000000,0,0x5D,0x00,Read,ACK
0.707053280000000,0,0x5D,0x00,Read,ACK
0.707074820000000,0,0x5D,0x00,Read,ACK
0.707096300000000,0,0x5D,0x00,Read,ACK
0.707117760000000,0,0x5D,0x00,Read,ACK
0.707139200000000,0,0x5D,0x00,Read,ACK
0.707160760000000,0,0x5D,0x00,Read,ACK
0.707182260000000,0,0x5D,0x00,Read,ACK
0.707203760000000,0,0x5D,0x00,Read,ACK
0.707225220000000,0,0x5D,0x00,Read,ACK
0.707246660000000,0,0x5D,0x00,Read,ACK
0.707268120000000,0,0x5D,0x00,Read,ACK
0.707289560000000,0,0x5D,0x00,Read,ACK
0.707311020000000,0,0x5D,0x00,Read,ACK
0.707332480000000,0,0x5D,0x00,Read,ACK
0.707353920000000,0,0x5D,0x00,Read,ACK
0.707375380000000,0,0x5D,0x00,Read,ACK
0.707396860000000,0,0x5D,0x00,Read,ACK
0.707418340000000,0,0x5D,0x00,Read,ACK
0.707439780000000,0,0x5D,0x3E,Read,ACK
0.707461260000000,0,0x5D,0xA2,Read,ACK
0.707482760000000,0,0x5D,0x02,Read,ACK
0.707504220000000,0,0x5D,0x00,Read,ACK
0.707526020000000,0,0x5D,0x00,Read,ACK
0.707549260000000,0,0x5D,0x00,Read,ACK
0.707570760000000,0,0x5D,0x00,Read,ACK
0.707592220000000,0,0x5D,0x00,Read,ACK
0.707613680000000,0,0x5D,0x00,Read,ACK
0.707635180000000,0,0x5D,0x00,Read,ACK
0.707656620000000,0,0x5D,0x00,Read,ACK
0.707678080000000,0,0x5D,0x00,Read,ACK
0.707699540000000,0,0x5D,0x00,Read,ACK
0.707721000000000,0,0x5D,0x00,Read,ACK
0.707742540000000,0,0x5D,0x00,Read,ACK
0.707764000000000,0,0x5D,0x00,Read,ACK
0.707789000000000,0,0x5D,0x00,Read,ACK
0.707811040000000,0,0x5D,0x00,Read,ACK
0.707832820000000,0,0x5D,0x00,Read,ACK
0.707854320000000,0,0x5D,0x00,Read,ACK
0.707875960000000,0,0x5D,0x00,Read,NAK
0.713611920000000,0,0x5D,0x2F,Read,ACK
0.713635980000000,0,0x5D,0x00,Read,ACK
0.713658080000000,0,0x5D,0x04,Read,ACK
0.713680180000000,0,0x5D,0x03,Read,ACK
0.713701660000000,0,0x5D,0xFC,Read,ACK
0.713723140000000,0,0x5D,0x00,Read,ACK
0.713744580000000,0,0x5D,0xF3,Read,ACK
0.713766060000000,0,0x5D,0x08,Read,ACK
0.713787560000000,0,0x5D,0x03,Read,ACK
0.713809020000000,0,0x5D,0x03,Read,ACK
0.713830540000000,0,0x5D,0x20,Read,ACK
0.713852040000000,0,0x5D,0x13,Read,ACK
0.713875100000000,0,0x5D,0x17,Read,ACK
0.713896940000000,0,0x5D,0x05,Read,ACK
0.713921120000000,0,0x5D,0x51,Read,ACK
0.713942580000000,0,0x5D,0x05,Read,ACK
0.713964040000000,0,0x5D,0x04,Read,ACK
0.713985480000000,0,0x5D,0x03,Read,ACK
0.714006940000000,0,0x5D,0x20,Read,ACK
0.714030240000000,0,0x5D,0x00,Read,ACK
0.714052220000000,0,0x5D,0x00,Read,ACK
0.714074800000000,0,0x5D,0x00,Read,ACK
0.714096240000000,0,0x5D,0x00,Read,ACK
0.714117720000000,0,0x5D,0x00,Read,ACK
0.714139220000000,0,0x5D,0x00,Read,ACK
0.714161700000000,0,0x5D,0x00,Read,ACK
0.714183360000000,0,0x5D,0x00,Read,ACK
0.714204880000000,0,0x5D,0x00,Read,ACK
0.714226340000000,0,0x5D,0x00,Read,ACK
0.714247780000000,0,0x5D,0x00,Read,ACK
0.714269240000000,0,0x5D,0x00,Read,ACK
0.714292180000000,0,0x5D,0x00,Read,ACK
0.714314180000000,0,0x5D,0x00,Read,ACK
0.714335640000000,0,0x5D,0x00,Read,ACK
0.714357080000000,0,0x5D,0x00,Read,ACK
0.714378540000000,0,0x5D,0x00,Read,ACK
0.714400000000000,0,0x5D,0x00,Read,ACK
0.714421780000000,0,0x5D,0x00,Read,ACK
0.714443280000000,0,0x5D,0x00,Read,ACK
0.714464720000000,0,0x5D,0x00,Read,ACK
0.714486180000000,0,0x5D,0x00,Read,ACK
0.714507640000000,0,0x5D,0x00,Read,ACK
0.714529140000000,0,0x5D,0x00,Read,ACK
0.714550600000000,0,0x5D,0x84,Read,ACK
0.714572100000000,0,0x5D,0xA2,Read,ACK
0.714593560000000,0,0x5D,0x02,Read,ACK
0.714615040000000,0,0x5D,0x00,Read,ACK
0.714636520000000,0,0x5D,0x00,Read,ACK
0.714657980000000,0,0x5D,0x00,Read,ACK
0.714679480000000,0,0x5D,0x00,Read,ACK
0.714700960000000,0,0x5D,0x00,Read,ACK
0.714722480000000,0,0x5D,0x00,Read,ACK
0.714743960000000,0,0x5D,0x00,Read,ACK
0.714765440000000,0,0x5D,0x00,Read,ACK
0.714786920000000,0,0x5D,0x00,Read,ACK
0.714808380000000,0,0x5D,0x00,Read,ACK
0.714829840000000,0,0x5D,0x00,Read,ACK
0.714851360000000,0,0x5D,0x00,Read,ACK
0.714872880000000,0,0x5D,0x00,Read,ACK
0.714894380000000,0,0x5D,0x00,Read,ACK
0.714915860000000,0,0x5D,0x00,Read,ACK
0.714937400000000,0,0x5D,0x00,Read,ACK
0.714959860000000,0,0x5D,0x00,Read,ACK
0.714981360000000,0,0x5D,0x00,Read,NAK
0.720926960000000,0,0x5D,0x2F,Read,ACK
0.720948440000000,0,0x5D,0x00,Read,ACK
0.720969960000000,0,0x5D,0x04,Read,ACK
0.720991420000000,0,0x5D,0x03,Read,ACK
0.721013760000000,0,0x5D,0xFC,Read,ACK
0.721035960000000,0,0x5D,0x00,Read,ACK
0.721058700000000,0,0x5D,0xF3,Read,ACK
0.721080140000000,0,0x5D,0x08,Read,ACK
0.721101600000000,0,0x5D,0x03,Read,ACK
0.721123060000000,0,0x5D,0x03,Read,ACK
0.721144520000000,0,0x5D,0x20,Read,ACK
0.721166020000000,0,0x5D,0x13,Read,ACK
0.721188780000000,0,0x5D,0x16,Read,ACK
0.721210240000000,0,0x5D,0x05,Read,ACK
0.721231740000000,0,0x5D,0x50,Read,ACK
0.721253220000000,0,0x5D,0x05,Read,ACK
0.721275420000000,0,0x5D,0x04,Read,ACK
0.721296920000000,0,0x5D,0x03,Read,ACK
0.721318400000000,0,0x5D,0x20,Read,ACK
0.721339900000000,0,0x5D,0x00,Read,ACK
0.721361660000000,0,0x5D,0x00,Read,ACK
0.721383200000000,0,0x5D,0x00,Read,ACK
0.721404700000000,0,0x5D,0x00,Read,ACK
0.721426200000000,0,0x5D,0x00,Read,ACK
0.721447700000000,0,0x5D,0x00,Read,ACK
0.721469160000000,0,0x5D,0x00,Read,ACK
0.721490780000000,0,0x5D,0x00,Read,ACK
0.721512260000000,0,0x5D,0x00,Read,ACK
0.721533700000000,0,0x5D,0x00,Read,ACK
0.721555320000000,0,0x5D,0x00,Read,ACK
0.721576800000000,0,0x5D,0x00,Read,ACK
0.721598260000000,0,0x5D,0x00,Read,ACK
0.721619700000000,0,0x5D,0x00,Read,ACK
0.721641180000000,0,0x5D,0x00,Read,ACK
0.721662620000000,0,0x5D,0x00,Read,ACK
0.721684080000000,0,0x5D,0x00,Read,ACK
0.721705580000000,0,0x5D,0x00,Read,ACK
0.721727060000000,0,0x5D,0x00,Read,ACK
0.721748540000000,0,0x5D,0x00,Read,ACK
0.721770020000000,0,0x5D,0x00,Read,ACK
0.721791520000000,0,0x5D,0x00,Read,ACK
0.721813140000000,0,0x5D,0x00,Read,ACK
0.721834640000000,0,0x5D,0x00,Read,ACK
0.721856120000000,0,0x5D,0xCA,Read,ACK
0.721877580000000,0,0x5D,0xA2,Read,ACK
0.721899020000000,0,0x5D,0x02,Read,ACK
0.721920480000000,0,0x5D,0x00,Read,ACK
0.721941920000000,0,0x5D,0x00,Read,ACK
0.721963380000000,0,0x5D,0x00,Read,ACK
0.721984840000000,0,0x5D,0x00,Read,ACK
0.722006340000000,0,0x5D,0x00,Read,ACK
0.722027820000000,0,0x5D,0x00,Read,ACK
0.722049520000000,0,0x5D,0x00,Read,ACK
0.722072400000000,0,0x5D,0x00,Read,ACK
0.722095240000000,0,0x5D,0x00,Read,ACK
0.722116740000000,0,0x5D,0x00,Read,ACK
0.722140320000000,0,0x5D,0x00,Read,ACK
0.722162560000000,0,0x5D,0x00,Read,ACK
0.722184220000000,0,0x5D,0x00,Read,ACK
0.722206740000000,0,0x5D,0x00,Read,ACK
0.722228480000000,0,0x5D,0x00,Read,ACK
0.722250000000000,0,0x5D,0x00,Read,ACK
0.722271760000000,0,0x5D,0x00,Read,ACK
0.722293520000000,0,0x5D,0x00,Read,NAK
0.727976960000000,0,0x5D,0x2F,Read,ACK
0.728003100000000,0,0x5D,0x00,Read,ACK
0.728024560000000,0,0x5D,0x04,Read,ACK
0.728046020000000,0,0x5D,0x03,Read,ACK
0.728067480000000,0,0x5D,0xFC,Read,ACK
0.728088980000000,0,0x5D,0x00,Read,ACK
0.728110440000000,0,0x5D,0xF3,Read,ACK
0.728131940000000,0,0x5D,0x08,Read,ACK
0.728153880000000,0,0x5D,0x03,Read,ACK
0.728175460000000,0,0x5D,0x03,Read,ACK
0.728196920000000,0,0x5D,0x20,Read,ACK
0.728218380000000,0,0x5D,0x13,Read,ACK
0.728239840000000,0,0x5D,0x14,Read,ACK
0.728261340000000,0,0x5D,0x05,Read,ACK
0.728282800000000,0,0x5D,0x50,Read,ACK
0.728304600000000,0,0x5D,0x05,Read,ACK
0.728326480000000,0,0x5D,0x04,Read,ACK
0.728348420000000,0,0x5D,0x03,Read,ACK
0.728369900000000,0,0x5D,0x20,Read,ACK
0.728391360000000,0,0x5D,0x00,Read,ACK
0.728412840000000,0,0x5D,0x00,Read,ACK
0.728434340000000,0,0x5D,0x00,Read,ACK
0.728455840000000,0,0x5D,0x00,Read,ACK
0.728477280000000,0,0x5D,0x00,Read,ACK
0.728499060000000,0,0x5D,0x00,Read,ACK
0.728520600000000,0,0x5D,0x00,Read,ACK
0.728542060000000,0,0x5D,0x00,Read,ACK
0.728563560000000,0,0x5D,0x00,Read,ACK
0.728586380000000,0,0x5D,0x00,Read,ACK
0.728607860000000,0,0x5D,0x00,Read,ACK
0.728629340000000,0,0x5D,0x00,Read,ACK
0.728650840000000,0,0x5D,0x00,Read,ACK
0.728672360000000,0,0x5D,0x00,Read,ACK
0.728693840000000,0,0x5D,0x00,Read,ACK
0.728715300000000,0,0x5D,0x00,Read,ACK
0.728736800000000,0,0x5D,0x00,Read,ACK
0.728758260000000,0,0x5D,0x00,Read,ACK
0.728779720000000,0,0x5D,0x00,Read,ACK
0.728801400000000,0,0x5D,0x00,Read,ACK
0.728822880000000,0,0x5D,0x00,Read,ACK
0.728844400000000,0,0x5D,0x00,Read,ACK
0.728865920000000,0,0x5D,0x00,Read,ACK
0.728887400000000,0,0x5D,0x00,Read,ACK
0.728912100000000,0,0x5D,0x10,Read,ACK
0.728933560000000,0,0x5D,0xA3,Read,ACK
0.728955000000000,0,0x5D,0x02,Read,ACK
0.728976440000000,0,0x5D,0x00,Read,ACK
0.728997900000000,0,0x5D,0x00,Read,ACK
0.729019360000000,0,0x5D,0x00,Read,ACK
0.729040880000000,0,0x5D,0x00,Read,ACK
0.729062380000000,0,0x5D,0x00,Read,ACK
0.729083860000000,0,0x5D,0x00,Read,ACK
0.729105360000000,0,0x5D,0x00,Read,ACK
0.729126800000000,0,0x5D,0x00,Read,ACK
0.729149860000000,0,0x5D,0x00,Read,ACK
0.729172520000000,0,0x5D,0x00,Read,ACK
0.729194200000000,0,0x5D,0x00,Read,ACK
0.729217280000000,0,0x5D,0x00,Read,ACK
0.729241800000000,0,0x5D,0x00,Read,ACK
0.729263240000000,0,0x5D,0x00,Read,ACK
0.729284680000000,0,0x5D,0x00,Read,ACK
0.729306140000000,0,0x5D,0x00,Read,ACK
0.729327600000000,0,0x5D,0x00,Read,ACK
0.729349080000000,0,0x5D,0x00,Read,NAK
0.735224460000000,0,0x5D,0x2F,Read,ACK
0.735246000000000,0,0x5D,0x00,Read,ACK
0.735267460000000,0,0x5D,0x04,Read,ACK
0.735289360000000,0,0x5D,0x03,Read,ACK
0.735310860000000,0,0x5D,0xFC,Read,ACK
0.735332780000000,0,0x5D,0x00,Read,ACK
0.735354280000000,0,0x5D,0xF3,Read,ACK
0.735375780000000,0,0x5D,0x08,Read,ACK
0.735397300000000,0,0x5D,0x03,Read,ACK
0.735418800000000,0,0x5D,0x03,Read,ACK
0.735440260000000,0,0x5D,0x20,Read,ACK
0.735461720000000,0,0x5D,0x13,Read,ACK
0.735483600000000,0,0x5D,0x12,Read,ACK
0.735506160000000,0,0x5D,0x05,Read,ACK
0.735527620000000,0,0x5D,0x4F,Read,ACK
0.735549100000000,0,0x5D,0x05,Read,ACK
0.735571500000000,0,0x5D,0x04,Read,ACK
0.735593520000000,0,0x5D,0x03,Read,ACK
0.735615000000000,0,0x5D,0x20,Read,ACK
0.735636480000000,0,0x5D,0x00,Read,ACK
0.735657960000000,0,0x5D,0x00,Read,ACK
0.735679480000000,0,0x5D,0x00,Read,ACK
0.735700920000000,0,0x5D,0x00,Read,ACK
0.735723600000000,0,0x5D,0x00,Read,ACK
0.735745580000000,0,0x5D,0x00,Read,ACK
0.735767280000000,0,0x5D,0x00,Read,ACK
0.735788740000000,0,0x5D,0x00,Read,ACK
0.735810240000000,0,0x5D,0x00,Read,ACK
0.735831700000000,0,0x5D,0x00,Read,ACK
0.735853200000000,0,0x5D,0x00,Read,ACK
0.735874680000000,0,0x5D,0x00,Read,ACK
0.735896120000000,0,0x5D,0x00,Read,ACK
0.735917580000000,0,0x5D,0x00,Read,ACK
0.735939100000000,0,0x5D,0x00,Read,ACK
0.735960600000000,0,0x5D,0x00,Read,ACK
0.735982060000000,0,0x5D,0x00,Read,ACK
0.736003520000000,0,0x5D,0x00,Read,ACK
0.736025020000000,0,0x5D,0x00,Read,ACK
0.736046480000000,0,0x5D,0x00,Read,ACK
0.736067940000000,0,0x5D,0x00,Read,ACK
0.736089380000000,0,0x5D,0x00,Read,ACK
0.736110840000000,0,0x5D,0x00,Read,ACK
0.736132320000000,0,0x5D,0x00,Read,ACK
0.736153820000000,0,0x5D,0x56,Read,ACK
0.736175320000000,0,0x5D,0xA3,Read,ACK
0.736196760000000,0,0x5D,0x02,Read,ACK
0.736218220000000,0,0x5D,0x00,Read,ACK
0.736239680000000,0,0x5D,0x00,Read,ACK
0.736261120000000,0,0x5D,0x00,Read,ACK
0.736284380000000,0,0x5D,0x00,Read,ACK
0.736308960000000,0,0x5D,0x00,Read,ACK
0.736330400000000,0,0x5D,0x00,Read,ACK
0.736353160000000,0,0x5D,0x00,Read,ACK
0.736374920000000,0,0x5D,0x00,Read,ACK
0.736396380000000,0,0x5D,0x00,Read,ACK
0.736419400000000,0,0x5D,0x00,Read,ACK
0.736440860000000,0,0x5D,0x00,Read,ACK
0.736462300000000,0,0x5D,0x00,Read,ACK
0.736483760000000,0,0x5D,0x00,Read,ACK
0.736505260000000,0,0x5D,0x00,Read,ACK
0.736526720000000,0,0x5D,0x00,Read,ACK
0.736548240000000,0,0x5D,0x00,Read,ACK
0.736569700000000,0,0x5D,0x00,Read,ACK
0.736592920000000,0,0x5D,0x00,Read,NAK
0.742442120000000,0,0x5D,0x2F,Read,ACK
0.742469140000000,0,0x5D,0x00,Read,ACK
0.742491500000000,0,0x5D,0x04,Read,ACK
0.742515580000000,0,0x5D,0x03,Read,ACK
0.742537040000000,0,0x5D,0xFC,Read,ACK
0.742558540000000,0,0x5D,0x00,Read,ACK
0.742580000000000,0,0x5D,0xF3,Read,ACK
0.742601440000000,0,0x5D,0x08,Read,ACK
0.742623240000000,0,0x5D,0x03,Read,ACK
0.742646440000000,0,0x5D,0x03,Read,ACK
0.742667920000000,0,0x5D,0x20,Read,ACK
0.742689400000000,0,0x5D,0x13,Read,ACK
0.742710840000000,0,0x5D,0x11,Read,ACK
0.742732500000000,0,0x5D,0x05,Read,ACK
0.742754720000000,0,0x5D,0x4F,Read,ACK
0.742776200000000,0,0x5D,0x05,Read,ACK
0.742797740000000,0,0x5D,0x04,Read,ACK
0.742819240000000,0,0x5D,0x03,Read,ACK
0.742840740000000,0,0x5D,0x20,Read,ACK
0.742862200000000,0,0x5D,0x00,Read,ACK
0.742883780000000,0,0x5D,0x00,Read,ACK
0.742905220000000,0,0x5D,0x00,Read,ACK
0.742926680000000,0,0x5D,0x00,Read,ACK
0.742948160000000,0,0x5D,0x00,Read,ACK
0.742969640000000,0,0x5D,0x00,Read,ACK
0.742991080000000,0,0x5D,0x00,Read,ACK
0.743012560000000,0,0x5D,0x00,Read,ACK
0.743034060000000,0,0x5D,0x00,Read,ACK
0.743055520000000,0,0x5D,0x00,Read,ACK
0.743076960000000,0,0x5D,0x00,Read,ACK
0.743098440000000,0,0x5D,0x00,Read,ACK
0.743119940000000,0,0x5D,0x00,Read,ACK
0.743141380000000,0,0x5D,0x00,Read,ACK
0.743162840000000,0,0x5D,0x00,Read,ACK
0.743184300000000,0,0x5D,0x00,Read,ACK
0.743206100000000,0,0x5D,0x00,Read,ACK
0.743228480000000,0,0x5D,0x00,Read,ACK
0.743249960000000,0,0x5D,0x00,Read,ACK
0.743271400000000,0,0x5D,0x00,Read,ACK
0.743292860000000,0,0x5D,0x00,Read,ACK
0.743314340000000,0,0x5D,0x00,Read,ACK
0.743335820000000,0,0x5D,0x00,Read,ACK
0.743357280000000,0,0x5D,0x00,Read,ACK
0.743378740000000,0,0x5D,0x9C,Read,ACK
0.743400240000000,0,0x5D,0xA3,Read,ACK
0.743421700000000,0,0x5D,0x02,Read,ACK
0.743443160000000,0,0x5D,0x00,Read,ACK
0.743464640000000,0,0x5D,0x00,Read,ACK
0.743486200000000,0,0x5D,0x00,Read,ACK
0.743508840000000,0,0x5D,0x00,Read,ACK
0.743532360000000,0,0x5D,0x00,Read,ACK
0.743555200000000,0,0x5D,0x00,Read,ACK
0.743577120000000,0,0x5D,0x00,Read,ACK
0.743598740000000,0,0x5D,0x00,Read,ACK
0.743620200000000,0,0x5D,0x00,Read,ACK
0.743641640000000,0,0x5D,0x00,Read,ACK
0.743663100000000,0,0x5D,0x00,Read,ACK
0.743685520000000,0,0x5D,0x00,Read,ACK
0.743707020000000,0,0x5D,0x00,Read,ACK
0.743728480000000,0,0x5D,0x00,Read,ACK
0.743749960000000,0,0x5D,0x00,Read,ACK
0.743772240000000,0,0x5D,0x00,Read,ACK
0.743795400000000,0,0x5D,0x00,Read,ACK
0.743816880000000,0,0x5D,0x00,Read,NAK
0.749592360000000,0,0x5D,0x2F,Read,ACK
0.749618260000000,0,0x5D,0x00,Read,ACK
0.749643480000000,0,0x5D,0x04,Read,ACK
0.749665000000000,0,0x5D,0x03,Read,ACK
0.749686480000000,0,0x5D,0xFC,Read,ACK
0.749707960000000,0,0x5D,0x00,Read,ACK
0.749729400000000,0,0x5D,0xF3,Read,ACK
0.749750940000000,0,0x5D,0x08,Read,ACK
0.749772620000000,0,0x5D,0x02,Read,ACK
0.749794060000000,0,0x5D,0x03,Read,ACK
0.749815520000000,0,0x5D,0x20,Read,ACK
0.749836960000000,0,0x5D,0x13,Read,ACK
0.749858440000000,0,0x5D,0x0F,Read,ACK
0.749881220000000,0,0x5D,0x05,Read,ACK
0.749902700000000,0,0x5D,0x4F,Read,ACK
0.749924320000000,0,0x5D,0x05,Read,ACK
0.749945800000000,0,0x5D,0x04,Read,ACK
0.749967240000000,0,0x5D,0x03,Read,ACK
0.749989660000000,0,0x5D,0x20,Read,ACK
0.750011760000000,0,0x5D,0x00,Read,ACK
0.750033220000000,0,0x5D,0x00,Read,ACK
0.750054680000000,0,0x5D,0x00,Read,ACK
0.750076120000000,0,0x5D,0x00,Read,ACK
0.750097580000000,0,0x5D,0x00,Read,ACK
0.750119040000000,0,0x5D,0x00,Read,ACK
0.750140480000000,0,0x5D,0x00,Read,ACK
0.750161940000000,0,0x5D,0x00,Read,ACK
0.750183400000000,0,0x5D,0x00,Read,ACK
0.750204920000000,0,0x5D,0x00,Read,ACK
0.750226420000000,0,0x5D,0x00,Read,ACK
0.750247900000000,0,0x5D,0x00,Read,ACK
0.750269400000000,0,0x5D,0x00,Read,ACK
0.750290840000000,0,0x5D,0x00,Read,ACK
0.750312300000000,0,0x5D,0x00,Read,ACK
0.750333800000000,0,0x5D,0x00,Read,ACK
0.750355260000000,0,0x5D,0x00,Read,ACK
0.750377620000000,0,0x5D,0x00,Read,ACK
0.750399120000000,0,0x5D,0x00,Read,ACK
0.750420600000000,0,0x5D,0x00,Read,ACK
0.750442080000000,0,0x5D,0x00,Read,ACK
0.750463580000000,0,0x5D,0x00,Read,ACK
0.750485160000000,0,0x5D,0x00,Read,ACK
0.750506660000000,0,0x5D,0x00,Read,ACK
0.750528100000000,0,0x5D,0xE2,Read,ACK
0.750549560000000,0,0x5D,0xA3,Read,ACK
0.750571020000000,0,0x5D,0x02,Read,ACK
0.750592540000000,0,0x5D,0x00,Read,ACK
0.750614060000000,0,0x5D,0x00,Read,ACK
0.750638720000000,0,0x5D,0x00,Read,ACK
0.750661660000000,0,0x5D,0x00,Read,ACK
0.750683260000000,0,0x5D,0x00,Read,ACK
0.750705400000000,0,0x5D,0x00,Read,ACK
0.750727160000000,0,0x5D,0x00,Read,ACK
0.750748740000000,0,0x5D,0x00,Read,ACK
0.750770260000000,0,0x5D,0x00,Read,ACK
0.750792600000000,0,0x5D,0x00,Read,ACK
0.750814120000000,0,0x5D,0x00,Read,ACK
0.750835600000000,0,0x5D,0x00,Read,ACK
0.750857080000000,0,0x5D,0x00,Read,ACK
0.750881680000000,0,0x5D,0x00,Read,ACK
0.750903960000000,0,0x5D,0x00,Read,ACK
0.750926640000000,0,0x5D,0x00,Read,ACK
0.750948120000000,0,0x5D,0x00,Read,ACK
0.750969580000000,0,0x5D,0x00,Read,NAK
0.756485540000000,0,0x5D,0x2F,Read,ACK
0.756512460000000,0,0x5D,0x00,Read,ACK
0.756535140000000,0,0x5D,0x04,Read,ACK
0.756557520000000,0,0x5D,0x03,Read,ACK
0.756579000000000,0,0x5D,0xFC,Read,ACK
0.756600460000000,0,0x5D,0x00,Read,ACK
0.756621960000000,0,0x5D,0xF3,Read,ACK
0.756643420000000,0,0x5D,0x08,Read,ACK
0.756664880000000,0,0x5D,0x02,Read,ACK
0.756686380000000,0,0x5D,0x03,Read,ACK
0.756707840000000,0,0x5D,0x20,Read,ACK
0.756729300000000,0,0x5D,0x13,Read,ACK
0.756752660000000,0,0x5D,0x0D,Read,ACK
0.756774980000000,0,0x5D,0x05,Read,ACK
0.756797200000000,0,0x5D,0x4F,Read,ACK
0.756818660000000,0,0x5D,0x05,Read,ACK
0.756840100000000,0,0x5D,0x04,Read,ACK
0.756861560000000,0,0x5D,0x03,Read,ACK
0.756883020000000,0,0x5D,0x20,Read,ACK
0.756904440000000,0,0x5D,0x00,Read,ACK
0.756925900000000,0,0x5D,0x00,Read,ACK
0.756948060000000,0,0x5D,0x00,Read,ACK
0.756969540000000,0,0x5D,0x00,Read,ACK
0.756991000000000,0,0x5D,0x00,Read,ACK
0.757012480000000,0,0x5D,0x00,Read,ACK
0.757033960000000,0,0x5D,0x00,Read,ACK
0.757056420000000,0,0x5D,0x00,Read,ACK
0.757077980000000,0,0x5D,0x00,Read,ACK
0.757099440000000,0,0x5D,0x00,Read,ACK
0.757120900000000,0,0x5D,0x00,Read,ACK
0.757142340000000,0,0x5D,0x00,Read,ACK
0.757163800000000,0,0x5D,0x00,Read,ACK
0.757185240000000,0,0x5D,0x00,Read,ACK
0.757207620000000,0,0x5D,0x00,Read,ACK
0.757229080000000,0,0x5D,0x00,Read,ACK
0.757250540000000,0,0x5D,0x00,Read,ACK
0.757272000000000,0,0x5D,0x00,Read,ACK
0.757293500000000,0,0x5D,0x00,Read,ACK
0.757314960000000,0,0x5D,0x00,Read,ACK
0.757336460000000,0,0x5D,0x00,Read,ACK
0.757357920000000,0,0x5D,0x00,Read,ACK
0.757379440000000,0,0x5D,0x00,Read,ACK
0.757400880000000,0,0x5D,0x00,Read,ACK
0.757422340000000,0,0x5D,0x28,Read,ACK
0.757443820000000,0,0x5D,0xA4,Read,ACK
0.757465300000000,0,0x5D,0x02,Read,ACK
0.757486780000000,0,0x5D,0x00,Read,ACK
0.757508580000000,0,0x5D,0x00,Read,ACK
0.757530500000000,0,0x5D,0x00,Read,ACK
0.757551980000000,0,0x5D,0x00,Read,ACK
0.757573500000000,0,0x5D,0x00,Read,ACK
0.757594940000000,0,0x5D,0x00,Read,ACK
0.757616400000000,0,0x5D,0x00,Read,ACK
0.757637840000000,0,0x5D,0x00,Read,ACK
0.757659320000000,0,0x5D,0x00,Read,ACK
0.757680840000000,0,0x5D,0x00,Read,ACK
0.757702420000000,0,0x5D,0x00,Read,ACK
0.757723900000000,0,0x5D,0x00,Read,ACK
0.757745360000000,0,0x5D,0x00,Read,ACK
0.757769500000000,0,0x5D,0x00,Read,ACK
0.757791920000000,0,0x5D,0x00,Read,ACK
0.757814920000000,0,0x5D,0x00,Read,ACK
0.757837000000000,0,0x5D,0x00,Read,ACK
0.757858480000000,0,0x5D,0x00,Read,NAK
0.763652420000000,0,0x5D,0x2F,Read,ACK
0.763677320000000,0,0x5D,0x00,Read,ACK
0.763698820000000,0,0x5D,0x04,Read,ACK
0.763720260000000,0,0x5D,0x03,Read,ACK
0.763741720000000,0,0x5D,0xFC,Read,ACK
0.763763180000000,0,0x5D,0x00,Read,ACK
0.763784640000000,0,0x5D,0xF3,Read,ACK
0.763806120000000,0,0x5D,0x08,Read,ACK
0.763827580000000,0,0x5D,0x02,Read,ACK
0.763849060000000,0,0x5D,0x03,Read,ACK
0.763870560000000,0,0x5D,0x20,Read,ACK
0.763893120000000,0,0x5D,0x13,Read,ACK
0.763915060000000,0,0x5D,0x0C,Read,ACK
0.763937560000000,0,0x5D,0x05,Read,ACK
0.763960780000000,0,0x5D,0x4F,Read,ACK
0.763982240000000,0,0x5D,0x05,Read,ACK
0.764003720000000,0,0x5D,0x04,Read,ACK
0.764025240000000,0,0x5D,0x03,Read,ACK
0.764046760000000,0,0x5D,0x20,Read,ACK
0.764068840000000,0,0x5D,0x00,Read,ACK
0.764090320000000,0,0x5D,0x00,Read,ACK
0.764111780000000,0,0x5D,0x00,Read,ACK
0.764133240000000,0,0x5D,0x00,Read,ACK
0.764154700000000,0,0x5D,0x00,Read,ACK
0.764176620000000,0,0x5D,0x00,Read,ACK
0.764199440000000,0,0x5D,0x00,Read,ACK
0.764220940000000,0,0x5D,0x00,Read,ACK
0.764242520000000,0,0x5D,0x00,Read,ACK
0.764264020000000,0,0x5D,0x00,Read,ACK
0.764285460000000,0,0x5D,0x00,Read,ACK
0.764307680000000,0,0x5D,0x00,Read,ACK
0.764329700000000,0,0x5D,0x00,Read,ACK
0.764351160000000,0,0x5D,0x00,Read,ACK
0.764372660000000,0,0x5D,0x00,Read,ACK
0.764394180000000,0,0x5D,0x00,Read,ACK
0.764415620000000,0,0x5D,0x00,Read,ACK
0.764437080000000,0,0x5D,0x00,Read,ACK
0.764458680000000,0,0x5D,0x00,Read,ACK
0.764480180000000,0,0x5D,0x00,Read,ACK
0.764501620000000,0,0x5D,0x00,Read,ACK
0.764523080000000,0,0x5D,0x00,Read,ACK
0.764544520000000,0,0x5D,0x00,Read,ACK
0.764565980000000,0,0x5D,0x00,Read,ACK
0.764587440000000,0,0x5D,0x6E,Read,ACK
0.764608880000000,0,0x5D,0xA4,Read,ACK
0.764630360000000,0,0x5D,0x02,Read,ACK
0.764651860000000,0,0x5D,0x00,Read,ACK
0.764673300000000,0,0x5D,0x00,Read,ACK
0.764694800000000,0,0x5D,0x00,Read,ACK
0.764717100000000,0,0x5D,0x00,Read,ACK
0.764738600000000,0,0x5D,0x00,Read,ACK
0.764760080000000,0,0x5D,0x00,Read,ACK
0.764781580000000,0,0x5D,0x00,Read,ACK
0.764803040000000,0,0x5D,0x00,Read,ACK
0.764824520000000,0,0x5D,0x00,Read,ACK
0.764846020000000,0,0x5D,0x00,Read,ACK
0.764867520000000,0,0x5D,0x00,Read,ACK
0.764889020000000,0,0x5D,0x00,Read,ACK
0.764910480000000,0,0x5D,0x00,Read,ACK
0.764931920000000,0,0x5D,0x00,Read,ACK
0.764957320000000,0,0x5D,0x00,Read,ACK
0.764980400000000,0,0x5D,0x00,Read,ACK
0.765002080000000,0,0x5D,0x00,Read,ACK
0.765025000000000,0,0x5D,0x00,Read,NAK
0.770918720000000,0,0x5D,0x2F,Read,ACK
0.770941540000000,0,0x5D,0x00,Read,ACK
0.770963040000000,0,0x5D,0x04,Read,ACK
0.770984480000000,0,0x5D,0x03,Read,ACK
0.771005940000000,0,0x5D,0xFC,Read,ACK
0.771027760000000,0,0x5D,0x00,Read,ACK
0.771049440000000,0,0x5D,0xF3,Read,ACK
0.771072140000000,0,0x5D,0x08,Read,ACK
0.771093620000000,0,0x5D,0x02,Read,ACK
0.771115060000000,0,0x5D,0x03,Read,ACK
0.771136520000000,0,0x5D,0x20,Read,ACK
0.771158020000000,0,0x5D,0x13,Read,ACK
0.771179780000000,0,0x5D,0x0A,Read,ACK
0.771202400000000,0,0x5D,0x05,Read,ACK
0.771223880000000,0,0x5D,0x4E,Read,ACK
0.771245460000000,0,0x5D,0x05,Read,ACK
0.771266920000000,0,0x5D,0x04,Read,ACK
0.771288400000000,0,0x5D,0x03,Read,ACK
0.771309880000000,0,0x5D,0x20,Read,ACK
0.771332760000000,0,0x5D,0x00,Read,ACK
0.771354220000000,0,0x5D,0x00,Read,ACK
0.771375660000000,0,0x5D,0x00,Read,ACK
0.771397120000000,0,0x5D,0x00,Read,ACK
0.771418660000000,0,0x5D,0x00,Read,ACK
0.771440140000000,0,0x5D,0x00,Read,ACK
0.771461600000000,0,0x5D,0x00,Read,ACK
0.771483040000000,0,0x5D,0x00,Read,ACK
0.771504720000000,0,0x5D,0x00,Read,ACK
0.771526200000000,0,0x5D,0x00,Read,ACK
0.771547640000000,0,0x5D,0x00,Read,ACK
0.771569100000000,0,0x5D,0x00,Read,ACK
0.771590560000000,0,0x5D,0x00,Read,ACK
0.771612020000000,0,0x5D,0x00,Read,ACK
0.771633440000000,0,0x5D,0x00,Read,ACK
0.771654940000000,0,0x5D,0x00,Read,ACK
0.771676420000000,0,0x5D,0x00,Read,ACK
0.771697880000000,0,0x5D,0x00,Read,ACK
0.771719360000000,0,0x5D,0x00,Read,ACK
0.771740840000000,0,0x5D,0x00,Read,ACK
0.771762360000000,0,0x5D,0x00,Read,ACK
0.771783860000000,0,0x5D,0x00,Read,ACK
0.771805320000000,0,0x5D,0x00,Read,ACK
0.771826780000000,0,0x5D,0x00,Read,ACK
0.771848300000000,0,0x5D,0xB4,Read,ACK
0.771869780000000,0,0x5D,0xA4,Read,ACK
0.771891260000000,0,0x5D,0x02,Read,ACK
0.771912760000000,0,0x5D,0x00,Read,ACK
0.771934220000000,0,0x5D,0x00,Read,ACK
0.771955740000000,0,0x5D,0x00,Read,ACK
0.771977240000000,0,0x5D,0x00,Read,ACK
0.771998760000000,0,0x5D,0x00,Read,ACK
0.772020500000000,0,0x5D,0x00,Read,ACK
0.772041980000000,0,0x5D,0x00,Read,ACK
0.772063480000000,0,0x5D,0x00,Read,ACK
0.772088900000000,0,0x5D,0x00,Read,ACK
0.772110400000000,0,0x5D,0x00,Read,ACK
0.772131880000000,0,0x5D,0x00,Read,ACK
0.772153540000000,0,0x5D,0x00,Read,ACK
0.772175400000000,0,0x5D,0x00,Read,ACK
0.772198120000000,0,0x5D,0x00,Read,ACK
0.772219660000000,0,0x5D,0x00,Read,ACK
0.772241140000000,0,0x5D,0x00,Read,ACK
0.772264260000000,0,0x5D,0x00,Read,ACK
0.772285720000000,0,0x5D,0x00,Read,NAK
0.777973320000000,0,0x5D,0x2F,Read,ACK
0.777996560000000,0,0x5D,0x00,Read,ACK
0.778018060000000,0,0x5D,0x04,Read,ACK
0.778039540000000,0,0x5D,0x03,Read,ACK
0.778061020000000,0,0x5D,0xFC,Read,ACK
0.778082480000000,0,0x5D,0x00,Read,ACK
0.778103980000000,0,0x5D,0xF3,Read,ACK
0.778125440000000,0,0x5D,0x08,Read,ACK
0.778146960000000,0,0x5D,0x02,Read,ACK
0.778169080000000,0,0x5D,0x03,Read,ACK
0.778190580000000,0,0x5D,0x20,Read,ACK
0.778212440000000,0,0x5D,0x13,Read,ACK
0.778233900000000,0,0x5D,0x08,Read,ACK
0.778255380000000,0,0x5D,0x05,Read,ACK
0.778276880000000,0,0x5D,0x4E,Read,ACK
0.778298380000000,0,0x5D,0x05,Read,ACK
0.778319820000000,0,0x5D,0x04,Read,ACK
0.778343420000000,0,0x5D,0x03,Read,ACK
0.778365060000000,0,0x5D,0x20,Read,ACK
0.778386500000000,0,0x5D,0x00,Read,ACK
0.778407940000000,0,0x5D,0x00,Read,ACK
0.778429420000000,0,0x5D,0x00,Read,ACK
0.778450860000000,0,0x5D,0x00,Read,ACK
0.778473580000000,0,0x5D,0x00,Read,ACK
0.778495080000000,0,0x5D,0x00,Read,ACK
0.778517080000000,0,0x5D,0x00,Read,ACK
0.778538720000000,0,0x5D,0x00,Read,ACK
0.778560220000000,0,0x5D,0x00,Read,ACK
0.778581720000000,0,0x5D,0x00,Read,ACK
0.778603620000000,0,0x5D,0x00,Read,ACK
0.778625100000000,0,0x5D,0x00,Read,ACK
0.778646540000000,0,0x5D,0x00,Read,ACK
0.778668000000000,0,0x5D,0x00,Read,ACK
0.778689460000000,0,0x5D,0x00,Read,ACK
0.778710920000000,0,0x5D,0x00,Read,ACK
0.778732560000000,0,0x5D,0x00,Read,ACK
0.778754060000000,0,0x5D,0x00,Read,ACK
0.778775520000000,0,0x5D,0x00,Read,ACK
0.778796980000000,0,0x5D,0x00,Read,ACK
0.778818420000000,0,0x5D,0x00,Read,ACK
0.778839880000000,0,0x5D,0x00,Read,ACK
0.778861340000000,0,0x5D,0x00,Read,ACK
0.778882800000000,0,0x5D,0x00,Read,ACK
0.778904480000000,0,0x5D,0xFA,Read,ACK
0.778925940000000,0,0x5D,0xA4,Read,ACK
0.778947460000000,0,0x5D,0x02,Read,ACK
0.778968900000000,0,0x5D,0x00,Read,ACK
0.778990360000000,0,0x5D,0x00,Read,ACK
0.779012100000000,0,0x5D,0x00,Read,ACK
0.779033580000000,0,0x5D,0x00,Read,ACK
0.779055020000000,0,0x5D,0x00,Read,ACK
0.779076480000000,0,0x5D,0x00,Read,ACK
0.779097920000000,0,0x5D,0x00,Read,ACK
0.779119400000000,0,0x5D,0x00,Read,ACK
0.779140860000000,0,0x5D,0x00,Read,ACK
0.779167020000000,0,0x5D,0x00,Read,ACK
0.779188520000000,0,0x5D,0x00,Read,ACK
0.779210020000000,0,0x5D,0x00,Read,ACK
0.779233120000000,0,0x5D,0x00,Read,ACK
0.779255620000000,0,0x5D,0x00,Read,ACK
0.779279400000000,0,0x5D,0x00,Read,ACK
0.779301080000000,0,0x5D,0x00,Read,ACK
0.779322560000000,0,0x5D,0x00,Read,ACK
0.779344000000000,0,0x5D,0x00,Read,NAK
0.785470880000000,0,0x5D,0x2F,Read,ACK
0.785495520000000,0,0x5D,0x00,Read,ACK
0.785517300000000,0,0x5D,0x04,Read,ACK
0.785539900000000,0,0x5D,0x03,Read,ACK
0.785561360000000,0,0x5D,0xFC,Read,ACK
0.785583740000000,0,0x5D,0x00,Read,ACK
0.785605220000000,0,0x5D,0xF3,Read,ACK
0.785626720000000,0,0x5D,0x08,Read,ACK
0.785648180000000,0,0x5D,0x02,Read,ACK
0.785669620000000,0,0x5D,0x03,Read,ACK
0.785691120000000,0,0x5D,0x20,Read,ACK
0.785712600000000,0,0x5D,0x13,Read,ACK
0.785734240000000,0,0x5D,0x06,Read,ACK
0.785755700000000,0,0x5D,0x05,Read,ACK
0.785777140000000,0,0x5D,0x4D,Read,ACK
0.785798620000000,0,0x5D,0x05,Read,ACK
0.785820100000000,0,0x5D,0x04,Read,ACK
0.785841900000000,0,0x5D,0x03,Read,ACK
0.785863400000000,0,0x5D,0x20,Read,ACK
0.785884860000000,0,0x5D,0x00,Read,ACK
0.785906300000000,0,0x5D,0x00,Read,ACK
0.785927800000000,0,0x5D,0x00,Read,ACK
0.785949280000000,0,0x5D,0x00,Read,ACK
0.785970720000000,0,0x5D,0x00,Read,ACK
0.785992180000000,0,0x5D,0x00,Read,ACK
0.786013660000000,0,0x5D,0x00,Read,ACK
0.786035260000000,0,0x5D,0x00,Read,ACK
0.786056720000000,0,0x5D,0x00,Read,ACK
0.786078180000000,0,0x5D,0x00,Read,ACK
0.786099660000000,0,0x5D,0x00,Read,ACK
0.786121140000000,0,0x5D,0x00,Read,ACK
0.786142580000000,0,0x5D,0x00,Read,ACK
0.786164040000000,0,0x5D,0x00,Read,ACK
0.786185480000000,0,0x5D,0x00,Read,ACK
0.786207060000000,0,0x5D,0x00,Read,ACK
0.786228520000000,0,0x5D,0x00,Read,ACK
0.786249980000000,0,0x5D,0x00,Read,ACK
0.786271480000000,0,0x5D,0x00,Read,ACK
0.786295640000000,0,0x5D,0x00,Read,ACK
0.786317140000000,0,0x5D,0x00,Read,ACK
0.786338600000000,0,0x5D,0x00,Read,ACK
0.786360240000000,0,0x5D,0x00,Read,ACK
0.786382000000000,0,0x5D,0x00,Read,ACK
0.786404100000000,0,0x5D,0x40,Read,ACK
0.786425660000000,0,0x5D,0xA5,Read,ACK
0.786447180000000,0,0x5D,0x02,Read,ACK
0.786468680000000,0,0x5D,0x00,Read,ACK
0.786490140000000,0,0x5D,0x00,Read,ACK
0.786511580000000,0,0x5D,0x00,Read,ACK
0.786533040000000,0,0x5D,0x00,Read,ACK
0.786555440000000,0,0x5D,0x00,Read,ACK
0.786576880000000,0,0x5D,0x00,Read,ACK
0.786598820000000,0,0x5D,0x00,Read,ACK
0.786622280000000,0,0x5D,0x00,Read,ACK
0.786644420000000,0,0x5D,0x00,Read,ACK
0.786665880000000,0,0x5D,0x00,Read,ACK
0.786687800000000,0,0x5D,0x00,Read,ACK
0.786709280000000,0,0x5D,0x00,Read,ACK
0.786731220000000,0,0x5D,0x00,Read,ACK
0.786752680000000,0,0x5D,0x00,Read,ACK
0.786775900000000,0,0x5D,0x00,Read,ACK
0.786797400000000,0,0x5D,0x00,Read,ACK
0.786818920000000,0,0x5D,0x00,Read,ACK
0.786844440000000,0,0x5D,0x00,Read,NAK
0.792242420000000,0,0x5D,0x2F,Read,ACK
0.792267880000000,0,0x5D,0x00,Read,ACK
0.792289360000000,0,0x5D,0x04,Read,ACK
0.792311040000000,0,0x5D,0x03,Read,ACK
0.792332500000000,0,0x5D,0xFC,Read,ACK
0.792353940000000,0,0x5D,0x00,Read,ACK
0.792375420000000,0,0x5D,0xF3,Read,ACK
0.792396920000000,0,0x5D,0x08,Read,ACK
0.792418360000000,0,0x5D,0x02,Read,ACK
0.792439980000000,0,0x5D,0x03,Read,ACK
0.792461940000000,0,0x5D,0x20,Read,ACK
0.792483700000000,0,0x5D,0x13,Read,ACK
0.792506580000000,0,0x5D,0x04,Read,ACK
0.792528060000000,0,0x5D,0x05,Read,ACK
0.792549520000000,0,0x5D,0x4D,Read,ACK
0.792571020000000,0,0x5D,0x05,Read,ACK
0.792592480000000,0,0x5D,0x04,Read,ACK
0.792613940000000,0,0x5D,0x03,Read,ACK
0.792635660000000,0,0x5D,0x20,Read,ACK
0.792658320000000,0,0x5D,0x00,Read,ACK
0.792679780000000,0,0x5D,0x00,Read,ACK
0.792701240000000,0,0x5D,0x00,Read,ACK
0.792722700000000,0,0x5D,0x00,Read,ACK
0.792744900000000,0,0x5D,0x00,Read,ACK
0.792766400000000,0,0x5D,0x00,Read,ACK
0.792787880000000,0,0x5D,0x00,Read,ACK
0.792809360000000,0,0x5D,0x00,Read,ACK
0.792830820000000,0,0x5D,0x00,Read,ACK
0.792852300000000,0,0x5D,0x00,Read,ACK
0.792873960000000,0,0x5D,0x00,Read,ACK
0.792895440000000,0,0x5D,0x00,Read,ACK
0.792916960000000,0,0x5D,0x00,Read,ACK
0.792938460000000,0,0x5D,0x00,Read,ACK
0.792959920000000,0,0x5D,0x00,Read,ACK
0.792981380000000,0,0x5D,0x00,Read,ACK
0.793002880000000,0,0x5D,0x00,Read,ACK
0.793024340000000,0,0x5D,0x00,Read,ACK
0.793045780000000,0,0x5D,0x00,Read,ACK
0.793067240000000,0,0x5D,0x00,Read,ACK
0.793088700000000,0,0x5D,0x00,Read,ACK
0.793110160000000,0,0x5D,0x00,Read,ACK
0.793131600000000,0,0x5D,0x00,Read,ACK
0.793153060000000,0,0x5D,0x00,Read,ACK
0.793174500000000,0,0x5D,0x86,Read,ACK
0.793196540000000,0,0x5D,0xA5,Read,ACK
0.793218040000000,0,0x5D,0x02,Read,ACK
0.793239660000000,0,0x5D,0x00,Read,ACK
0.793261140000000,0,0x5D,0x00,Read,ACK
0.793282620000000,0,0x5D,0x00,Read,ACK
0.793304700000000,0,0x5D,0x00,Read,ACK
0.793326200000000,0,0x5D,0x00,Read,ACK
0.793347640000000,0,0x5D,0x00,Read,ACK
0.793369080000000,0,0x5D,0x00,Read,ACK
0.793390540000000,0,0x5D,0x00,Read,ACK
0.793412020000000,0,0x5D,0x00,Read,ACK
0.793433520000000,0,0x5D,0x00,Read,ACK
0.793455020000000,0,0x5D,0x00,Read,ACK
0.793477920000000,0,0x5D,0x00,Read,ACK
0.793499460000000,0,0x5D,0x00,Read,ACK
0.793521340000000,0,0x5D,0x00,Read,ACK
0.793545020000000,0,0x5D,0x00,Read,ACK
0.793566480000000,0,0x5D,0x00,Read,ACK
0.793587940000000,0,0x5D,0x00,Read,ACK
0.793609400000000,0,0x5D,0x00,Read,NAK
0.799448140000000,0,0x5D,0x2F,Read,ACK
0.799471380000000,0,0x5D,0x00,Read,ACK
0.799492880000000,0,0x5D,0x04,Read,ACK
0.799514340000000,0,0x5D,0x03,Read,ACK
0.799535800000000,0,0x5D,0xFC,Read,ACK
0.799557300000000,0,0x5D,0x00,Read,ACK
0.799578760000000,0,0x5D,0xF3,Read,ACK
0.799600220000000,0,0x5D,0x08,Read,ACK
0.799622140000000,0,0x5D,0x02,Read,ACK
0.799643620000000,0,0x5D,0x03,Read,ACK
0.799668060000000,0,0x5D,0x20,Read,ACK
0.799689520000000,0,0x5D,0x13,Read,ACK
0.799710980000000,0,0x5D,0x03,Read,ACK
0.799732500000000,0,0x5D,0x05,Read,ACK
0.799753960000000,0,0x5D,0x4D,Read,ACK
0.799776940000000,0,0x5D,0x05,Read,ACK
0.799799400000000,0,0x5D,0x04,Read,ACK
0.799820880000000,0,0x5D,0x03,Read,ACK
0.799842340000000,0,0x5D,0x20,Read,ACK
0.799864000000000,0,0x5D,0x00,Read,ACK
0.799885500000000,0,0x5D,0x00,Read,ACK
0.799907260000000,0,0x5D,0x00,Read,ACK
0.799928700000000,0,0x5D,0x00,Read,ACK
0.799950860000000,0,0x5D,0x00,Read,ACK
0.799972580000000,0,0x5D,0x00,Read,ACK
0.799994300000000,0,0x5D,0x00,Read,ACK
0.800017060000000,0,0x5D,0x00,Read,ACK
0.800038580000000,0,0x5D,0x00,Read,ACK
0.800060940000000,0,0x5D,0x00,Read,ACK
0.800082440000000,0,0x5D,0x00,Read,ACK
0.800103900000000,0,0x5D,0x00,Read,ACK
0.800125440000000,0,0x5D,0x00,Read,ACK
0.800146920000000,0,0x5D,0x00,Read,ACK
0.800168380000000,0,0x5D,0x00,Read,ACK
0.800189840000000,0,0x5D,0x00,Read,ACK
0.800211380000000,0,0x5D,0x00,Read,ACK
0.800232900000000,0,0x5D,0x00,Read,ACK
0.800254380000000,0,0x5D,0x00,Read,ACK
0.800275820000000,0,0x5D,0x00,Read,ACK
0.800297280000000,0,0x5D,0x00,Read,ACK
0.800318760000000,0,0x5D,0x00,Read,ACK
0.800340600000000,0,0x5D,0x00,Read,ACK
0.800362080000000,0,0x5D,0x00,Read,ACK
0.800383840000000,0,0x5D,0xCC,Read,ACK
0.800405300000000,0,0x5D,0xA5,Read,ACK
0.800428000000000,0,0x5D,0x02,Read,ACK
0.800449460000000,0,0x5D,0x00,Read,ACK
0.800470920000000,0,0x5D,0x00,Read,ACK
0.800492380000000,0,0x5D,0x00,Read,ACK
0.800513840000000,0,0x5D,0x00,Read,ACK
0.800535340000000,0,0x5D,0x00,Read,ACK
0.800556780000000,0,0x5D,0x00,Read,ACK
0.800578260000000,0,0x5D,0x00,Read,ACK
0.800599780000000,0,0x5D,0x00,Read,ACK
0.800622540000000,0,0x5D,0x00,Read,ACK
0.800644000000000,0,0x5D,0x00,Read,ACK
0.800666080000000,0,0x5D,0x00,Read,ACK
0.800688360000000,0,0x5D,0x00,Read,ACK
0.800709860000000,0,0x5D,0x00,Read,ACK
0.800731360000000,0,0x5D,0x00,Read,ACK
0.800753300000000,0,0x5D,0x00,Read,ACK
0.800776100000000,0,0x5D,0x00,Read,ACK
0.800797900000000,0,0x5D,0x00,Read,ACK
0.800819780000000,0,0x5D,0x00,Read,NAK
0.806536220000000,0,0x5D,0x2F,Read,ACK
0.806561700000000,0,0x5D,0x00,Read,ACK
0.806583180000000,0,0x5D,0x04,Read,ACK
0.806604640000000,0,0x5D,0x03,Read,ACK
0.806626100000000,0,0x5D,0xFC,Read,ACK
0.806647540000000,0,0x5D,0x00,Read,ACK
0.806669000000000,0,0x5D,0xF3,Read,ACK
0.806690440000000,0,0x5D,0x08,Read,ACK
0.806711920000000,0,0x5D,0x02,Read,ACK
0.806733420000000,0,0x5D,0x03,Read,ACK
0.806754880000000,0,0x5D,0x20,Read,ACK
0.806777240000000,0,0x5D,0x13,Read,ACK
0.806798800000000,0,0x5D,0x00,Read,ACK
0.806820320000000,0,0x5D,0x05,Read,ACK
0.806841800000000,0,0x5D,0x4C,Read,ACK
0.806863260000000,0,0x5D,0x05,Read,ACK
0.806884740000000,0,0x5D,0x04,Read,ACK
0.806906220000000,0,0x5D,0x03,Read,ACK
0.806928400000000,0,0x5D,0x20,Read,ACK
0.806950780000000,0,0x5D,0x00,Read,ACK
0.806972280000000,0,0x5D,0x00,Read,ACK
0.806994600000000,0,0x5D,0x00,Read,ACK
0.807016100000000,0,0x5D,0x00,Read,ACK
0.807037580000000,0,0x5D,0x00,Read,ACK
0.807059080000000,0,0x5D,0x00,Read,ACK
0.807081600000000,0,0x5D,0x00,Read,ACK
0.807103100000000,0,0x5D,0x00,Read,ACK
0.807124600000000,0,0x5D,0x00,Read,ACK
0.807146060000000,0,0x5D,0x00,Read,ACK
0.807167520000000,0,0x5D,0x00,Read,ACK
0.807189440000000,0,0x5D,0x00,Read,ACK
0.807211220000000,0,0x5D,0x00,Read,ACK
0.807232700000000,0,0x5D,0x00,Read,ACK
0.807254200000000,0,0x5D,0x00,Read,ACK
0.807275660000000,0,0x5D,0x00,Read,ACK
0.807297100000000,0,0x5D,0x00,Read,ACK
0.807318560000000,0,0x5D,0x00,Read,ACK
0.807340020000000,0,0x5D,0x00,Read,ACK
0.807361480000000,0,0x5D,0x00,Read,ACK
0.807382920000000,0,0x5D,0x00,Read,ACK
0.807404380000000,0,0x5D,0x00,Read,ACK
0.807425820000000,0,0x5D,0x00,Read,ACK
0.807447500000000,0,0x5D,0x00,Read,ACK
0.807468980000000,0,0x5D,0x12,Read,ACK
0.807490440000000,0,0x5D,0xA6,Read,ACK
0.807511900000000,0,0x5D,0x02,Read,ACK
0.807533400000000,0,0x5D,0x00,Read,ACK
0.807554860000000,0,0x5D,0x00,Read,ACK
0.807576320000000,0,0x5D,0x00,Read,ACK
0.807597820000000,0,0x5D,0x00,Read,ACK
0.807619280000000,0,0x5D,0x00,Read,ACK
0.807640720000000,0,0x5D,0x00,Read,ACK
0.807662200000000,0,0x5D,0x00,Read,ACK
0.807683700000000,0,0x5D,0x00,Read,ACK
0.807705300000000,0,0x5D,0x00,Read,ACK
0.807726800000000,0,0x5D,0x00,Read,ACK
0.807748240000000,0,0x5D,0x00,Read,ACK
0.807769700000000,0,0x5D,0x00,Read,ACK
0.807791220000000,0,0x5D,0x00,Read,ACK
0.807812720000000,0,0x5D,0x00,Read,ACK
0.807836320000000,0,0x5D,0x00,Read,ACK
0.807859280000000,0,0x5D,0x00,Read,ACK
0.807882020000000,0,0x5D,0x00,Read,ACK
0.807904600000000,0,0x5D,0x00,Read,NAK
0.813675660000000,0,0x5D,0x2F,Read,ACK
0.813700140000000,0,0x5D,0x00,Read,ACK
0.813721700000000,0,0x5D,0x04,Read,ACK
0.813743180000000,0,0x5D,0x03,Read,ACK
0.813764640000000,0,0x5D,0xFC,Read,ACK
0.813786180000000,0,0x5D,0x00,Read,ACK
0.813807680000000,0,0x5D,0xF3,Read,ACK
0.813829120000000,0,0x5D,0x08,Read,ACK
0.813850580000000,0,0x5D,0x02,Read,ACK
0.813872020000000,0,0x5D,0x03,Read,ACK
0.813893480000000,0,0x5D,0x20,Read,ACK
0.813914980000000,0,0x5D,0x13,Read,ACK
0.813936640000000,0,0x5D,0xFE,Read,ACK
0.813958420000000,0,0x5D,0x04,Read,ACK
0.813979940000000,0,0x5D,0x4C,Read,ACK
0.814001420000000,0,0x5D,0x05,Read,ACK
0.814022880000000,0,0x5D,0x04,Read,ACK
0.814044320000000,0,0x5D,0x03,Read,ACK
0.814065780000000,0,0x5D,0x20,Read,ACK
0.814087240000000,0,0x5D,0x00,Read,ACK
0.814109220000000,0,0x5D,0x00,Read,ACK
0.814132320000000,0,0x5D,0x00,Read,ACK
0.814153800000000,0,0x5D,0x00,Read,ACK
0.814175280000000,0,0x5D,0x00,Read,ACK
0.814196740000000,0,0x5D,0x00,Read,ACK
0.814218200000000,0,0x5D,0x00,Read,ACK
0.814239680000000,0,0x5D,0x00,Read,ACK
0.814261160000000,0,0x5D,0x00,Read,ACK
0.814282660000000,0,0x5D,0x00,Read,ACK
0.814304220000000,0,0x5D,0x00,Read,ACK
0.814325720000000,0,0x5D,0x00,Read,ACK
0.814347160000000,0,0x5D,0x00,Read,ACK
0.814368620000000,0,0x5D,0x00,Read,ACK
0.814390080000000,0,0x5D,0x00,Read,ACK
0.814411580000000,0,0x5D,0x00,Read,ACK
0.814433040000000,0,0x5D,0x00,Read,ACK
0.814454480000000,0,0x5D,0x00,Read,ACK
0.814476060000000,0,0x5D,0x00,Read,ACK
0.814497520000000,0,0x5D,0x00,Read,ACK
0.814518980000000,0,0x5D,0x00,Read,ACK
0.814540440000000,0,0x5D,0x00,Read,ACK
0.814561940000000,0,0x5D,0x00,Read,ACK
0.814583400000000,0,0x5D,0x00,Read,ACK
0.814604860000000,0,0x5D,0x58,Read,ACK
0.814626360000000,0,0x5D,0xA6,Read,ACK
0.814647820000000,0,0x5D,0x02,Read,ACK
0.814669260000000,0,0x5D,0x00,Read,ACK
0.814690720000000,0,0x5D,0x00,Read,ACK
0.814712520000000,0,0x5D,0x00,Read,ACK
0.814734020000000,0,0x5D,0x00,Read,ACK
0.814755660000000,0,0x5D,0x00,Read,ACK
0.814777160000000,0,0x5D,0x00,Read,ACK
0.814798680000000,0,0x5D,0x00,Read,ACK
0.814820160000000,0,0x5D,0x00,Read,ACK
0.814841640000000,0,0x5D,0x00,Read,ACK
0.814863160000000,0,0x5D,0x00,Read,ACK
0.814884620000000,0,0x5D,0x00,Read,ACK
0.814906080000000,0,0x5D,0x00,Read,ACK
0.814927520000000,0,0x5D,0x00,Read,ACK
0.814949300000000,0,0x5D,0x00,Read,ACK
0.814973740000000,0,0x5D,0x00,Read,ACK
0.814996600000000,0,0x5D,0x00,Read,ACK
0.815018860000000,0,0x5D,0x00,Read,ACK
0.815040660000000,0,0x5D,0x00,Read,NAK
0.820890460000000,0,0x5D,0x2F,Read,ACK
0.820913420000000,0,0x5D,0x00,Read,ACK
0.820934900000000,0,0x5D,0x04,Read,ACK
0.820956380000000,0,0x5D,0x03,Read,ACK
0.820977880000000,0,0x5D,0xFC,Read,ACK
0.820999340000000,0,0x5D,0x00,Read,ACK
0.821020840000000,0,0x5D,0xF3,Read,ACK
0.821042320000000,0,0x5D,0x08,Read,ACK
0.821065260000000,0,0x5D,0x02,Read,ACK
0.821086960000000,0,0x5D,0x03,Read,ACK
0.821108400000000,0,0x5D,0x20,Read,ACK
0.821129860000000,0,0x5D,0x13,Read,ACK
0.821151300000000,0,0x5D,0xFC,Read,ACK
0.821172760000000,0,0x5D,0x04,Read,ACK
0.821194220000000,0,0x5D,0x4C,Read,ACK
0.821216380000000,0,0x5D,0x05,Read,ACK
0.821237920000000,0,0x5D,0x04,Read,ACK
0.821259380000000,0,0x5D,0x03,Read,ACK
0.821280860000000,0,0x5D,0x20,Read,ACK
0.821302340000000,0,0x5D,0x00,Read,ACK
0.821325300000000,0,0x5D,0x00,Read,ACK
0.821346880000000,0,0x5D,0x00,Read,ACK
0.821369720000000,0,0x5D,0x00,Read,ACK
0.821391220000000,0,0x5D,0x00,Read,ACK
0.821412720000000,0,0x5D,0x00,Read,ACK
0.821434180000000,0,0x5D,0x00,Read,ACK
0.821455620000000,0,0x5D,0x00,Read,ACK
0.821477080000000,0,0x5D,0x00,Read,ACK
0.821498540000000,0,0x5D,0x00,Read,ACK
0.821521260000000,0,0x5D,0x00,Read,ACK
0.821542760000000,0,0x5D,0x00,Read,ACK
0.821564200000000,0,0x5D,0x00,Read,ACK
0.821585640000000,0,0x5D,0x00,Read,ACK
0.821607120000000,0,0x5D,0x00,Read,ACK
0.821628860000000,0,0x5D,0x00,Read,ACK
0.821650320000000,0,0x5D,0x00,Read,ACK
0.821671780000000,0,0x5D,0x00,Read,ACK
0.821693240000000,0,0x5D,0x00,Read,ACK
0.821714680000000,0,0x5D,0x00,Read,ACK
0.821736140000000,0,0x5D,0x00,Read,ACK
0.821757600000000,0,0x5D,0x00,Read,ACK
0.821779040000000,0,0x5D,0x00,Read,ACK
0.821800500000000,0,0x5D,0x00,Read,ACK
0.821821940000000,0,0x5D,0x9E,Read,ACK
0.821843400000000,0,0x5D,0xA6,Read,ACK
0.821864860000000,0,0x5D,0x02,Read,ACK
0.821886320000000,0,0x5D,0x00,Read,ACK
0.821907800000000,0,0x5D,0x00,Read,ACK
0.821929280000000,0,0x5D,0x00,Read,ACK
0.821950760000000,0,0x5D,0x00,Read,ACK
0.821972540000000,0,0x5D,0x00,Read,ACK
0.821994020000000,0,0x5D,0x00,Read,ACK
0.822015480000000,0,0x5D,0x00,Read,ACK
0.822036920000000,0,0x5D,0x00,Read,ACK
0.822058380000000,0,0x5D,0x00,Read,ACK
0.822080060000000,0,0x5D,0x00,Read,ACK
0.822101540000000,0,0x5D,0x00,Read,ACK
0.822123880000000,0,0x5D,0x00,Read,ACK
0.822145740000000,0,0x5D,0x00,Read,ACK
0.822167240000000,0,0x5D,0x00,Read,ACK
0.822188700000000,0,0x5D,0x00,Read,ACK
0.822210160000000,0,0x5D,0x00,Read,ACK
0.822231620000000,0,0x5D,0x00,Read,ACK
0.822253080000000,0,0x5D,0x00,Read,NAK
0.828024440000000,0,0x5D,0x2F,Read,ACK
0.828045960000000,0,0x5D,0x00,Read,ACK
0.828067500000000,0,0x5D,0x04,Read,ACK
0.828088980000000,0,0x5D,0x03,Read,ACK
0.828110420000000,0,0x5D,0xFC,Read,ACK
0.828131900000000,0,0x5D,0x00,Read,ACK
0.828153400000000,0,0x5D,0xF3,Read,ACK
0.828174860000000,0,0x5D,0x08,Read,ACK
0.828196320000000,0,0x5D,0x02,Read,ACK
0.828218960000000,0,0x5D,0x03,Read,ACK
0.828240500000000,0,0x5D,0x20,Read,ACK
0.828261980000000,0,0x5D,0x13,Read,ACK
0.828283480000000,0,0x5D,0xFA,Read,ACK
0.828304960000000,0,0x5D,0x04,Read,ACK
0.828326440000000,0,0x5D,0x4C,Read,ACK
0.828349180000000,0,0x5D,0x05,Read,ACK
0.828371840000000,0,0x5D,0x04,Read,ACK
0.828393320000000,0,0x5D,0x03,Read,ACK
0.828414860000000,0,0x5D,0x20,Read,ACK
0.828436340000000,0,0x5D,0x00,Read,ACK
0.828458080000000,0,0x5D,0x00,Read,ACK
0.828479700000000,0,0x5D,0x00,Read,ACK
0.828501180000000,0,0x5D,0x00,Read,ACK
0.828522820000000,0,0x5D,0x00,Read,ACK
0.828544300000000,0,0x5D,0x00,Read,ACK
0.828565820000000,0,0x5D,0x00,Read,ACK
0.828588800000000,0,0x5D,0x00,Read,ACK
0.828611120000000,0,0x5D,0x00,Read,ACK
0.828632580000000,0,0x5D,0x00,Read,ACK
0.828654040000000,0,0x5D,0x00,Read,ACK
0.828675480000000,0,0x5D,0x00,Read,ACK
0.828696940000000,0,0x5D,0x00,Read,ACK
0.828718500000000,0,0x5D,0x00,Read,ACK
0.828740020000000,0,0x5D,0x00,Read,ACK
0.828761480000000,0,0x5D,0x00,Read,ACK
0.828783000000000,0,0x5D,0x00,Read,ACK
0.828804540000000,0,0x5D,0x00,Read,ACK
0.828826200000000,0,0x5D,0x00,Read,ACK
0.828847660000000,0,0x5D,0x00,Read,ACK
0.828869120000000,0,0x5D,0x00,Read,ACK
0.828890560000000,0,0x5D,0x00,Read,ACK
0.828912020000000,0,0x5D,0x00,Read,ACK
0.828933500000000,0,0x5D,0x00,Read,ACK
0.828954980000000,0,0x5D,0xE4,Read,ACK
0.828976440000000,0,0x5D,0xA6,Read,ACK
0.828997880000000,0,0x5D,0x02,Read,ACK
0.829019340000000,0,0x5D,0x00,Read,ACK
0.829040800000000,0,0x5D,0x00,Read,ACK
0.829062260000000,0,0x5D,0x00,Read,ACK
0.829083700000000,0,0x5D,0x00,Read,ACK
0.829105160000000,0,0x5D,0x00,Read,ACK
0.829126600000000,0,0x5D,0x00,Read,ACK
0.829148060000000,0,0x5D,0x00,Read,ACK
0.829169520000000,0,0x5D,0x00,Read,ACK
0.829191160000000,0,0x5D,0x00,Read,ACK
0.829214240000000,0,0x5D,0x00,Read,ACK
0.829236560000000,0,0x5D,0x00,Read,ACK
0.829258400000000,0,0x5D,0x00,Read,ACK
0.829279840000000,0,0x5D,0x00,Read,ACK
0.829301960000000,0,0x5D,0x00,Read,ACK
0.829323460000000,0,0x5D,0x00,Read,ACK
0.829344960000000,0,0x5D,0x00,Read,ACK
0.829366440000000,0,0x5D,0x00,Read,ACK
0.829387980000000,0,0x5D,0x00,Read,NAK
0.835430080000000,0,0x5D,0x2F,Read,ACK
0.835451620000000,0,0x5D,0x00,Read,ACK
0.835473120000000,0,0x5D,0x04,Read,ACK
0.835494880000000,0,0x5D,0x03,Read,ACK
0.835518380000000,0,0x5D,0xFC,Read,ACK
0.835539840000000,0,0x5D,0x00,Read,ACK
0.835561300000000,0,0x5D,0xF3,Read,ACK
0.835583700000000,0,0x5D,0x08,Read,ACK
0.835605180000000,0,0x5D,0x02,Read,ACK
0.835626660000000,0,0x5D,0x03,Read,ACK
0.835648120000000,0,0x5D,0x20,Read,ACK
0.835669620000000,0,0x5D,0x13,Read,ACK
0.835691080000000,0,0x5D,0xF7,Read,ACK
0.835713320000000,0,0x5D,0x04,Read,ACK
0.835734800000000,0,0x5D,0x4B,Read,ACK
0.835757400000000,0,0x5D,0x05,Read,ACK
0.835778880000000,0,0x5D,0x04,Read,ACK
0.835800320000000,0,0x5D,0x03,Read,ACK
0.835821780000000,0,0x5D,0x20,Read,ACK
0.835843240000000,0,0x5D,0x00,Read,ACK
0.835864760000000,0,0x5D,0x00,Read,ACK
0.835886280000000,0,0x5D,0x00,Read,ACK
0.835907800000000,0,0x5D,0x00,Read,ACK
0.835929300000000,0,0x5D,0x00,Read,ACK
0.835950780000000,0,0x5D,0x00,Read,ACK
0.835972260000000,0,0x5D,0x00,Read,ACK
0.835993720000000,0,0x5D,0x00,Read,ACK
0.836015180000000,0,0x5D,0x00,Read,ACK
0.836037560000000,0,0x5D,0x00,Read,ACK
0.836059020000000,0,0x5D,0x00,Read,ACK
0.836080460000000,0,0x5D,0x00,Read,ACK
0.836101920000000,0,0x5D,0x00,Read,ACK
0.836123380000000,0,0x5D,0x00,Read,ACK
0.836144940000000,0,0x5D,0x00,Read,ACK
0.836166400000000,0,0x5D,0x00,Read,ACK
0.836187860000000,0,0x5D,0x00,Read,ACK
0.836209380000000,0,0x5D,0x00,Read,ACK
0.836230880000000,0,0x5D,0x00,Read,ACK
0.836252340000000,0,0x5D,0x00,Read,ACK
0.836273840000000,0,0x5D,0x00,Read,ACK
0.836297080000000,0,0x5D,0x00,Read,ACK
0.836318580000000,0,0x5D,0x00,Read,ACK
0.836340080000000,0,0x5D,0x00,Read,ACK
0.836362540000000,0,0x5D,0x2A,Read,ACK
0.836384220000000,0,0x5D,0xA7,Read,ACK
0.836406320000000,0,0x5D,0x02,Read,ACK
0.836427860000000,0,0x5D,0x00,Read,ACK
0.836449340000000,0,0x5D,0x00,Read,ACK
0.836470960000000,0,0x5D,0x00,Read,ACK
0.836492420000000,0,0x5D,0x00,Read,ACK
0.836513880000000,0,0x5D,0x00,Read,ACK
0.836535340000000,0,0x5D,0x00,Read,ACK
0.836556780000000,0,0x5D,0x00,Read,ACK
0.836579080000000,0,0x5D,0x00,Read,ACK
0.836600940000000,0,0x5D,0x00,Read,ACK
0.836623060000000,0,0x5D,0x00,Read,ACK
0.836644520000000,0,0x5D,0x00,Read,ACK
0.836666000000000,0,0x5D,0x00,Read,ACK
0.836687500000000,0,0x5D,0x00,Read,ACK
0.836709880000000,0,0x5D,0x00,Read,ACK
0.836731320000000,0,0x5D,0x00,Read,ACK
0.836754320000000,0,0x5D,0x00,Read,ACK
0.836775780000000,0,0x5D,0x00,Read,ACK
0.836797240000000,0,0x5D,0x00,Read,NAK
0.842258380000000,0,0x5D,0x2F,Read,ACK
0.842284840000000,0,0x5D,0x00,Read,ACK
0.842306320000000,0,0x5D,0x04,Read,ACK
0.842327760000000,0,0x5D,0x03,Read,ACK
0.842349240000000,0,0x5D,0xFC,Read,ACK
0.842370740000000,0,0x5D,0x00,Read,ACK
0.842392200000000,0,0x5D,0xF3,Read,ACK
0.842414460000000,0,0x5D,0x08,Read,ACK
0.842435920000000,0,0x5D,0x02,Read,ACK
0.842457420000000,0,0x5D,0x03,Read,ACK
0.842479700000000,0,0x5D,0x20,Read,ACK
0.842501740000000,0,0x5D,0x13,Read,ACK
0.842523420000000,0,0x5D,0xF5,Read,ACK
0.842544940000000,0,0x5D,0x04,Read,ACK
0.842566440000000,0,0x5D,0x4B,Read,ACK
0.842587900000000,0,0x5D,0x05,Read,ACK
0.842609400000000,0,0x5D,0x04,Read,ACK
0.842630860000000,0,0x5D,0x03,Read,ACK
0.842652420000000,0,0x5D,0x20,Read,ACK
0.842675160000000,0,0x5D,0x00,Read,ACK
0.842696700000000,0,0x5D,0x00,Read,ACK
0.842718200000000,0,0x5D,0x00,Read,ACK
0.842739680000000,0,0x5D,0x00,Read,ACK
0.842761340000000,0,0x5D,0x00,Read,ACK
0.842783080000000,0,0x5D,0x00,Read,ACK
0.842804540000000,0,0x5D,0x00,Read,ACK
0.842826360000000,0,0x5D,0x00,Read,ACK
0.842847820000000,0,0x5D,0x00,Read,ACK
0.842869280000000,0,0x5D,0x00,Read,ACK
0.842890740000000,0,0x5D,0x00,Read,ACK
0.842912260000000,0,0x5D,0x00,Read,ACK
0.842933760000000,0,0x5D,0x00,Read,ACK
0.842955280000000,0,0x5D,0x00,Read,ACK
0.842976760000000,0,0x5D,0x00,Read,ACK
0.842998240000000,0,0x5D,0x00,Read,ACK
0.843020940000000,0,0x5D,0x00,Read,ACK
0.843042400000000,0,0x5D,0x00,Read,ACK
0.843063860000000,0,0x5D,0x00,Read,ACK
0.843085360000000,0,0x5D,0x00,Read,ACK
0.843106820000000,0,0x5D,0x00,Read,ACK
0.843128300000000,0,0x5D,0x00,Read,ACK
0.843150260000000,0,0x5D,0x00,Read,ACK
0.843171720000000,0,0x5D,0x00,Read,ACK
0.843193180000000,0,0x5D,0x70,Read,ACK
0.843214660000000,0,0x5D,0xA7,Read,ACK
0.843236160000000,0,0x5D,0x02,Read,ACK
0.843257600000000,0,0x5D,0x00,Read,ACK
0.843279060000000,0,0x5D,0x00,Read,ACK
0.843300580000000,0,0x5D,0x00,Read,ACK
0.843322100000000,0,0x5D,0x00,Read,ACK
0.843343600000000,0,0x5D,0x00,Read,ACK
0.843365120000000,0,0x5D,0x00,Read,ACK
0.843386580000000,0,0x5D,0x00,Read,ACK
0.843408300000000,0,0x5D,0x00,Read,ACK
0.843429780000000,0,0x5D,0x00,Read,ACK
0.843451220000000,0,0x5D,0x00,Read,ACK
0.843472700000000,0,0x5D,0x00,Read,ACK
0.843497940000000,0,0x5D,0x00,Read,ACK
0.843519380000000,0,0x5D,0x00,Read,ACK
0.843541000000000,0,0x5D,0x00,Read,ACK
0.843563720000000,0,0x5D,0x00,Read,ACK
0.843585180000000,0,0x5D,0x00,Read,ACK
0.843606960000000,0,0x5D,0x00,Read,ACK
0.843628440000000,0,0x5D,0x00,Read,NAK
0.849414340000000,0,0x5D,0x2F,Read,ACK
0.849440200000000,0,0x5D,0x00,Read,ACK
0.849461680000000,0,0x5D,0x04,Read,ACK
0.849483140000000,0,0x5D,0x03,Read,ACK
0.849504600000000,0,0x5D,0xFC,Read,ACK
0.849526060000000,0,0x5D,0x00,Read,ACK
0.849547500000000,0,0x5D,0xF3,Read,ACK
0.849568960000000,0,0x5D,0x08,Read,ACK
0.849590420000000,0,0x5D,0x02,Read,ACK
0.849611880000000,0,0x5D,0x03,Read,ACK
0.849633320000000,0,0x5D,0x20,Read,ACK
0.849654900000000,0,0x5D,0x13,Read,ACK
0.849676920000000,0,0x5D,0xF4,Read,ACK
0.849698380000000,0,0x5D,0x04,Read,ACK
0.849719820000000,0,0x5D,0x4A,Read,ACK
0.849741280000000,0,0x5D,0x05,Read,ACK
0.849762740000000,0,0x5D,0x04,Read,ACK
0.849784200000000,0,0x5D,0x03,Read,ACK
0.849805700000000,0,0x5D,0x20,Read,ACK
0.849827580000000,0,0x5D,0x00,Read,ACK
0.849849040000000,0,0x5D,0x00,Read,ACK
0.849870500000000,0,0x5D,0x00,Read,ACK
0.849891960000000,0,0x5D,0x00,Read,ACK
0.849913480000000,0,0x5D,0x00,Read,ACK
0.849936560000000,0,0x5D,0x00,Read,ACK
0.849958680000000,0,0x5D,0x00,Read,ACK
0.849981560000000,0,0x5D,0x00,Read,ACK
0.850003020000000,0,0x5D,0x00,Read,ACK
0.850024500000000,0,0x5D,0x00,Read,ACK
0.850046020000000,0,0x5D,0x00,Read,ACK
0.850067520000000,0,0x5D,0x00,Read,ACK
0.850089600000000,0,0x5D,0x00,Read,ACK
0.850111060000000,0,0x5D,0x00,Read,ACK
0.850132500000000,0,0x5D,0x00,Read,ACK
0.850153960000000,0,0x5D,0x00,Read,ACK
0.850175440000000,0,0x5D,0x00,Read,ACK
0.850196920000000,0,0x5D,0x00,Read,ACK
0.850218380000000,0,0x5D,0x00,Read,ACK
0.850239860000000,0,0x5D,0x00,Read,ACK
0.850261360000000,0,0x5D,0x00,Read,ACK
0.850282820000000,0,0x5D,0x00,Read,ACK
0.850304320000000,0,0x5D,0x00,Read,ACK
0.850325780000000,0,0x5D,0x00,Read,ACK
0.850347240000000,0,0x5D,0xB6,Read,ACK
0.850368700000000,0,0x5D,0xA7,Read,ACK
0.850390200000000,0,0x5D,0x02,Read,ACK
0.850411660000000,0,0x5D,0x00,Read,ACK
0.850433100000000,0,0x5D,0x00,Read,ACK
0.850454560000000,0,0x5D,0x00,Read,ACK
0.850476040000000,0,0x5D,0x00,Read,ACK
0.850497540000000,0,0x5D,0x00,Read,ACK
0.850519060000000,0,0x5D,0x00,Read,ACK
0.850540560000000,0,0x5D,0x00,Read,ACK
0.850562020000000,0,0x5D,0x00,Read,ACK
0.850583480000000,0,0x5D,0x00,Read,ACK
0.850604940000000,0,0x5D,0x00,Read,ACK
0.850626440000000,0,0x5D,0x00,Read,ACK
0.850647900000000,0,0x5D,0x00,Read,ACK
0.850669460000000,0,0x5D,0x00,Read,ACK
0.850692720000000,0,0x5D,0x00,Read,ACK
0.850714880000000,0,0x5D,0x00,Read,ACK
0.850737180000000,0,0x5D,0x00,Read,ACK
0.850758860000000,0,0x5D,0x00,Read,ACK
0.850780820000000,0,0x5D,0x00,Read,NAK
0.856552060000000,0,0x5D,0x2F,Read,ACK
0.856578980000000,0,0x5D,0x00,Read,ACK
0.856600460000000,0,0x5D,0x04,Read,ACK
0.856621960000000,0,0x5D,0x03,Read,ACK
0.856643420000000,0,0x5D,0xFC,Read,ACK
0.856664860000000,0,0x5D,0x00,Read,ACK
0.856686320000000,0,0x5D,0xF3,Read,ACK
0.856707780000000,0,0x5D,0x08,Read,ACK
0.856729240000000,0,0x5D,0x02,Read,ACK
0.856750680000000,0,0x5D,0x03,Read,ACK
0.856772700000000,0,0x5D,0x20,Read,ACK
0.856794820000000,0,0x5D,0x13,Read,ACK
0.856817560000000,0,0x5D,0xF2,Read,ACK
0.856839060000000,0,0x5D,0x04,Read,ACK
0.856860540000000,0,0x5D,0x4A,Read,ACK
0.856882060000000,0,0x5D,0x05,Read,ACK
0.856903560000000,0,0x5D,0x04,Read,ACK
0.856925000000000,0,0x5D,0x03,Read,ACK
0.856946860000000,0,0x5D,0x20,Read,ACK
0.856969880000000,0,0x5D,0x00,Read,ACK
0.856991360000000,0,0x5D,0x00,Read,ACK
0.857012840000000,0,0x5D,0x00,Read,ACK
0.857034340000000,0,0x5D,0x00,Read,ACK
0.857055780000000,0,0x5D,0x00,Read,ACK
0.857077240000000,0,0x5D,0x00,Read,ACK
0.857098700000000,0,0x5D,0x00,Read,ACK
0.857120220000000,0,0x5D,0x00,Read,ACK
0.857142200000000,0,0x5D,0x00,Read,ACK
0.857163680000000,0,0x5D,0x00,Read,ACK
0.857185140000000,0,0x5D,0x00,Read,ACK
0.857208000000000,0,0x5D,0x00,Read,ACK
0.857229820000000,0,0x5D,0x00,Read,ACK
0.857251300000000,0,0x5D,0x00,Read,ACK
0.857272760000000,0,0x5D,0x00,Read,ACK
0.857294200000000,0,0x5D,0x00,Read,ACK
0.857315680000000,0,0x5D,0x00,Read,ACK
0.857337180000000,0,0x5D,0x00,Read,ACK
0.857358700000000,0,0x5D,0x00,Read,ACK
0.857380140000000,0,0x5D,0x00,Read,ACK
0.857401620000000,0,0x5D,0x00,Read,ACK
0.857423120000000,0,0x5D,0x00,Read,ACK
0.857444580000000,0,0x5D,0x00,Read,ACK
0.857466040000000,0,0x5D,0x00,Read,ACK
0.857487540000000,0,0x5D,0xFC,Read,ACK
0.857509280000000,0,0x5D,0xA7,Read,ACK
0.857530760000000,0,0x5D,0x02,Read,ACK
0.857552300000000,0,0x5D,0x00,Read,ACK
0.857573800000000,0,0x5D,0x00,Read,ACK
0.857595300000000,0,0x5D,0x00,Read,ACK
0.857616760000000,0,0x5D,0x00,Read,ACK
0.857638220000000,0,0x5D,0x00,Read,ACK
0.857661580000000,0,0x5D,0x00,Read,ACK
0.857683060000000,0,0x5D,0x00,Read,ACK
0.857704500000000,0,0x5D,0x00,Read,ACK
0.857725960000000,0,0x5D,0x00,Read,ACK
0.857747420000000,0,0x5D,0x00,Read,ACK
0.857768860000000,0,0x5D,0x00,Read,ACK
0.857790320000000,0,0x5D,0x00,Read,ACK
0.857813740000000,0,0x5D,0x00,Read,ACK
0.857836360000000,0,0x5D,0x00,Read,ACK
0.857857860000000,0,0x5D,0x00,Read,ACK
0.857879320000000,0,0x5D,0x00,Read,ACK
0.857901100000000,0,0x5D,0x00,Read,ACK
0.857922600000000,0,0x5D,0x00,Read,NAK
0.863751420000000,0,0x5D,0x2F,Read,ACK
0.863772960000000,0,0x5D,0x00,Read,ACK
0.863794420000000,0,0x5D,0x04,Read,ACK
0.863815880000000,0,0x5D,0x03,Read,ACK
0.863837340000000,0,0x5D,0xFC,Read,ACK
0.863858780000000,0,0x5D,0x00,Read,ACK
0.863880240000000,0,0x5D,0xF3,Read,ACK
0.863902060000000,0,0x5D,0x08,Read,ACK
0.863923660000000,0,0x5D,0x03,Read,ACK
0.863946120000000,0,0x5D,0x03,Read,ACK
0.863967980000000,0,0x5D,0x20,Read,ACK
0.863989440000000,0,0x5D,0x13,Read,ACK
0.864010920000000,0,0x5D,0xF0,Read,ACK
0.864032420000000,0,0x5D,0x04,Read,ACK
0.864053880000000,0,0x5D,0x49,Read,ACK
0.864075760000000,0,0x5D,0x05,Read,ACK
0.864100200000000,0,0x5D,0x04,Read,ACK
0.864121680000000,0,0x5D,0x03,Read,ACK
0.864143140000000,0,0x5D,0x20,Read,ACK
0.864164580000000,0,0x5D,0x00,Read,ACK
0.864186320000000,0,0x5D,0x00,Read,ACK
0.864207820000000,0,0x5D,0x00,Read,ACK
0.864229300000000,0,0x5D,0x00,Read,ACK
0.864250940000000,0,0x5D,0x00,Read,ACK
0.864272400000000,0,0x5D,0x00,Read,ACK
0.864293880000000,0,0x5D,0x00,Read,ACK
0.864316580000000,0,0x5D,0x00,Read,ACK
0.864339280000000,0,0x5D,0x00,Read,ACK
0.864360780000000,0,0x5D,0x00,Read,ACK
0.864382300000000,0,0x5D,0x00,Read,ACK
0.864404740000000,0,0x5D,0x00,Read,ACK
0.864426200000000,0,0x5D,0x00,Read,ACK
0.864447720000000,0,0x5D,0x00,Read,ACK
0.864469160000000,0,0x5D,0x00,Read,ACK
0.864490620000000,0,0x5D,0x00,Read,ACK
0.864512100000000,0,0x5D,0x00,Read,ACK
0.864533580000000,0,0x5D,0x00,Read,ACK
0.864555060000000,0,0x5D,0x00,Read,ACK
0.864576500000000,0,0x5D,0x00,Read,ACK
0.864597940000000,0,0x5D,0x00,Read,ACK
0.864619400000000,0,0x5D,0x00,Read,ACK
0.864641340000000,0,0x5D,0x00,Read,ACK
0.864662820000000,0,0x5D,0x00,Read,ACK
0.864684280000000,0,0x5D,0x42,Read,ACK
0.864705740000000,0,0x5D,0xA8,Read,ACK
0.864727240000000,0,0x5D,0x02,Read,ACK
0.864748700000000,0,0x5D,0x00,Read,ACK
0.864770160000000,0,0x5D,0x00,Read,ACK
0.864791620000000,0,0x5D,0x00,Read,ACK
0.864813140000000,0,0x5D,0x00,Read,ACK
0.864834660000000,0,0x5D,0x00,Read,ACK
0.864856100000000,0,0x5D,0x00,Read,ACK
0.864877580000000,0,0x5D,0x00,Read,ACK
0.864899080000000,0,0x5D,0x00,Read,ACK
0.864920520000000,0,0x5D,0x00,Read,ACK
0.864942060000000,0,0x5D,0x00,Read,ACK
0.864963900000000,0,0x5D,0x00,Read,ACK
0.864985920000000,0,0x5D,0x00,Read,ACK
0.865007400000000,0,0x5D,0x00,Read,ACK
0.865029340000000,0,0x5D,0x00,Read,ACK
0.865052720000000,0,0x5D,0x00,Read,ACK
0.865074200000000,0,0x5D,0x00,Read,ACK
0.865095660000000,0,0x5D,0x00,Read,ACK
0.865118560000000,0,0x5D,0x00,Read,NAK
0.870975440000000,0,0x5D,0x2F,Read,ACK
0.870996900000000,0,0x5D,0x00,Read,ACK
0.871018340000000,0,0x5D,0x04,Read,ACK
0.871040340000000,0,0x5D,0x03,Read,ACK
0.871062900000000,0,0x5D,0xFC,Read,ACK
0.871084400000000,0,0x5D,0x00,Read,ACK
0.871110120000000,0,0x5D,0xF3,Read,ACK
0.871131600000000,0,0x5D,0x08,Read,ACK
0.871153100000000,0,0x5D,0x03,Read,ACK
0.871174580000000,0,0x5D,0x03,Read,ACK
0.871196080000000,0,0x5D,0x20,Read,ACK
0.871217680000000,0,0x5D,0x13,Read,ACK
0.871239200000000,0,0x5D,0xEF,Read,ACK
0.871261580000000,0,0x5D,0x04,Read,ACK
0.871283820000000,0,0x5D,0x49,Read,ACK
0.871305300000000,0,0x5D,0x05,Read,ACK
0.871326780000000,0,0x5D,0x04,Read,ACK
0.871348320000000,0,0x5D,0x03,Read,ACK
0.871369820000000,0,0x5D,0x20,Read,ACK
0.871391280000000,0,0x5D,0x00,Read,ACK
0.871412740000000,0,0x5D,0x00,Read,ACK
0.871434260000000,0,0x5D,0x00,Read,ACK
0.871455760000000,0,0x5D,0x00,Read,ACK
0.871477240000000,0,0x5D,0x00,Read,ACK
0.871499100000000,0,0x5D,0x00,Read,ACK
0.871521340000000,0,0x5D,0x00,Read,ACK
0.871542820000000,0,0x5D,0x00,Read,ACK
0.871564340000000,0,0x5D,0x00,Read,ACK
0.871585780000000,0,0x5D,0x00,Read,ACK
0.871607260000000,0,0x5D,0x00,Read,ACK
0.871629240000000,0,0x5D,0x00,Read,ACK
0.871650720000000,0,0x5D,0x00,Read,ACK
0.871672160000000,0,0x5D,0x00,Read,ACK
0.871693620000000,0,0x5D,0x00,Read,ACK
0.871715060000000,0,0x5D,0x00,Read,ACK
0.871736520000000,0,0x5D,0x00,Read,ACK
0.871757960000000,0,0x5D,0x00,Read,ACK
0.871779440000000,0,0x5D,0x00,Read,ACK
0.871800900000000,0,0x5D,0x00,Read,ACK
0.871822340000000,0,0x5D,0x00,Read,ACK
0.871843780000000,0,0x5D,0x00,Read,ACK
0.871865240000000,0,0x5D,0x00,Read,ACK
0.871886700000000,0,0x5D,0x00,Read,ACK
0.871908140000000,0,0x5D,0x88,Read,ACK
0.871929620000000,0,0x5D,0xA8,Read,ACK
0.871951100000000,0,0x5D,0x02,Read,ACK
0.871972560000000,0,0x5D,0x00,Read,ACK
0.871994020000000,0,0x5D,0x00,Read,ACK
0.872015480000000,0,0x5D,0x00,Read,ACK
0.872036920000000,0,0x5D,0x00,Read,ACK
0.872058400000000,0,0x5D,0x00,Read,ACK
0.872079900000000,0,0x5D,0x00,Read,ACK
0.872101400000000,0,0x5D,0x00,Read,ACK
0.872123900000000,0,0x5D,0x00,Read,ACK
0.872145480000000,0,0x5D,0x00,Read,ACK
0.872167200000000,0,0x5D,0x00,Read,ACK
0.872191120000000,0,0x5D,0x00,Read,ACK
0.872213940000000,0,0x5D,0x00,Read,ACK
0.872235440000000,0,0x5D,0x00,Read,ACK
0.872256940000000,0,0x5D,0x00,Read,ACK
0.872278400000000,0,0x5D,0x00,Read,ACK
0.872300040000000,0,0x5D,0x00,Read,ACK
0.872322340000000,0,0x5D,0x00,Read,ACK
0.872343820000000,0,0x5D,0x00,Read,NAK
0.878311040000000,0,0x5D,0x2F,Read,ACK
0.878334320000000,0,0x5D,0x00,Read,ACK
0.878355800000000,0,0x5D,0x04,Read,ACK
0.878378440000000,0,0x5D,0x03,Read,ACK
0.878400220000000,0,0x5D,0xFC,Read,ACK
0.878422320000000,0,0x5D,0x00,Read,ACK
0.878443780000000,0,0x5D,0xF3,Read,ACK
0.878466640000000,0,0x5D,0x08,Read,ACK
0.878488120000000,0,0x5D,0x03,Read,ACK
0.878509880000000,0,0x5D,0x03,Read,ACK
0.878531340000000,0,0x5D,0x20,Read,ACK
0.878553740000000,0,0x5D,0x13,Read,ACK
0.878575240000000,0,0x5D,0xED,Read,ACK
0.878597040000000,0,0x5D,0x04,Read,ACK
0.878618560000000,0,0x5D,0x48,Read,ACK
0.878642020000000,0,0x5D,0x05,Read,ACK
0.878663680000000,0,0x5D,0x04,Read,ACK
0.878685140000000,0,0x5D,0x03,Read,ACK
0.878706600000000,0,0x5D,0x20,Read,ACK
0.878728120000000,0,0x5D,0x00,Read,ACK
0.878749620000000,0,0x5D,0x00,Read,ACK
0.878771080000000,0,0x5D,0x00,Read,ACK
0.878792600000000,0,0x5D,0x00,Read,ACK
0.878814120000000,0,0x5D,0x00,Read,ACK
0.878836800000000,0,0x5D,0x00,Read,ACK
0.878858280000000,0,0x5D,0x00,Read,ACK
0.878879780000000,0,0x5D,0x00,Read,ACK
0.878901240000000,0,0x5D,0x00,Read,ACK
0.878922680000000,0,0x5D,0x00,Read,ACK
0.878944180000000,0,0x5D,0x00,Read,ACK
0.878965660000000,0,0x5D,0x00,Read,ACK
0.878987120000000,0,0x5D,0x00,Read,ACK
0.879008560000000,0,0x5D,0x00,Read,ACK
0.879030040000000,0,0x5D,0x00,Read,ACK
0.879051780000000,0,0x5D,0x00,Read,ACK
0.879073240000000,0,0x5D,0x00,Read,ACK
0.879094700000000,0,0x5D,0x00,Read,ACK
0.879116500000000,0,0x5D,0x00,Read,ACK
0.879137980000000,0,0x5D,0x00,Read,ACK
0.879159460000000,0,0x5D,0x00,Read,ACK
0.879180960000000,0,0x5D,0x00,Read,ACK
0.879202400000000,0,0x5D,0x00,Read,ACK
0.879223920000000,0,0x5D,0x00,Read,ACK
0.879245440000000,0,0x5D,0xCE,Read,ACK
0.879270440000000,0,0x5D,0xA8,Read,ACK
0.879292240000000,0,0x5D,0x02,Read,ACK
0.879313720000000,0,0x5D,0x00,Read,ACK
0.879338420000000,0,0x5D,0x00,Read,ACK
0.879360220000000,0,0x5D,0x00,Read,ACK
0.879381720000000,0,0x5D,0x00,Read,ACK
0.879403200000000,0,0x5D,0x00,Read,ACK
0.879425060000000,0,0x5D,0x00,Read,ACK
0.879446560000000,0,0x5D,0x00,Read,ACK
0.879468420000000,0,0x5D,0x00,Read,ACK
0.879491060000000,0,0x5D,0x00,Read,ACK
0.879512520000000,0,0x5D,0x00,Read,ACK
0.879535480000000,0,0x5D,0x00,Read,ACK
0.879557760000000,0,0x5D,0x00,Read,ACK
0.879579220000000,0,0x5D,0x00,Read,ACK
0.879600740000000,0,0x5D,0x00,Read,ACK
0.879622660000000,0,0x5D,0x00,Read,ACK
0.879644160000000,0,0x5D,0x00,Read,ACK
0.879665640000000,0,0x5D,0x00,Read,ACK
0.879687120000000,0,0x5D,0x00,Read,NAK
0.885372880000000,0,0x5D,0x2F,Read,ACK
0.885395620000000,0,0x5D,0x00,Read,ACK
0.885417080000000,0,0x5D,0x04,Read,ACK
0.885438540000000,0,0x5D,0x03,Read,ACK
0.885459980000000,0,0x5D,0xFC,Read,ACK
0.885481460000000,0,0x5D,0x00,Read,ACK
0.885504360000000,0,0x5D,0xF3,Read,ACK
0.885527700000000,0,0x5D,0x08,Read,ACK
0.885550520000000,0,0x5D,0x03,Read,ACK
0.885572000000000,0,0x5D,0x03,Read,ACK
0.885593440000000,0,0x5D,0x20,Read,ACK
0.885615300000000,0,0x5D,0x13,Read,ACK
0.885636980000000,0,0x5D,0xEB,Read,ACK
0.885659820000000,0,0x5D,0x04,Read,ACK
0.885681300000000,0,0x5D,0x48,Read,ACK
0.885702760000000,0,0x5D,0x05,Read,ACK
0.885724220000000,0,0x5D,0x04,Read,ACK
0.885745680000000,0,0x5D,0x03,Read,ACK
0.885767420000000,0,0x5D,0x20,Read,ACK
0.885788900000000,0,0x5D,0x00,Read,ACK
0.885810400000000,0,0x5D,0x00,Read,ACK
0.885831860000000,0,0x5D,0x00,Read,ACK
0.885853380000000,0,0x5D,0x00,Read,ACK
0.885874820000000,0,0x5D,0x00,Read,ACK
0.885896300000000,0,0x5D,0x00,Read,ACK
0.885917800000000,0,0x5D,0x00,Read,ACK
0.885939240000000,0,0x5D,0x00,Read,ACK
0.885960700000000,0,0x5D,0x00,Read,ACK
0.885982160000000,0,0x5D,0x00,Read,ACK
0.886003660000000,0,0x5D,0x00,Read,ACK
0.886025120000000,0,0x5D,0x00,Read,ACK
0.886046580000000,0,0x5D,0x00,Read,ACK
0.886068020000000,0,0x5D,0x00,Read,ACK
0.886089920000000,0,0x5D,0x00,Read,ACK
0.886111380000000,0,0x5D,0x00,Read,ACK
0.886132840000000,0,0x5D,0x00,Read,ACK
0.886155100000000,0,0x5D,0x00,Read,ACK
0.886176520000000,0,0x5D,0x00,Read,ACK
0.886198000000000,0,0x5D,0x00,Read,ACK
0.886219460000000,0,0x5D,0x00,Read,ACK
0.886240960000000,0,0x5D,0x00,Read,ACK
0.886262480000000,0,0x5D,0x00,Read,ACK
0.886283920000000,0,0x5D,0x00,Read,ACK
0.886305400000000,0,0x5D,0x14,Read,ACK
0.886326900000000,0,0x5D,0xA9,Read,ACK
0.886348420000000,0,0x5D,0x02,Read,ACK
0.886369920000000,0,0x5D,0x00,Read,ACK
0.886392140000000,0,0x5D,0x00,Read,ACK
0.886414480000000,0,0x5D,0x00,Read,ACK
0.886436280000000,0,0x5D,0x00,Read,ACK
0.886459580000000,0,0x5D,0x00,Read,ACK
0.886481480000000,0,0x5D,0x00,Read,ACK
0.886503220000000,0,0x5D,0x00,Read,ACK
0.886524720000000,0,0x5D,0x00,Read,ACK
0.886546180000000,0,0x5D,0x00,Read,ACK
0.886567700000000,0,0x5D,0x00,Read,ACK
0.886589220000000,0,0x5D,0x00,Read,ACK
0.886610720000000,0,0x5D,0x00,Read,ACK
0.886632280000000,0,0x5D,0x00,Read,ACK
0.886654060000000,0,0x5D,0x00,Read,ACK
0.886676740000000,0,0x5D,0x00,Read,ACK
0.886698680000000,0,0x5D,0x00,Read,ACK
0.886720180000000,0,0x5D,0x00,Read,ACK
0.886741680000000,0,0x5D,0x00,Read,NAK
0.892269700000000,0,0x5D,0x2F,Read,ACK
0.892295040000000,0,0x5D,0x00,Read,ACK
0.892316500000000,0,0x5D,0x04,Read,ACK
0.892337960000000,0,0x5D,0x03,Read,ACK
0.892359400000000,0,0x5D,0xFC,Read,ACK
0.892380860000000,0,0x5D,0x00,Read,ACK
0.892402340000000,0,0x5D,0xF3,Read,ACK
0.892423820000000,0,0x5D,0x08,Read,ACK
0.892445300000000,0,0x5D,0x03,Read,ACK
0.892467940000000,0,0x5D,0x03,Read,ACK
0.892489640000000,0,0x5D,0x20,Read,ACK
0.892512760000000,0,0x5D,0x13,Read,ACK
0.892534220000000,0,0x5D,0xEA,Read,ACK
0.892555740000000,0,0x5D,0x04,Read,ACK
0.892577180000000,0,0x5D,0x48,Read,ACK
0.892598640000000,0,0x5D,0x05,Read,ACK
0.892620100000000,0,0x5D,0x04,Read,ACK
0.892641600000000,0,0x5D,0x03,Read,ACK
0.892664480000000,0,0x5D,0x20,Read,ACK
0.892685960000000,0,0x5D,0x00,Read,ACK
0.892707480000000,0,0x5D,0x00,Read,ACK
0.892728980000000,0,0x5D,0x00,Read,ACK
0.892751740000000,0,0x5D,0x00,Read,ACK
0.892773200000000,0,0x5D,0x00,Read,ACK
0.892794680000000,0,0x5D,0x00,Read,ACK
0.892816480000000,0,0x5D,0x00,Read,ACK
0.892837940000000,0,0x5D,0x00,Read,ACK
0.892859400000000,0,0x5D,0x00,Read,ACK
0.892880860000000,0,0x5D,0x00,Read,ACK
0.892902380000000,0,0x5D,0x00,Read,ACK
0.892924080000000,0,0x5D,0x00,Read,ACK
0.892946400000000,0,0x5D,0x00,Read,ACK
0.892967840000000,0,0x5D,0x00,Read,ACK
0.892989300000000,0,0x5D,0x00,Read,ACK
0.893010740000000,0,0x5D,0x00,Read,ACK
0.893032220000000,0,0x5D,0x00,Read,ACK
0.893053720000000,0,0x5D,0x00,Read,ACK
0.893075180000000,0,0x5D,0x00,Read,ACK
0.893096620000000,0,0x5D,0x00,Read,ACK
0.893118100000000,0,0x5D,0x00,Read,ACK
0.893139580000000,0,0x5D,0x00,Read,ACK
0.893161040000000,0,0x5D,0x00,Read,ACK
0.893182500000000,0,0x5D,0x00,Read,ACK
0.893203940000000,0,0x5D,0x5A,Read,ACK
0.893225520000000,0,0x5D,0xA9,Read,ACK
0.893246980000000,0,0x5D,0x02,Read,ACK
0.893268820000000,0,0x5D,0x00,Read,ACK
0.893290340000000,0,0x5D,0x00,Read,ACK
0.893311860000000,0,0x5D,0x00,Read,ACK
0.893333340000000,0,0x5D,0x00,Read,ACK
0.893354800000000,0,0x5D,0x00,Read,ACK
0.893376260000000,0,0x5D,0x00,Read,ACK
0.893397800000000,0,0x5D,0x00,Read,ACK
0.893419280000000,0,0x5D,0x00,Read,ACK
0.893440740000000,0,0x5D,0x00,Read,ACK
0.893462200000000,0,0x5D,0x00,Read,ACK
0.893483700000000,0,0x5D,0x00,Read,ACK
0.893505160000000,0,0x5D,0x00,Read,ACK
0.893528380000000,0,0x5D,0x00,Read,ACK
0.893549880000000,0,0x5D,0x00,Read,ACK
0.893571340000000,0,0x5D,0x00,Read,ACK
0.893592780000000,0,0x5D,0x00,Read,ACK
0.893614680000000,0,0x5D,0x00,Read,ACK
0.893636340000000,0,0x5D,0x00,Read,NAK
0.899399760000000,0,0x5D,0x2F,Read,ACK
0.899425340000000,0,0x5D,0x00,Read,ACK
0.899447560000000,0,0x5D,0x04,Read,ACK
0.899469020000000,0,0x5D,0x03,Read,ACK
0.899490580000000,0,0x5D,0xFC,Read,ACK
0.899512060000000,0,0x5D,0x00,Read,ACK
0.899533540000000,0,0x5D,0xF3,Read,ACK
0.899555060000000,0,0x5D,0x08,Read,ACK
0.899576560000000,0,0x5D,0x03,Read,ACK
0.899598000000000,0,0x5D,0x03,Read,ACK
0.899620280000000,0,0x5D,0x20,Read,ACK
0.899641820000000,0,0x5D,0x13,Read,ACK
0.899663300000000,0,0x5D,0xE8,Read,ACK
0.899685460000000,0,0x5D,0x04,Read,ACK
0.899706960000000,0,0x5D,0x47,Read,ACK
0.899728460000000,0,0x5D,0x05,Read,ACK
0.899749920000000,0,0x5D,0x04,Read,ACK
0.899771380000000,0,0x5D,0x03,Read,ACK
0.899792820000000,0,0x5D,0x20,Read,ACK
0.899814540000000,0,0x5D,0x00,Read,ACK
0.899835980000000,0,0x5D,0x00,Read,ACK
0.899857440000000,0,0x5D,0x00,Read,ACK
0.899878900000000,0,0x5D,0x00,Read,ACK
0.899900340000000,0,0x5D,0x00,Read,ACK
0.899922040000000,0,0x5D,0x00,Read,ACK
0.899943520000000,0,0x5D,0x00,Read,ACK
0.899964980000000,0,0x5D,0x00,Read,ACK
0.899986460000000,0,0x5D,0x00,Read,ACK
0.900007920000000,0,0x5D,0x00,Read,ACK
0.900029380000000,0,0x5D,0x00,Read,ACK
0.900051700000000,0,0x5D,0x00,Read,ACK
0.900073320000000,0,0x5D,0x00,Read,ACK
0.900094800000000,0,0x5D,0x00,Read,ACK
0.900116260000000,0,0x5D,0x00,Read,ACK
0.900138620000000,0,0x5D,0x00,Read,ACK
0.900160100000000,0,0x5D,0x00,Read,ACK
0.900181540000000,0,0x5D,0x00,Read,ACK
0.900203000000000,0,0x5D,0x00,Read,ACK
0.900224460000000,0,0x5D,0x00,Read,ACK
0.900245900000000,0,0x5D,0x00,Read,ACK
0.900267360000000,0,0x5D,0x00,Read,ACK
0.900288840000000,0,0x5D,0x00,Read,ACK
0.900310320000000,0,0x5D,0x00,Read,ACK
0.900331780000000,0,0x5D,0xA0,Read,ACK
0.900353240000000,0,0x5D,0xA9,Read,ACK
0.900374740000000,0,0x5D,0x02,Read,ACK
0.900396340000000,0,0x5D,0x00,Read,ACK
0.900417860000000,0,0x5D,0x00,Read,ACK
0.900439360000000,0,0x5D,0x00,Read,ACK
0.900461360000000,0,0x5D,0x00,Read,ACK
0.900482840000000,0,0x5D,0x00,Read,ACK
0.900504280000000,0,0x5D,0x00,Read,ACK
0.900525760000000,0,0x5D,0x00,Read,ACK
0.900547260000000,0,0x5D,0x00,Read,ACK
0.900568720000000,0,0x5D,0x00,Read,ACK
0.900590200000000,0,0x5D,0x00,Read,ACK
0.900611700000000,0,0x5D,0x00,Read,ACK
0.900633140000000,0,0x5D,0x00,Read,ACK
0.900654580000000,0,0x5D,0x00,Read,ACK
0.900676040000000,0,0x5D,0x00,Read,ACK
0.900699080000000,0,0x5D,0x00,Read,ACK
0.900721380000000,0,0x5D,0x00,Read,ACK
0.900742940000000,0,0x5D,0x00,Read,ACK
0.900765560000000,0,0x5D,0x00,Read,NAK
0.906565840000000,0,0x5D,0x2F,Read,ACK
0.906590900000000,0,0x5D,0x00,Read,ACK
0.906612380000000,0,0x5D,0x04,Read,ACK
0.906633820000000,0,0x5D,0x03,Read,ACK
0.906655320000000,0,0x5D,0xFC,Read,ACK
0.906676800000000,0,0x5D,0x00,Read,ACK
0.906698260000000,0,0x5D,0xF3,Read,ACK
0.906719760000000,0,0x5D,0x08,Read,ACK
0.906741200000000,0,0x5D,0x03,Read,ACK
0.906762680000000,0,0x5D,0x03,Read,ACK
0.906784680000000,0,0x5D,0x20,Read,ACK
0.906806780000000,0,0x5D,0x13,Read,ACK
0.906830060000000,0,0x5D,0xE7,Read,ACK
0.906851520000000,0,0x5D,0x04,Read,ACK
0.906872980000000,0,0x5D,0x47,Read,ACK
0.906894440000000,0,0x5D,0x05,Read,ACK
0.906915900000000,0,0x5D,0x04,Read,ACK
0.906937400000000,0,0x5D,0x03,Read,ACK
0.906959480000000,0,0x5D,0x20,Read,ACK
0.906981000000000,0,0x5D,0x00,Read,ACK
0.907003920000000,0,0x5D,0x00,Read,ACK
0.907025440000000,0,0x5D,0x00,Read,ACK
0.907046920000000,0,0x5D,0x00,Read,ACK
0.907068540000000,0,0x5D,0x00,Read,ACK
0.907090020000000,0,0x5D,0x00,Read,ACK
0.907111520000000,0,0x5D,0x00,Read,ACK
0.907133520000000,0,0x5D,0x00,Read,ACK
0.907154980000000,0,0x5D,0x00,Read,ACK
0.907176440000000,0,0x5D,0x00,Read,ACK
0.907197960000000,0,0x5D,0x00,Read,ACK
0.907219400000000,0,0x5D,0x00,Read,ACK
0.907242700000000,0,0x5D,0x00,Read,ACK
0.907265060000000,0,0x5D,0x00,Read,ACK
0.907286660000000,0,0x5D,0x00,Read,ACK
0.907308160000000,0,0x5D,0x00,Read,ACK
0.907329600000000,0,0x5D,0x00,Read,ACK
0.907351100000000,0,0x5D,0x00,Read,ACK
0.907372580000000,0,0x5D,0x00,Read,ACK
0.907394020000000,0,0x5D,0x00,Read,ACK
0.907415480000000,0,0x5D,0x00,Read,ACK
0.907436980000000,0,0x5D,0x00,Read,ACK
0.907458620000000,0,0x5D,0x00,Read,ACK
0.907480100000000,0,0x5D,0x00,Read,ACK
0.907501540000000,0,0x5D,0xE6,Read,ACK
0.907522980000000,0,0x5D,0xA9,Read,ACK
0.907544440000000,0,0x5D,0x02,Read,ACK
0.907565900000000,0,0x5D,0x00,Read,ACK
0.907587360000000,0,0x5D,0x00,Read,ACK
0.907608900000000,0,0x5D,0x00,Read,ACK
0.907630700000000,0,0x5D,0x00,Read,ACK
0.907652140000000,0,0x5D,0x00,Read,ACK
0.907673600000000,0,0x5D,0x00,Read,ACK
0.907695040000000,0,0x5D,0x00,Read,ACK
0.907716520000000,0,0x5D,0x00,Read,ACK
0.907737960000000,0,0x5D,0x00,Read,ACK
0.907759420000000,0,0x5D,0x00,Read,ACK
0.907780860000000,0,0x5D,0x00,Read,ACK
0.907802340000000,0,0x5D,0x00,Read,ACK
0.907823840000000,0,0x5D,0x00,Read,ACK
0.907846360000000,0,0x5D,0x00,Read,ACK
0.907869700000000,0,0x5D,0x00,Read,ACK
0.907891200000000,0,0x5D,0x00,Read,ACK
0.907912640000000,0,0x5D,0x00,Read,ACK
0.907934480000000,0,0x5D,0x00,Read,NAK
0.913761720000000,0,0x5D,0x2F,Read,ACK
0.913786180000000,0,0x5D,0x00,Read,ACK
0.913807640000000,0,0x5D,0x04,Read,ACK
0.913829100000000,0,0x5D,0x03,Read,ACK
0.913850600000000,0,0x5D,0xFC,Read,ACK
0.913872060000000,0,0x5D,0x00,Read,ACK
0.913893520000000,0,0x5D,0xF3,Read,ACK
0.913914960000000,0,0x5D,0x08,Read,ACK
0.913936580000000,0,0x5D,0x03,Read,ACK
0.913958340000000,0,0x5D,0x03,Read,ACK
0.913980880000000,0,0x5D,0x20,Read,ACK
0.914004100000000,0,0x5D,0x13,Read,ACK
0.914025580000000,0,0x5D,0xE6,Read,ACK
0.914047060000000,0,0x5D,0x04,Read,ACK
0.914068520000000,0,0x5D,0x47,Read,ACK
0.914091080000000,0,0x5D,0x05,Read,ACK
0.914113720000000,0,0x5D,0x04,Read,ACK
0.914135180000000,0,0x5D,0x03,Read,ACK
0.914156680000000,0,0x5D,0x20,Read,ACK
0.914178180000000,0,0x5D,0x00,Read,ACK
0.914199680000000,0,0x5D,0x00,Read,ACK
0.914221920000000,0,0x5D,0x00,Read,ACK
0.914244660000000,0,0x5D,0x00,Read,ACK
0.914266160000000,0,0x5D,0x00,Read,ACK
0.914287620000000,0,0x5D,0x00,Read,ACK
0.914309120000000,0,0x5D,0x00,Read,ACK
0.914330600000000,0,0x5D,0x00,Read,ACK
0.914352360000000,0,0x5D,0x00,Read,ACK
0.914374680000000,0,0x5D,0x00,Read,ACK
0.914396580000000,0,0x5D,0x00,Read,ACK
0.914418080000000,0,0x5D,0x00,Read,ACK
0.914439540000000,0,0x5D,0x00,Read,ACK
0.914460980000000,0,0x5D,0x00,Read,ACK
0.914482460000000,0,0x5D,0x00,Read,ACK
0.914503980000000,0,0x5D,0x00,Read,ACK
0.914525480000000,0,0x5D,0x00,Read,ACK
0.914546960000000,0,0x5D,0x00,Read,ACK
0.914568440000000,0,0x5D,0x00,Read,ACK
0.914589920000000,0,0x5D,0x00,Read,ACK
0.914611420000000,0,0x5D,0x00,Read,ACK
0.914632880000000,0,0x5D,0x00,Read,ACK
0.914654320000000,0,0x5D,0x00,Read,ACK
0.914675780000000,0,0x5D,0x00,Read,ACK
0.914697240000000,0,0x5D,0x2C,Read,ACK
0.914718700000000,0,0x5D,0xAA,Read,ACK
0.914740200000000,0,0x5D,0x02,Read,ACK
0.914761640000000,0,0x5D,0x00,Read,ACK
0.914783100000000,0,0x5D,0x00,Read,ACK
0.914804580000000,0,0x5D,0x00,Read,ACK
0.914826100000000,0,0x5D,0x00,Read,ACK
0.914847640000000,0,0x5D,0x00,Read,ACK
0.914869100000000,0,0x5D,0x00,Read,ACK
0.914890560000000,0,0x5D,0x00,Read,ACK
0.914912060000000,0,0x5D,0x00,Read,ACK
0.914933740000000,0,0x5D,0x00,Read,ACK
0.914955180000000,0,0x5D,0x00,Read,ACK
0.914976640000000,0,0x5D,0x00,Read,ACK
0.914998080000000,0,0x5D,0x00,Read,ACK
0.915020880000000,0,0x5D,0x00,Read,ACK
0.915042360000000,0,0x5D,0x00,Read,ACK
0.915064080000000,0,0x5D,0x00,Read,ACK
0.915085840000000,0,0x5D,0x00,Read,ACK
0.915107380000000,0,0x5D,0x00,Read,ACK
0.915128880000000,0,0x5D,0x00,Read,NAK
0.920895100000000,0,0x5D,0x2F,Read,ACK
0.920918360000000,0,0x5D,0x00,Read,ACK
0.920939820000000,0,0x5D,0x04,Read,ACK
0.920961280000000,0,0x5D,0x03,Read,ACK
0.920982740000000,0,0x5D,0xFC,Read,ACK
0.921004200000000,0,0x5D,0x00,Read,ACK
0.921025700000000,0,0x5D,0xF3,Read,ACK
0.921047160000000,0,0x5D,0x08,Read,ACK
0.921069300000000,0,0x5D,0x03,Read,ACK
0.921091080000000,0,0x5D,0x03,Read,ACK
0.921112740000000,0,0x5D,0x20,Read,ACK
0.921134200000000,0,0x5D,0x13,Read,ACK
0.921155660000000,0,0x5D,0xE5,Read,ACK
0.921177100000000,0,0x5D,0x04,Read,ACK
0.921198560000000,0,0x5D,0x47,Read,ACK
0.921220140000000,0,0x5D,0x05,Read,ACK
0.921242600000000,0,0x5D,0x04,Read,ACK
0.921264100000000,0,0x5D,0x03,Read,ACK
0.921285560000000,0,0x5D,0x20,Read,ACK
0.921307040000000,0,0x5D,0x00,Read,ACK
0.921328560000000,0,0x5D,0x00,Read,ACK
0.921350140000000,0,0x5D,0x00,Read,ACK
0.921371920000000,0,0x5D,0x00,Read,ACK
0.921394400000000,0,0x5D,0x00,Read,ACK
0.921415860000000,0,0x5D,0x00,Read,ACK
0.921437380000000,0,0x5D,0x00,Read,ACK
0.921458880000000,0,0x5D,0x00,Read,ACK
0.921480320000000,0,0x5D,0x00,Read,ACK
0.921501940000000,0,0x5D,0x00,Read,ACK
0.921524180000000,0,0x5D,0x00,Read,ACK
0.921545680000000,0,0x5D,0x00,Read,ACK
0.921567300000000,0,0x5D,0x00,Read,ACK
0.921588760000000,0,0x5D,0x00,Read,ACK
0.921610220000000,0,0x5D,0x00,Read,ACK
0.921631680000000,0,0x5D,0x00,Read,ACK
0.921653120000000,0,0x5D,0x00,Read,ACK
0.921674580000000,0,0x5D,0x00,Read,ACK
0.921696020000000,0,0x5D,0x00,Read,ACK
0.921717480000000,0,0x5D,0x00,Read,ACK
0.921738920000000,0,0x5D,0x00,Read,ACK
0.921760400000000,0,0x5D,0x00,Read,ACK
0.921781920000000,0,0x5D,0x00,Read,ACK
0.921803420000000,0,0x5D,0x00,Read,ACK
0.921824880000000,0,0x5D,0x72,Read,ACK
0.921846320000000,0,0x5D,0xAA,Read,ACK
0.921867780000000,0,0x5D,0x02,Read,ACK
0.921889260000000,0,0x5D,0x00,Read,ACK
0.921911160000000,0,0x5D,0x00,Read,ACK
0.921932640000000,0,0x5D,0x00,Read,ACK
0.921954100000000,0,0x5D,0x00,Read,ACK
0.921975540000000,0,0x5D,0x00,Read,ACK
0.921997000000000,0,0x5D,0x00,Read,ACK
0.922018440000000,0,0x5D,0x00,Read,ACK
0.922039900000000,0,0x5D,0x00,Read,ACK
0.922061360000000,0,0x5D,0x00,Read,ACK
0.922082860000000,0,0x5D,0x00,Read,ACK
0.922104320000000,0,0x5D,0x00,Read,ACK
0.922125780000000,0,0x5D,0x00,Read,ACK
0.922150200000000,0,0x5D,0x00,Read,ACK
0.922171680000000,0,0x5D,0x00,Read,ACK
0.922193140000000,0,0x5D,0x00,Read,ACK
0.922214700000000,0,0x5D,0x00,Read,ACK
0.922236180000000,0,0x5D,0x00,Read,ACK
0.922258140000000,0,0x5D,0x00,Read,NAK
0.928241580000000,0,0x5D,0x2F,Read,ACK
0.928267720000000,0,0x5D,0x00,Read,ACK
0.928289180000000,0,0x5D,0x04,Read,ACK
0.928310640000000,0,0x5D,0x03,Read,ACK
0.928332100000000,0,0x5D,0xFC,Read,ACK
0.928353540000000,0,0x5D,0x00,Read,ACK
0.928377160000000,0,0x5D,0xF3,Read,ACK
0.928400180000000,0,0x5D,0x08,Read,ACK
0.928421660000000,0,0x5D,0x03,Read,ACK
0.928443100000000,0,0x5D,0x03,Read,ACK
0.928464560000000,0,0x5D,0x20,Read,ACK
0.928486000000000,0,0x5D,0x13,Read,ACK
0.928507440000000,0,0x5D,0xE3,Read,ACK
0.928528920000000,0,0x5D,0x04,Read,ACK
0.928550360000000,0,0x5D,0x46,Read,ACK
0.928571840000000,0,0x5D,0x05,Read,ACK
0.928593340000000,0,0x5D,0x04,Read,ACK
0.928615020000000,0,0x5D,0x03,Read,ACK
0.928637960000000,0,0x5D,0x20,Read,ACK
0.928659440000000,0,0x5D,0x00,Read,ACK
0.928680880000000,0,0x5D,0x00,Read,ACK
0.928702340000000,0,0x5D,0x00,Read,ACK
0.928723800000000,0,0x5D,0x00,Read,ACK
0.928745240000000,0,0x5D,0x00,Read,ACK
0.928766720000000,0,0x5D,0x00,Read,ACK
0.928788220000000,0,0x5D,0x00,Read,ACK
0.928809640000000,0,0x5D,0x00,Read,ACK
0.928831120000000,0,0x5D,0x00,Read,ACK
0.928852640000000,0,0x5D,0x00,Read,ACK
0.928874140000000,0,0x5D,0x00,Read,ACK
0.928895620000000,0,0x5D,0x00,Read,ACK
0.928917120000000,0,0x5D,0x00,Read,ACK
0.928938580000000,0,0x5D,0x00,Read,ACK
0.928960020000000,0,0x5D,0x00,Read,ACK
0.928981480000000,0,0x5D,0x00,Read,ACK
0.929002920000000,0,0x5D,0x00,Read,ACK
0.929024380000000,0,0x5D,0x00,Read,ACK
0.929046060000000,0,0x5D,0x00,Read,ACK
0.929067540000000,0,0x5D,0x00,Read,ACK
0.929089000000000,0,0x5D,0x00,Read,ACK
0.929110500000000,0,0x5D,0x00,Read,ACK
0.929131960000000,0,0x5D,0x00,Read,ACK
0.929153420000000,0,0x5D,0x00,Read,ACK
0.929174940000000,0,0x5D,0xB8,Read,ACK
0.929196440000000,0,0x5D,0xAA,Read,ACK
0.929218660000000,0,0x5D,0x02,Read,ACK
0.929240500000000,0,0x5D,0x00,Read,ACK
0.929263520000000,0,0x5D,0x00,Read,ACK
0.929286880000000,0,0x5D,0x00,Read,ACK
0.929308380000000,0,0x5D,0x00,Read,ACK
0.929329840000000,0,0x5D,0x00,Read,ACK
0.929351300000000,0,0x5D,0x00,Read,ACK
0.929372800000000,0,0x5D,0x00,Read,ACK
0.929394260000000,0,0x5D,0x00,Read,ACK
0.929415720000000,0,0x5D,0x00,Read,ACK
0.929437200000000,0,0x5D,0x00,Read,ACK
0.929458700000000,0,0x5D,0x00,Read,ACK
0.929480200000000,0,0x5D,0x00,Read,ACK
0.929502200000000,0,0x5D,0x00,Read,ACK
0.929524700000000,0,0x5D,0x00,Read,ACK
0.929547300000000,0,0x5D,0x00,Read,ACK
0.929568800000000,0,0x5D,0x00,Read,ACK
0.929590280000000,0,0x5D,0x00,Read,ACK
0.929612160000000,0,0x5D,0x00,Read,NAK
0.935356560000000,0,0x5D,0x2F,Read,ACK
0.935382880000000,0,0x5D,0x00,Read,ACK
0.935404380000000,0,0x5D,0x04,Read,ACK
0.935425840000000,0,0x5D,0x03,Read,ACK
0.935447280000000,0,0x5D,0xFC,Read,ACK
0.935468740000000,0,0x5D,0x00,Read,ACK
0.935490200000000,0,0x5D,0xF3,Read,ACK
0.935512480000000,0,0x5D,0x08,Read,ACK
0.935535560000000,0,0x5D,0x03,Read,ACK
0.935557960000000,0,0x5D,0x03,Read,ACK
0.935579660000000,0,0x5D,0x20,Read,ACK
0.935601140000000,0,0x5D,0x13,Read,ACK
0.935622600000000,0,0x5D,0xE2,Read,ACK
0.935644220000000,0,0x5D,0x04,Read,ACK
0.935665700000000,0,0x5D,0x46,Read,ACK
0.935687140000000,0,0x5D,0x05,Read,ACK
0.935708780000000,0,0x5D,0x04,Read,ACK
0.935730240000000,0,0x5D,0x03,Read,ACK
0.935751680000000,0,0x5D,0x20,Read,ACK
0.935773160000000,0,0x5D,0x00,Read,ACK
0.935795800000000,0,0x5D,0x00,Read,ACK
0.935817280000000,0,0x5D,0x00,Read,ACK
0.935838740000000,0,0x5D,0x00,Read,ACK
0.935860200000000,0,0x5D,0x00,Read,ACK
0.935881640000000,0,0x5D,0x00,Read,ACK
0.935903100000000,0,0x5D,0x00,Read,ACK
0.935924600000000,0,0x5D,0x00,Read,ACK
0.935946060000000,0,0x5D,0x00,Read,ACK
0.935967520000000,0,0x5D,0x00,Read,ACK
0.935988980000000,0,0x5D,0x00,Read,ACK
0.936010440000000,0,0x5D,0x00,Read,ACK
0.936031940000000,0,0x5D,0x00,Read,ACK
0.936053400000000,0,0x5D,0x00,Read,ACK
0.936074860000000,0,0x5D,0x00,Read,ACK
0.936096300000000,0,0x5D,0x00,Read,ACK
0.936117760000000,0,0x5D,0x00,Read,ACK
0.936139220000000,0,0x5D,0x00,Read,ACK
0.936160680000000,0,0x5D,0x00,Read,ACK
0.936182120000000,0,0x5D,0x00,Read,ACK
0.936203580000000,0,0x5D,0x00,Read,ACK
0.936225100000000,0,0x5D,0x00,Read,ACK
0.936246600000000,0,0x5D,0x00,Read,ACK
0.936268120000000,0,0x5D,0x00,Read,ACK
0.936289640000000,0,0x5D,0xFE,Read,ACK
0.936311140000000,0,0x5D,0xAA,Read,ACK
0.936332600000000,0,0x5D,0x02,Read,ACK
0.936354060000000,0,0x5D,0x00,Read,ACK
0.936375560000000,0,0x5D,0x00,Read,ACK
0.936398460000000,0,0x5D,0x00,Read,ACK
0.936422540000000,0,0x5D,0x00,Read,ACK
0.936443980000000,0,0x5D,0x00,Read,ACK
0.936465440000000,0,0x5D,0x00,Read,ACK
0.936488520000000,0,0x5D,0x00,Read,ACK
0.936510760000000,0,0x5D,0x00,Read,ACK
0.936532240000000,0,0x5D,0x00,Read,ACK
0.936554400000000,0,0x5D,0x00,Read,ACK
0.936575900000000,0,0x5D,0x00,Read,ACK
0.936600020000000,0,0x5D,0x00,Read,ACK
0.936622780000000,0,0x5D,0x00,Read,ACK
0.936646060000000,0,0x5D,0x00,Read,ACK
0.936667560000000,0,0x5D,0x00,Read,ACK
0.936690440000000,0,0x5D,0x00,Read,ACK
0.936713640000000,0,0x5D,0x00,Read,ACK
0.936735080000000,0,0x5D,0x00,Read,NAK
0.942260140000000,0,0x5D,0x2F,Read,ACK
0.942285480000000,0,0x5D,0x00,Read,ACK
0.942307940000000,0,0x5D,0x04,Read,ACK
0.942329400000000,0,0x5D,0x03,Read,ACK
0.942350880000000,0,0x5D,0xFC,Read,ACK
0.942372380000000,0,0x5D,0x00,Read,ACK
0.942393860000000,0,0x5D,0xF3,Read,ACK
0.942415360000000,0,0x5D,0x08,Read,ACK
0.942436820000000,0,0x5D,0x03,Read,ACK
0.942458320000000,0,0x5D,0x03,Read,ACK
0.942479780000000,0,0x5D,0x20,Read,ACK
0.942502640000000,0,0x5D,0x13,Read,ACK
0.942524620000000,0,0x5D,0xE1,Read,ACK
0.942546080000000,0,0x5D,0x04,Read,ACK
0.942567540000000,0,0x5D,0x46,Read,ACK
0.942589060000000,0,0x5D,0x05,Read,ACK
0.942610540000000,0,0x5D,0x04,Read,ACK
0.942632020000000,0,0x5D,0x03,Read,ACK
0.942653480000000,0,0x5D,0x20,Read,ACK
0.942675640000000,0,0x5D,0x00,Read,ACK
0.942698660000000,0,0x5D,0x00,Read,ACK
0.942720520000000,0,0x5D,0x00,Read,ACK
0.942742740000000,0,0x5D,0x00,Read,ACK
0.942764180000000,0,0x5D,0x00,Read,ACK
0.942786600000000,0,0x5D,0x00,Read,ACK
0.942808080000000,0,0x5D,0x00,Read,ACK
0.942829540000000,0,0x5D,0x00,Read,ACK
0.942851020000000,0,0x5D,0x00,Read,ACK
0.942872500000000,0,0x5D,0x00,Read,ACK
0.942893960000000,0,0x5D,0x00,Read,ACK
0.942915460000000,0,0x5D,0x00,Read,ACK
0.942936980000000,0,0x5D,0x00,Read,ACK
0.942958680000000,0,0x5D,0x00,Read,ACK
0.942980160000000,0,0x5D,0x00,Read,ACK
0.943001600000000,0,0x5D,0x00,Read,ACK
0.943023060000000,0,0x5D,0x00,Read,ACK
0.943044520000000,0,0x5D,0x00,Read,ACK
0.943065960000000,0,0x5D,0x00,Read,ACK
0.943087420000000,0,0x5D,0x00,Read,ACK
0.943108880000000,0,0x5D,0x00,Read,ACK
0.943130340000000,0,0x5D,0x00,Read,ACK
0.943151800000000,0,0x5D,0x00,Read,ACK
0.943173240000000,0,0x5D,0x00,Read,ACK
0.943194700000000,0,0x5D,0x44,Read,ACK
0.943216160000000,0,0x5D,0xAB,Read,ACK
0.943237620000000,0,0x5D,0x02,Read,ACK
0.943259940000000,0,0x5D,0x00,Read,ACK
0.943281440000000,0,0x5D,0x00,Read,ACK
0.943302900000000,0,0x5D,0x00,Read,ACK
0.943324360000000,0,0x5D,0x00,Read,ACK
0.943345800000000,0,0x5D,0x00,Read,ACK
0.943367280000000,0,0x5D,0x00,Read,ACK
0.943388720000000,0,0x5D,0x00,Read,ACK
0.943410180000000,0,0x5D,0x00,Read,ACK
0.943431640000000,0,0x5D,0x00,Read,ACK
0.943453100000000,0,0x5D,0x00,Read,ACK
0.943474540000000,0,0x5D,0x00,Read,ACK
0.943497320000000,0,0x5D,0x00,Read,ACK
0.943518840000000,0,0x5D,0x00,Read,ACK
0.943540340000000,0,0x5D,0x00,Read,ACK
0.943563340000000,0,0x5D,0x00,Read,ACK
0.943585200000000,0,0x5D,0x00,Read,ACK
0.943606700000000,0,0x5D,0x00,Read,ACK
0.943628160000000,0,0x5D,0x00,Read,NAK
0.949386800000000,0,0x5D,0x2F,Read,ACK
0.949412040000000,0,0x5D,0x00,Read,ACK
0.949433560000000,0,0x5D,0x04,Read,ACK
0.949455940000000,0,0x5D,0x03,Read,ACK
0.949477440000000,0,0x5D,0xFC,Read,ACK
0.949499020000000,0,0x5D,0x00,Read,ACK
0.949520480000000,0,0x5D,0xF3,Read,ACK
0.949541940000000,0,0x5D,0x08,Read,ACK
0.949563440000000,0,0x5D,0x03,Read,ACK
0.949584920000000,0,0x5D,0x03,Read,ACK
0.949606420000000,0,0x5D,0x20,Read,ACK
0.949628140000000,0,0x5D,0x13,Read,ACK
0.949649660000000,0,0x5D,0xE0,Read,ACK
0.949672120000000,0,0x5D,0x04,Read,ACK
0.949694400000000,0,0x5D,0x46,Read,ACK
0.949715880000000,0,0x5D,0x05,Read,ACK
0.949737320000000,0,0x5D,0x04,Read,ACK
0.949758760000000,0,0x5D,0x03,Read,ACK
0.949780240000000,0,0x5D,0x20,Read,ACK
0.949801700000000,0,0x5D,0x00,Read,ACK
0.949823380000000,0,0x5D,0x00,Read,ACK
0.949845160000000,0,0x5D,0x00,Read,ACK
0.949867620000000,0,0x5D,0x00,Read,ACK
0.949889820000000,0,0x5D,0x00,Read,ACK
0.949911320000000,0,0x5D,0x00,Read,ACK
0.949932760000000,0,0x5D,0x00,Read,ACK
0.949955380000000,0,0x5D,0x00,Read,ACK
0.949976900000000,0,0x5D,0x00,Read,ACK
0.949998380000000,0,0x5D,0x00,Read,ACK
0.950019840000000,0,0x5D,0x00,Read,ACK
0.950041280000000,0,0x5D,0x00,Read,ACK
0.950063220000000,0,0x5D,0x00,Read,ACK
0.950084720000000,0,0x5D,0x00,Read,ACK
0.950106920000000,0,0x5D,0x00,Read,ACK
0.950128440000000,0,0x5D,0x00,Read,ACK
0.950149960000000,0,0x5D,0x00,Read,ACK
0.950171440000000,0,0x5D,0x00,Read,ACK
0.950192900000000,0,0x5D,0x00,Read,ACK
0.950214340000000,0,0x5D,0x00,Read,ACK
0.950235800000000,0,0x5D,0x00,Read,ACK
0.950257260000000,0,0x5D,0x00,Read,ACK
0.950278720000000,0,0x5D,0x00,Read,ACK
0.950300180000000,0,0x5D,0x00,Read,ACK
0.950321640000000,0,0x5D,0x8A,Read,ACK
0.950343180000000,0,0x5D,0xAB,Read,ACK
0.950364660000000,0,0x5D,0x02,Read,ACK
0.950386100000000,0,0x5D,0x00,Read,ACK
0.950407560000000,0,0x5D,0x00,Read,ACK
0.950429840000000,0,0x5D,0x00,Read,ACK
0.950451360000000,0,0x5D,0x00,Read,ACK
0.950472860000000,0,0x5D,0x00,Read,ACK
0.950494320000000,0,0x5D,0x00,Read,ACK
0.950515820000000,0,0x5D,0x00,Read,ACK
0.950537280000000,0,0x5D,0x00,Read,ACK
0.950558720000000,0,0x5D,0x00,Read,ACK
0.950580180000000,0,0x5D,0x00,Read,ACK
0.950601640000000,0,0x5D,0x00,Read,ACK
0.950623080000000,0,0x5D,0x00,Read,ACK
0.950644540000000,0,0x5D,0x00,Read,ACK
0.950667460000000,0,0x5D,0x00,Read,ACK
0.950688940000000,0,0x5D,0x00,Read,ACK
0.950711900000000,0,0x5D,0x00,Read,ACK
0.950734040000000,0,0x5D,0x00,Read,ACK
0.950755500000000,0,0x5D,0x00,Read,NAK
0.956664020000000,0,0x5D,0x2F,Read,ACK
0.956687320000000,0,0x5D,0x00,Read,ACK
0.956708840000000,0,0x5D,0x04,Read,ACK
0.956730380000000,0,0x5D,0x03,Read,ACK
0.956751860000000,0,0x5D,0xFC,Read,ACK
0.956774940000000,0,0x5D,0x00,Read,ACK
0.956796720000000,0,0x5D,0xF3,Read,ACK
0.956818500000000,0,0x5D,0x08,Read,ACK
0.956839960000000,0,0x5D,0x03,Read,ACK
0.956861440000000,0,0x5D,0x03,Read,ACK
0.956882900000000,0,0x5D,0x20,Read,ACK
0.956904420000000,0,0x5D,0x13,Read,ACK
0.956925920000000,0,0x5D,0xDF,Read,ACK
0.956947720000000,0,0x5D,0x04,Read,ACK
0.956969680000000,0,0x5D,0x46,Read,ACK
0.956991140000000,0,0x5D,0x05,Read,ACK
0.957012640000000,0,0x5D,0x04,Read,ACK
0.957034120000000,0,0x5D,0x03,Read,ACK
0.957055820000000,0,0x5D,0x20,Read,ACK
0.957077360000000,0,0x5D,0x00,Read,ACK
0.957098860000000,0,0x5D,0x00,Read,ACK
0.957121260000000,0,0x5D,0x00,Read,ACK
0.957142760000000,0,0x5D,0x00,Read,ACK
0.957164220000000,0,0x5D,0x00,Read,ACK
0.957185880000000,0,0x5D,0x00,Read,ACK
0.957207360000000,0,0x5D,0x00,Read,ACK
0.957228820000000,0,0x5D,0x00,Read,ACK
0.957250360000000,0,0x5D,0x00,Read,ACK
0.957271860000000,0,0x5D,0x00,Read,ACK
0.957293380000000,0,0x5D,0x00,Read,ACK
0.957314820000000,0,0x5D,0x00,Read,ACK
0.957336260000000,0,0x5D,0x00,Read,ACK
0.957357720000000,0,0x5D,0x00,Read,ACK
0.957379180000000,0,0x5D,0x00,Read,ACK
0.957400640000000,0,0x5D,0x00,Read,ACK
0.957422100000000,0,0x5D,0x00,Read,ACK
0.957443600000000,0,0x5D,0x00,Read,ACK
0.957465060000000,0,0x5D,0x00,Read,ACK
0.957486520000000,0,0x5D,0x00,Read,ACK
0.957507960000000,0,0x5D,0x00,Read,ACK
0.957529420000000,0,0x5D,0x00,Read,ACK
0.957550860000000,0,0x5D,0x00,Read,ACK
0.957572900000000,0,0x5D,0x00,Read,ACK
0.957594400000000,0,0x5D,0xD0,Read,ACK
0.957616180000000,0,0x5D,0xAB,Read,ACK
0.957637620000000,0,0x5D,0x02,Read,ACK
0.957659080000000,0,0x5D,0x00,Read,ACK
0.957680560000000,0,0x5D,0x00,Read,ACK
0.957702040000000,0,0x5D,0x00,Read,ACK
0.957723540000000,0,0x5D,0x00,Read,ACK
0.957745020000000,0,0x5D,0x00,Read,ACK
0.957766480000000,0,0x5D,0x00,Read,ACK
0.957788020000000,0,0x5D,0x00,Read,ACK
0.957809500000000,0,0x5D,0x00,Read,ACK
0.957831060000000,0,0x5D,0x00,Read,ACK
0.957852920000000,0,0x5D,0x00,Read,ACK
0.957874520000000,0,0x5D,0x00,Read,ACK
0.957896000000000,0,0x5D,0x00,Read,ACK
0.957917560000000,0,0x5D,0x00,Read,ACK
0.957939040000000,0,0x5D,0x00,Read,ACK
0.957961300000000,0,0x5D,0x00,Read,ACK
0.957982760000000,0,0x5D,0x00,Read,ACK
0.958004220000000,0,0x5D,0x00,Read,ACK
0.958025900000000,0,0x5D,0x00,Read,NAK
0.963727240000000,0,0x5D,0x2F,Read,ACK
0.963754160000000,0,0x5D,0x00,Read,ACK
0.963775660000000,0,0x5D,0x04,Read,ACK
0.963797120000000,0,0x5D,0x03,Read,ACK
0.963818580000000,0,0x5D,0xFC,Read,ACK
0.963840080000000,0,0x5D,0x00,Read,ACK
0.963861540000000,0,0x5D,0xF3,Read,ACK
0.963883000000000,0,0x5D,0x08,Read,ACK
0.963905420000000,0,0x5D,0x03,Read,ACK
0.963926900000000,0,0x5D,0x03,Read,ACK
0.963948360000000,0,0x5D,0x20,Read,ACK
0.963970760000000,0,0x5D,0x13,Read,ACK
0.963992340000000,0,0x5D,0xDE,Read,ACK
0.964014020000000,0,0x5D,0x04,Read,ACK
0.964035480000000,0,0x5D,0x46,Read,ACK
0.964056940000000,0,0x5D,0x05,Read,ACK
0.964078400000000,0,0x5D,0x04,Read,ACK
0.964099900000000,0,0x5D,0x03,Read,ACK
0.964121400000000,0,0x5D,0x20,Read,ACK
0.964142880000000,0,0x5D,0x00,Read,ACK
0.964164860000000,0,0x5D,0x00,Read,ACK
0.964187480000000,0,0x5D,0x00,Read,ACK
0.964208980000000,0,0x5D,0x00,Read,ACK
0.964230440000000,0,0x5D,0x00,Read,ACK
0.964251880000000,0,0x5D,0x00,Read,ACK
0.964273460000000,0,0x5D,0x00,Read,ACK
0.964295160000000,0,0x5D,0x00,Read,ACK
0.964316640000000,0,0x5D,0x00,Read,ACK
0.964338140000000,0,0x5D,0x00,Read,ACK
0.964359640000000,0,0x5D,0x00,Read,ACK
0.964381340000000,0,0x5D,0x00,Read,ACK
0.964403580000000,0,0x5D,0x00,Read,ACK
0.964425080000000,0,0x5D,0x00,Read,ACK
0.964447380000000,0,0x5D,0x00,Read,ACK
0.964468840000000,0,0x5D,0x00,Read,ACK
0.964490300000000,0,0x5D,0x00,Read,ACK
0.964511760000000,0,0x5D,0x00,Read,ACK
0.964533200000000,0,0x5D,0x00,Read,ACK
0.964554680000000,0,0x5D,0x00,Read,ACK
0.964576180000000,0,0x5D,0x00,Read,ACK
0.964597620000000,0,0x5D,0x00,Read,ACK
0.964619560000000,0,0x5D,0x00,Read,ACK
0.964641040000000,0,0x5D,0x00,Read,ACK
0.964662560000000,0,0x5D,0x16,Read,ACK
0.964684020000000,0,0x5D,0xAC,Read,ACK
0.964705520000000,0,0x5D,0x02,Read,ACK
0.964726960000000,0,0x5D,0x00,Read,ACK
0.964748440000000,0,0x5D,0x00,Read,ACK
0.964769940000000,0,0x5D,0x00,Read,ACK
0.964791400000000,0,0x5D,0x00,Read,ACK
0.964812920000000,0,0x5D,0x00,Read,ACK
0.964834360000000,0,0x5D,0x00,Read,ACK
0.964855800000000,0,0x5D,0x00,Read,ACK
0.964877260000000,0,0x5D,0x00,Read,ACK
0.964898740000000,0,0x5D,0x00,Read,ACK
0.964920240000000,0,0x5D,0x00,Read,ACK
0.964941740000000,0,0x5D,0x00,Read,ACK
0.964963200000000,0,0x5D,0x00,Read,ACK
0.964984660000000,0,0x5D,0x00,Read,ACK
0.965006120000000,0,0x5D,0x00,Read,ACK
0.965031560000000,0,0x5D,0x00,Read,ACK
0.965053280000000,0,0x5D,0x00,Read,ACK
0.965074760000000,0,0x5D,0x00,Read,ACK
0.965097400000000,0,0x5D,0x00,Read,NAK
0.970876200000000,0,0x5D,0x2F,Read,ACK
0.970897880000000,0,0x5D,0x00,Read,ACK
0.970919360000000,0,0x5D,0x04,Read,ACK
0.970940800000000,0,0x5D,0x03,Read,ACK
0.970962260000000,0,0x5D,0xFC,Read,ACK
0.970983720000000,0,0x5D,0x00,Read,ACK
0.971005160000000,0,0x5D,0xF3,Read,ACK
0.971026620000000,0,0x5D,0x08,Read,ACK
0.971048080000000,0,0x5D,0x03,Read,ACK
0.971071600000000,0,0x5D,0x03,Read,ACK
0.971093500000000,0,0x5D,0x20,Read,ACK
0.971116320000000,0,0x5D,0x13,Read,ACK
0.971137840000000,0,0x5D,0xDC,Read,ACK
0.971159260000000,0,0x5D,0x04,Read,ACK
0.971180720000000,0,0x5D,0x45,Read,ACK
0.971202180000000,0,0x5D,0x05,Read,ACK
0.971223620000000,0,0x5D,0x04,Read,ACK
0.971245080000000,0,0x5D,0x03,Read,ACK
0.971266660000000,0,0x5D,0x20,Read,ACK
0.971289100000000,0,0x5D,0x00,Read,ACK
0.971311500000000,0,0x5D,0x00,Read,ACK
0.971333000000000,0,0x5D,0x00,Read,ACK
0.971354460000000,0,0x5D,0x00,Read,ACK
0.971375980000000,0,0x5D,0x00,Read,ACK
0.971398680000000,0,0x5D,0x00,Read,ACK
0.971420120000000,0,0x5D,0x00,Read,ACK
0.971442040000000,0,0x5D,0x00,Read,ACK
0.971463560000000,0,0x5D,0x00,Read,ACK
0.971485040000000,0,0x5D,0x00,Read,ACK
0.971508160000000,0,0x5D,0x00,Read,ACK
0.971530940000000,0,0x5D,0x00,Read,ACK
0.971552380000000,0,0x5D,0x00,Read,ACK
0.971574180000000,0,0x5D,0x00,Read,ACK
0.971595680000000,0,0x5D,0x00,Read,ACK
0.971617140000000,0,0x5D,0x00,Read,ACK
0.971638640000000,0,0x5D,0x00,Read,ACK
0.971660100000000,0,0x5D,0x00,Read,ACK
0.971681600000000,0,0x5D,0x00,Read,ACK
0.971703100000000,0,0x5D,0x00,Read,ACK
0.971724560000000,0,0x5D,0x00,Read,ACK
0.971746300000000,0,0x5D,0x00,Read,ACK
0.971767780000000,0,0x5D,0x00,Read,ACK
0.971789240000000,0,0x5D,0x00,Read,ACK
0.971810700000000,0,0x5D,0x5C,Read,ACK
0.971832220000000,0,0x5D,0xAC,Read,ACK
0.971853740000000,0,0x5D,0x02,Read,ACK
0.971875260000000,0,0x5D,0x00,Read,ACK
0.971896740000000,0,0x5D,0x00,Read,ACK
0.971918200000000,0,0x5D,0x00,Read,ACK
0.971939660000000,0,0x5D,0x00,Read,ACK
0.971961180000000,0,0x5D,0x00,Read,ACK
0.971982680000000,0,0x5D,0x00,Read,ACK
0.972004140000000,0,0x5D,0x00,Read,ACK
0.972025580000000,0,0x5D,0x00,Read,ACK
0.972047060000000,0,0x5D,0x00,Read,ACK
0.972068500000000,0,0x5D,0x00,Read,ACK
0.972093740000000,0,0x5D,0x00,Read,ACK
0.972115200000000,0,0x5D,0x00,Read,ACK
0.972136780000000,0,0x5D,0x00,Read,ACK
0.972160080000000,0,0x5D,0x00,Read,ACK
0.972181880000000,0,0x5D,0x00,Read,ACK
0.972203340000000,0,0x5D,0x00,Read,ACK
0.972225100000000,0,0x5D,0x00,Read,ACK
0.972246620000000,0,0x5D,0x00,Read,NAK
0.978166520000000,0,0x5D,0x2F,Read,ACK
0.978189540000000,0,0x5D,0x00,Read,ACK
0.978211320000000,0,0x5D,0x04,Read,ACK
0.978232800000000,0,0x5D,0x03,Read,ACK
0.978255440000000,0,0x5D,0xFC,Read,ACK
0.978276920000000,0,0x5D,0x00,Read,ACK
0.978298400000000,0,0x5D,0xF3,Read,ACK
0.978319880000000,0,0x5D,0x08,Read,ACK
0.978341340000000,0,0x5D,0x03,Read,ACK
0.978363720000000,0,0x5D,0x03,Read,ACK
0.978385660000000,0,0x5D,0x20,Read,ACK
0.978407120000000,0,0x5D,0x13,Read,ACK
0.978429260000000,0,0x5D,0xDB,Read,ACK
0.978450720000000,0,0x5D,0x04,Read,ACK
0.978473200000000,0,0x5D,0x45,Read,ACK
0.978495300000000,0,0x5D,0x05,Read,ACK
0.978516780000000,0,0x5D,0x04,Read,ACK
0.978538280000000,0,0x5D,0x03,Read,ACK
0.978561000000000,0,0x5D,0x20,Read,ACK
0.978582540000000,0,0x5D,0x00,Read,ACK
0.978604020000000,0,0x5D,0x00,Read,ACK
0.978625660000000,0,0x5D,0x00,Read,ACK
0.978647120000000,0,0x5D,0x00,Read,ACK
0.978668600000000,0,0x5D,0x00,Read,ACK
0.978690100000000,0,0x5D,0x00,Read,ACK
0.978711540000000,0,0x5D,0x00,Read,ACK
0.978733020000000,0,0x5D,0x00,Read,ACK
0.978754500000000,0,0x5D,0x00,Read,ACK
0.978777220000000,0,0x5D,0x00,Read,ACK
0.978798720000000,0,0x5D,0x00,Read,ACK
0.978820180000000,0,0x5D,0x00,Read,ACK
0.978841640000000,0,0x5D,0x00,Read,ACK
0.978863500000000,0,0x5D,0x00,Read,ACK
0.978884980000000,0,0x5D,0x00,Read,ACK
0.978906420000000,0,0x5D,0x00,Read,ACK
0.978927880000000,0,0x5D,0x00,Read,ACK
0.978949340000000,0,0x5D,0x00,Read,ACK
0.978971280000000,0,0x5D,0x00,Read,ACK
0.978992740000000,0,0x5D,0x00,Read,ACK
0.979014200000000,0,0x5D,0x00,Read,ACK
0.979035820000000,0,0x5D,0x00,Read,ACK
0.979057300000000,0,0x5D,0x00,Read,ACK
0.979078760000000,0,0x5D,0x00,Read,ACK
0.979100220000000,0,0x5D,0xA2,Read,ACK
0.979121660000000,0,0x5D,0xAC,Read,ACK
0.979143100000000,0,0x5D,0x02,Read,ACK
0.979164580000000,0,0x5D,0x00,Read,ACK
0.979186100000000,0,0x5D,0x00,Read,ACK
0.979207620000000,0,0x5D,0x00,Read,ACK
0.979229440000000,0,0x5D,0x00,Read,ACK
0.979250960000000,0,0x5D,0x00,Read,ACK
0.979275040000000,0,0x5D,0x00,Read,ACK
0.979296520000000,0,0x5D,0x00,Read,ACK
0.979318000000000,0,0x5D,0x00,Read,ACK
0.979339440000000,0,0x5D,0x00,Read,ACK
0.979361120000000,0,0x5D,0x00,Read,ACK
0.979382600000000,0,0x5D,0x00,Read,ACK
0.979404040000000,0,0x5D,0x00,Read,ACK
0.979425500000000,0,0x5D,0x00,Read,ACK
0.979448140000000,0,0x5D,0x00,Read,ACK
0.979469800000000,0,0x5D,0x00,Read,ACK
0.979491300000000,0,0x5D,0x00,Read,ACK
0.979513080000000,0,0x5D,0x00,Read,ACK
0.979535180000000,0,0x5D,0x00,Read,NAK
0.985155440000000,0,0x5D,0x2F,Read,ACK
0.985178820000000,0,0x5D,0x00,Read,ACK
0.985200300000000,0,0x5D,0x04,Read,ACK
0.985221800000000,0,0x5D,0x03,Read,ACK
0.985243260000000,0,0x5D,0xFC,Read,ACK
0.985264720000000,0,0x5D,0x00,Read,ACK
0.985286160000000,0,0x5D,0xF3,Read,ACK
0.985307640000000,0,0x5D,0x08,Read,ACK
0.985329140000000,0,0x5D,0x03,Read,ACK
0.985350660000000,0,0x5D,0x03,Read,ACK
0.985372180000000,0,0x5D,0x20,Read,ACK
0.985394900000000,0,0x5D,0x13,Read,ACK
0.985416400000000,0,0x5D,0xDA,Read,ACK
0.985437900000000,0,0x5D,0x04,Read,ACK
0.985459360000000,0,0x5D,0x45,Read,ACK
0.985480900000000,0,0x5D,0x05,Read,ACK
0.985502380000000,0,0x5D,0x04,Read,ACK
0.985523840000000,0,0x5D,0x03,Read,ACK
0.985545280000000,0,0x5D,0x20,Read,ACK
0.985567240000000,0,0x5D,0x00,Read,ACK
0.985588700000000,0,0x5D,0x00,Read,ACK
0.985610340000000,0,0x5D,0x00,Read,ACK
0.985631780000000,0,0x5D,0x00,Read,ACK
0.985653240000000,0,0x5D,0x00,Read,ACK
0.985674760000000,0,0x5D,0x00,Read,ACK
0.985696220000000,0,0x5D,0x00,Read,ACK
0.985717680000000,0,0x5D,0x00,Read,ACK
0.985739120000000,0,0x5D,0x00,Read,ACK
0.985760580000000,0,0x5D,0x00,Read,ACK
0.985782040000000,0,0x5D,0x00,Read,ACK
0.985803500000000,0,0x5D,0x00,Read,ACK
0.985824940000000,0,0x5D,0x00,Read,ACK
0.985846380000000,0,0x5D,0x00,Read,ACK
0.985868060000000,0,0x5D,0x00,Read,ACK
0.985889540000000,0,0x5D,0x00,Read,ACK
0.985911260000000,0,0x5D,0x00,Read,ACK
0.985932760000000,0,0x5D,0x00,Read,ACK
0.985954220000000,0,0x5D,0x00,Read,ACK
0.985975720000000,0,0x5D,0x00,Read,ACK
0.985997180000000,0,0x5D,0x00,Read,ACK
0.986018640000000,0,0x5D,0x00,Read,ACK
0.986040080000000,0,0x5D,0x00,Read,ACK
0.986061540000000,0,0x5D,0x00,Read,ACK
0.986083000000000,0,0x5D,0xE8,Read,ACK
0.986104520000000,0,0x5D,0xAC,Read,ACK
0.986126080000000,0,0x5D,0x02,Read,ACK
0.986147540000000,0,0x5D,0x00,Read,ACK
0.986169040000000,0,0x5D,0x00,Read,ACK
0.986190640000000,0,0x5D,0x00,Read,ACK
0.986212140000000,0,0x5D,0x00,Read,ACK
0.986233600000000,0,0x5D,0x00,Read,ACK
0.986255060000000,0,0x5D,0x00,Read,ACK
0.986276580000000,0,0x5D,0x00,Read,ACK
0.986298060000000,0,0x5D,0x00,Read,ACK
0.986319520000000,0,0x5D,0x00,Read,ACK
0.986340980000000,0,0x5D,0x00,Read,ACK
0.986362440000000,0,0x5D,0x00,Read,ACK
0.986383960000000,0,0x5D,0x00,Read,ACK
0.986405480000000,0,0x5D,0x00,Read,ACK
0.986427880000000,0,0x5D,0x00,Read,ACK
0.986451320000000,0,0x5D,0x00,Read,ACK
0.986473100000000,0,0x5D,0x00,Read,ACK
0.986494580000000,0,0x5D,0x00,Read,ACK
0.986516280000000,0,0x5D,0x00,Read,NAK
0.992274600000000,0,0x5D,0x2F,Read,ACK
0.992300040000000,0,0x5D,0x00,Read,ACK
0.992322160000000,0,0x5D,0x04,Read,ACK
0.992343660000000,0,0x5D,0x03,Read,ACK
0.992365120000000,0,0x5D,0xFC,Read,ACK
0.992386640000000,0,0x5D,0x00,Read,ACK
0.992408140000000,0,0x5D,0xF3,Read,ACK
0.992429580000000,0,0x5D,0x08,Read,ACK
0.992451040000000,0,0x5D,0x03,Read,ACK
0.992472480000000,0,0x5D,0x03,Read,ACK
0.992493960000000,0,0x5D,0x20,Read,ACK
0.992515460000000,0,0x5D,0x13,Read,ACK
0.992538160000000,0,0x5D,0xD9,Read,ACK
0.992560260000000,0,0x5D,0x04,Read,ACK
0.992582480000000,0,0x5D,0x45,Read,ACK
0.992603940000000,0,0x5D,0x05,Read,ACK
0.992625420000000,0,0x5D,0x04,Read,ACK
0.992646920000000,0,0x5D,0x03,Read,ACK
0.992668420000000,0,0x5D,0x20,Read,ACK
0.992689880000000,0,0x5D,0x00,Read,ACK
0.992712860000000,0,0x5D,0x00,Read,ACK
0.992734340000000,0,0x5D,0x00,Read,ACK
0.992755800000000,0,0x5D,0x00,Read,ACK
0.992777300000000,0,0x5D,0x00,Read,ACK
0.992798760000000,0,0x5D,0x00,Read,ACK
0.992820520000000,0,0x5D,0x00,Read,ACK
0.992841980000000,0,0x5D,0x00,Read,ACK
0.992863540000000,0,0x5D,0x00,Read,ACK
0.992885000000000,0,0x5D,0x00,Read,ACK
0.992906520000000,0,0x5D,0x00,Read,ACK
0.992928920000000,0,0x5D,0x00,Read,ACK
0.992950400000000,0,0x5D,0x00,Read,ACK
0.992971920000000,0,0x5D,0x00,Read,ACK
0.992993380000000,0,0x5D,0x00,Read,ACK
0.993014880000000,0,0x5D,0x00,Read,ACK
0.993036340000000,0,0x5D,0x00,Read,ACK
0.993057860000000,0,0x5D,0x00,Read,ACK
0.993079320000000,0,0x5D,0x00,Read,ACK
0.993100840000000,0,0x5D,0x00,Read,ACK
0.993122360000000,0,0x5D,0x00,Read,ACK
0.993143860000000,0,0x5D,0x00,Read,ACK
0.993165360000000,0,0x5D,0x00,Read,ACK
0.993186820000000,0,0x5D,0x00,Read,ACK
0.993208280000000,0,0x5D,0x2E,Read,ACK
0.993229740000000,0,0x5D,0xAD,Read,ACK
0.993251200000000,0,0x5D,0x02,Read,ACK
0.993272680000000,0,0x5D,0x00,Read,ACK
0.993294160000000,0,0x5D,0x00,Read,ACK
0.993315680000000,0,0x5D,0x00,Read,ACK
0.993337180000000,0,0x5D,0x00,Read,ACK
0.993358640000000,0,0x5D,0x00,Read,ACK
0.993380140000000,0,0x5D,0x00,Read,ACK
0.993401600000000,0,0x5D,0x00,Read,ACK
0.993423060000000,0,0x5D,0x00,Read,ACK
0.993444540000000,0,0x5D,0x00,Read,ACK
0.993466020000000,0,0x5D,0x00,Read,ACK
0.993487480000000,0,0x5D,0x00,Read,ACK
0.993508920000000,0,0x5D,0x00,Read,ACK
0.993530380000000,0,0x5D,0x00,Read,ACK
0.993551820000000,0,0x5D,0x00,Read,ACK
0.993574720000000,0,0x5D,0x00,Read,ACK
0.993598040000000,0,0x5D,0x00,Read,ACK
0.993619500000000,0,0x5D,0x00,Read,ACK
0.993641080000000,0,0x5D,0x00,Read,NAK
0.999466840000000,0,0x5D,0x2F,Read,ACK
0.999490080000000,0,0x5D,0x00,Read,ACK
0.999511560000000,0,0x5D,0x04,Read,ACK
0.999533000000000,0,0x5D,0x03,Read,ACK
0.999554520000000,0,0x5D,0xFC,Read,ACK
0.999575960000000,0,0x5D,0x00,Read,ACK
0.999597420000000,0,0x5D,0xF3,Read,ACK
0.999618860000000,0,0x5D,0x08,Read,ACK
0.999640320000000,0,0x5D,0x03,Read,ACK
0.999661820000000,0,0x5D,0x03,Read,ACK
0.999684840000000,0,0x5D,0x20,Read,ACK
0.999706780000000,0,0x5D,0x13,Read,ACK
0.999729460000000,0,0x5D,0xD7,Read,ACK
0.999750940000000,0,0x5D,0x04,Read,ACK
0.999772400000000,0,0x5D,0x45,Read,ACK
0.999793900000000,0,0x5D,0x05,Read,ACK
0.999816000000000,0,0x5D,0x04,Read,ACK
0.999838440000000,0,0x5D,0x03,Read,ACK
0.999860820000000,0,0x5D,0x20,Read,ACK
0.999882280000000,0,0x5D,0x00,Read,ACK
0.999903720000000,0,0x5D,0x00,Read,ACK
0.999925180000000,0,0x5D,0x00,Read,ACK
0.999946680000000,0,0x5D,0x00,Read,ACK
0.999968140000000,0,0x5D,0x00,Read,ACK
0.999989820000000,0,0x5D,0x00,Read,ACK
1.000011280000000,0,0x5D,0x00,Read,ACK
1.000032740000000,0,0x5D,0x00,Read,ACK
1.000054200000000,0,0x5D,0x00,Read,ACK
1.000076660000000,0,0x5D,0x00,Read,ACK
1.000098320000000,0,0x5D,0x00,Read,ACK
1.000119800000000,0,0x5D,0x00,Read,ACK
1.000141300000000,0,0x5D,0x00,Read,ACK
1.000162760000000,0,0x5D,0x00,Read,ACK
1.000184220000000,0,0x5D,0x00,Read,ACK
1.000205680000000,0,0x5D,0x00,Read,ACK
1.000227200000000,0,0x5D,0x00,Read,ACK
1.000248700000000,0,0x5D,0x00,Read,ACK
1.000270160000000,0,0x5D,0x00,Read,ACK
1.000291960000000,0,0x5D,0x00,Read,ACK
1.000313440000000,0,0x5D,0x00,Read,ACK
1.000334940000000,0,0x5D,0x00,Read,ACK
1.000356420000000,0,0x5D,0x00,Read,ACK
1.000377920000000,0,0x5D,0x00,Read,ACK
1.000399360000000,0,0x5D,0x74,Read,ACK
1.000420820000000,0,0x5D,0xAD,Read,ACK
1.000442320000000,0,0x5D,0x02,Read,ACK
1.000465160000000,0,0x5D,0x00,Read,ACK
1.000486620000000,0,0x5D,0x00,Read,ACK
1.000508060000000,0,0x5D,0x00,Read,ACK
1.000529500000000,0,0x5D,0x00,Read,ACK
1.000550960000000,0,0x5D,0x00,Read,ACK
1.000572440000000,0,0x5D,0x00,Read,ACK
1.000593920000000,0,0x5D,0x00,Read,ACK
1.000615400000000,0,0x5D,0x00,Read,ACK
1.000636900000000,0,0x5D,0x00,Read,ACK
1.000658500000000,0,0x5D,0x00,Read,ACK
1.000680000000000,0,0x5D,0x00,Read,ACK
1.000701520000000,0,0x5D,0x00,Read,ACK
1.000722960000000,0,0x5D,0x00,Read,ACK
1.000744420000000,0,0x5D,0x00,Read,ACK
1.000765880000000,0,0x5D,0x00,Read,ACK
1.000787840000000,0,0x5D,0x00,Read,ACK
1.000809400000000,0,0x5D,0x00,Read,ACK
1.000833180000000,0,0x5D,0x00,Read,NAK
1.006758580000000,0,0x5D,0x2F,Read,ACK
1.006785540000000,0,0x5D,0x00,Read,ACK
1.006807280000000,0,0x5D,0x04,Read,ACK
1.006830320000000,0,0x5D,0x03,Read,ACK
1.006851820000000,0,0x5D,0xFC,Read,ACK
1.006873320000000,0,0x5D,0x00,Read,ACK
1.006894780000000,0,0x5D,0xF3,Read,ACK
1.006916300000000,0,0x5D,0x08,Read,ACK
1.006937740000000,0,0x5D,0x03,Read,ACK
1.006959720000000,0,0x5D,0x03,Read,ACK
1.006981760000000,0,0x5D,0x20,Read,ACK
1.007003240000000,0,0x5D,0x13,Read,ACK
1.007024740000000,0,0x5D,0xD6,Read,ACK
1.007046200000000,0,0x5D,0x04,Read,ACK
1.007067660000000,0,0x5D,0x45,Read,ACK
1.007089100000000,0,0x5D,0x05,Read,ACK
1.007110560000000,0,0x5D,0x04,Read,ACK
1.007132040000000,0,0x5D,0x03,Read,ACK
1.007153540000000,0,0x5D,0x20,Read,ACK
1.007176280000000,0,0x5D,0x00,Read,ACK
1.007198920000000,0,0x5D,0x00,Read,ACK
1.007221440000000,0,0x5D,0x00,Read,ACK
1.007242900000000,0,0x5D,0x00,Read,ACK
1.007264360000000,0,0x5D,0x00,Read,ACK
1.007285820000000,0,0x5D,0x00,Read,ACK
1.007307260000000,0,0x5D,0x00,Read,ACK
1.007328720000000,0,0x5D,0x00,Read,ACK
1.007350160000000,0,0x5D,0x00,Read,ACK
1.007371620000000,0,0x5D,0x00,Read,ACK
1.007393060000000,0,0x5D,0x00,Read,ACK
1.007414560000000,0,0x5D,0x00,Read,ACK
1.007436040000000,0,0x5D,0x00,Read,ACK
1.007457480000000,0,0x5D,0x00,Read,ACK
1.007478940000000,0,0x5D,0x00,Read,ACK
1.007500600000000,0,0x5D,0x00,Read,ACK
1.007522100000000,0,0x5D,0x00,Read,ACK
1.007543560000000,0,0x5D,0x00,Read,ACK
1.007565000000000,0,0x5D,0x00,Read,ACK
1.007586480000000,0,0x5D,0x00,Read,ACK
1.007608060000000,0,0x5D,0x00,Read,ACK
1.007629560000000,0,0x5D,0x00,Read,ACK
1.007651000000000,0,0x5D,0x00,Read,ACK
1.007672480000000,0,0x5D,0x00,Read,ACK
1.007694000000000,0,0x5D,0xBA,Read,ACK
1.007715500000000,0,0x5D,0xAD,Read,ACK
1.007736960000000,0,0x5D,0x02,Read,ACK
1.007758400000000,0,0x5D,0x00,Read,ACK
1.007779860000000,0,0x5D,0x00,Read,ACK
1.007801720000000,0,0x5D,0x00,Read,ACK
1.007826300000000,0,0x5D,0x00,Read,ACK
1.007849400000000,0,0x5D,0x00,Read,ACK
1.007872360000000,0,0x5D,0x00,Read,ACK
1.007895080000000,0,0x5D,0x00,Read,ACK
1.007916940000000,0,0x5D,0x00,Read,ACK
1.007938440000000,0,0x5D,0x00,Read,ACK
1.007960840000000,0,0x5D,0x00,Read,ACK
1.007982280000000,0,0x5D,0x00,Read,ACK
1.008003740000000,0,0x5D,0x00,Read,ACK
1.008026020000000,0,0x5D,0x00,Read,ACK
1.008047540000000,0,0x5D,0x00,Read,ACK
1.008069860000000,0,0x5D,0x00,Read,ACK
1.008092880000000,0,0x5D,0x00,Read,ACK
1.008114420000000,0,0x5D,0x00,Read,ACK
1.008136360000000,0,0x5D,0x00,Read,NAK
1.013738180000000,0,0x5D,0x2F,Read,ACK
1.013762620000000,0,0x5D,0x00,Read,ACK
1.013784100000000,0,0x5D,0x04,Read,ACK
1.013805560000000,0,0x5D,0x03,Read,ACK
1.013827000000000,0,0x5D,0xFC,Read,ACK
1.013848480000000,0,0x5D,0x00,Read,ACK
1.013869960000000,0,0x5D,0xF3,Read,ACK
1.013891440000000,0,0x5D,0x08,Read,ACK
1.013914420000000,0,0x5D,0x03,Read,ACK
1.013935980000000,0,0x5D,0x03,Read,ACK
1.013958620000000,0,0x5D,0x20,Read,ACK
1.013980120000000,0,0x5D,0x13,Read,ACK
1.014001560000000,0,0x5D,0xD4,Read,ACK
1.014023020000000,0,0x5D,0x04,Read,ACK
1.014044480000000,0,0x5D,0x44,Read,ACK
1.014065920000000,0,0x5D,0x05,Read,ACK
1.014088440000000,0,0x5D,0x04,Read,ACK
1.014110880000000,0,0x5D,0x03,Read,ACK
1.014132660000000,0,0x5D,0x20,Read,ACK
1.014154140000000,0,0x5D,0x00,Read,ACK
1.014175620000000,0,0x5D,0x00,Read,ACK
1.014197080000000,0,0x5D,0x00,Read,ACK
1.014219480000000,0,0x5D,0x00,Read,ACK
1.014240920000000,0,0x5D,0x00,Read,ACK
1.014262360000000,0,0x5D,0x00,Read,ACK
1.014283820000000,0,0x5D,0x00,Read,ACK
1.014306500000000,0,0x5D,0x00,Read,ACK
1.014328180000000,0,0x5D,0x00,Read,ACK
1.014349700000000,0,0x5D,0x00,Read,ACK
1.014371140000000,0,0x5D,0x00,Read,ACK
1.014392580000000,0,0x5D,0x00,Read,ACK
1.014414060000000,0,0x5D,0x00,Read,ACK
1.014435560000000,0,0x5D,0x00,Read,ACK
1.014457000000000,0,0x5D,0x00,Read,ACK
1.014478480000000,0,0x5D,0x00,Read,ACK
1.014499980000000,0,0x5D,0x00,Read,ACK
1.014521440000000,0,0x5D,0x00,Read,ACK
1.014542900000000,0,0x5D,0x00,Read,ACK
1.014564340000000,0,0x5D,0x00,Read,ACK
1.014585800000000,0,0x5D,0x00,Read,ACK
1.014607280000000,0,0x5D,0x00,Read,ACK
1.014628780000000,0,0x5D,0x00,Read,ACK
1.014650440000000,0,0x5D,0x00,Read,ACK
1.014671940000000,0,0x5D,0x00,Read,ACK
1.014693440000000,0,0x5D,0xAE,Read,ACK
1.014714900000000,0,0x5D,0x02,Read,ACK
1.014736340000000,0,0x5D,0x00,Read,ACK
1.014757800000000,0,0x5D,0x00,Read,ACK
1.014779260000000,0,0x5D,0x00,Read,ACK
1.014800720000000,0,0x5D,0x00,Read,ACK
1.014822200000000,0,0x5D,0x00,Read,ACK
1.014843680000000,0,0x5D,0x00,Read,ACK
1.014865140000000,0,0x5D,0x00,Read,ACK
1.014886600000000,0,0x5D,0x00,Read,ACK
1.014908040000000,0,0x5D,0x00,Read,ACK
1.014929520000000,0,0x5D,0x00,Read,ACK
1.014951000000000,0,0x5D,0x00,Read,ACK
1.014973560000000,0,0x5D,0x00,Read,ACK
1.014996880000000,0,0x5D,0x00,Read,ACK
1.015018360000000,0,0x5D,0x00,Read,ACK
1.015040440000000,0,0x5D,0x00,Read,ACK
1.015062220000000,0,0x5D,0x00,Read,ACK
1.015083660000000,0,0x5D,0x00,Read,ACK
1.015105120000000,0,0x5D,0x00,Read,NAK
1.021169080000000,0,0x5D,0x2F,Read,ACK
1.021192300000000,0,0x5D,0x00,Read,ACK
1.021213780000000,0,0x5D,0x04,Read,ACK
1.021235240000000,0,0x5D,0x03,Read,ACK
1.021256680000000,0,0x5D,0xFC,Read,ACK
1.021278140000000,0,0x5D,0x00,Read,ACK
1.021299600000000,0,0x5D,0xF3,Read,ACK
1.021321340000000,0,0x5D,0x08,Read,ACK
1.021342820000000,0,0x5D,0x03,Read,ACK
1.021364300000000,0,0x5D,0x03,Read,ACK
1.021385800000000,0,0x5D,0x20,Read,ACK
1.021407300000000,0,0x5D,0x13,Read,ACK
1.021428780000000,0,0x5D,0xD1,Read,ACK
1.021450280000000,0,0x5D,0x04,Read,ACK
1.021471720000000,0,0x5D,0x44,Read,ACK
1.021494180000000,0,0x5D,0x05,Read,ACK
1.021515740000000,0,0x5D,0x04,Read,ACK
1.021537340000000,0,0x5D,0x03,Read,ACK
1.021558800000000,0,0x5D,0x20,Read,ACK
1.021580260000000,0,0x5D,0x00,Read,ACK
1.021601800000000,0,0x5D,0x00,Read,ACK
1.021623360000000,0,0x5D,0x00,Read,ACK
1.021644860000000,0,0x5D,0x00,Read,ACK
1.021666320000000,0,0x5D,0x00,Read,ACK
1.021687780000000,0,0x5D,0x00,Read,ACK
1.021709240000000,0,0x5D,0x00,Read,ACK
1.021730700000000,0,0x5D,0x00,Read,ACK
1.021752160000000,0,0x5D,0x00,Read,ACK
1.021773620000000,0,0x5D,0x00,Read,ACK
1.021795120000000,0,0x5D,0x00,Read,ACK
1.021816600000000,0,0x5D,0x00,Read,ACK
1.021838120000000,0,0x5D,0x00,Read,ACK
1.021859600000000,0,0x5D,0x00,Read,ACK
1.021881080000000,0,0x5D,0x00,Read,ACK
1.021902600000000,0,0x5D,0x00,Read,ACK
1.021924100000000,0,0x5D,0x00,Read,ACK
1.021945560000000,0,0x5D,0x00,Read,ACK
1.021967020000000,0,0x5D,0x00,Read,ACK
1.021988460000000,0,0x5D,0x00,Read,ACK
1.022010200000000,0,0x5D,0x00,Read,ACK
1.022031680000000,0,0x5D,0x00,Read,ACK
1.022053140000000,0,0x5D,0x00,Read,ACK
1.022076780000000,0,0x5D,0x00,Read,ACK
1.022098240000000,0,0x5D,0x46,Read,ACK
1.022120300000000,0,0x5D,0xAE,Read,ACK
1.022143580000000,0,0x5D,0x02,Read,ACK
1.022166060000000,0,0x5D,0x00,Read,ACK
1.022187640000000,0,0x5D,0x00,Read,ACK
1.022209160000000,0,0x5D,0x00,Read,ACK
1.022230660000000,0,0x5D,0x00,Read,ACK
1.022253800000000,0,0x5D,0x00,Read,ACK
1.022275600000000,0,0x5D,0x00,Read,ACK
1.022297100000000,0,0x5D,0x00,Read,ACK
1.022318720000000,0,0x5D,0x00,Read,ACK
1.022341520000000,0,0x5D,0x00,Read,ACK
1.022363100000000,0,0x5D,0x00,Read,ACK
1.022385040000000,0,0x5D,0x00,Read,ACK
1.022406560000000,0,0x5D,0x00,Read,ACK
1.022428060000000,0,0x5D,0x00,Read,ACK
1.022449520000000,0,0x5D,0x00,Read,ACK
1.022470960000000,0,0x5D,0x00,Read,ACK
1.022493280000000,0,0x5D,0x00,Read,ACK
1.022515320000000,0,0x5D,0x00,Read,ACK
1.022536820000000,0,0x5D,0x00,Read,NAK
1.028021860000000,0,0x5D,0x2F,Read,ACK
1.028047620000000,0,0x5D,0x00,Read,ACK
1.028069100000000,0,0x5D,0x04,Read,ACK
1.028090560000000,0,0x5D,0x03,Read,ACK
1.028112020000000,0,0x5D,0xFC,Read,ACK
1.028133540000000,0,0x5D,0x00,Read,ACK
1.028155000000000,0,0x5D,0xF3,Read,ACK
1.028176520000000,0,0x5D,0x08,Read,ACK
1.028198020000000,0,0x5D,0x03,Read,ACK
1.028219460000000,0,0x5D,0x03,Read,ACK
1.028241280000000,0,0x5D,0x20,Read,ACK
1.028263920000000,0,0x5D,0x13,Read,ACK
1.028287100000000,0,0x5D,0xCF,Read,ACK
1.028308580000000,0,0x5D,0x04,Read,ACK
1.028330040000000,0,0x5D,0x44,Read,ACK
1.028351500000000,0,0x5D,0x05,Read,ACK
1.028372940000000,0,0x5D,0x04,Read,ACK
1.028394400000000,0,0x5D,0x03,Read,ACK
1.028415860000000,0,0x5D,0x20,Read,ACK
1.028437600000000,0,0x5D,0x00,Read,ACK
1.028459080000000,0,0x5D,0x00,Read,ACK
1.028480520000000,0,0x5D,0x00,Read,ACK
1.028502280000000,0,0x5D,0x00,Read,ACK
1.028523880000000,0,0x5D,0x00,Read,ACK
1.028545340000000,0,0x5D,0x00,Read,ACK
1.028567260000000,0,0x5D,0x00,Read,ACK
1.028588740000000,0,0x5D,0x00,Read,ACK
1.028610200000000,0,0x5D,0x00,Read,ACK
1.028632780000000,0,0x5D,0x00,Read,ACK
1.028654220000000,0,0x5D,0x00,Read,ACK
1.028675700000000,0,0x5D,0x00,Read,ACK
1.028698800000000,0,0x5D,0x00,Read,ACK
1.028720280000000,0,0x5D,0x00,Read,ACK
1.028741720000000,0,0x5D,0x00,Read,ACK
1.028763180000000,0,0x5D,0x00,Read,ACK
1.028784640000000,0,0x5D,0x00,Read,ACK
1.028806080000000,0,0x5D,0x00,Read,ACK
1.028827540000000,0,0x5D,0x00,Read,ACK
1.028849000000000,0,0x5D,0x00,Read,ACK
1.028870680000000,0,0x5D,0x00,Read,ACK
1.028892140000000,0,0x5D,0x00,Read,ACK
1.028913600000000,0,0x5D,0x00,Read,ACK
1.028935060000000,0,0x5D,0x00,Read,ACK
1.028956500000000,0,0x5D,0x8C,Read,ACK
1.028977960000000,0,0x5D,0xAE,Read,ACK
1.028999440000000,0,0x5D,0x02,Read,ACK
1.029020940000000,0,0x5D,0x00,Read,ACK
1.029042400000000,0,0x5D,0x00,Read,ACK
1.029063840000000,0,0x5D,0x00,Read,ACK
1.029085300000000,0,0x5D,0x00,Read,ACK
1.029106740000000,0,0x5D,0x00,Read,ACK
1.029128280000000,0,0x5D,0x00,Read,ACK
1.029149740000000,0,0x5D,0x00,Read,ACK
1.029171240000000,0,0x5D,0x00,Read,ACK
1.029192720000000,0,0x5D,0x00,Read,ACK
1.029214200000000,0,0x5D,0x00,Read,ACK
1.029236440000000,0,0x5D,0x00,Read,ACK
1.029257920000000,0,0x5D,0x00,Read,ACK
1.029280840000000,0,0x5D,0x00,Read,ACK
1.029304380000000,0,0x5D,0x00,Read,ACK
1.029327020000000,0,0x5D,0x00,Read,ACK
1.029348640000000,0,0x5D,0x00,Read,ACK
1.029370560000000,0,0x5D,0x00,Read,ACK
1.029392080000000,0,0x5D,0x00,Read,NAK
1.035162780000000,0,0x5D,0x2F,Read,ACK
1.035187580000000,0,0x5D,0x00,Read,ACK
1.035209060000000,0,0x5D,0x04,Read,ACK
1.035230520000000,0,0x5D,0x03,Read,ACK
1.035251960000000,0,0x5D,0xFC,Read,ACK
1.035273420000000,0,0x5D,0x00,Read,ACK
1.035294880000000,0,0x5D,0xF3,Read,ACK
1.035316320000000,0,0x5D,0x08,Read,ACK
1.035337800000000,0,0x5D,0x03,Read,ACK
1.035359260000000,0,0x5D,0x03,Read,ACK
1.035381040000000,0,0x5D,0x20,Read,ACK
1.035403420000000,0,0x5D,0x13,Read,ACK
1.035426140000000,0,0x5D,0xCD,Read,ACK
1.035447640000000,0,0x5D,0x04,Read,ACK
1.035469160000000,0,0x5D,0x44,Read,ACK
1.035490660000000,0,0x5D,0x05,Read,ACK
1.035512140000000,0,0x5D,0x04,Read,ACK
1.035533620000000,0,0x5D,0x03,Read,ACK
1.035555820000000,0,0x5D,0x20,Read,ACK
1.035578400000000,0,0x5D,0x00,Read,ACK
1.035599860000000,0,0x5D,0x00,Read,ACK
1.035621340000000,0,0x5D,0x00,Read,ACK
1.035642840000000,0,0x5D,0x00,Read,ACK
1.035665480000000,0,0x5D,0x00,Read,ACK
1.035687000000000,0,0x5D,0x00,Read,ACK
1.035708500000000,0,0x5D,0x00,Read,ACK
1.035730300000000,0,0x5D,0x00,Read,ACK
1.035751800000000,0,0x5D,0x00,Read,ACK
1.035773260000000,0,0x5D,0x00,Read,ACK
1.035794780000000,0,0x5D,0x00,Read,ACK
1.035817080000000,0,0x5D,0x00,Read,ACK
1.035838540000000,0,0x5D,0x00,Read,ACK
1.035860040000000,0,0x5D,0x00,Read,ACK
1.035881520000000,0,0x5D,0x00,Read,ACK
1.035902980000000,0,0x5D,0x00,Read,ACK
1.035924620000000,0,0x5D,0x00,Read,ACK
1.035946060000000,0,0x5D,0x00,Read,ACK
1.035967520000000,0,0x5D,0x00,Read,ACK
1.035988980000000,0,0x5D,0x00,Read,ACK
1.036010540000000,0,0x5D,0x00,Read,ACK
1.036032020000000,0,0x5D,0x00,Read,ACK
1.036053460000000,0,0x5D,0x00,Read,ACK
1.036074920000000,0,0x5D,0x00,Read,ACK
1.036096400000000,0,0x5D,0xD2,Read,ACK
1.036117880000000,0,0x5D,0xAE,Read,ACK
1.036139340000000,0,0x5D,0x02,Read,ACK
1.036160800000000,0,0x5D,0x00,Read,ACK
1.036182300000000,0,0x5D,0x00,Read,ACK
1.036203760000000,0,0x5D,0x00,Read,ACK
1.036225220000000,0,0x5D,0x00,Read,ACK
1.036246700000000,0,0x5D,0x00,Read,ACK
1.036268200000000,0,0x5D,0x00,Read,ACK
1.036289700000000,0,0x5D,0x00,Read,ACK
1.036311160000000,0,0x5D,0x00,Read,ACK
1.036332600000000,0,0x5D,0x00,Read,ACK
1.036354100000000,0,0x5D,0x00,Read,ACK
1.036375580000000,0,0x5D,0x00,Read,ACK
1.036397320000000,0,0x5D,0x00,Read,ACK
1.036419280000000,0,0x5D,0x00,Read,ACK
1.036441980000000,0,0x5D,0x00,Read,ACK
1.036463460000000,0,0x5D,0x00,Read,ACK
1.036484920000000,0,0x5D,0x00,Read,ACK
1.036506700000000,0,0x5D,0x00,Read,ACK
1.036528140000000,0,0x5D,0x00,Read,NAK
1.042314700000000,0,0x5D,0x2F,Read,ACK
1.042341120000000,0,0x5D,0x00,Read,ACK
1.042362600000000,0,0x5D,0x04,Read,ACK
1.042384100000000,0,0x5D,0x03,Read,ACK
1.042405560000000,0,0x5D,0xFC,Read,ACK
1.042427000000000,0,0x5D,0x00,Read,ACK
1.042448460000000,0,0x5D,0xF3,Read,ACK
1.042469920000000,0,0x5D,0x08,Read,ACK
1.042491380000000,0,0x5D,0x03,Read,ACK
1.042512840000000,0,0x5D,0x03,Read,ACK
1.042534620000000,0,0x5D,0x20,Read,ACK
1.042556400000000,0,0x5D,0x13,Read,ACK
1.042578580000000,0,0x5D,0xCB,Read,ACK
1.042600060000000,0,0x5D,0x04,Read,ACK
1.042621540000000,0,0x5D,0x43,Read,ACK
1.042643060000000,0,0x5D,0x05,Read,ACK
1.042664580000000,0,0x5D,0x04,Read,ACK
1.042686100000000,0,0x5D,0x03,Read,ACK
1.042709280000000,0,0x5D,0x20,Read,ACK
1.042730780000000,0,0x5D,0x00,Read,ACK
1.042752240000000,0,0x5D,0x00,Read,ACK
1.042773720000000,0,0x5D,0x00,Read,ACK
1.042795500000000,0,0x5D,0x00,Read,ACK
1.042817340000000,0,0x5D,0x00,Read,ACK
1.042840180000000,0,0x5D,0x00,Read,ACK
1.042861680000000,0,0x5D,0x00,Read,ACK
1.042883140000000,0,0x5D,0x00,Read,ACK
1.042904600000000,0,0x5D,0x00,Read,ACK
1.042926080000000,0,0x5D,0x00,Read,ACK
1.042947560000000,0,0x5D,0x00,Read,ACK
1.042970580000000,0,0x5D,0x00,Read,ACK
1.042992500000000,0,0x5D,0x00,Read,ACK
1.043014080000000,0,0x5D,0x00,Read,ACK
1.043035560000000,0,0x5D,0x00,Read,ACK
1.043057020000000,0,0x5D,0x00,Read,ACK
1.043078520000000,0,0x5D,0x00,Read,ACK
1.043099980000000,0,0x5D,0x00,Read,ACK
1.043121440000000,0,0x5D,0x00,Read,ACK
1.043142900000000,0,0x5D,0x00,Read,ACK
1.043164340000000,0,0x5D,0x00,Read,ACK
1.043185820000000,0,0x5D,0x00,Read,ACK
1.043207320000000,0,0x5D,0x00,Read,ACK
1.043228760000000,0,0x5D,0x00,Read,ACK
1.043250260000000,0,0x5D,0x18,Read,ACK
1.043271740000000,0,0x5D,0xAF,Read,ACK
1.043293700000000,0,0x5D,0x02,Read,ACK
1.043315200000000,0,0x5D,0x00,Read,ACK
1.043336660000000,0,0x5D,0x00,Read,ACK
1.043358120000000,0,0x5D,0x00,Read,ACK
1.043379640000000,0,0x5D,0x00,Read,ACK
1.043401080000000,0,0x5D,0x00,Read,ACK
1.043422540000000,0,0x5D,0x00,Read,ACK
1.043444020000000,0,0x5D,0x00,Read,ACK
1.043465500000000,0,0x5D,0x00,Read,ACK
1.043486960000000,0,0x5D,0x00,Read,ACK
1.043508420000000,0,0x5D,0x00,Read,ACK
1.043529880000000,0,0x5D,0x00,Read,ACK
1.043551400000000,0,0x5D,0x00,Read,ACK
1.043573920000000,0,0x5D,0x00,Read,ACK
1.043595680000000,0,0x5D,0x00,Read,ACK
1.043617740000000,0,0x5D,0x00,Read,ACK
1.043639340000000,0,0x5D,0x00,Read,ACK
1.043662680000000,0,0x5D,0x00,Read,ACK
1.043684160000000,0,0x5D,0x00,Read,NAK
1.049453920000000,0,0x5D,0x2F,Read,ACK
1.049479180000000,0,0x5D,0x00,Read,ACK
1.049500640000000,0,0x5D,0x04,Read,ACK
1.049522260000000,0,0x5D,0x03,Read,ACK
1.049543740000000,0,0x5D,0xFC,Read,ACK
1.049565260000000,0,0x5D,0x00,Read,ACK
1.049586700000000,0,0x5D,0xF3,Read,ACK
1.049608180000000,0,0x5D,0x08,Read,ACK
1.049629700000000,0,0x5D,0x03,Read,ACK
1.049652600000000,0,0x5D,0x03,Read,ACK
1.049675120000000,0,0x5D,0x20,Read,ACK
1.049696700000000,0,0x5D,0x13,Read,ACK
1.049720400000000,0,0x5D,0xC9,Read,ACK
1.049741880000000,0,0x5D,0x04,Read,ACK
1.049763320000000,0,0x5D,0x43,Read,ACK
1.049784780000000,0,0x5D,0x05,Read,ACK
1.049806260000000,0,0x5D,0x04,Read,ACK
1.049827780000000,0,0x5D,0x03,Read,ACK
1.049849820000000,0,0x5D,0x20,Read,ACK
1.049872180000000,0,0x5D,0x00,Read,ACK
1.049894440000000,0,0x5D,0x00,Read,ACK
1.049915960000000,0,0x5D,0x00,Read,ACK
1.049937400000000,0,0x5D,0x00,Read,ACK
1.049960100000000,0,0x5D,0x00,Read,ACK
1.049981580000000,0,0x5D,0x00,Read,ACK
1.050003020000000,0,0x5D,0x00,Read,ACK
1.050024480000000,0,0x5D,0x00,Read,ACK
1.050045960000000,0,0x5D,0x00,Read,ACK
1.050067780000000,0,0x5D,0x00,Read,ACK
1.050089300000000,0,0x5D,0x00,Read,ACK
1.050110800000000,0,0x5D,0x00,Read,ACK
1.050132460000000,0,0x5D,0x00,Read,ACK
1.050153960000000,0,0x5D,0x00,Read,ACK
1.050175440000000,0,0x5D,0x00,Read,ACK
1.050196940000000,0,0x5D,0x00,Read,ACK
1.050218440000000,0,0x5D,0x00,Read,ACK
1.050239900000000,0,0x5D,0x00,Read,ACK
1.050261420000000,0,0x5D,0x00,Read,ACK
1.050282880000000,0,0x5D,0x00,Read,ACK
1.050304320000000,0,0x5D,0x00,Read,ACK
1.050325780000000,0,0x5D,0x00,Read,ACK
1.050347240000000,0,0x5D,0x00,Read,ACK
1.050368680000000,0,0x5D,0x00,Read,ACK
1.050390140000000,0,0x5D,0x5E,Read,ACK
1.050411600000000,0,0x5D,0xAF,Read,ACK
1.050433060000000,0,0x5D,0x02,Read,ACK
1.050454520000000,0,0x5D,0x00,Read,ACK
1.050476040000000,0,0x5D,0x00,Read,ACK
1.050497540000000,0,0x5D,0x00,Read,ACK
1.050519000000000,0,0x5D,0x00,Read,ACK
1.050540460000000,0,0x5D,0x00,Read,ACK
1.050561920000000,0,0x5D,0x00,Read,ACK
1.050583420000000,0,0x5D,0x00,Read,ACK
1.050604880000000,0,0x5D,0x00,Read,ACK
1.050626340000000,0,0x5D,0x00,Read,ACK
1.050650100000000,0,0x5D,0x00,Read,ACK
1.050671720000000,0,0x5D,0x00,Read,ACK
1.050693200000000,0,0x5D,0x00,Read,ACK
1.050715280000000,0,0x5D,0x00,Read,ACK
1.050737560000000,0,0x5D,0x00,Read,ACK
1.050759340000000,0,0x5D,0x00,Read,ACK
1.050780820000000,0,0x5D,0x00,Read,ACK
1.050802300000000,0,0x5D,0x00,Read,ACK
1.050823800000000,0,0x5D,0x00,Read,NAK
1.056743800000000,0,0x5D,0x2F,Read,ACK
1.056765300000000,0,0x5D,0x00,Read,ACK
1.056786800000000,0,0x5D,0x04,Read,ACK
1.056809060000000,0,0x5D,0x03,Read,ACK
1.056830740000000,0,0x5D,0xFC,Read,ACK
1.056853140000000,0,0x5D,0x00,Read,ACK
1.056874600000000,0,0x5D,0xF3,Read,ACK
1.056896080000000,0,0x5D,0x08,Read,ACK
1.056917600000000,0,0x5D,0x03,Read,ACK
1.056939120000000,0,0x5D,0x03,Read,ACK
1.056960780000000,0,0x5D,0x20,Read,ACK
1.056983200000000,0,0x5D,0x13,Read,ACK
1.057005140000000,0,0x5D,0xC8,Read,ACK
1.057027020000000,0,0x5D,0x04,Read,ACK
1.057049540000000,0,0x5D,0x43,Read,ACK
1.057071020000000,0,0x5D,0x05,Read,ACK
1.057093320000000,0,0x5D,0x04,Read,ACK
1.057114780000000,0,0x5D,0x03,Read,ACK
1.057136240000000,0,0x5D,0x20,Read,ACK
1.057157700000000,0,0x5D,0x00,Read,ACK
1.057179140000000,0,0x5D,0x00,Read,ACK
1.057200620000000,0,0x5D,0x00,Read,ACK
1.057223380000000,0,0x5D,0x00,Read,ACK
1.057244820000000,0,0x5D,0x00,Read,ACK
1.057266280000000,0,0x5D,0x00,Read,ACK
1.057287720000000,0,0x5D,0x00,Read,ACK
1.057309180000000,0,0x5D,0x00,Read,ACK
1.057330640000000,0,0x5D,0x00,Read,ACK
1.057352100000000,0,0x5D,0x00,Read,ACK
1.057373560000000,0,0x5D,0x00,Read,ACK
1.057395000000000,0,0x5D,0x00,Read,ACK
1.057416460000000,0,0x5D,0x00,Read,ACK
1.057437920000000,0,0x5D,0x00,Read,ACK
1.057459380000000,0,0x5D,0x00,Read,ACK
1.057480820000000,0,0x5D,0x00,Read,ACK
1.057502280000000,0,0x5D,0x00,Read,ACK
1.057523740000000,0,0x5D,0x00,Read,ACK
1.057545200000000,0,0x5D,0x00,Read,ACK
1.057566680000000,0,0x5D,0x00,Read,ACK
1.057588160000000,0,0x5D,0x00,Read,ACK
1.057609640000000,0,0x5D,0x00,Read,ACK
1.057631220000000,0,0x5D,0x00,Read,ACK
1.057652740000000,0,0x5D,0x00,Read,ACK
1.057674240000000,0,0x5D,0xA4,Read,ACK
1.057695680000000,0,0x5D,0xAF,Read,ACK
1.057717300000000,0,0x5D,0x02,Read,ACK
1.057738920000000,0,0x5D,0x00,Read,ACK
1.057760420000000,0,0x5D,0x00,Read,ACK
1.057781880000000,0,0x5D,0x00,Read,ACK
1.057803320000000,0,0x5D,0x00,Read,ACK
1.057824780000000,0,0x5D,0x00,Read,ACK
1.057846260000000,0,0x5D,0x00,Read,ACK
1.057871000000000,0,0x5D,0x00,Read,ACK
1.057893160000000,0,0x5D,0x00,Read,ACK
1.057915100000000,0,0x5D,0x00,Read,ACK
1.057936720000000,0,0x5D,0x00,Read,ACK
1.057958260000000,0,0x5D,0x00,Read,ACK
1.057979780000000,0,0x5D,0x00,Read,ACK
1.058001520000000,0,0x5D,0x00,Read,ACK
1.058023000000000,0,0x5D,0x00,Read,ACK
1.058044460000000,0,0x5D,0x00,Read,ACK
1.058065960000000,0,0x5D,0x00,Read,ACK
1.058088040000000,0,0x5D,0x00,Read,ACK
1.058112520000000,0,0x5D,0x00,Read,NAK
1.064068180000000,0,0x5D,0x2F,Read,ACK
1.064091340000000,0,0x5D,0x00,Read,ACK
1.064112820000000,0,0x5D,0x04,Read,ACK
1.064134660000000,0,0x5D,0x03,Read,ACK
1.064156120000000,0,0x5D,0xFC,Read,ACK
1.064177620000000,0,0x5D,0x00,Read,ACK
1.064199080000000,0,0x5D,0xF3,Read,ACK
1.064220580000000,0,0x5D,0x08,Read,ACK
1.064242900000000,0,0x5D,0x03,Read,ACK
1.064265280000000,0,0x5D,0x03,Read,ACK
1.064286760000000,0,0x5D,0x20,Read,ACK
1.064308220000000,0,0x5D,0x13,Read,ACK
1.064329680000000,0,0x5D,0xC6,Read,ACK
1.064351120000000,0,0x5D,0x04,Read,ACK
1.064372580000000,0,0x5D,0x43,Read,ACK
1.064394060000000,0,0x5D,0x05,Read,ACK
1.064416960000000,0,0x5D,0x04,Read,ACK
1.064438420000000,0,0x5D,0x03,Read,ACK
1.064459880000000,0,0x5D,0x20,Read,ACK
1.064481340000000,0,0x5D,0x00,Read,ACK
1.064502800000000,0,0x5D,0x00,Read,ACK
1.064524320000000,0,0x5D,0x00,Read,ACK
1.064545820000000,0,0x5D,0x00,Read,ACK
1.064567280000000,0,0x5D,0x00,Read,ACK
1.064588780000000,0,0x5D,0x00,Read,ACK
1.064610260000000,0,0x5D,0x00,Read,ACK
1.064631760000000,0,0x5D,0x00,Read,ACK
1.064653220000000,0,0x5D,0x00,Read,ACK
1.064674680000000,0,0x5D,0x00,Read,ACK
1.064696300000000,0,0x5D,0x00,Read,ACK
1.064717760000000,0,0x5D,0x00,Read,ACK
1.064739220000000,0,0x5D,0x00,Read,ACK
1.064760680000000,0,0x5D,0x00,Read,ACK
1.064782120000000,0,0x5D,0x00,Read,ACK
1.064803580000000,0,0x5D,0x00,Read,ACK
1.064825100000000,0,0x5D,0x00,Read,ACK
1.064846560000000,0,0x5D,0x00,Read,ACK
1.064868060000000,0,0x5D,0x00,Read,ACK
1.064889600000000,0,0x5D,0x00,Read,ACK
1.064911100000000,0,0x5D,0x00,Read,ACK
1.064932620000000,0,0x5D,0x00,Read,ACK
1.064954120000000,0,0x5D,0x00,Read,ACK
1.064975580000000,0,0x5D,0x00,Read,ACK
1.064997080000000,0,0x5D,0xEA,Read,ACK
1.065019340000000,0,0x5D,0xAF,Read,ACK
1.065043280000000,0,0x5D,0x02,Read,ACK
1.065064740000000,0,0x5D,0x00,Read,ACK
1.065086400000000,0,0x5D,0x00,Read,ACK
1.065107900000000,0,0x5D,0x00,Read,ACK
1.065129400000000,0,0x5D,0x00,Read,ACK
1.065151080000000,0,0x5D,0x00,Read,ACK
1.065172760000000,0,0x5D,0x00,Read,ACK
1.065195060000000,0,0x5D,0x00,Read,ACK
1.065217700000000,0,0x5D,0x00,Read,ACK
1.065239180000000,0,0x5D,0x00,Read,ACK
1.065261380000000,0,0x5D,0x00,Read,ACK
1.065284280000000,0,0x5D,0x00,Read,ACK
1.065307220000000,0,0x5D,0x00,Read,ACK
1.065328800000000,0,0x5D,0x00,Read,ACK
1.065350340000000,0,0x5D,0x00,Read,ACK
1.065371880000000,0,0x5D,0x00,Read,ACK
1.065393360000000,0,0x5D,0x00,Read,ACK
1.065415300000000,0,0x5D,0x00,Read,ACK
1.065437660000000,0,0x5D,0x00,Read,NAK
1.071158780000000,0,0x5D,0x2F,Read,ACK
1.071185120000000,0,0x5D,0x00,Read,ACK
1.071206620000000,0,0x5D,0x04,Read,ACK
1.071228080000000,0,0x5D,0x03,Read,ACK
1.071249520000000,0,0x5D,0xFC,Read,ACK
1.071271440000000,0,0x5D,0x00,Read,ACK
1.071293420000000,0,0x5D,0xF3,Read,ACK
1.071314880000000,0,0x5D,0x08,Read,ACK
1.071336340000000,0,0x5D,0x03,Read,ACK
1.071357880000000,0,0x5D,0x03,Read,ACK
1.071380280000000,0,0x5D,0x20,Read,ACK
1.071401760000000,0,0x5D,0x13,Read,ACK
1.071423220000000,0,0x5D,0xC5,Read,ACK
1.071444720000000,0,0x5D,0x04,Read,ACK
1.071466180000000,0,0x5D,0x43,Read,ACK
1.071487640000000,0,0x5D,0x05,Read,ACK
1.071510580000000,0,0x5D,0x04,Read,ACK
1.071532040000000,0,0x5D,0x03,Read,ACK
1.071554040000000,0,0x5D,0x20,Read,ACK
1.071575500000000,0,0x5D,0x00,Read,ACK
1.071596940000000,0,0x5D,0x00,Read,ACK
1.071618420000000,0,0x5D,0x00,Read,ACK
1.071639920000000,0,0x5D,0x00,Read,ACK
1.071661360000000,0,0x5D,0x00,Read,ACK
1.071682820000000,0,0x5D,0x00,Read,ACK
1.071704260000000,0,0x5D,0x00,Read,ACK
1.071725760000000,0,0x5D,0x00,Read,ACK
1.071747240000000,0,0x5D,0x00,Read,ACK
1.071768700000000,0,0x5D,0x00,Read,ACK
1.071790140000000,0,0x5D,0x00,Read,ACK
1.071811580000000,0,0x5D,0x00,Read,ACK
1.071833060000000,0,0x5D,0x00,Read,ACK
1.071854500000000,0,0x5D,0x00,Read,ACK
1.071875940000000,0,0x5D,0x00,Read,ACK
1.071897420000000,0,0x5D,0x00,Read,ACK
1.071918920000000,0,0x5D,0x00,Read,ACK
1.071940380000000,0,0x5D,0x00,Read,ACK
1.071961880000000,0,0x5D,0x00,Read,ACK
1.071983320000000,0,0x5D,0x00,Read,ACK
1.072004780000000,0,0x5D,0x00,Read,ACK
1.072026260000000,0,0x5D,0x00,Read,ACK
1.072047760000000,0,0x5D,0x00,Read,ACK
1.072069220000000,0,0x5D,0x00,Read,ACK
1.072090720000000,0,0x5D,0x30,Read,ACK
1.072112180000000,0,0x5D,0xB0,Read,ACK
1.072133660000000,0,0x5D,0x02,Read,ACK
1.072155240000000,0,0x5D,0x00,Read,ACK
1.072176760000000,0,0x5D,0x00,Read,ACK
1.072198240000000,0,0x5D,0x00,Read,ACK
1.072220140000000,0,0x5D,0x00,Read,ACK
1.072241640000000,0,0x5D,0x00,Read,ACK
1.072263080000000,0,0x5D,0x00,Read,ACK
1.072284560000000,0,0x5D,0x00,Read,ACK
1.072306520000000,0,0x5D,0x00,Read,ACK
1.072328000000000,0,0x5D,0x00,Read,ACK
1.072349480000000,0,0x5D,0x00,Read,ACK
1.072372220000000,0,0x5D,0x00,Read,ACK
1.072395780000000,0,0x5D,0x00,Read,ACK
1.072417260000000,0,0x5D,0x00,Read,ACK
1.072438760000000,0,0x5D,0x00,Read,ACK
1.072460260000000,0,0x5D,0x00,Read,ACK
1.072481720000000,0,0x5D,0x00,Read,ACK
1.072503440000000,0,0x5D,0x00,Read,ACK
1.072524940000000,0,0x5D,0x00,Read,NAK
1.078010800000000,0,0x5D,0x2F,Read,ACK
1.078035400000000,0,0x5D,0x00,Read,ACK
1.078057960000000,0,0x5D,0x04,Read,ACK
1.078079460000000,0,0x5D,0x03,Read,ACK
1.078100920000000,0,0x5D,0xFC,Read,ACK
1.078122360000000,0,0x5D,0x00,Read,ACK
1.078143840000000,0,0x5D,0xF3,Read,ACK
1.078165340000000,0,0x5D,0x08,Read,ACK
1.078186780000000,0,0x5D,0x03,Read,ACK
1.078208240000000,0,0x5D,0x03,Read,ACK
1.078229700000000,0,0x5D,0x20,Read,ACK
1.078252800000000,0,0x5D,0x13,Read,ACK
1.078274460000000,0,0x5D,0xC3,Read,ACK
1.078298120000000,0,0x5D,0x04,Read,ACK
1.078319640000000,0,0x5D,0x43,Read,ACK
1.078341120000000,0,0x5D,0x05,Read,ACK
1.078362580000000,0,0x5D,0x04,Read,ACK
1.078384040000000,0,0x5D,0x03,Read,ACK
1.078405500000000,0,0x5D,0x20,Read,ACK
1.078427900000000,0,0x5D,0x00,Read,ACK
1.078450480000000,0,0x5D,0x00,Read,ACK
1.078471980000000,0,0x5D,0x00,Read,ACK
1.078493500000000,0,0x5D,0x00,Read,ACK
1.078515040000000,0,0x5D,0x00,Read,ACK
1.078536520000000,0,0x5D,0x00,Read,ACK
1.078558080000000,0,0x5D,0x00,Read,ACK
1.078579540000000,0,0x5D,0x00,Read,ACK
1.078601000000000,0,0x5D,0x00,Read,ACK
1.078622540000000,0,0x5D,0x00,Read,ACK
1.078644020000000,0,0x5D,0x00,Read,ACK
1.078665480000000,0,0x5D,0x00,Read,ACK
1.078687600000000,0,0x5D,0x00,Read,ACK
1.078709160000000,0,0x5D,0x00,Read,ACK
1.078730640000000,0,0x5D,0x00,Read,ACK
1.078752360000000,0,0x5D,0x00,Read,ACK
1.078773860000000,0,0x5D,0x00,Read,ACK
1.078795340000000,0,0x5D,0x00,Read,ACK
1.078816840000000,0,0x5D,0x00,Read,ACK
1.078838280000000,0,0x5D,0x00,Read,ACK
1.078859740000000,0,0x5D,0x00,Read,ACK
1.078881200000000,0,0x5D,0x00,Read,ACK
1.078902700000000,0,0x5D,0x00,Read,ACK
1.078924140000000,0,0x5D,0x00,Read,ACK
1.078945600000000,0,0x5D,0x76,Read,ACK
1.078967240000000,0,0x5D,0xB0,Read,ACK
1.078988700000000,0,0x5D,0x02,Read,ACK
1.079010420000000,0,0x5D,0x00,Read,ACK
1.079031920000000,0,0x5D,0x00,Read,ACK
1.079053440000000,0,0x5D,0x00,Read,ACK
1.079074880000000,0,0x5D,0x00,Read,ACK
1.079096340000000,0,0x5D,0x00,Read,ACK
1.079118120000000,0,0x5D,0x00,Read,ACK
1.079139600000000,0,0x5D,0x00,Read,ACK
1.079161060000000,0,0x5D,0x00,Read,ACK
1.079182520000000,0,0x5D,0x00,Read,ACK
1.079203980000000,0,0x5D,0x00,Read,ACK
1.079225420000000,0,0x5D,0x00,Read,ACK
1.079246880000000,0,0x5D,0x00,Read,ACK
1.079268340000000,0,0x5D,0x00,Read,ACK
1.079290100000000,0,0x5D,0x00,Read,ACK
1.079311860000000,0,0x5D,0x00,Read,ACK
1.079333320000000,0,0x5D,0x00,Read,ACK
1.079354820000000,0,0x5D,0x00,Read,ACK
1.079376520000000,0,0x5D,0x00,Read,NAK
1.085187940000000,0,0x5D,0x2F,Read,ACK
1.085210600000000,0,0x5D,0x00,Read,ACK
1.085232100000000,0,0x5D,0x04,Read,ACK
1.085253620000000,0,0x5D,0x03,Read,ACK
1.085275140000000,0,0x5D,0xFC,Read,ACK
1.085296580000000,0,0x5D,0x00,Read,ACK
1.085318080000000,0,0x5D,0xF3,Read,ACK
1.085339540000000,0,0x5D,0x08,Read,ACK
1.085361000000000,0,0x5D,0x03,Read,ACK
1.085382580000000,0,0x5D,0x03,Read,ACK
1.085405060000000,0,0x5D,0x20,Read,ACK
1.085426940000000,0,0x5D,0x13,Read,ACK
1.085450140000000,0,0x5D,0xC2,Read,ACK
1.085471580000000,0,0x5D,0x04,Read,ACK
1.085493040000000,0,0x5D,0x43,Read,ACK
1.085514500000000,0,0x5D,0x05,Read,ACK
1.085536000000000,0,0x5D,0x04,Read,ACK
1.085557460000000,0,0x5D,0x03,Read,ACK
1.085579840000000,0,0x5D,0x20,Read,ACK
1.085602260000000,0,0x5D,0x00,Read,ACK
1.085623800000000,0,0x5D,0x00,Read,ACK
1.085645280000000,0,0x5D,0x00,Read,ACK
1.085666780000000,0,0x5D,0x00,Read,ACK
1.085688320000000,0,0x5D,0x00,Read,ACK
1.085709820000000,0,0x5D,0x00,Read,ACK
1.085732420000000,0,0x5D,0x00,Read,ACK
1.085753900000000,0,0x5D,0x00,Read,ACK
1.085775340000000,0,0x5D,0x00,Read,ACK
1.085797280000000,0,0x5D,0x00,Read,ACK
1.085818760000000,0,0x5D,0x00,Read,ACK
1.085840200000000,0,0x5D,0x00,Read,ACK
1.085861700000000,0,0x5D,0x00,Read,ACK
1.085883180000000,0,0x5D,0x00,Read,ACK
1.085904700000000,0,0x5D,0x00,Read,ACK
1.085926140000000,0,0x5D,0x00,Read,ACK
1.085947600000000,0,0x5D,0x00,Read,ACK
1.085969060000000,0,0x5D,0x00,Read,ACK
1.085990500000000,0,0x5D,0x00,Read,ACK
1.086011960000000,0,0x5D,0x00,Read,ACK
1.086033400000000,0,0x5D,0x00,Read,ACK
1.086054860000000,0,0x5D,0x00,Read,ACK
1.086076300000000,0,0x5D,0x00,Read,ACK
1.086097760000000,0,0x5D,0x00,Read,ACK
1.086119420000000,0,0x5D,0xBC,Read,ACK
1.086140960000000,0,0x5D,0xB0,Read,ACK
1.086162460000000,0,0x5D,0x02,Read,ACK
1.086183960000000,0,0x5D,0x00,Read,ACK
1.086205400000000,0,0x5D,0x00,Read,ACK
1.086226860000000,0,0x5D,0x00,Read,ACK
1.086248340000000,0,0x5D,0x00,Read,ACK
1.086269860000000,0,0x5D,0x00,Read,ACK
1.086291380000000,0,0x5D,0x00,Read,ACK
1.086312880000000,0,0x5D,0x00,Read,ACK
1.086334320000000,0,0x5D,0x00,Read,ACK
1.086355780000000,0,0x5D,0x00,Read,ACK
1.086377300000000,0,0x5D,0x00,Read,ACK
1.086398740000000,0,0x5D,0x00,Read,ACK
1.086420200000000,0,0x5D,0x00,Read,ACK
1.086441680000000,0,0x5D,0x00,Read,ACK
1.086464060000000,0,0x5D,0x00,Read,ACK
1.086485560000000,0,0x5D,0x00,Read,ACK
1.086507280000000,0,0x5D,0x00,Read,ACK
1.086529580000000,0,0x5D,0x00,Read,ACK
1.086551040000000,0,0x5D,0x00,Read,NAK
1.092331580000000,0,0x5D,0x2F,Read,ACK
1.092356900000000,0,0x5D,0x00,Read,ACK
1.092378400000000,0,0x5D,0x04,Read,ACK
1.092399860000000,0,0x5D,0x03,Read,ACK
1.092421360000000,0,0x5D,0xFC,Read,ACK
1.092442820000000,0,0x5D,0x00,Read,ACK
1.092464260000000,0,0x5D,0xF3,Read,ACK
1.092485740000000,0,0x5D,0x08,Read,ACK
1.092507240000000,0,0x5D,0x03,Read,ACK
1.092528700000000,0,0x5D,0x03,Read,ACK
1.092550640000000,0,0x5D,0x20,Read,ACK
1.092572220000000,0,0x5D,0x13,Read,ACK
1.092595060000000,0,0x5D,0xC0,Read,ACK
1.092616580000000,0,0x5D,0x04,Read,ACK
1.092638080000000,0,0x5D,0x42,Read,ACK
1.092659540000000,0,0x5D,0x05,Read,ACK
1.092681060000000,0,0x5D,0x04,Read,ACK
1.092702620000000,0,0x5D,0x03,Read,ACK
1.092724280000000,0,0x5D,0x20,Read,ACK
1.092747220000000,0,0x5D,0x00,Read,ACK
1.092768680000000,0,0x5D,0x00,Read,ACK
1.092790120000000,0,0x5D,0x00,Read,ACK
1.092812240000000,0,0x5D,0x00,Read,ACK
1.092833720000000,0,0x5D,0x00,Read,ACK
1.092855180000000,0,0x5D,0x00,Read,ACK
1.092876640000000,0,0x5D,0x00,Read,ACK
1.092898140000000,0,0x5D,0x00,Read,ACK
1.092919600000000,0,0x5D,0x00,Read,ACK
1.092941060000000,0,0x5D,0x00,Read,ACK
1.092963080000000,0,0x5D,0x00,Read,ACK
1.092985760000000,0,0x5D,0x00,Read,ACK
1.093007480000000,0,0x5D,0x00,Read,ACK
1.093028940000000,0,0x5D,0x00,Read,ACK
1.093050440000000,0,0x5D,0x00,Read,ACK
1.093071900000000,0,0x5D,0x00,Read,ACK
1.093093420000000,0,0x5D,0x00,Read,ACK
1.093114860000000,0,0x5D,0x00,Read,ACK
1.093136300000000,0,0x5D,0x00,Read,ACK
1.093157780000000,0,0x5D,0x00,Read,ACK
1.093179280000000,0,0x5D,0x00,Read,ACK
1.093200780000000,0,0x5D,0x00,Read,ACK
1.093222240000000,0,0x5D,0x00,Read,ACK
1.093243720000000,0,0x5D,0x00,Read,ACK
1.093265220000000,0,0x5D,0x02,Read,ACK
1.093287120000000,0,0x5D,0xB1,Read,ACK
1.093308620000000,0,0x5D,0x02,Read,ACK
1.093331160000000,0,0x5D,0x00,Read,ACK
1.093352640000000,0,0x5D,0x00,Read,ACK
1.093374100000000,0,0x5D,0x00,Read,ACK
1.093395560000000,0,0x5D,0x00,Read,ACK
1.093417060000000,0,0x5D,0x00,Read,ACK
1.093438580000000,0,0x5D,0x00,Read,ACK
1.093460020000000,0,0x5D,0x00,Read,ACK
1.093481480000000,0,0x5D,0x00,Read,ACK
1.093503020000000,0,0x5D,0x00,Read,ACK
1.093524500000000,0,0x5D,0x00,Read,ACK
1.093545960000000,0,0x5D,0x00,Read,ACK
1.093567420000000,0,0x5D,0x00,Read,ACK
1.093591020000000,0,0x5D,0x00,Read,ACK
1.093612500000000,0,0x5D,0x00,Read,ACK
1.093634420000000,0,0x5D,0x00,Read,ACK
1.093656020000000,0,0x5D,0x00,Read,ACK
1.093677780000000,0,0x5D,0x00,Read,ACK
1.093699240000000,0,0x5D,0x00,Read,NAK
1.099493540000000,0,0x5D,0x2F,Read,ACK
1.099517940000000,0,0x5D,0x00,Read,ACK
1.099539440000000,0,0x5D,0x04,Read,ACK
1.099560940000000,0,0x5D,0x03,Read,ACK
1.099582400000000,0,0x5D,0xFC,Read,ACK
1.099603860000000,0,0x5D,0x00,Read,ACK
1.099625300000000,0,0x5D,0xF3,Read,ACK
1.099646760000000,0,0x5D,0x08,Read,ACK
1.099668440000000,0,0x5D,0x03,Read,ACK
1.099689960000000,0,0x5D,0x03,Read,ACK
1.099712080000000,0,0x5D,0x20,Read,ACK
1.099733580000000,0,0x5D,0x13,Read,ACK
1.099755060000000,0,0x5D,0xBE,Read,ACK
1.099776560000000,0,0x5D,0x04,Read,ACK
1.099798000000000,0,0x5D,0x42,Read,ACK
1.099819460000000,0,0x5D,0x05,Read,ACK
1.099840960000000,0,0x5D,0x04,Read,ACK
1.099862480000000,0,0x5D,0x03,Read,ACK
1.099883940000000,0,0x5D,0x20,Read,ACK
1.099905400000000,0,0x5D,0x00,Read,ACK
1.099926920000000,0,0x5D,0x00,Read,ACK
1.099948380000000,0,0x5D,0x00,Read,ACK
1.099969860000000,0,0x5D,0x00,Read,ACK
1.099991340000000,0,0x5D,0x00,Read,ACK
1.100012840000000,0,0x5D,0x00,Read,ACK
1.100034300000000,0,0x5D,0x00,Read,ACK
1.100055780000000,0,0x5D,0x00,Read,ACK
1.100077300000000,0,0x5D,0x00,Read,ACK
1.100099380000000,0,0x5D,0x00,Read,ACK
1.100120880000000,0,0x5D,0x00,Read,ACK
1.100142400000000,0,0x5D,0x00,Read,ACK
1.100163860000000,0,0x5D,0x00,Read,ACK
1.100185380000000,0,0x5D,0x00,Read,ACK
1.100206880000000,0,0x5D,0x00,Read,ACK
1.100228540000000,0,0x5D,0x00,Read,ACK
1.100249960000000,0,0x5D,0x00,Read,ACK
1.100271440000000,0,0x5D,0x00,Read,ACK
1.100293120000000,0,0x5D,0x00,Read,ACK
1.100314580000000,0,0x5D,0x00,Read,ACK
1.100336040000000,0,0x5D,0x00,Read,ACK
1.100357500000000,0,0x5D,0x00,Read,ACK
1.100378940000000,0,0x5D,0x00,Read,ACK
1.100400400000000,0,0x5D,0x00,Read,ACK
1.100421860000000,0,0x5D,0x48,Read,ACK
1.100443320000000,0,0x5D,0xB1,Read,ACK
1.100464780000000,0,0x5D,0x02,Read,ACK
1.100486280000000,0,0x5D,0x00,Read,ACK
1.100507740000000,0,0x5D,0x00,Read,ACK
1.100529260000000,0,0x5D,0x00,Read,ACK
1.100550700000000,0,0x5D,0x00,Read,ACK
1.100572180000000,0,0x5D,0x00,Read,ACK
1.100593620000000,0,0x5D,0x00,Read,ACK
1.100615080000000,0,0x5D,0x00,Read,ACK
1.100636600000000,0,0x5D,0x00,Read,ACK
1.100658180000000,0,0x5D,0x00,Read,ACK
1.100679620000000,0,0x5D,0x00,Read,ACK
1.100701080000000,0,0x5D,0x00,Read,ACK
1.100728600000000,0,0x5D,0x00,Read,ACK
1.100750100000000,0,0x5D,0x00,Read,ACK
1.100771560000000,0,0x5D,0x00,Read,ACK
1.100793100000000,0,0x5D,0x00,Read,ACK
1.100816020000000,0,0x5D,0x00,Read,ACK
1.100837620000000,0,0x5D,0x00,Read,ACK
1.100859120000000,0,0x5D,0x00,Read,NAK
1.106717000000000,0,0x5D,0x2F,Read,ACK
1.106741440000000,0,0x5D,0x00,Read,ACK
1.106762940000000,0,0x5D,0x04,Read,ACK
1.106784440000000,0,0x5D,0x03,Read,ACK
1.106805900000000,0,0x5D,0xFC,Read,ACK
1.106827520000000,0,0x5D,0x00,Read,ACK
1.106850700000000,0,0x5D,0xF3,Read,ACK
1.106873440000000,0,0x5D,0x08,Read,ACK
1.106896580000000,0,0x5D,0x03,Read,ACK
1.106918060000000,0,0x5D,0x03,Read,ACK
1.106939560000000,0,0x5D,0x20,Read,ACK
1.106961000000000,0,0x5D,0x13,Read,ACK
1.106983360000000,0,0x5D,0xBD,Read,ACK
1.107005800000000,0,0x5D,0x04,Read,ACK
1.107028080000000,0,0x5D,0x42,Read,ACK
1.107049560000000,0,0x5D,0x05,Read,ACK
1.107071920000000,0,0x5D,0x04,Read,ACK
1.107093600000000,0,0x5D,0x03,Read,ACK
1.107115120000000,0,0x5D,0x20,Read,ACK
1.107136640000000,0,0x5D,0x00,Read,ACK
1.107158080000000,0,0x5D,0x00,Read,ACK
1.107179540000000,0,0x5D,0x00,Read,ACK
1.107201000000000,0,0x5D,0x00,Read,ACK
1.107222440000000,0,0x5D,0x00,Read,ACK
1.107243880000000,0,0x5D,0x00,Read,ACK
1.107265340000000,0,0x5D,0x00,Read,ACK
1.107287180000000,0,0x5D,0x00,Read,ACK
1.107308620000000,0,0x5D,0x00,Read,ACK
1.107330080000000,0,0x5D,0x00,Read,ACK
1.107351720000000,0,0x5D,0x00,Read,ACK
1.107373180000000,0,0x5D,0x00,Read,ACK
1.107394660000000,0,0x5D,0x00,Read,ACK
1.107416140000000,0,0x5D,0x00,Read,ACK
1.107437600000000,0,0x5D,0x00,Read,ACK
1.107459060000000,0,0x5D,0x00,Read,ACK
1.107480520000000,0,0x5D,0x00,Read,ACK
1.107502020000000,0,0x5D,0x00,Read,ACK
1.107523460000000,0,0x5D,0x00,Read,ACK
1.107544920000000,0,0x5D,0x00,Read,ACK
1.107566400000000,0,0x5D,0x00,Read,ACK
1.107587900000000,0,0x5D,0x00,Read,ACK
1.107609600000000,0,0x5D,0x00,Read,ACK
1.107631060000000,0,0x5D,0x00,Read,ACK
1.107653520000000,0,0x5D,0x8E,Read,ACK
1.107675020000000,0,0x5D,0xB1,Read,ACK
1.107696480000000,0,0x5D,0x02,Read,ACK
1.107718000000000,0,0x5D,0x00,Read,ACK
1.107739440000000,0,0x5D,0x00,Read,ACK
1.107760900000000,0,0x5D,0x00,Read,ACK
1.107782340000000,0,0x5D,0x00,Read,ACK
1.107803920000000,0,0x5D,0x00,Read,ACK
1.107825380000000,0,0x5D,0x00,Read,ACK
1.107846840000000,0,0x5D,0x00,Read,ACK
1.107868960000000,0,0x5D,0x00,Read,ACK
1.107892320000000,0,0x5D,0x00,Read,ACK
1.107913820000000,0,0x5D,0x00,Read,ACK
1.107937040000000,0,0x5D,0x00,Read,ACK
1.107960600000000,0,0x5D,0x00,Read,ACK
1.107982040000000,0,0x5D,0x00,Read,ACK
1.108003500000000,0,0x5D,0x00,Read,ACK
1.108024940000000,0,0x5D,0x00,Read,ACK
1.108046400000000,0,0x5D,0x00,Read,ACK
1.108067840000000,0,0x5D,0x00,Read,ACK
1.108089320000000,0,0x5D,0x00,Read,NAK
1.114008940000000,0,0x5D,0x2F,Read,ACK
1.114033380000000,0,0x5D,0x00,Read,ACK
1.114054860000000,0,0x5D,0x04,Read,ACK
1.114076320000000,0,0x5D,0x03,Read,ACK
1.114097760000000,0,0x5D,0xFC,Read,ACK
1.114119220000000,0,0x5D,0x00,Read,ACK
1.114141520000000,0,0x5D,0xF3,Read,ACK
1.114163180000000,0,0x5D,0x08,Read,ACK
1.114184640000000,0,0x5D,0x03,Read,ACK
1.114206100000000,0,0x5D,0x03,Read,ACK
1.114227540000000,0,0x5D,0x20,Read,ACK
1.114249940000000,0,0x5D,0x13,Read,ACK
1.114271440000000,0,0x5D,0xBB,Read,ACK
1.114294060000000,0,0x5D,0x04,Read,ACK
1.114315660000000,0,0x5D,0x42,Read,ACK
1.114337120000000,0,0x5D,0x05,Read,ACK
1.114358980000000,0,0x5D,0x04,Read,ACK
1.114381100000000,0,0x5D,0x03,Read,ACK
1.114402620000000,0,0x5D,0x20,Read,ACK
1.114424120000000,0,0x5D,0x00,Read,ACK
1.114445580000000,0,0x5D,0x00,Read,ACK
1.114467080000000,0,0x5D,0x00,Read,ACK
1.114488620000000,0,0x5D,0x00,Read,ACK
1.114510100000000,0,0x5D,0x00,Read,ACK
1.114531580000000,0,0x5D,0x00,Read,ACK
1.114553020000000,0,0x5D,0x00,Read,ACK
1.114574480000000,0,0x5D,0x00,Read,ACK
1.114596040000000,0,0x5D,0x00,Read,ACK
1.114617480000000,0,0x5D,0x00,Read,ACK
1.114638940000000,0,0x5D,0x00,Read,ACK
1.114660400000000,0,0x5D,0x00,Read,ACK
1.114681860000000,0,0x5D,0x00,Read,ACK
1.114703300000000,0,0x5D,0x00,Read,ACK
1.114724780000000,0,0x5D,0x00,Read,ACK
1.114746280000000,0,0x5D,0x00,Read,ACK
1.114767740000000,0,0x5D,0x00,Read,ACK
1.114789380000000,0,0x5D,0x00,Read,ACK
1.114810900000000,0,0x5D,0x00,Read,ACK
1.114832340000000,0,0x5D,0x00,Read,ACK
1.114853800000000,0,0x5D,0x00,Read,ACK
1.114875300000000,0,0x5D,0x00,Read,ACK
1.114896780000000,0,0x5D,0x00,Read,ACK
1.114918280000000,0,0x5D,0x00,Read,ACK
1.114940500000000,0,0x5D,0xD4,Read,ACK
1.114962040000000,0,0x5D,0xB1,Read,ACK
1.114984040000000,0,0x5D,0x02,Read,ACK
1.115006340000000,0,0x5D,0x00,Read,ACK
1.115029180000000,0,0x5D,0x00,Read,ACK
1.115050960000000,0,0x5D,0x00,Read,ACK
1.115072960000000,0,0x5D,0x00,Read,ACK
1.115094460000000,0,0x5D,0x00,Read,ACK
1.115116100000000,0,0x5D,0x00,Read,ACK
1.115138760000000,0,0x5D,0x00,Read,ACK
1.115161440000000,0,0x5D,0x00,Read,ACK
1.115183900000000,0,0x5D,0x00,Read,ACK
1.115205380000000,0,0x5D,0x00,Read,ACK
1.115227420000000,0,0x5D,0x00,Read,ACK
1.115248920000000,0,0x5D,0x00,Read,ACK
1.115270900000000,0,0x5D,0x00,Read,ACK
1.115292740000000,0,0x5D,0x00,Read,ACK
1.115314220000000,0,0x5D,0x00,Read,ACK
1.115335920000000,0,0x5D,0x00,Read,ACK
1.115359000000000,0,0x5D,0x00,Read,ACK
1.115380440000000,0,0x5D,0x00,Read,NAK
1.120947100000000,0,0x5D,0x2F,Read,ACK
1.120970340000000,0,0x5D,0x00,Read,ACK
1.120991820000000,0,0x5D,0x04,Read,ACK
1.121013300000000,0,0x5D,0x03,Read,ACK
1.121034800000000,0,0x5D,0xFC,Read,ACK
1.121056240000000,0,0x5D,0x00,Read,ACK
1.121077720000000,0,0x5D,0xF3,Read,ACK
1.121099880000000,0,0x5D,0x08,Read,ACK
1.121121680000000,0,0x5D,0x03,Read,ACK
1.121143340000000,0,0x5D,0x03,Read,ACK
1.121166400000000,0,0x5D,0x20,Read,ACK
1.121187840000000,0,0x5D,0x13,Read,ACK
1.121209320000000,0,0x5D,0xB9,Read,ACK
1.121230820000000,0,0x5D,0x04,Read,ACK
1.121252300000000,0,0x5D,0x4