Time [s],Packet ID,Address,Data,Read/Write,ACK/NAK
2.503210187500000,0,0x5D,0x2F,Read,ACK
2.503234781250000,0,0x5D,0x00,Read,ACK
2.503256218750000,0,0x5D,0x04,Read,ACK
2.503277687500000,0,0x5D,0x03,Read,ACK
2.503299187500000,0,0x5D,0x43,Read,ACK
2.503320656250000,0,0x5D,0x09,Read,ACK
2.503342156250000,0,0x5D,0x21,Read,ACK
2.503363656250000,0,0x5D,0x05,Read,ACK
2.503385125000000,0,0x5D,0x02,Read,ACK
2.503406593750000,0,0x5D,0x02,Read,ACK
2.503428062500000,0,0x5D,0x20,Read,ACK
2.503449531250000,0,0x5D,0x13,Read,ACK
2.503471062500000,0,0x5D,0x36,Read,ACK
2.503492531250000,0,0x5D,0x04,Read,ACK
2.503514031250000,0,0x5D,0x98,Read,ACK
2.503535500000000,0,0x5D,0x05,Read,ACK
2.503556968750000,0,0x5D,0x03,Read,ACK
2.503578406250000,0,0x5D,0x02,Read,ACK
2.503599906250000,0,0x5D,0x20,Read,ACK
2.503621375000000,0,0x5D,0x00,Read,ACK
2.503642843750000,0,0x5D,0x00,Read,ACK
2.503664312500000,0,0x5D,0x00,Read,ACK
2.503685781250000,0,0x5D,0x00,Read,ACK
2.503707406250000,0,0x5D,0x00,Read,ACK
2.503729156250000,0,0x5D,0x00,Read,ACK
2.503750656250000,0,0x5D,0x00,Read,ACK
2.503772093750000,0,0x5D,0x00,Read,ACK
2.503793562500000,0,0x5D,0x00,Read,ACK
2.503816687500000,0,0x5D,0x00,Read,ACK
2.503838312500000,0,0x5D,0x00,Read,ACK
2.503860156250000,0,0x5D,0x00,Read,ACK
2.503881656250000,0,0x5D,0x00,Read,ACK
2.503903625000000,0,0x5D,0x00,Read,ACK
2.503926562500000,0,0x5D,0x00,Read,ACK
2.503948062500000,0,0x5D,0x00,Read,ACK
2.503969531250000,0,0x5D,0x00,Read,ACK
2.503991062500000,0,0x5D,0x00,Read,ACK
2.504012718750000,0,0x5D,0x00,Read,ACK
2.504034218750000,0,0x5D,0x00,Read,ACK
2.504056500000000,0,0x5D,0x00,Read,ACK
2.504078656250000,0,0x5D,0x00,Read,ACK
2.504100125000000,0,0x5D,0x00,Read,ACK
2.504121593750000,0,0x5D,0x00,Read,ACK
2.504143093750000,0,0x5D,0xD4,Read,ACK
2.504164531250000,0,0x5D,0x01,Read,ACK
2.504186156250000,0,0x5D,0x02,Read,ACK
2.504208781250000,0,0x5D,0x00,Read,ACK
2.504230281250000,0,0x5D,0x00,Read,ACK
2.504251750000000,0,0x5D,0x00,Read,ACK
2.504273218750000,0,0x5D,0x00,Read,ACK
2.504294687500000,0,0x5D,0x00,Read,ACK
2.504316656250000,0,0x5D,0x00,Read,ACK
2.504338125000000,0,0x5D,0x00,Read,ACK
2.504359593750000,0,0x5D,0x00,Read,ACK
2.504381062500000,0,0x5D,0x00,Read,ACK
2.504402531250000,0,0x5D,0x00,Read,ACK
2.504424031250000,0,0x5D,0x00,Read,ACK
2.504445500000000,0,0x5D,0x00,Read,ACK
2.504466968750000,0,0x5D,0x00,Read,ACK
2.504488437500000,0,0x5D,0x00,Read,ACK
2.504509906250000,0,0x5D,0x00,Read,ACK
2.504531375000000,0,0x5D,0x00,Read,ACK
2.504552843750000,0,0x5D,0x00,Read,ACK
2.504574312500000,0,0x5D,0x00,Read,NAK
2.509959375000000,0,0x5D,0x2F,Read,ACK
2.509980906250000,0,0x5D,0x00,Read,ACK
2.510002625000000,0,0x5D,0x04,Read,ACK
2.510025687500000,0,0x5D,0x03,Read,ACK
2.510047656250000,0,0x5D,0x43,Read,ACK
2.510069156250000,0,0x5D,0x09,Read,ACK
2.510090750000000,0,0x5D,0x21,Read,ACK
2.510112218750000,0,0x5D,0x05,Read,ACK
2.510134000000000,0,0x5D,0x03,Read,ACK
2.510155625000000,0,0x5D,0x02,Read,ACK
2.510177093750000,0,0x5D,0x20,Read,ACK
2.510198562500000,0,0x5D,0x13,Read,ACK
2.510220031250000,0,0x5D,0x36,Read,ACK
2.510241500000000,0,0x5D,0x04,Read,ACK
2.510263093750000,0,0x5D,0x98,Read,ACK
2.510284562500000,0,0x5D,0x05,Read,ACK
2.510306031250000,0,0x5D,0x02,Read,ACK
2.510327500000000,0,0x5D,0x02,Read,ACK
2.510348968750000,0,0x5D,0x20,Read,ACK
2.510370437500000,0,0x5D,0x00,Read,ACK
2.510391906250000,0,0x5D,0x00,Read,ACK
2.510413406250000,0,0x5D,0x00,Read,ACK
2.510434875000000,0,0x5D,0x00,Read,ACK
2.510456937500000,0,0x5D,0x00,Read,ACK
2.510478437500000,0,0x5D,0x00,Read,ACK
2.510499906250000,0,0x5D,0x00,Read,ACK
2.510521375000000,0,0x5D,0x00,Read,ACK
2.510542875000000,0,0x5D,0x00,Read,ACK
2.510564312500000,0,0x5D,0x00,Read,ACK
2.510585781250000,0,0x5D,0x00,Read,ACK
2.510607250000000,0,0x5D,0x00,Read,ACK
2.510628718750000,0,0x5D,0x00,Read,ACK
2.510650187500000,0,0x5D,0x00,Read,ACK
2.510671687500000,0,0x5D,0x00,Read,ACK
2.510693187500000,0,0x5D,0x00,Read,ACK
2.510714656250000,0,0x5D,0x00,Read,ACK
2.510736125000000,0,0x5D,0x00,Read,ACK
2.510757656250000,0,0x5D,0x00,Read,ACK
2.510779125000000,0,0x5D,0x00,Read,ACK
2.510800593750000,0,0x5D,0x00,Read,ACK
2.510822062500000,0,0x5D,0x00,Read,ACK
2.510843531250000,0,0x5D,0x00,Read,ACK
2.510865000000000,0,0x5D,0x00,Read,ACK
2.510886500000000,0,0x5D,0x1A,Read,ACK
2.510907937500000,0,0x5D,0x02,Read,ACK
2.510929843750000,0,0x5D,0x02,Read,ACK
2.510951343750000,0,0x5D,0x00,Read,ACK
2.510974562500000,0,0x5D,0x00,Read,ACK
2.510997406250000,0,0x5D,0x00,Read,ACK
2.511019531250000,0,0x5D,0x00,Read,ACK
2.511041031250000,0,0x5D,0x00,Read,ACK
2.511062500000000,0,0x5D,0x00,Read,ACK
2.511084343750000,0,0x5D,0x00,Read,ACK
2.511106687500000,0,0x5D,0x00,Read,ACK
2.511128156250000,0,0x5D,0x00,Read,ACK
2.511149625000000,0,0x5D,0x00,Read,ACK
2.511172125000000,0,0x5D,0x00,Read,ACK
2.511193625000000,0,0x5D,0x00,Read,ACK
2.511216062500000,0,0x5D,0x00,Read,ACK
2.511238562500000,0,0x5D,0x00,Read,ACK
2.511260125000000,0,0x5D,0x00,Read,ACK
2.511281625000000,0,0x5D,0x00,Read,ACK
2.511303125000000,0,0x5D,0x00,Read,ACK
2.511324812500000,0,0x5D,0x00,Read,NAK
2.517010593750000,0,0x5D,0x2F,Read,ACK
2.517035156250000,0,0x5D,0x00,Read,ACK
2.517056656250000,0,0x5D,0x04,Read,ACK
2.517078125000000,0,0x5D,0x03,Read,ACK
2.517099593750000,0,0x5D,0x43,Read,ACK
2.517121562500000,0,0x5D,0x09,Read,ACK
2.517144062500000,0,0x5D,0x21,Read,ACK
2.517165500000000,0,0x5D,0x05,Read,ACK
2.517187000000000,0,0x5D,0x02,Read,ACK
2.517208437500000,0,0x5D,0x02,Read,ACK
2.517232343750000,0,0x5D,0x20,Read,ACK
2.517253843750000,0,0x5D,0x13,Read,ACK
2.517275343750000,0,0x5D,0x36,Read,ACK
2.517296812500000,0,0x5D,0x04,Read,ACK
2.517318281250000,0,0x5D,0x98,Read,ACK
2.517339718750000,0,0x5D,0x05,Read,ACK
2.517362656250000,0,0x5D,0x03,Read,ACK
2.517384125000000,0,0x5D,0x02,Read,ACK
2.517405750000000,0,0x5D,0x20,Read,ACK
2.517427187500000,0,0x5D,0x23,Read,ACK
2.517448656250000,0,0x5D,0xCE,Read,ACK
2.517470125000000,0,0x5D,0x06,Read,ACK
2.517491593750000,0,0x5D,0xB1,Read,ACK
2.517513062500000,0,0x5D,0x04,Read,ACK
2.517534531250000,0,0x5D,0x03,Read,ACK
2.517556000000000,0,0x5D,0x02,Read,ACK
2.517577468750000,0,0x5D,0x20,Read,ACK
2.517599312500000,0,0x5D,0x00,Read,ACK
2.517620812500000,0,0x5D,0x00,Read,ACK
2.517642281250000,0,0x5D,0x00,Read,ACK
2.517663781250000,0,0x5D,0x00,Read,ACK
2.517685218750000,0,0x5D,0x00,Read,ACK
2.517706687500000,0,0x5D,0x00,Read,ACK
2.517728156250000,0,0x5D,0x00,Read,ACK
2.517749843750000,0,0x5D,0x00,Read,ACK
2.517771281250000,0,0x5D,0x00,Read,ACK
2.517792781250000,0,0x5D,0x00,Read,ACK
2.517814250000000,0,0x5D,0x00,Read,ACK
2.517835718750000,0,0x5D,0x00,Read,ACK
2.517857187500000,0,0x5D,0x00,Read,ACK
2.517878687500000,0,0x5D,0x00,Read,ACK
2.517900156250000,0,0x5D,0x00,Read,ACK
2.517921593750000,0,0x5D,0x00,Read,ACK
2.517943093750000,0,0x5D,0x60,Read,ACK
2.517964562500000,0,0x5D,0x02,Read,ACK
2.517986031250000,0,0x5D,0x03,Read,ACK
2.518007500000000,0,0x5D,0x00,Read,ACK
2.518028968750000,0,0x5D,0x00,Read,ACK
2.518050656250000,0,0x5D,0x00,Read,ACK
2.518072093750000,0,0x5D,0x00,Read,ACK
2.518093562500000,0,0x5D,0x00,Read,ACK
2.518115375000000,0,0x5D,0x00,Read,ACK
2.518136843750000,0,0x5D,0x00,Read,ACK
2.518158500000000,0,0x5D,0x00,Read,ACK
2.518179968750000,0,0x5D,0x00,Read,ACK
2.518201437500000,0,0x5D,0x00,Read,ACK
2.518224562500000,0,0x5D,0x00,Read,ACK
2.518247312500000,0,0x5D,0x00,Read,ACK
2.518269625000000,0,0x5D,0x00,Read,ACK
2.518291468750000,0,0x5D,0x00,Read,ACK
2.518313062500000,0,0x5D,0x00,Read,ACK
2.518334500000000,0,0x5D,0x00,Read,ACK
2.518356000000000,0,0x5D,0x00,Read,ACK
2.518378656250000,0,0x5D,0x00,Read,NAK
2.524274437500000,0,0x5D,0x2F,Read,ACK
2.524303968750000,0,0x5D,0x00,Read,ACK
2.524328656250000,0,0x5D,0x04,Read,ACK
2.524350187500000,0,0x5D,0x03,Read,ACK
2.524371625000000,0,0x5D,0x43,Read,ACK
2.524393125000000,0,0x5D,0x09,Read,ACK
2.524414750000000,0,0x5D,0x21,Read,ACK
2.524436937500000,0,0x5D,0x05,Read,ACK
2.524458437500000,0,0x5D,0x02,Read,ACK
2.524479906250000,0,0x5D,0x02,Read,ACK
2.524501406250000,0,0x5D,0x20,Read,ACK
2.524522875000000,0,0x5D,0x13,Read,ACK
2.524544437500000,0,0x5D,0x36,Read,ACK
2.524565937500000,0,0x5D,0x04,Read,ACK
2.524587406250000,0,0x5D,0x97,Read,ACK
2.524608875000000,0,0x5D,0x05,Read,ACK
2.524630343750000,0,0x5D,0x03,Read,ACK
2.524651812500000,0,0x5D,0x02,Read,ACK
2.524673281250000,0,0x5D,0x20,Read,ACK
2.524694750000000,0,0x5D,0x23,Read,ACK
2.524716218750000,0,0x5D,0xCE,Read,ACK
2.524737718750000,0,0x5D,0x06,Read,ACK
2.524759218750000,0,0x5D,0xB1,Read,ACK
2.524780718750000,0,0x5D,0x04,Read,ACK
2.524802187500000,0,0x5D,0x03,Read,ACK
2.524823656250000,0,0x5D,0x03,Read,ACK
2.524845125000000,0,0x5D,0x20,Read,ACK
2.524866593750000,0,0x5D,0x00,Read,ACK
2.524888062500000,0,0x5D,0x00,Read,ACK
2.524909531250000,0,0x5D,0x00,Read,ACK
2.524931000000000,0,0x5D,0x00,Read,ACK
2.524952687500000,0,0x5D,0x00,Read,ACK
2.524974125000000,0,0x5D,0x00,Read,ACK
2.524995625000000,0,0x5D,0x00,Read,ACK
2.525017093750000,0,0x5D,0x00,Read,ACK
2.525038562500000,0,0x5D,0x00,Read,ACK
2.525061281250000,0,0x5D,0x00,Read,ACK
2.525088343750000,0,0x5D,0x00,Read,ACK
2.525112093750000,0,0x5D,0x00,Read,ACK
2.525133562500000,0,0x5D,0x00,Read,ACK
2.525155875000000,0,0x5D,0x00,Read,ACK
2.525178656250000,0,0x5D,0x00,Read,ACK
2.525200156250000,0,0x5D,0x00,Read,ACK
2.525221656250000,0,0x5D,0xA6,Read,ACK
2.525243125000000,0,0x5D,0x02,Read,ACK
2.525266875000000,0,0x5D,0x03,Read,ACK
2.525288375000000,0,0x5D,0x00,Read,ACK
2.525311031250000,0,0x5D,0x00,Read,ACK
2.525335687500000,0,0x5D,0x00,Read,ACK
2.525357406250000,0,0x5D,0x00,Read,ACK
2.525378843750000,0,0x5D,0x00,Read,ACK
2.525400343750000,0,0x5D,0x00,Read,ACK
2.525421843750000,0,0x5D,0x00,Read,ACK
2.525443281250000,0,0x5D,0x00,Read,ACK
2.525464781250000,0,0x5D,0x00,Read,ACK
2.525486531250000,0,0x5D,0x00,Read,ACK
2.525508000000000,0,0x5D,0x00,Read,ACK
2.525529593750000,0,0x5D,0x00,Read,ACK
2.525551093750000,0,0x5D,0x00,Read,ACK
2.525572593750000,0,0x5D,0x00,Read,ACK
2.525594531250000,0,0x5D,0x00,Read,ACK
2.525616000000000,0,0x5D,0x00,Read,ACK
2.525637468750000,0,0x5D,0x00,Read,ACK
2.525659031250000,0,0x5D,0x00,Read,NAK
2.531387843750000,0,0x5D,0x2F,Read,ACK
2.531410968750000,0,0x5D,0x00,Read,ACK
2.531432625000000,0,0x5D,0x04,Read,ACK
2.531454093750000,0,0x5D,0x03,Read,ACK
2.531475718750000,0,0x5D,0x44,Read,ACK
2.531497187500000,0,0x5D,0x09,Read,ACK
2.531519281250000,0,0x5D,0x1E,Read,ACK
2.531541750000000,0,0x5D,0x05,Read,ACK
2.531563218750000,0,0x5D,0x03,Read,ACK
2.531584687500000,0,0x5D,0x02,Read,ACK
2.531606156250000,0,0x5D,0x20,Read,ACK
2.531627781250000,0,0x5D,0x13,Read,ACK
2.531649312500000,0,0x5D,0x38,Read,ACK
2.531670750000000,0,0x5D,0x04,Read,ACK
2.531692218750000,0,0x5D,0x92,Read,ACK
2.531713718750000,0,0x5D,0x05,Read,ACK
2.531735156250000,0,0x5D,0x03,Read,ACK
2.531756656250000,0,0x5D,0x03,Read,ACK
2.531778312500000,0,0x5D,0x20,Read,ACK
2.531799781250000,0,0x5D,0x23,Read,ACK
2.531821250000000,0,0x5D,0xCE,Read,ACK
2.531842718750000,0,0x5D,0x06,Read,ACK
2.531864187500000,0,0x5D,0xB1,Read,ACK
2.531885656250000,0,0x5D,0x04,Read,ACK
2.531907156250000,0,0x5D,0x03,Read,ACK
2.531928625000000,0,0x5D,0x03,Read,ACK
2.531950093750000,0,0x5D,0x20,Read,ACK
2.531971875000000,0,0x5D,0x00,Read,ACK
2.531993343750000,0,0x5D,0x00,Read,ACK
2.532014812500000,0,0x5D,0x00,Read,ACK
2.532036281250000,0,0x5D,0x00,Read,ACK
2.532057750000000,0,0x5D,0x00,Read,ACK
2.532079218750000,0,0x5D,0x00,Read,ACK
2.532100687500000,0,0x5D,0x00,Read,ACK
2.532122156250000,0,0x5D,0x00,Read,ACK
2.532143625000000,0,0x5D,0x00,Read,ACK
2.532168281250000,0,0x5D,0x00,Read,ACK
2.532194250000000,0,0x5D,0x00,Read,ACK
2.532215875000000,0,0x5D,0x00,Read,ACK
2.532237468750000,0,0x5D,0x00,Read,ACK
2.532259406250000,0,0x5D,0x00,Read,ACK
2.532281375000000,0,0x5D,0x00,Read,ACK
2.532302875000000,0,0x5D,0x00,Read,ACK
2.532324343750000,0,0x5D,0xEC,Read,ACK
2.532345812500000,0,0x5D,0x02,Read,ACK
2.532367281250000,0,0x5D,0x03,Read,ACK
2.532390406250000,0,0x5D,0x00,Read,ACK
2.532411875000000,0,0x5D,0x00,Read,ACK
2.532434281250000,0,0x5D,0x00,Read,ACK
2.532455750000000,0,0x5D,0x00,Read,ACK
2.532478750000000,0,0x5D,0x00,Read,ACK
2.532502218750000,0,0x5D,0x00,Read,ACK
2.532523812500000,0,0x5D,0x00,Read,ACK
2.532545281250000,0,0x5D,0x00,Read,ACK
2.532566750000000,0,0x5D,0x00,Read,ACK
2.532588593750000,0,0x5D,0x00,Read,ACK
2.532610093750000,0,0x5D,0x00,Read,ACK
2.532632031250000,0,0x5D,0x00,Read,ACK
2.532654093750000,0,0x5D,0x00,Read,ACK
2.532676531250000,0,0x5D,0x00,Read,ACK
2.532698312500000,0,0x5D,0x00,Read,ACK
2.532719843750000,0,0x5D,0x00,Read,ACK
2.532741406250000,0,0x5D,0x00,Read,ACK
2.532764968750000,0,0x5D,0x00,Read,NAK
2.538891156250000,0,0x5D,0x2F,Read,ACK
2.538914656250000,0,0x5D,0x00,Read,ACK
2.538936156250000,0,0x5D,0x04,Read,ACK
2.538957656250000,0,0x5D,0x03,Read,ACK
2.538979156250000,0,0x5D,0x45,Read,ACK
2.539000812500000,0,0x5D,0x09,Read,ACK
2.539022281250000,0,0x5D,0x17,Read,ACK
2.539043781250000,0,0x5D,0x05,Read,ACK
2.539065218750000,0,0x5D,0x03,Read,ACK
2.539086718750000,0,0x5D,0x02,Read,ACK
2.539108187500000,0,0x5D,0x20,Read,ACK
2.539129656250000,0,0x5D,0x13,Read,ACK
2.539151125000000,0,0x5D,0x3A,Read,ACK
2.539172593750000,0,0x5D,0x04,Read,ACK
2.539194062500000,0,0x5D,0x88,Read,ACK
2.539215531250000,0,0x5D,0x05,Read,ACK
2.539237000000000,0,0x5D,0x03,Read,ACK
2.539258500000000,0,0x5D,0x03,Read,ACK
2.539280125000000,0,0x5D,0x20,Read,ACK
2.539303593750000,0,0x5D,0x23,Read,ACK
2.539325937500000,0,0x5D,0xCE,Read,ACK
2.539347750000000,0,0x5D,0x06,Read,ACK
2.539369187500000,0,0x5D,0xB0,Read,ACK
2.539390781250000,0,0x5D,0x04,Read,ACK
2.539412218750000,0,0x5D,0x03,Read,ACK
2.539433937500000,0,0x5D,0x03,Read,ACK
2.539455406250000,0,0x5D,0x20,Read,ACK
2.539476875000000,0,0x5D,0x00,Read,ACK
2.539500250000000,0,0x5D,0x00,Read,ACK
2.539521750000000,0,0x5D,0x00,Read,ACK
2.539543218750000,0,0x5D,0x00,Read,ACK
2.539565062500000,0,0x5D,0x00,Read,ACK
2.539587312500000,0,0x5D,0x00,Read,ACK
2.539608875000000,0,0x5D,0x00,Read,ACK
2.539631812500000,0,0x5D,0x00,Read,ACK
2.539653343750000,0,0x5D,0x00,Read,ACK
2.539674781250000,0,0x5D,0x00,Read,ACK
2.539696250000000,0,0x5D,0x00,Read,ACK
2.539717750000000,0,0x5D,0x00,Read,ACK
2.539739218750000,0,0x5D,0x00,Read,ACK
2.539760656250000,0,0x5D,0x00,Read,ACK
2.539782156250000,0,0x5D,0x00,Read,ACK
2.539803625000000,0,0x5D,0x00,Read,ACK
2.539826031250000,0,0x5D,0x32,Read,ACK
2.539847500000000,0,0x5D,0x03,Read,ACK
2.539868968750000,0,0x5D,0x03,Read,ACK
2.539891093750000,0,0x5D,0x00,Read,ACK
2.539912593750000,0,0x5D,0x00,Read,ACK
2.539934062500000,0,0x5D,0x00,Read,ACK
2.539955843750000,0,0x5D,0x00,Read,ACK
2.539978250000000,0,0x5D,0x00,Read,ACK
2.539999750000000,0,0x5D,0x00,Read,ACK
2.540021718750000,0,0x5D,0x00,Read,ACK
2.540043375000000,0,0x5D,0x00,Read,ACK
2.540064875000000,0,0x5D,0x00,Read,ACK
2.540086375000000,0,0x5D,0x00,Read,ACK
2.540107843750000,0,0x5D,0x00,Read,ACK
2.540129312500000,0,0x5D,0x00,Read,ACK
2.540150781250000,0,0x5D,0x00,Read,ACK
2.540173125000000,0,0x5D,0x00,Read,ACK
2.540196000000000,0,0x5D,0x00,Read,ACK
2.540217500000000,0,0x5D,0x00,Read,ACK
2.540238968750000,0,0x5D,0x00,Read,ACK
2.540262468750000,0,0x5D,0x00,Read,NAK
2.546295593750000,0,0x5D,0x2F,Read,ACK
2.546323750000000,0,0x5D,0x00,Read,ACK
2.546345218750000,0,0x5D,0x04,Read,ACK
2.546369875000000,0,0x5D,0x03,Read,ACK
2.546395781250000,0,0x5D,0x47,Read,ACK
2.546417250000000,0,0x5D,0x09,Read,ACK
2.546438906250000,0,0x5D,0x0D,Read,ACK
2.546462156250000,0,0x5D,0x05,Read,ACK
2.546483750000000,0,0x5D,0x03,Read,ACK
2.546505375000000,0,0x5D,0x02,Read,ACK
2.546526843750000,0,0x5D,0x20,Read,ACK
2.546548343750000,0,0x5D,0x13,Read,ACK
2.546569968750000,0,0x5D,0x3B,Read,ACK
2.546591468750000,0,0x5D,0x04,Read,ACK
2.546614593750000,0,0x5D,0x7D,Read,ACK
2.546636125000000,0,0x5D,0x05,Read,ACK
2.546657968750000,0,0x5D,0x03,Read,ACK
2.546681437500000,0,0x5D,0x03,Read,ACK
2.546703093750000,0,0x5D,0x20,Read,ACK
2.546724593750000,0,0x5D,0x23,Read,ACK
2.546746187500000,0,0x5D,0xCE,Read,ACK
2.546767656250000,0,0x5D,0x06,Read,ACK
2.546789843750000,0,0x5D,0xAA,Read,ACK
2.546811500000000,0,0x5D,0x04,Read,ACK
2.546833031250000,0,0x5D,0x03,Read,ACK
2.546855312500000,0,0x5D,0x03,Read,ACK
2.546876750000000,0,0x5D,0x20,Read,ACK
2.546898250000000,0,0x5D,0x00,Read,ACK
2.546919687500000,0,0x5D,0x00,Read,ACK
2.546941187500000,0,0x5D,0x00,Read,ACK
2.546962656250000,0,0x5D,0x00,Read,ACK
2.546985406250000,0,0x5D,0x00,Read,ACK
2.547008468750000,0,0x5D,0x00,Read,ACK
2.547029906250000,0,0x5D,0x00,Read,ACK
2.547052281250000,0,0x5D,0x00,Read,ACK
2.547075562500000,0,0x5D,0x00,Read,ACK
2.547097593750000,0,0x5D,0x00,Read,ACK
2.547119312500000,0,0x5D,0x00,Read,ACK
2.547140781250000,0,0x5D,0x00,Read,ACK
2.547162375000000,0,0x5D,0x00,Read,ACK
2.547183875000000,0,0x5D,0x00,Read,ACK
2.547205406250000,0,0x5D,0x00,Read,ACK
2.547228062500000,0,0x5D,0x00,Read,ACK
2.547250125000000,0,0x5D,0x78,Read,ACK
2.547271593750000,0,0x5D,0x03,Read,ACK
2.547293062500000,0,0x5D,0x03,Read,ACK
2.547314687500000,0,0x5D,0x00,Read,ACK
2.547336281250000,0,0x5D,0x00,Read,ACK
2.547357718750000,0,0x5D,0x00,Read,ACK
2.547379375000000,0,0x5D,0x00,Read,ACK
2.547401093750000,0,0x5D,0x00,Read,ACK
2.547427906250000,0,0x5D,0x00,Read,ACK
2.547449406250000,0,0x5D,0x00,Read,ACK
2.547470875000000,0,0x5D,0x00,Read,ACK
2.547492343750000,0,0x5D,0x00,Read,ACK
2.547513812500000,0,0x5D,0x00,Read,ACK
2.547535312500000,0,0x5D,0x00,Read,ACK
2.547556781250000,0,0x5D,0x00,Read,ACK
2.547579000000000,0,0x5D,0x00,Read,ACK
2.547600468750000,0,0x5D,0x00,Read,ACK
2.547621937500000,0,0x5D,0x00,Read,ACK
2.547643406250000,0,0x5D,0x00,Read,ACK
2.547665593750000,0,0x5D,0x00,Read,ACK
2.547687031250000,0,0x5D,0x00,Read,NAK
2.553210500000000,0,0x5D,0x2F,Read,ACK
2.553233593750000,0,0x5D,0x00,Read,ACK
2.553255093750000,0,0x5D,0x04,Read,ACK
2.553276562500000,0,0x5D,0x03,Read,ACK
2.553298218750000,0,0x5D,0x47,Read,ACK
2.553320125000000,0,0x5D,0x09,Read,ACK
2.553341625000000,0,0x5D,0x04,Read,ACK
2.553363062500000,0,0x5D,0x05,Read,ACK
2.553384531250000,0,0x5D,0x03,Read,ACK
2.553406218750000,0,0x5D,0x02,Read,ACK
2.553427750000000,0,0x5D,0x20,Read,ACK
2.553449218750000,0,0x5D,0x13,Read,ACK
2.553470718750000,0,0x5D,0x3B,Read,ACK
2.553492187500000,0,0x5D,0x04,Read,ACK
2.553513687500000,0,0x5D,0x71,Read,ACK
2.553538812500000,0,0x5D,0x05,Read,ACK
2.553562437500000,0,0x5D,0x03,Read,ACK
2.553583875000000,0,0x5D,0x03,Read,ACK
2.553606656250000,0,0x5D,0x20,Read,ACK
2.553629031250000,0,0x5D,0x23,Read,ACK
2.553650968750000,0,0x5D,0xCE,Read,ACK
2.553672468750000,0,0x5D,0x06,Read,ACK
2.553693937500000,0,0x5D,0xA1,Read,ACK
2.553715406250000,0,0x5D,0x04,Read,ACK
2.553738250000000,0,0x5D,0x03,Read,ACK
2.553759750000000,0,0x5D,0x03,Read,ACK
2.553782906250000,0,0x5D,0x20,Read,ACK
2.553804406250000,0,0x5D,0x00,Read,ACK
2.553827000000000,0,0x5D,0x00,Read,ACK
2.553848750000000,0,0x5D,0x00,Read,ACK
2.553871687500000,0,0x5D,0x00,Read,ACK
2.553893156250000,0,0x5D,0x00,Read,ACK
2.553915125000000,0,0x5D,0x00,Read,ACK
2.553936625000000,0,0x5D,0x00,Read,ACK
2.553959375000000,0,0x5D,0x00,Read,ACK
2.553980843750000,0,0x5D,0x00,Read,ACK
2.554002812500000,0,0x5D,0x00,Read,ACK
2.554025656250000,0,0x5D,0x00,Read,ACK
2.554047156250000,0,0x5D,0x00,Read,ACK
2.554068625000000,0,0x5D,0x00,Read,ACK
2.554090093750000,0,0x5D,0x00,Read,ACK
2.554111593750000,0,0x5D,0x00,Read,ACK
2.554133093750000,0,0x5D,0x00,Read,ACK
2.554154562500000,0,0x5D,0xBE,Read,ACK
2.554176062500000,0,0x5D,0x03,Read,ACK
2.554197531250000,0,0x5D,0x03,Read,ACK
2.554219718750000,0,0x5D,0x00,Read,ACK
2.554241937500000,0,0x5D,0x00,Read,ACK
2.554265093750000,0,0x5D,0x00,Read,ACK
2.554288281250000,0,0x5D,0x00,Read,ACK
2.554309750000000,0,0x5D,0x00,Read,ACK
2.554331656250000,0,0x5D,0x00,Read,ACK
2.554353906250000,0,0x5D,0x00,Read,ACK
2.554376781250000,0,0x5D,0x00,Read,ACK
2.554398250000000,0,0x5D,0x00,Read,ACK
2.554419718750000,0,0x5D,0x00,Read,ACK
2.554441187500000,0,0x5D,0x00,Read,ACK
2.554462656250000,0,0x5D,0x00,Read,ACK
2.554484125000000,0,0x5D,0x00,Read,ACK
2.554505625000000,0,0x5D,0x00,Read,ACK
2.554527562500000,0,0x5D,0x00,Read,ACK
2.554549843750000,0,0x5D,0x00,Read,ACK
2.554571812500000,0,0x5D,0x00,Read,ACK
2.554593312500000,0,0x5D,0x00,Read,NAK
2.559584468750000,0,0x5D,0x2F,Read,ACK
2.559611093750000,0,0x5D,0x00,Read,ACK
2.559632562500000,0,0x5D,0x04,Read,ACK
2.559654062500000,0,0x5D,0x03,Read,ACK
2.559675531250000,0,0x5D,0x48,Read,ACK
2.559697000000000,0,0x5D,0x09,Read,ACK
2.559718468750000,0,0x5D,0xFA,Read,ACK
2.559742625000000,0,0x5D,0x04,Read,ACK
2.559764406250000,0,0x5D,0x03,Read,ACK
2.559786125000000,0,0x5D,0x02,Read,ACK
2.559807593750000,0,0x5D,0x20,Read,ACK
2.559829093750000,0,0x5D,0x13,Read,ACK
2.559850531250000,0,0x5D,0x3B,Read,ACK
2.559872000000000,0,0x5D,0x04,Read,ACK
2.559893468750000,0,0x5D,0x66,Read,ACK
2.559914968750000,0,0x5D,0x05,Read,ACK
2.559936437500000,0,0x5D,0x03,Read,ACK
2.559957906250000,0,0x5D,0x03,Read,ACK
2.559979375000000,0,0x5D,0x20,Read,ACK
2.560002000000000,0,0x5D,0x23,Read,ACK
2.560023875000000,0,0x5D,0xCE,Read,ACK
2.560045375000000,0,0x5D,0x06,Read,ACK
2.560066812500000,0,0x5D,0x97,Read,ACK
2.560088312500000,0,0x5D,0x04,Read,ACK
2.560110812500000,0,0x5D,0x03,Read,ACK
2.560134093750000,0,0x5D,0x03,Read,ACK
2.560155593750000,0,0x5D,0x20,Read,ACK
2.560177062500000,0,0x5D,0x00,Read,ACK
2.560198562500000,0,0x5D,0x00,Read,ACK
2.560220000000000,0,0x5D,0x00,Read,ACK
2.560241468750000,0,0x5D,0x00,Read,ACK
2.560263375000000,0,0x5D,0x00,Read,ACK
2.560284875000000,0,0x5D,0x00,Read,ACK
2.560306343750000,0,0x5D,0x00,Read,ACK
2.560327812500000,0,0x5D,0x00,Read,ACK
2.560349281250000,0,0x5D,0x00,Read,ACK
2.560370750000000,0,0x5D,0x00,Read,ACK
2.560392218750000,0,0x5D,0x00,Read,ACK
2.560413687500000,0,0x5D,0x00,Read,ACK
2.560435187500000,0,0x5D,0x00,Read,ACK
2.560456687500000,0,0x5D,0x00,Read,ACK
2.560478156250000,0,0x5D,0x00,Read,ACK
2.560499625000000,0,0x5D,0x00,Read,ACK
2.560521281250000,0,0x5D,0x04,Read,ACK
2.560542750000000,0,0x5D,0x04,Read,ACK
2.560564218750000,0,0x5D,0x03,Read,ACK
2.560585718750000,0,0x5D,0x00,Read,ACK
2.560607156250000,0,0x5D,0x00,Read,ACK
2.560628718750000,0,0x5D,0x00,Read,ACK
2.560650156250000,0,0x5D,0x00,Read,ACK
2.560673406250000,0,0x5D,0x00,Read,ACK
2.560694875000000,0,0x5D,0x00,Read,ACK
2.560719281250000,0,0x5D,0x00,Read,ACK
2.560742906250000,0,0x5D,0x00,Read,ACK
2.560764781250000,0,0x5D,0x00,Read,ACK
2.560787093750000,0,0x5D,0x00,Read,ACK
2.560808593750000,0,0x5D,0x00,Read,ACK
2.560830062500000,0,0x5D,0x00,Read,ACK
2.560851531250000,0,0x5D,0x00,Read,ACK
2.560873500000000,0,0x5D,0x00,Read,ACK
2.560896125000000,0,0x5D,0x00,Read,ACK
2.560917781250000,0,0x5D,0x00,Read,ACK
2.560940812500000,0,0x5D,0x00,Read,ACK
2.560962281250000,0,0x5D,0x00,Read,NAK
2.566730625000000,0,0x5D,0x2F,Read,ACK
2.566760187500000,0,0x5D,0x00,Read,ACK
2.566781656250000,0,0x5D,0x04,Read,ACK
2.566803156250000,0,0x5D,0x03,Read,ACK
2.566824593750000,0,0x5D,0x48,Read,ACK
2.566846093750000,0,0x5D,0x09,Read,ACK
2.566867562500000,0,0x5D,0xF0,Read,ACK
2.566889031250000,0,0x5D,0x04,Read,ACK
2.566911312500000,0,0x5D,0x03,Read,ACK
2.566933093750000,0,0x5D,0x03,Read,ACK
2.566958000000000,0,0x5D,0x20,Read,ACK
2.566979468750000,0,0x5D,0x13,Read,ACK
2.567000937500000,0,0x5D,0x3A,Read,ACK
2.567022437500000,0,0x5D,0x04,Read,ACK
2.567043906250000,0,0x5D,0x5B,Read,ACK
2.567065406250000,0,0x5D,0x05,Read,ACK
2.567086875000000,0,0x5D,0x03,Read,ACK
2.567108312500000,0,0x5D,0x03,Read,ACK
2.567129812500000,0,0x5D,0x20,Read,ACK
2.567152187500000,0,0x5D,0x23,Read,ACK
2.567174093750000,0,0x5D,0xCE,Read,ACK
2.567195531250000,0,0x5D,0x06,Read,ACK
2.567217031250000,0,0x5D,0x8E,Read,ACK
2.567238468750000,0,0x5D,0x04,Read,ACK
2.567260031250000,0,0x5D,0x03,Read,ACK
2.567282718750000,0,0x5D,0x02,Read,ACK
2.567304468750000,0,0x5D,0x20,Read,ACK
2.567325937500000,0,0x5D,0x00,Read,ACK
2.567347406250000,0,0x5D,0x00,Read,ACK
2.567368906250000,0,0x5D,0x00,Read,ACK
2.567390343750000,0,0x5D,0x00,Read,ACK
2.567412218750000,0,0x5D,0x00,Read,ACK
2.567433687500000,0,0x5D,0x00,Read,ACK
2.567455156250000,0,0x5D,0x00,Read,ACK
2.567476625000000,0,0x5D,0x00,Read,ACK
2.567498093750000,0,0x5D,0x00,Read,ACK
2.567519562500000,0,0x5D,0x00,Read,ACK
2.567541031250000,0,0x5D,0x00,Read,ACK
2.567562500000000,0,0x5D,0x00,Read,ACK
2.567583968750000,0,0x5D,0x00,Read,ACK
2.567605437500000,0,0x5D,0x00,Read,ACK
2.567626937500000,0,0x5D,0x00,Read,ACK
2.567648406250000,0,0x5D,0x00,Read,ACK
2.567670062500000,0,0x5D,0x4A,Read,ACK
2.567691781250000,0,0x5D,0x04,Read,ACK
2.567713281250000,0,0x5D,0x03,Read,ACK
2.567734718750000,0,0x5D,0x00,Read,ACK
2.567756187500000,0,0x5D,0x00,Read,ACK
2.567777656250000,0,0x5D,0x00,Read,ACK
2.567799125000000,0,0x5D,0x00,Read,ACK
2.567820593750000,0,0x5D,0x00,Read,ACK
2.567842062500000,0,0x5D,0x00,Read,ACK
2.567863562500000,0,0x5D,0x00,Read,ACK
2.567885031250000,0,0x5D,0x00,Read,ACK
2.567908250000000,0,0x5D,0x00,Read,ACK
2.567931843750000,0,0x5D,0x00,Read,ACK
2.567953312500000,0,0x5D,0x00,Read,ACK
2.567974812500000,0,0x5D,0x00,Read,ACK
2.567998062500000,0,0x5D,0x00,Read,ACK
2.568019531250000,0,0x5D,0x00,Read,ACK
2.568041000000000,0,0x5D,0x00,Read,ACK
2.568062468750000,0,0x5D,0x00,Read,ACK
2.568083968750000,0,0x5D,0x00,Read,ACK
2.568108312500000,0,0x5D,0x00,Read,NAK
2.574023281250000,0,0x5D,0x2F,Read,ACK
2.574049000000000,0,0x5D,0x00,Read,ACK
2.574071187500000,0,0x5D,0x04,Read,ACK
2.574094562500000,0,0x5D,0x03,Read,ACK
2.574116062500000,0,0x5D,0x49,Read,ACK
2.574137500000000,0,0x5D,0x09,Read,ACK
2.574158968750000,0,0x5D,0xE5,Read,ACK
2.574180437500000,0,0x5D,0x04,Read,ACK
2.574201906250000,0,0x5D,0x03,Read,ACK
2.574223375000000,0,0x5D,0x03,Read,ACK
2.574244843750000,0,0x5D,0x20,Read,ACK
2.574266625000000,0,0x5D,0x13,Read,ACK
2.574288562500000,0,0x5D,0x38,Read,ACK
2.574310031250000,0,0x5D,0x04,Read,ACK
2.574331812500000,0,0x5D,0x51,Read,ACK
2.574353281250000,0,0x5D,0x05,Read,ACK
2.574374750000000,0,0x5D,0x03,Read,ACK
2.574396375000000,0,0x5D,0x03,Read,ACK
2.574418156250000,0,0x5D,0x20,Read,ACK
2.574439593750000,0,0x5D,0x23,Read,ACK
2.574461093750000,0,0x5D,0xCE,Read,ACK
2.574482562500000,0,0x5D,0x06,Read,ACK
2.574504031250000,0,0x5D,0x83,Read,ACK
2.574525500000000,0,0x5D,0x04,Read,ACK
2.574549031250000,0,0x5D,0x03,Read,ACK
2.574570500000000,0,0x5D,0x02,Read,ACK
2.574592000000000,0,0x5D,0x20,Read,ACK
2.574613437500000,0,0x5D,0x00,Read,ACK
2.574634906250000,0,0x5D,0x00,Read,ACK
2.574656375000000,0,0x5D,0x00,Read,ACK
2.574677875000000,0,0x5D,0x00,Read,ACK
2.574699343750000,0,0x5D,0x00,Read,ACK
2.574720812500000,0,0x5D,0x00,Read,ACK
2.574742281250000,0,0x5D,0x00,Read,ACK
2.574763750000000,0,0x5D,0x00,Read,ACK
2.574785406250000,0,0x5D,0x00,Read,ACK
2.574806875000000,0,0x5D,0x00,Read,ACK
2.574828343750000,0,0x5D,0x00,Read,ACK
2.574849812500000,0,0x5D,0x00,Read,ACK
2.574871281250000,0,0x5D,0x00,Read,ACK
2.574892781250000,0,0x5D,0x00,Read,ACK
2.574914250000000,0,0x5D,0x00,Read,ACK
2.574935781250000,0,0x5D,0x00,Read,ACK
2.574957218750000,0,0x5D,0x90,Read,ACK
2.574978718750000,0,0x5D,0x04,Read,ACK
2.575000187500000,0,0x5D,0x03,Read,ACK
2.575021687500000,0,0x5D,0x00,Read,ACK
2.575043125000000,0,0x5D,0x00,Read,ACK
2.575067437500000,0,0x5D,0x00,Read,ACK
2.575092156250000,0,0x5D,0x00,Read,ACK
2.575116343750000,0,0x5D,0x00,Read,ACK
2.575137812500000,0,0x5D,0x00,Read,ACK
2.575161187500000,0,0x5D,0x00,Read,ACK
2.575182625000000,0,0x5D,0x00,Read,ACK
2.575204125000000,0,0x5D,0x00,Read,ACK
2.575225750000000,0,0x5D,0x00,Read,ACK
2.575247718750000,0,0x5D,0x00,Read,ACK
2.575269625000000,0,0x5D,0x00,Read,ACK
2.575291406250000,0,0x5D,0x00,Read,ACK
2.575312937500000,0,0x5D,0x00,Read,ACK
2.575334437500000,0,0x5D,0x00,Read,ACK
2.575355906250000,0,0x5D,0x00,Read,ACK
2.575377593750000,0,0x5D,0x00,Read,ACK
2.575399031250000,0,0x5D,0x00,Read,NAK
2.581348031250000,0,0x5D,0x2F,Read,ACK
2.581372125000000,0,0x5D,0x00,Read,ACK
2.581393593750000,0,0x5D,0x04,Read,ACK
2.581415406250000,0,0x5D,0x03,Read,ACK
2.581437937500000,0,0x5D,0x4A,Read,ACK
2.581459437500000,0,0x5D,0x09,Read,ACK
2.581480968750000,0,0x5D,0xDA,Read,ACK
2.581502468750000,0,0x5D,0x04,Read,ACK
2.581523968750000,0,0x5D,0x03,Read,ACK
2.581545843750000,0,0x5D,0x03,Read,ACK
2.581567281250000,0,0x5D,0x20,Read,ACK
2.581589062500000,0,0x5D,0x13,Read,ACK
2.581610531250000,0,0x5D,0x36,Read,ACK
2.581632000000000,0,0x5D,0x04,Read,ACK
2.581654500000000,0,0x5D,0x47,Read,ACK
2.581675968750000,0,0x5D,0x05,Read,ACK
2.581697437500000,0,0x5D,0x03,Read,ACK
2.581719062500000,0,0x5D,0x02,Read,ACK
2.581740593750000,0,0x5D,0x20,Read,ACK
2.581762031250000,0,0x5D,0x23,Read,ACK
2.581783500000000,0,0x5D,0xCE,Read,ACK
2.581804968750000,0,0x5D,0x06,Read,ACK
2.581826468750000,0,0x5D,0x78,Read,ACK
2.581847937500000,0,0x5D,0x04,Read,ACK
2.581869406250000,0,0x5D,0x03,Read,ACK
2.581892312500000,0,0x5D,0x02,Read,ACK
2.581913781250000,0,0x5D,0x20,Read,ACK
2.581935250000000,0,0x5D,0x00,Read,ACK
2.581956718750000,0,0x5D,0x00,Read,ACK
2.581978187500000,0,0x5D,0x00,Read,ACK
2.581999656250000,0,0x5D,0x00,Read,ACK
2.582021125000000,0,0x5D,0x00,Read,ACK
2.582042625000000,0,0x5D,0x00,Read,ACK
2.582064062500000,0,0x5D,0x00,Read,ACK
2.582085562500000,0,0x5D,0x00,Read,ACK
2.582107781250000,0,0x5D,0x00,Read,ACK
2.582130656250000,0,0x5D,0x00,Read,ACK
2.582153000000000,0,0x5D,0x00,Read,ACK
2.582175937500000,0,0x5D,0x00,Read,ACK
2.582198343750000,0,0x5D,0x00,Read,ACK
2.582220062500000,0,0x5D,0x00,Read,ACK
2.582241531250000,0,0x5D,0x00,Read,ACK
2.582263000000000,0,0x5D,0x00,Read,ACK
2.582284562500000,0,0x5D,0xD6,Read,ACK
2.582306000000000,0,0x5D,0x04,Read,ACK
2.582327468750000,0,0x5D,0x03,Read,ACK
2.582349062500000,0,0x5D,0x00,Read,ACK
2.582371593750000,0,0x5D,0x00,Read,ACK
2.582393093750000,0,0x5D,0x00,Read,ACK
2.582414562500000,0,0x5D,0x00,Read,ACK
2.582437093750000,0,0x5D,0x00,Read,ACK
2.582458562500000,0,0x5D,0x00,Read,ACK
2.582480031250000,0,0x5D,0x00,Read,ACK
2.582502093750000,0,0x5D,0x00,Read,ACK
2.582524062500000,0,0x5D,0x00,Read,ACK
2.582545500000000,0,0x5D,0x00,Read,ACK
2.582568718750000,0,0x5D,0x00,Read,ACK
2.582591406250000,0,0x5D,0x00,Read,ACK
2.582612843750000,0,0x5D,0x00,Read,ACK
2.582634343750000,0,0x5D,0x00,Read,ACK
2.582655812500000,0,0x5D,0x00,Read,ACK
2.582677281250000,0,0x5D,0x00,Read,ACK
2.582698750000000,0,0x5D,0x00,Read,ACK
2.582720593750000,0,0x5D,0x00,Read,NAK
2.588548593750000,0,0x5D,0x2F,Read,ACK
2.588575187500000,0,0x5D,0x00,Read,ACK
2.588598218750000,0,0x5D,0x04,Read,ACK
2.588619687500000,0,0x5D,0x03,Read,ACK
2.588641156250000,0,0x5D,0x4C,Read,ACK
2.588662625000000,0,0x5D,0x09,Read,ACK
2.588684437500000,0,0x5D,0xCE,Read,ACK
2.588706593750000,0,0x5D,0x04,Read,ACK
2.588728062500000,0,0x5D,0x02,Read,ACK
2.588749531250000,0,0x5D,0x02,Read,ACK
2.588771000000000,0,0x5D,0x20,Read,ACK
2.588792468750000,0,0x5D,0x13,Read,ACK
2.588817937500000,0,0x5D,0x34,Read,ACK
2.588840843750000,0,0x5D,0x04,Read,ACK
2.588862343750000,0,0x5D,0x3D,Read,ACK
2.588883781250000,0,0x5D,0x05,Read,ACK
2.588905250000000,0,0x5D,0x03,Read,ACK
2.588926718750000,0,0x5D,0x02,Read,ACK
2.588948187500000,0,0x5D,0x20,Read,ACK
2.588969687500000,0,0x5D,0x23,Read,ACK
2.588991156250000,0,0x5D,0xCE,Read,ACK
2.589012625000000,0,0x5D,0x06,Read,ACK
2.589034125000000,0,0x5D,0x6B,Read,ACK
2.589055562500000,0,0x5D,0x04,Read,ACK
2.589077031250000,0,0x5D,0x03,Read,ACK
2.589098531250000,0,0x5D,0x02,Read,ACK
2.589120187500000,0,0x5D,0x20,Read,ACK
2.589141656250000,0,0x5D,0x00,Read,ACK
2.589163093750000,0,0x5D,0x00,Read,ACK
2.589184593750000,0,0x5D,0x00,Read,ACK
2.589206062500000,0,0x5D,0x00,Read,ACK
2.589227531250000,0,0x5D,0x00,Read,ACK
2.589249000000000,0,0x5D,0x00,Read,ACK
2.589273781250000,0,0x5D,0x00,Read,ACK
2.589295531250000,0,0x5D,0x00,Read,ACK
2.589317093750000,0,0x5D,0x00,Read,ACK
2.589341062500000,0,0x5D,0x00,Read,ACK
2.589364062500000,0,0x5D,0x00,Read,ACK
2.589385500000000,0,0x5D,0x00,Read,ACK
2.589407000000000,0,0x5D,0x00,Read,ACK
2.589428437500000,0,0x5D,0x00,Read,ACK
2.589451281250000,0,0x5D,0x00,Read,ACK
2.589474031250000,0,0x5D,0x00,Read,ACK
2.589495687500000,0,0x5D,0x1C,Read,ACK
2.589517125000000,0,0x5D,0x05,Read,ACK
2.589539437500000,0,0x5D,0x03,Read,ACK
2.589561531250000,0,0x5D,0x00,Read,ACK
2.589583000000000,0,0x5D,0x00,Read,ACK
2.589604468750000,0,0x5D,0x00,Read,ACK
2.589625937500000,0,0x5D,0x00,Read,ACK
2.589649031250000,0,0x5D,0x00,Read,ACK
2.589670500000000,0,0x5D,0x00,Read,ACK
2.589692937500000,0,0x5D,0x00,Read,ACK
2.589714437500000,0,0x5D,0x00,Read,ACK
2.589736062500000,0,0x5D,0x00,Read,ACK
2.589757625000000,0,0x5D,0x00,Read,ACK
2.589779125000000,0,0x5D,0x00,Read,ACK
2.589800718750000,0,0x5D,0x00,Read,ACK
2.589822187500000,0,0x5D,0x00,Read,ACK
2.589843656250000,0,0x5D,0x00,Read,ACK
2.589865843750000,0,0x5D,0x00,Read,ACK
2.589887375000000,0,0x5D,0x00,Read,ACK
2.589908812500000,0,0x5D,0x00,Read,ACK
2.589930937500000,0,0x5D,0x00,Read,NAK
2.596256625000000,0,0x5D,0x2F,Read,ACK
2.596281156250000,0,0x5D,0x00,Read,ACK
2.596302656250000,0,0x5D,0x04,Read,ACK
2.596324125000000,0,0x5D,0x03,Read,ACK
2.596345562500000,0,0x5D,0x4E,Read,ACK
2.596367062500000,0,0x5D,0x09,Read,ACK
2.596392468750000,0,0x5D,0xC2,Read,ACK
2.596415937500000,0,0x5D,0x04,Read,ACK
2.596437406250000,0,0x5D,0x02,Read,ACK
2.596460468750000,0,0x5D,0x02,Read,ACK
2.596482218750000,0,0x5D,0x20,Read,ACK
2.596503718750000,0,0x5D,0x13,Read,ACK
2.596525156250000,0,0x5D,0x32,Read,ACK
2.596548468750000,0,0x5D,0x04,Read,ACK
2.596570093750000,0,0x5D,0x33,Read,ACK
2.596592125000000,0,0x5D,0x05,Read,ACK
2.596614125000000,0,0x5D,0x03,Read,ACK
2.596635593750000,0,0x5D,0x02,Read,ACK
2.596657062500000,0,0x5D,0x20,Read,ACK
2.596678687500000,0,0x5D,0x23,Read,ACK
2.596700187500000,0,0x5D,0xCE,Read,ACK
2.596725187500000,0,0x5D,0x06,Read,ACK
2.596748875000000,0,0x5D,0x5E,Read,ACK
2.596770500000000,0,0x5D,0x04,Read,ACK
2.596791968750000,0,0x5D,0x03,Read,ACK
2.596813687500000,0,0x5D,0x02,Read,ACK
2.596835156250000,0,0x5D,0x20,Read,ACK
2.596857906250000,0,0x5D,0x00,Read,ACK
2.596879343750000,0,0x5D,0x00,Read,ACK
2.596900812500000,0,0x5D,0x00,Read,ACK
2.596922312500000,0,0x5D,0x00,Read,ACK
2.596943781250000,0,0x5D,0x00,Read,ACK
2.596965218750000,0,0x5D,0x00,Read,ACK
2.596987875000000,0,0x5D,0x00,Read,ACK
2.597009375000000,0,0x5D,0x00,Read,ACK
2.597030843750000,0,0x5D,0x00,Read,ACK
2.597054531250000,0,0x5D,0x00,Read,ACK
2.597076156250000,0,0x5D,0x00,Read,ACK
2.597097625000000,0,0x5D,0x00,Read,ACK
2.597121687500000,0,0x5D,0x00,Read,ACK
2.597146312500000,0,0x5D,0x00,Read,ACK
2.597168187500000,0,0x5D,0x00,Read,ACK
2.597189625000000,0,0x5D,0x00,Read,ACK
2.597213218750000,0,0x5D,0x62,Read,ACK
2.597235031250000,0,0x5D,0x05,Read,ACK
2.597257281250000,0,0x5D,0x03,Read,ACK
2.597278718750000,0,0x5D,0x00,Read,ACK
2.597300187500000,0,0x5D,0x00,Read,ACK
2.597321656250000,0,0x5D,0x00,Read,ACK
2.597343125000000,0,0x5D,0x00,Read,ACK
2.597366000000000,0,0x5D,0x00,Read,ACK
2.597387437500000,0,0x5D,0x00,Read,ACK
2.597408937500000,0,0x5D,0x00,Read,ACK
2.597430406250000,0,0x5D,0x00,Read,ACK
2.597451875000000,0,0x5D,0x00,Read,ACK
2.597473343750000,0,0x5D,0x00,Read,ACK
2.597496125000000,0,0x5D,0x00,Read,ACK
2.597517625000000,0,0x5D,0x00,Read,ACK
2.597539062500000,0,0x5D,0x00,Read,ACK
2.597560562500000,0,0x5D,0x00,Read,ACK
2.597582218750000,0,0x5D,0x00,Read,ACK
2.597603687500000,0,0x5D,0x00,Read,ACK
2.597625125000000,0,0x5D,0x00,Read,ACK
2.597647468750000,0,0x5D,0x00,Read,NAK
2.603291562500000,0,0x5D,0x2F,Read,ACK
2.603320343750000,0,0x5D,0x00,Read,ACK
2.603341812500000,0,0x5D,0x04,Read,ACK
2.603363250000000,0,0x5D,0x03,Read,ACK
2.603384718750000,0,0x5D,0x50,Read,ACK
2.603406187500000,0,0x5D,0x09,Read,ACK
2.603427687500000,0,0x5D,0xB7,Read,ACK
2.603449156250000,0,0x5D,0x04,Read,ACK
2.603470625000000,0,0x5D,0x02,Read,ACK
2.603492093750000,0,0x5D,0x02,Read,ACK
2.603513593750000,0,0x5D,0x20,Read,ACK
2.603535031250000,0,0x5D,0x13,Read,ACK
2.603558593750000,0,0x5D,0x32,Read,ACK
2.603580437500000,0,0x5D,0x04,Read,ACK
2.603604468750000,0,0x5D,0x28,Read,ACK
2.603626281250000,0,0x5D,0x05,Read,ACK
2.603648187500000,0,0x5D,0x02,Read,ACK
2.603669656250000,0,0x5D,0x02,Read,ACK
2.603691656250000,0,0x5D,0x20,Read,ACK
2.603713093750000,0,0x5D,0x23,Read,ACK
2.603734562500000,0,0x5D,0xD0,Read,ACK
2.603756031250000,0,0x5D,0x06,Read,ACK
2.603777531250000,0,0x5D,0x51,Read,ACK
2.603799343750000,0,0x5D,0x04,Read,ACK
2.603820781250000,0,0x5D,0x03,Read,ACK
2.603844031250000,0,0x5D,0x03,Read,ACK
2.603866812500000,0,0x5D,0x20,Read,ACK
2.603888312500000,0,0x5D,0x00,Read,ACK
2.603910281250000,0,0x5D,0x00,Read,ACK
2.603932312500000,0,0x5D,0x00,Read,ACK
2.603954656250000,0,0x5D,0x00,Read,ACK
2.603976125000000,0,0x5D,0x00,Read,ACK
2.603998000000000,0,0x5D,0x00,Read,ACK
2.604019437500000,0,0x5D,0x00,Read,ACK
2.604041156250000,0,0x5D,0x00,Read,ACK
2.604062625000000,0,0x5D,0x00,Read,ACK
2.604084125000000,0,0x5D,0x00,Read,ACK
2.604105937500000,0,0x5D,0x00,Read,ACK
2.604127406250000,0,0x5D,0x00,Read,ACK
2.604148875000000,0,0x5D,0x00,Read,ACK
2.604171687500000,0,0x5D,0x00,Read,ACK
2.604194625000000,0,0x5D,0x00,Read,ACK
2.604216906250000,0,0x5D,0x00,Read,ACK
2.604238625000000,0,0x5D,0xA8,Read,ACK
2.604266062500000,0,0x5D,0x05,Read,ACK
2.604288156250000,0,0x5D,0x03,Read,ACK
2.604309656250000,0,0x5D,0x00,Read,ACK
2.604331156250000,0,0x5D,0x00,Read,ACK
2.604352625000000,0,0x5D,0x00,Read,ACK
2.604374312500000,0,0x5D,0x00,Read,ACK
2.604395812500000,0,0x5D,0x00,Read,ACK
2.604417468750000,0,0x5D,0x00,Read,ACK
2.604438937500000,0,0x5D,0x00,Read,ACK
2.604460406250000,0,0x5D,0x00,Read,ACK
2.604484562500000,0,0x5D,0x00,Read,ACK
2.604507250000000,0,0x5D,0x00,Read,ACK
2.604528750000000,0,0x5D,0x00,Read,ACK
2.604550218750000,0,0x5D,0x00,Read,ACK
2.604572125000000,0,0x5D,0x00,Read,ACK
2.604597406250000,0,0x5D,0x00,Read,ACK
2.604618906250000,0,0x5D,0x00,Read,ACK
2.604641312500000,0,0x5D,0x00,Read,ACK
2.604662750000000,0,0x5D,0x00,Read,ACK
2.604684250000000,0,0x5D,0x00,Read,NAK
2.610007406250000,0,0x5D,0x2F,Read,ACK
2.610037062500000,0,0x5D,0x00,Read,ACK
2.610061562500000,0,0x5D,0x04,Read,ACK
2.610083062500000,0,0x5D,0x03,Read,ACK
2.610104531250000,0,0x5D,0x53,Read,ACK
2.610126000000000,0,0x5D,0x09,Read,ACK
2.610147468750000,0,0x5D,0xAC,Read,ACK
2.610168937500000,0,0x5D,0x04,Read,ACK
2.610190406250000,0,0x5D,0x02,Read,ACK
2.610211875000000,0,0x5D,0x02,Read,ACK
2.610233343750000,0,0x5D,0x20,Read,ACK
2.610254906250000,0,0x5D,0x13,Read,ACK
2.610277687500000,0,0x5D,0x32,Read,ACK
2.610299125000000,0,0x5D,0x04,Read,ACK
2.610320625000000,0,0x5D,0x1C,Read,ACK
2.610342093750000,0,0x5D,0x05,Read,ACK
2.610363562500000,0,0x5D,0x02,Read,ACK
2.610385031250000,0,0x5D,0x02,Read,ACK
2.610406500000000,0,0x5D,0x20,Read,ACK
2.610428000000000,0,0x5D,0x23,Read,ACK
2.610449750000000,0,0x5D,0xD2,Read,ACK
2.610471250000000,0,0x5D,0x06,Read,ACK
2.610492750000000,0,0x5D,0x45,Read,ACK
2.610514250000000,0,0x5D,0x04,Read,ACK
2.610535718750000,0,0x5D,0x03,Read,ACK
2.610557187500000,0,0x5D,0x03,Read,ACK
2.610578656250000,0,0x5D,0x20,Read,ACK
2.610600125000000,0,0x5D,0x00,Read,ACK
2.610621593750000,0,0x5D,0x00,Read,ACK
2.610643062500000,0,0x5D,0x00,Read,ACK
2.610664562500000,0,0x5D,0x00,Read,ACK
2.610686000000000,0,0x5D,0x00,Read,ACK
2.610707500000000,0,0x5D,0x00,Read,ACK
2.610730343750000,0,0x5D,0x00,Read,ACK
2.610751812500000,0,0x5D,0x00,Read,ACK
2.610775500000000,0,0x5D,0x00,Read,ACK
2.610797218750000,0,0x5D,0x00,Read,ACK
2.610819531250000,0,0x5D,0x00,Read,ACK
2.610841000000000,0,0x5D,0x00,Read,ACK
2.610862468750000,0,0x5D,0x00,Read,ACK
2.610883937500000,0,0x5D,0x00,Read,ACK
2.610907531250000,0,0x5D,0x00,Read,ACK
2.610929000000000,0,0x5D,0x00,Read,ACK
2.610951562500000,0,0x5D,0xEE,Read,ACK
2.610973218750000,0,0x5D,0x05,Read,ACK
2.610994656250000,0,0x5D,0x03,Read,ACK
2.611016125000000,0,0x5D,0x00,Read,ACK
2.611037625000000,0,0x5D,0x00,Read,ACK
2.611061843750000,0,0x5D,0x00,Read,ACK
2.611083812500000,0,0x5D,0x00,Read,ACK
2.611105250000000,0,0x5D,0x00,Read,ACK
2.611128000000000,0,0x5D,0x00,Read,ACK
2.611149937500000,0,0x5D,0x00,Read,ACK
2.611171375000000,0,0x5D,0x00,Read,ACK
2.611193281250000,0,0x5D,0x00,Read,ACK
2.611217031250000,0,0x5D,0x00,Read,ACK
2.611238531250000,0,0x5D,0x00,Read,ACK
2.611260656250000,0,0x5D,0x00,Read,ACK
2.611282125000000,0,0x5D,0x00,Read,ACK
2.611303562500000,0,0x5D,0x00,Read,ACK
2.611327000000000,0,0x5D,0x00,Read,ACK
2.611349562500000,0,0x5D,0x00,Read,ACK
2.611371000000000,0,0x5D,0x00,Read,ACK
2.611393218750000,0,0x5D,0x00,Read,NAK
2.617064656250000,0,0x5D,0x2F,Read,ACK
2.617088156250000,0,0x5D,0x00,Read,ACK
2.617109625000000,0,0x5D,0x04,Read,ACK
2.617132250000000,0,0x5D,0x03,Read,ACK
2.617154750000000,0,0x5D,0x56,Read,ACK
2.617176218750000,0,0x5D,0x09,Read,ACK
2.617197687500000,0,0x5D,0xA2,Read,ACK
2.617219187500000,0,0x5D,0x04,Read,ACK
2.617240656250000,0,0x5D,0x02,Read,ACK
2.617262125000000,0,0x5D,0x02,Read,ACK
2.617283593750000,0,0x5D,0x20,Read,ACK
2.617305062500000,0,0x5D,0x13,Read,ACK
2.617326531250000,0,0x5D,0x32,Read,ACK
2.617348937500000,0,0x5D,0x04,Read,ACK
2.617371812500000,0,0x5D,0x0F,Read,ACK
2.617393281250000,0,0x5D,0x05,Read,ACK
2.617414937500000,0,0x5D,0x02,Read,ACK
2.617436406250000,0,0x5D,0x02,Read,ACK
2.617457875000000,0,0x5D,0x20,Read,ACK
2.617479343750000,0,0x5D,0x23,Read,ACK
2.617500843750000,0,0x5D,0xD4,Read,ACK
2.617522312500000,0,0x5D,0x06,Read,ACK
2.617543750000000,0,0x5D,0x39,Read,ACK
2.617565250000000,0,0x5D,0x04,Read,ACK
2.617586718750000,0,0x5D,0x03,Read,ACK
2.617608187500000,0,0x5D,0x03,Read,ACK
2.617629656250000,0,0x5D,0x20,Read,ACK
2.617651125000000,0,0x5D,0x00,Read,ACK
2.617672593750000,0,0x5D,0x00,Read,ACK
2.617694062500000,0,0x5D,0x00,Read,ACK
2.617715531250000,0,0x5D,0x00,Read,ACK
2.617737031250000,0,0x5D,0x00,Read,ACK
2.617758531250000,0,0x5D,0x00,Read,ACK
2.617780031250000,0,0x5D,0x00,Read,ACK
2.617801500000000,0,0x5D,0x00,Read,ACK
2.617822968750000,0,0x5D,0x00,Read,ACK
2.617844437500000,0,0x5D,0x00,Read,ACK
2.617865906250000,0,0x5D,0x00,Read,ACK
2.617888968750000,0,0x5D,0x00,Read,ACK
2.617911718750000,0,0x5D,0x00,Read,ACK
2.617934843750000,0,0x5D,0x00,Read,ACK
2.617956406250000,0,0x5D,0x00,Read,ACK
2.617978093750000,0,0x5D,0x00,Read,ACK
2.617999625000000,0,0x5D,0x34,Read,ACK
2.618021281250000,0,0x5D,0x06,Read,ACK
2.618042750000000,0,0x5D,0x03,Read,ACK
2.618066875000000,0,0x5D,0x00,Read,ACK
2.618089781250000,0,0x5D,0x00,Read,ACK
2.618111281250000,0,0x5D,0x00,Read,ACK
2.618133718750000,0,0x5D,0x00,Read,ACK
2.618155187500000,0,0x5D,0x00,Read,ACK
2.618176656250000,0,0x5D,0x00,Read,ACK
2.618198093750000,0,0x5D,0x00,Read,ACK
2.618220687500000,0,0x5D,0x00,Read,ACK
2.618242187500000,0,0x5D,0x00,Read,ACK
2.618263906250000,0,0x5D,0x00,Read,ACK
2.618285781250000,0,0x5D,0x00,Read,ACK
2.618307281250000,0,0x5D,0x00,Read,ACK
2.618330500000000,0,0x5D,0x00,Read,ACK
2.618351968750000,0,0x5D,0x00,Read,ACK
2.618373437500000,0,0x5D,0x00,Read,ACK
2.618395156250000,0,0x5D,0x00,Read,ACK
2.618416656250000,0,0x5D,0x00,Read,ACK
2.618438093750000,0,0x5D,0x00,Read,NAK
2.624412406250000,0,0x5D,0x2F,Read,ACK
2.624436937500000,0,0x5D,0x00,Read,ACK
2.624458406250000,0,0x5D,0x04,Read,ACK
2.624479875000000,0,0x5D,0x03,Read,ACK
2.624501593750000,0,0x5D,0x59,Read,ACK
2.624523062500000,0,0x5D,0x09,Read,ACK
2.624544531250000,0,0x5D,0x99,Read,ACK
2.624566000000000,0,0x5D,0x04,Read,ACK
2.624587468750000,0,0x5D,0x02,Read,ACK
2.624608937500000,0,0x5D,0x02,Read,ACK
2.624630406250000,0,0x5D,0x20,Read,ACK
2.624651875000000,0,0x5D,0x13,Read,ACK
2.624673343750000,0,0x5D,0x33,Read,ACK
2.624694843750000,0,0x5D,0x04,Read,ACK
2.624716406250000,0,0x5D,0x02,Read,ACK
2.624737906250000,0,0x5D,0x05,Read,ACK
2.624759375000000,0,0x5D,0x02,Read,ACK
2.624780812500000,0,0x5D,0x02,Read,ACK
2.624802312500000,0,0x5D,0x20,Read,ACK
2.624823843750000,0,0x5D,0x23,Read,ACK
2.624845312500000,0,0x5D,0xD7,Read,ACK
2.624866781250000,0,0x5D,0x06,Read,ACK
2.624888250000000,0,0x5D,0x2E,Read,ACK
2.624909718750000,0,0x5D,0x04,Read,ACK
2.624931187500000,0,0x5D,0x03,Read,ACK
2.624955062500000,0,0x5D,0x03,Read,ACK
2.624976656250000,0,0x5D,0x20,Read,ACK
2.624999781250000,0,0x5D,0x00,Read,ACK
2.625021250000000,0,0x5D,0x00,Read,ACK
2.625043531250000,0,0x5D,0x00,Read,ACK
2.625065218750000,0,0x5D,0x00,Read,ACK
2.625086843750000,0,0x5D,0x00,Read,ACK
2.625108312500000,0,0x5D,0x00,Read,ACK
2.625129781250000,0,0x5D,0x00,Read,ACK
2.625151250000000,0,0x5D,0x00,Read,ACK
2.625172750000000,0,0x5D,0x00,Read,ACK
2.625194218750000,0,0x5D,0x00,Read,ACK
2.625216031250000,0,0x5D,0x00,Read,ACK
2.625238468750000,0,0x5D,0x00,Read,ACK
2.625261156250000,0,0x5D,0x00,Read,ACK
2.625282843750000,0,0x5D,0x00,Read,ACK
2.625306000000000,0,0x5D,0x00,Read,ACK
2.625328437500000,0,0x5D,0x00,Read,ACK
2.625349937500000,0,0x5D,0x7A,Read,ACK
2.625371500000000,0,0x5D,0x06,Read,ACK
2.625392937500000,0,0x5D,0x03,Read,ACK
2.625414531250000,0,0x5D,0x00,Read,ACK
2.625436000000000,0,0x5D,0x00,Read,ACK
2.625458718750000,0,0x5D,0x00,Read,ACK
2.625480187500000,0,0x5D,0x00,Read,ACK
2.625501656250000,0,0x5D,0x00,Read,ACK
2.625523187500000,0,0x5D,0x00,Read,ACK
2.625544687500000,0,0x5D,0x00,Read,ACK
2.625566156250000,0,0x5D,0x00,Read,ACK
2.625588000000000,0,0x5D,0x00,Read,ACK
2.625609468750000,0,0x5D,0x00,Read,ACK
2.625630937500000,0,0x5D,0x00,Read,ACK
2.625652375000000,0,0x5D,0x00,Read,ACK
2.625676281250000,0,0x5D,0x00,Read,ACK
2.625697750000000,0,0x5D,0x00,Read,ACK
2.625721031250000,0,0x5D,0x00,Read,ACK
2.625742531250000,0,0x5D,0x00,Read,ACK
2.625764500000000,0,0x5D,0x00,Read,ACK
2.625790875000000,0,0x5D,0x00,Read,NAK
2.631346843750000,0,0x5D,0x2F,Read,ACK
2.631371375000000,0,0x5D,0x00,Read,ACK
2.631392843750000,0,0x5D,0x04,Read,ACK
2.631414312500000,0,0x5D,0x03,Read,ACK
2.631436468750000,0,0x5D,0x5C,Read,ACK
2.631459593750000,0,0x5D,0x09,Read,ACK
2.631481093750000,0,0x5D,0x8F,Read,ACK
2.631502562500000,0,0x5D,0x04,Read,ACK
2.631524031250000,0,0x5D,0x02,Read,ACK
2.631545500000000,0,0x5D,0x02,Read,ACK
2.631569093750000,0,0x5D,0x20,Read,ACK
2.631590562500000,0,0x5D,0x13,Read,ACK
2.631612031250000,0,0x5D,0x35,Read,ACK
2.631633500000000,0,0x5D,0x04,Read,ACK
2.631654968750000,0,0x5D,0xF4,Read,ACK
2.631678281250000,0,0x5D,0x04,Read,ACK
2.631699812500000,0,0x5D,0x02,Read,ACK
2.631721250000000,0,0x5D,0x03,Read,ACK
2.631742718750000,0,0x5D,0x20,Read,ACK
2.631764187500000,0,0x5D,0x23,Read,ACK
2.631785687500000,0,0x5D,0xDA,Read,ACK
2.631807125000000,0,0x5D,0x06,Read,ACK
2.631828593750000,0,0x5D,0x22,Read,ACK
2.631850093750000,0,0x5D,0x04,Read,ACK
2.631871562500000,0,0x5D,0x03,Read,ACK
2.631893031250000,0,0x5D,0x03,Read,ACK
2.631914468750000,0,0x5D,0x20,Read,ACK
2.631935968750000,0,0x5D,0x00,Read,ACK
2.631957437500000,0,0x5D,0x00,Read,ACK
2.631978937500000,0,0x5D,0x00,Read,ACK
2.632000375000000,0,0x5D,0x00,Read,ACK
2.632021875000000,0,0x5D,0x00,Read,ACK
2.632043375000000,0,0x5D,0x00,Read,ACK
2.632064875000000,0,0x5D,0x00,Read,ACK
2.632086500000000,0,0x5D,0x00,Read,ACK
2.632108000000000,0,0x5D,0x00,Read,ACK
2.632129531250000,0,0x5D,0x00,Read,ACK
2.632150968750000,0,0x5D,0x00,Read,ACK
2.632172437500000,0,0x5D,0x00,Read,ACK
2.632195250000000,0,0x5D,0x00,Read,ACK
2.632219843750000,0,0x5D,0x00,Read,ACK
2.632241343750000,0,0x5D,0x00,Read,ACK
2.632262843750000,0,0x5D,0x00,Read,ACK
2.632284312500000,0,0x5D,0xC0,Read,ACK
2.632305781250000,0,0x5D,0x06,Read,ACK
2.632327343750000,0,0x5D,0x03,Read,ACK
2.632348812500000,0,0x5D,0x00,Read,ACK
2.632370281250000,0,0x5D,0x00,Read,ACK
2.632392250000000,0,0x5D,0x00,Read,ACK
2.632414906250000,0,0x5D,0x00,Read,ACK
2.632436812500000,0,0x5D,0x00,Read,ACK
2.632460750000000,0,0x5D,0x00,Read,ACK
2.632482250000000,0,0x5D,0x00,Read,ACK
2.632504843750000,0,0x5D,0x00,Read,ACK
2.632526781250000,0,0x5D,0x00,Read,ACK
2.632548281250000,0,0x5D,0x00,Read,ACK
2.632571031250000,0,0x5D,0x00,Read,ACK
2.632592875000000,0,0x5D,0x00,Read,ACK
2.632614375000000,0,0x5D,0x00,Read,ACK
2.632635875000000,0,0x5D,0x00,Read,ACK
2.632657937500000,0,0x5D,0x00,Read,ACK
2.632679406250000,0,0x5D,0x00,Read,ACK
2.632700906250000,0,0x5D,0x00,Read,ACK
2.632722343750000,0,0x5D,0x00,Read,NAK
2.638540843750000,0,0x5D,0x2F,Read,ACK
2.638565343750000,0,0x5D,0x00,Read,ACK
2.638587406250000,0,0x5D,0x04,Read,ACK
2.638608875000000,0,0x5D,0x03,Read,ACK
2.638630343750000,0,0x5D,0x60,Read,ACK
2.638651781250000,0,0x5D,0x09,Read,ACK
2.638673437500000,0,0x5D,0x84,Read,ACK
2.638694937500000,0,0x5D,0x04,Read,ACK
2.638716406250000,0,0x5D,0x02,Read,ACK
2.638738093750000,0,0x5D,0x02,Read,ACK
2.638759593750000,0,0x5D,0x20,Read,ACK
2.638781187500000,0,0x5D,0x13,Read,ACK
2.638802656250000,0,0x5D,0x39,Read,ACK
2.638825062500000,0,0x5D,0x04,Read,ACK
2.638846531250000,0,0x5D,0xE6,Read,ACK
2.638868000000000,0,0x5D,0x04,Read,ACK
2.638889468750000,0,0x5D,0x02,Read,ACK
2.638910937500000,0,0x5D,0x03,Read,ACK
2.638932406250000,0,0x5D,0x20,Read,ACK
2.638953906250000,0,0x5D,0x23,Read,ACK
2.638975375000000,0,0x5D,0xDE,Read,ACK
2.638996812500000,0,0x5D,0x06,Read,ACK
2.639018312500000,0,0x5D,0x17,Read,ACK
2.639039812500000,0,0x5D,0x04,Read,ACK
2.639061312500000,0,0x5D,0x03,Read,ACK
2.639082781250000,0,0x5D,0x03,Read,ACK
2.639104250000000,0,0x5D,0x20,Read,ACK
2.639125718750000,0,0x5D,0x00,Read,ACK
2.639147218750000,0,0x5D,0x00,Read,ACK
2.639168656250000,0,0x5D,0x00,Read,ACK
2.639190125000000,0,0x5D,0x00,Read,ACK
2.639211593750000,0,0x5D,0x00,Read,ACK
2.639233093750000,0,0x5D,0x00,Read,ACK
2.639255562500000,0,0x5D,0x00,Read,ACK
2.639278625000000,0,0x5D,0x00,Read,ACK
2.639300125000000,0,0x5D,0x00,Read,ACK
2.639322625000000,0,0x5D,0x00,Read,ACK
2.639344406250000,0,0x5D,0x00,Read,ACK
2.639365875000000,0,0x5D,0x00,Read,ACK
2.639387343750000,0,0x5D,0x00,Read,ACK
2.639408812500000,0,0x5D,0x00,Read,ACK
2.639430312500000,0,0x5D,0x00,Read,ACK
2.639453312500000,0,0x5D,0x00,Read,ACK
2.639474812500000,0,0x5D,0x06,Read,ACK
2.639496281250000,0,0x5D,0x07,Read,ACK
2.639519156250000,0,0x5D,0x03,Read,ACK
2.639540656250000,0,0x5D,0x00,Read,ACK
2.639562125000000,0,0x5D,0x00,Read,ACK
2.639583562500000,0,0x5D,0x00,Read,ACK
2.639605187500000,0,0x5D,0x00,Read,ACK
2.639627062500000,0,0x5D,0x00,Read,ACK
2.639648562500000,0,0x5D,0x00,Read,ACK
2.639670437500000,0,0x5D,0x00,Read,ACK
2.639691875000000,0,0x5D,0x00,Read,ACK
2.639713343750000,0,0x5D,0x00,Read,ACK
2.639736000000000,0,0x5D,0x00,Read,ACK
2.639757500000000,0,0x5D,0x00,Read,ACK
2.639779000000000,0,0x5D,0x00,Read,ACK
2.639800468750000,0,0x5D,0x00,Read,ACK
2.639821937500000,0,0x5D,0x00,Read,ACK
2.639843437500000,0,0x5D,0x00,Read,ACK
2.639866812500000,0,0x5D,0x00,Read,ACK
2.639889156250000,0,0x5D,0x00,Read,ACK
2.639910625000000,0,0x5D,0x00,Read,NAK
2.646227343750000,0,0x5D,0x2F,Read,ACK
2.646252062500000,0,0x5D,0x00,Read,ACK
2.646273562500000,0,0x5D,0x04,Read,ACK
2.646295031250000,0,0x5D,0x03,Read,ACK
2.646316500000000,0,0x5D,0x65,Read,ACK
2.646337968750000,0,0x5D,0x09,Read,ACK
2.646359437500000,0,0x5D,0x79,Read,ACK
2.646380906250000,0,0x5D,0x04,Read,ACK
2.646407531250000,0,0x5D,0x02,Read,ACK
2.646429000000000,0,0x5D,0x03,Read,ACK
2.646450531250000,0,0x5D,0x20,Read,ACK
2.646473687500000,0,0x5D,0x13,Read,ACK
2.646496062500000,0,0x5D,0x3D,Read,ACK
2.646517687500000,0,0x5D,0x04,Read,ACK
2.646539156250000,0,0x5D,0xD8,Read,ACK
2.646560625000000,0,0x5D,0x04,Read,ACK
2.646582093750000,0,0x5D,0x02,Read,ACK
2.646603593750000,0,0x5D,0x03,Read,ACK
2.646625062500000,0,0x5D,0x20,Read,ACK
2.646646531250000,0,0x5D,0x23,Read,ACK
2.646668125000000,0,0x5D,0xE1,Read,ACK
2.646689593750000,0,0x5D,0x06,Read,ACK
2.646712593750000,0,0x5D,0x0D,Read,ACK
2.646734031250000,0,0x5D,0x04,Read,ACK
2.646755875000000,0,0x5D,0x03,Read,ACK
2.646777687500000,0,0x5D,0x02,Read,ACK
2.646799125000000,0,0x5D,0x20,Read,ACK
2.646820593750000,0,0x5D,0x00,Read,ACK
2.646842093750000,0,0x5D,0x00,Read,ACK
2.646863906250000,0,0x5D,0x00,Read,ACK
2.646886718750000,0,0x5D,0x00,Read,ACK
2.646908812500000,0,0x5D,0x00,Read,ACK
2.646930562500000,0,0x5D,0x00,Read,ACK
2.646952875000000,0,0x5D,0x00,Read,ACK
2.646974343750000,0,0x5D,0x00,Read,ACK
2.646995812500000,0,0x5D,0x00,Read,ACK
2.647017281250000,0,0x5D,0x00,Read,ACK
2.647038906250000,0,0x5D,0x00,Read,ACK
2.647060406250000,0,0x5D,0x00,Read,ACK
2.647081875000000,0,0x5D,0x00,Read,ACK
2.647103500000000,0,0x5D,0x00,Read,ACK
2.647125406250000,0,0x5D,0x00,Read,ACK
2.647147718750000,0,0x5D,0x00,Read,ACK
2.647169250000000,0,0x5D,0x4C,Read,ACK
2.647191812500000,0,0x5D,0x07,Read,ACK
2.647214687500000,0,0x5D,0x03,Read,ACK
2.647236937500000,0,0x5D,0x00,Read,ACK
2.647258437500000,0,0x5D,0x00,Read,ACK
2.647279875000000,0,0x5D,0x00,Read,ACK
2.647301375000000,0,0x5D,0x00,Read,ACK
2.647322812500000,0,0x5D,0x00,Read,ACK
2.647344281250000,0,0x5D,0x00,Read,ACK
2.647367406250000,0,0x5D,0x00,Read,ACK
2.647388843750000,0,0x5D,0x00,Read,ACK
2.647410312500000,0,0x5D,0x00,Read,ACK
2.647431781250000,0,0x5D,0x00,Read,ACK
2.647455937500000,0,0x5D,0x00,Read,ACK
2.647477437500000,0,0x5D,0x00,Read,ACK
2.647498906250000,0,0x5D,0x00,Read,ACK
2.647521062500000,0,0x5D,0x00,Read,ACK
2.647542531250000,0,0x5D,0x00,Read,ACK
2.647564000000000,0,0x5D,0x00,Read,ACK
2.647585468750000,0,0x5D,0x00,Read,ACK
2.647608031250000,0,0x5D,0x00,Read,NAK
2.652876093750000,0,0x5D,0x2F,Read,ACK
2.652905562500000,0,0x5D,0x00,Read,ACK
2.652927062500000,0,0x5D,0x04,Read,ACK
2.652948531250000,0,0x5D,0x03,Read,ACK
2.652970125000000,0,0x5D,0x6A,Read,ACK
2.652991625000000,0,0x5D,0x09,Read,ACK
2.653014968750000,0,0x5D,0x6D,Read,ACK
2.653036593750000,0,0x5D,0x04,Read,ACK
2.653058531250000,0,0x5D,0x02,Read,ACK
2.653080000000000,0,0x5D,0x03,Read,ACK
2.653101468750000,0,0x5D,0x20,Read,ACK
2.653122937500000,0,0x5D,0x13,Read,ACK
2.653145937500000,0,0x5D,0x43,Read,ACK
2.653167562500000,0,0x5D,0x04,Read,ACK
2.653189062500000,0,0x5D,0xCA,Read,ACK
2.653210562500000,0,0x5D,0x04,Read,ACK
2.653232031250000,0,0x5D,0x02,Read,ACK
2.653253500000000,0,0x5D,0x03,Read,ACK
2.653275000000000,0,0x5D,0x20,Read,ACK
2.653296468750000,0,0x5D,0x23,Read,ACK
2.653317937500000,0,0x5D,0xE6,Read,ACK
2.653339593750000,0,0x5D,0x06,Read,ACK
2.653361062500000,0,0x5D,0x01,Read,ACK
2.653382562500000,0,0x5D,0x04,Read,ACK
2.653404031250000,0,0x5D,0x03,Read,ACK
2.653425468750000,0,0x5D,0x02,Read,ACK
2.653446968750000,0,0x5D,0x20,Read,ACK
2.653468406250000,0,0x5D,0x00,Read,ACK
2.653489906250000,0,0x5D,0x00,Read,ACK
2.653511375000000,0,0x5D,0x00,Read,ACK
2.653532843750000,0,0x5D,0x00,Read,ACK
2.653554312500000,0,0x5D,0x00,Read,ACK
2.653576187500000,0,0x5D,0x00,Read,ACK
2.653599343750000,0,0x5D,0x00,Read,ACK
2.653621000000000,0,0x5D,0x00,Read,ACK
2.653642593750000,0,0x5D,0x00,Read,ACK
2.653664781250000,0,0x5D,0x00,Read,ACK
2.653686718750000,0,0x5D,0x00,Read,ACK
2.653708343750000,0,0x5D,0x00,Read,ACK
2.653729812500000,0,0x5D,0x00,Read,ACK
2.653751281250000,0,0x5D,0x00,Read,ACK
2.653772781250000,0,0x5D,0x00,Read,ACK
2.653794250000000,0,0x5D,0x00,Read,ACK
2.653815718750000,0,0x5D,0x92,Read,ACK
2.653838125000000,0,0x5D,0x07,Read,ACK
2.653860000000000,0,0x5D,0x03,Read,ACK
2.653882000000000,0,0x5D,0x00,Read,ACK
2.653903468750000,0,0x5D,0x00,Read,ACK
2.653927000000000,0,0x5D,0x00,Read,ACK
2.653948468750000,0,0x5D,0x00,Read,ACK
2.653969937500000,0,0x5D,0x00,Read,ACK
2.653992281250000,0,0x5D,0x00,Read,ACK
2.654013750000000,0,0x5D,0x00,Read,ACK
2.654035500000000,0,0x5D,0x00,Read,ACK
2.654056968750000,0,0x5D,0x00,Read,ACK
2.654079250000000,0,0x5D,0x00,Read,ACK
2.654100718750000,0,0x5D,0x00,Read,ACK
2.654122187500000,0,0x5D,0x00,Read,ACK
2.654144093750000,0,0x5D,0x00,Read,ACK
2.654165562500000,0,0x5D,0x00,Read,ACK
2.654187062500000,0,0x5D,0x00,Read,ACK
2.654210281250000,0,0x5D,0x00,Read,ACK
2.654231750000000,0,0x5D,0x00,Read,ACK
2.654253218750000,0,0x5D,0x00,Read,NAK
2.660266218750000,0,0x5D,0x2F,Read,ACK
2.660289187500000,0,0x5D,0x00,Read,ACK
2.660310656250000,0,0x5D,0x04,Read,ACK
2.660332125000000,0,0x5D,0x03,Read,ACK
2.660353593750000,0,0x5D,0x6F,Read,ACK
2.660375062500000,0,0x5D,0x09,Read,ACK
2.660396531250000,0,0x5D,0x60,Read,ACK
2.660418000000000,0,0x5D,0x04,Read,ACK
2.660439656250000,0,0x5D,0x02,Read,ACK
2.660461125000000,0,0x5D,0x03,Read,ACK
2.660482593750000,0,0x5D,0x20,Read,ACK
2.660504093750000,0,0x5D,0x13,Read,ACK
2.660525562500000,0,0x5D,0x4A,Read,ACK
2.660547031250000,0,0x5D,0x04,Read,ACK
2.660568500000000,0,0x5D,0xBB,Read,ACK
2.660590000000000,0,0x5D,0x04,Read,ACK
2.660611437500000,0,0x5D,0x03,Read,ACK
2.660632937500000,0,0x5D,0x03,Read,ACK
2.660654375000000,0,0x5D,0x20,Read,ACK
2.660678312500000,0,0x5D,0x23,Read,ACK
2.660703500000000,0,0x5D,0xEB,Read,ACK
2.660726312500000,0,0x5D,0x06,Read,ACK
2.660748781250000,0,0x5D,0xF5,Read,ACK
2.660770468750000,0,0x5D,0x03,Read,ACK
2.660791937500000,0,0x5D,0x03,Read,ACK
2.660813437500000,0,0x5D,0x03,Read,ACK
2.660834906250000,0,0x5D,0x20,Read,ACK
2.660858937500000,0,0x5D,0x00,Read,ACK
2.660880781250000,0,0x5D,0x00,Read,ACK
2.660902250000000,0,0x5D,0x00,Read,ACK
2.660925468750000,0,0x5D,0x00,Read,ACK
2.660946968750000,0,0x5D,0x00,Read,ACK
2.660968437500000,0,0x5D,0x00,Read,ACK
2.660989968750000,0,0x5D,0x00,Read,ACK
2.661011437500000,0,0x5D,0x00,Read,ACK
2.661033875000000,0,0x5D,0x00,Read,ACK
2.661056031250000,0,0x5D,0x00,Read,ACK
2.661078000000000,0,0x5D,0x00,Read,ACK
2.661099437500000,0,0x5D,0x00,Read,ACK
2.661121937500000,0,0x5D,0x00,Read,ACK
2.661144500000000,0,0x5D,0x00,Read,ACK
2.661165968750000,0,0x5D,0x00,Read,ACK
2.661187437500000,0,0x5D,0x00,Read,ACK
2.661208937500000,0,0x5D,0xD8,Read,ACK
2.661230406250000,0,0x5D,0x07,Read,ACK
2.661252000000000,0,0x5D,0x03,Read,ACK
2.661274406250000,0,0x5D,0x00,Read,ACK
2.661295875000000,0,0x5D,0x00,Read,ACK
2.661317343750000,0,0x5D,0x00,Read,ACK
2.661341312500000,0,0x5D,0x00,Read,ACK
2.661363718750000,0,0x5D,0x00,Read,ACK
2.661386093750000,0,0x5D,0x00,Read,ACK
2.661408250000000,0,0x5D,0x00,Read,ACK
2.661429750000000,0,0x5D,0x00,Read,ACK
2.661451593750000,0,0x5D,0x00,Read,ACK
2.661473062500000,0,0x5D,0x00,Read,ACK
2.661494562500000,0,0x5D,0x00,Read,ACK
2.661516031250000,0,0x5D,0x00,Read,ACK
2.661537531250000,0,0x5D,0x00,Read,ACK
2.661559031250000,0,0x5D,0x00,Read,ACK
2.661580500000000,0,0x5D,0x00,Read,ACK
2.661605375000000,0,0x5D,0x00,Read,ACK
2.661629437500000,0,0x5D,0x00,Read,ACK
2.661650906250000,0,0x5D,0x00,Read,NAK
2.667080031250000,0,0x5D,0x2F,Read,ACK
2.667104093750000,0,0x5D,0x00,Read,ACK
2.667125593750000,0,0x5D,0x04,Read,ACK
2.667147062500000,0,0x5D,0x03,Read,ACK
2.667168531250000,0,0x5D,0x75,Read,ACK
2.667190031250000,0,0x5D,0x09,Read,ACK
2.667211500000000,0,0x5D,0x53,Read,ACK
2.667233406250000,0,0x5D,0x04,Read,ACK
2.667255437500000,0,0x5D,0x03,Read,ACK
2.667277843750000,0,0x5D,0x03,Read,ACK
2.667299375000000,0,0x5D,0x20,Read,ACK
2.667320843750000,0,0x5D,0x13,Read,ACK
2.667342343750000,0,0x5D,0x53,Read,ACK
2.667363843750000,0,0x5D,0x04,Read,ACK
2.667388437500000,0,0x5D,0xAC,Read,ACK
2.667409937500000,0,0x5D,0x04,Read,ACK
2.667431500000000,0,0x5D,0x03,Read,ACK
2.667453000000000,0,0x5D,0x03,Read,ACK
2.667474468750000,0,0x5D,0x20,Read,ACK
2.667495937500000,0,0x5D,0x23,Read,ACK
2.667517406250000,0,0x5D,0xF0,Read,ACK
2.667538875000000,0,0x5D,0x06,Read,ACK
2.667560343750000,0,0x5D,0xE8,Read,ACK
2.667581843750000,0,0x5D,0x03,Read,ACK
2.667603312500000,0,0x5D,0x03,Read,ACK
2.667624812500000,0,0x5D,0x03,Read,ACK
2.667646250000000,0,0x5D,0x20,Read,ACK
2.667667718750000,0,0x5D,0x00,Read,ACK
2.667689187500000,0,0x5D,0x00,Read,ACK
2.667710937500000,0,0x5D,0x00,Read,ACK
2.667732375000000,0,0x5D,0x00,Read,ACK
2.667753875000000,0,0x5D,0x00,Read,ACK
2.667775375000000,0,0x5D,0x00,Read,ACK
2.667796875000000,0,0x5D,0x00,Read,ACK
2.667818375000000,0,0x5D,0x00,Read,ACK
2.667839812500000,0,0x5D,0x00,Read,ACK
2.667861281250000,0,0x5D,0x00,Read,ACK
2.667882750000000,0,0x5D,0x00,Read,ACK
2.667904718750000,0,0x5D,0x00,Read,ACK
2.667931218750000,0,0x5D,0x00,Read,ACK
2.667952718750000,0,0x5D,0x00,Read,ACK
2.667974218750000,0,0x5D,0x00,Read,ACK
2.667996500000000,0,0x5D,0x00,Read,ACK
2.668018093750000,0,0x5D,0x1E,Read,ACK
2.668039562500000,0,0x5D,0x08,Read,ACK
2.668061062500000,0,0x5D,0x03,Read,ACK
2.668084031250000,0,0x5D,0x00,Read,ACK
2.668105687500000,0,0x5D,0x00,Read,ACK
2.668127156250000,0,0x5D,0x00,Read,ACK
2.668150468750000,0,0x5D,0x00,Read,ACK
2.668174250000000,0,0x5D,0x00,Read,ACK
2.668196031250000,0,0x5D,0x00,Read,ACK
2.668218875000000,0,0x5D,0x00,Read,ACK
2.668241906250000,0,0x5D,0x00,Read,ACK
2.668263437500000,0,0x5D,0x00,Read,ACK
2.668285687500000,0,0x5D,0x00,Read,ACK
2.668308125000000,0,0x5D,0x00,Read,ACK
2.668329562500000,0,0x5D,0x00,Read,ACK
2.668352718750000,0,0x5D,0x00,Read,ACK
2.668374718750000,0,0x5D,0x00,Read,ACK
2.668396187500000,0,0x5D,0x00,Read,ACK
2.668417687500000,0,0x5D,0x00,Read,ACK
2.668439125000000,0,0x5D,0x00,Read,ACK
2.668460593750000,0,0x5D,0x00,Read,NAK
2.674330750000000,0,0x5D,0x2F,Read,ACK
2.674356781250000,0,0x5D,0x00,Read,ACK
2.674378312500000,0,0x5D,0x04,Read,ACK
2.674401500000000,0,0x5D,0x03,Read,ACK
2.674422937500000,0,0x5D,0x7B,Read,ACK
2.674444687500000,0,0x5D,0x09,Read,ACK
2.674466156250000,0,0x5D,0x47,Read,ACK
2.674487625000000,0,0x5D,0x04,Read,ACK
2.674509093750000,0,0x5D,0x03,Read,ACK
2.674530593750000,0,0x5D,0x02,Read,ACK
2.674552125000000,0,0x5D,0x20,Read,ACK
2.674573562500000,0,0x5D,0x13,Read,ACK
2.674595031250000,0,0x5D,0x5C,Read,ACK
2.674616500000000,0,0x5D,0x04,Read,ACK
2.674637968750000,0,0x5D,0x9D,Read,ACK
2.674659437500000,0,0x5D,0x04,Read,ACK
2.674681093750000,0,0x5D,0x03,Read,ACK
2.674702593750000,0,0x5D,0x03,Read,ACK
2.674724062500000,0,0x5D,0x20,Read,ACK
2.674745593750000,0,0x5D,0x23,Read,ACK
2.674767062500000,0,0x5D,0xF6,Read,ACK
2.674788531250000,0,0x5D,0x06,Read,ACK
2.674810000000000,0,0x5D,0xDA,Read,ACK
2.674831718750000,0,0x5D,0x03,Read,ACK
2.674853312500000,0,0x5D,0x03,Read,ACK
2.674874812500000,0,0x5D,0x02,Read,ACK
2.674896250000000,0,0x5D,0x20,Read,ACK
2.674917718750000,0,0x5D,0x00,Read,ACK
2.674939218750000,0,0x5D,0x00,Read,ACK
2.674960687500000,0,0x5D,0x00,Read,ACK
2.674982156250000,0,0x5D,0x00,Read,ACK
2.675005500000000,0,0x5D,0x00,Read,ACK
2.675026968750000,0,0x5D,0x00,Read,ACK
2.675049562500000,0,0x5D,0x00,Read,ACK
2.675071406250000,0,0x5D,0x00,Read,ACK
2.675093187500000,0,0x5D,0x00,Read,ACK
2.675114812500000,0,0x5D,0x00,Read,ACK
2.675136281250000,0,0x5D,0x00,Read,ACK
2.675157750000000,0,0x5D,0x00,Read,ACK
2.675180312500000,0,0x5D,0x00,Read,ACK
2.675201843750000,0,0x5D,0x00,Read,ACK
2.675223781250000,0,0x5D,0x00,Read,ACK
2.675245250000000,0,0x5D,0x00,Read,ACK
2.675268000000000,0,0x5D,0x64,Read,ACK
2.675289437500000,0,0x5D,0x08,Read,ACK
2.675312406250000,0,0x5D,0x03,Read,ACK
2.675333875000000,0,0x5D,0x00,Read,ACK
2.675355468750000,0,0x5D,0x00,Read,ACK
2.675376968750000,0,0x5D,0x00,Read,ACK
2.675398468750000,0,0x5D,0x00,Read,ACK
2.675420625000000,0,0x5D,0x00,Read,ACK
2.675442093750000,0,0x5D,0x00,Read,ACK
2.675464875000000,0,0x5D,0x00,Read,ACK
2.675486375000000,0,0x5D,0x00,Read,ACK
2.675507843750000,0,0x5D,0x00,Read,ACK
2.675529625000000,0,0x5D,0x00,Read,ACK
2.675551093750000,0,0x5D,0x00,Read,ACK
2.675572562500000,0,0x5D,0x00,Read,ACK
2.675595812500000,0,0x5D,0x00,Read,ACK
2.675617812500000,0,0x5D,0x00,Read,ACK
2.675639312500000,0,0x5D,0x00,Read,ACK
2.675660937500000,0,0x5D,0x00,Read,ACK
2.675684750000000,0,0x5D,0x00,Read,ACK
2.675706218750000,0,0x5D,0x00,Read,NAK
2.681410062500000,0,0x5D,0x2F,Read,ACK
2.681432625000000,0,0x5D,0x00,Read,ACK
2.681454093750000,0,0x5D,0x04,Read,ACK
2.681475562500000,0,0x5D,0x03,Read,ACK
2.681497031250000,0,0x5D,0x81,Read,ACK
2.681519687500000,0,0x5D,0x09,Read,ACK
2.681541156250000,0,0x5D,0x3C,Read,ACK
2.681562718750000,0,0x5D,0x04,Read,ACK
2.681584437500000,0,0x5D,0x03,Read,ACK
2.681605906250000,0,0x5D,0x02,Read,ACK
2.681627343750000,0,0x5D,0x20,Read,ACK
2.681648812500000,0,0x5D,0x13,Read,ACK
2.681670281250000,0,0x5D,0x66,Read,ACK
2.681691937500000,0,0x5D,0x04,Read,ACK
2.681713406250000,0,0x5D,0x8D,Read,ACK
2.681734875000000,0,0x5D,0x04,Read,ACK
2.681756343750000,0,0x5D,0x02,Read,ACK
2.681777843750000,0,0x5D,0x03,Read,ACK
2.681799531250000,0,0x5D,0x20,Read,ACK
2.681821031250000,0,0x5D,0x23,Read,ACK
2.681842500000000,0,0x5D,0xFD,Read,ACK
2.681863968750000,0,0x5D,0x06,Read,ACK
2.681885437500000,0,0x5D,0xCC,Read,ACK
2.681906937500000,0,0x5D,0x03,Read,ACK
2.681928375000000,0,0x5D,0x03,Read,ACK
2.681949875000000,0,0x5D,0x02,Read,ACK
2.681971312500000,0,0x5D,0x20,Read,ACK
2.681992781250000,0,0x5D,0x00,Read,ACK
2.682014281250000,0,0x5D,0x00,Read,ACK
2.682035750000000,0,0x5D,0x00,Read,ACK
2.682057218750000,0,0x5D,0x00,Read,ACK
2.682078687500000,0,0x5D,0x00,Read,ACK
2.682100156250000,0,0x5D,0x00,Read,ACK
2.682121625000000,0,0x5D,0x00,Read,ACK
2.682145250000000,0,0x5D,0x00,Read,ACK
2.682167718750000,0,0x5D,0x00,Read,ACK
2.682189156250000,0,0x5D,0x00,Read,ACK
2.682210906250000,0,0x5D,0x00,Read,ACK
2.682232812500000,0,0x5D,0x00,Read,ACK
2.682254250000000,0,0x5D,0x00,Read,ACK
2.682276000000000,0,0x5D,0x00,Read,ACK
2.682297437500000,0,0x5D,0x00,Read,ACK
2.682318906250000,0,0x5D,0x00,Read,ACK
2.682340406250000,0,0x5D,0xAA,Read,ACK
2.682361906250000,0,0x5D,0x08,Read,ACK
2.682386562500000,0,0x5D,0x03,Read,ACK
2.682408343750000,0,0x5D,0x00,Read,ACK
2.682430406250000,0,0x5D,0x00,Read,ACK
2.682451906250000,0,0x5D,0x00,Read,ACK
2.682473375000000,0,0x5D,0x00,Read,ACK
2.682496718750000,0,0x5D,0x00,Read,ACK
2.682518187500000,0,0x5D,0x00,Read,ACK
2.682539968750000,0,0x5D,0x00,Read,ACK
2.682561468750000,0,0x5D,0x00,Read,ACK
2.682583250000000,0,0x5D,0x00,Read,ACK
2.682605593750000,0,0x5D,0x00,Read,ACK
2.682628187500000,0,0x5D,0x00,Read,ACK
2.682649656250000,0,0x5D,0x00,Read,ACK
2.682671093750000,0,0x5D,0x00,Read,ACK
2.682692687500000,0,0x5D,0x00,Read,ACK
2.682714156250000,0,0x5D,0x00,Read,ACK
2.682735812500000,0,0x5D,0x00,Read,ACK
2.682757281250000,0,0x5D,0x00,Read,ACK
2.682778750000000,0,0x5D,0x00,Read,NAK
2.688713812500000,0,0x5D,0x2F,Read,ACK
2.688740125000000,0,0x5D,0x00,Read,ACK
2.688761593750000,0,0x5D,0x04,Read,ACK
2.688783031250000,0,0x5D,0x03,Read,ACK
2.688804500000000,0,0x5D,0x88,Read,ACK
2.688826000000000,0,0x5D,0x09,Read,ACK
2.688848937500000,0,0x5D,0x31,Read,ACK
2.688870406250000,0,0x5D,0x04,Read,ACK
2.688891906250000,0,0x5D,0x03,Read,ACK
2.688913343750000,0,0x5D,0x02,Read,ACK
2.688935156250000,0,0x5D,0x20,Read,ACK
2.688956875000000,0,0x5D,0x13,Read,ACK
2.688978343750000,0,0x5D,0x72,Read,ACK
2.688999812500000,0,0x5D,0x04,Read,ACK
2.689021281250000,0,0x5D,0x7D,Read,ACK
2.689042750000000,0,0x5D,0x04,Read,ACK
2.689064218750000,0,0x5D,0x03,Read,ACK
2.689085687500000,0,0x5D,0x02,Read,ACK
2.689107156250000,0,0x5D,0x20,Read,ACK
2.689128656250000,0,0x5D,0x23,Read,ACK
2.689150093750000,0,0x5D,0x06,Read,ACK
2.689171562500000,0,0x5D,0x07,Read,ACK
2.689193031250000,0,0x5D,0xBE,Read,ACK
2.689214531250000,0,0x5D,0x03,Read,ACK
2.689235968750000,0,0x5D,0x03,Read,ACK
2.689257437500000,0,0x5D,0x03,Read,ACK
2.689280218750000,0,0x5D,0x20,Read,ACK
2.689303437500000,0,0x5D,0x00,Read,ACK
2.689326343750000,0,0x5D,0x00,Read,ACK
2.689348187500000,0,0x5D,0x00,Read,ACK
2.689370593750000,0,0x5D,0x00,Read,ACK
2.689392093750000,0,0x5D,0x00,Read,ACK
2.689413781250000,0,0x5D,0x00,Read,ACK
2.689435281250000,0,0x5D,0x00,Read,ACK
2.689456875000000,0,0x5D,0x00,Read,ACK
2.689478562500000,0,0x5D,0x00,Read,ACK
2.689500093750000,0,0x5D,0x00,Read,ACK
2.689521531250000,0,0x5D,0x00,Read,ACK
2.689543031250000,0,0x5D,0x00,Read,ACK
2.689564500000000,0,0x5D,0x00,Read,ACK
2.689585937500000,0,0x5D,0x00,Read,ACK
2.689607906250000,0,0x5D,0x00,Read,ACK
2.689629500000000,0,0x5D,0x00,Read,ACK
2.689652187500000,0,0x5D,0xF0,Read,ACK
2.689673812500000,0,0x5D,0x08,Read,ACK
2.689695625000000,0,0x5D,0x03,Read,ACK
2.689717093750000,0,0x5D,0x00,Read,ACK
2.689738562500000,0,0x5D,0x00,Read,ACK
2.689761156250000,0,0x5D,0x00,Read,ACK
2.689782625000000,0,0x5D,0x00,Read,ACK
2.689805187500000,0,0x5D,0x00,Read,ACK
2.689827312500000,0,0x5D,0x00,Read,ACK
2.689848781250000,0,0x5D,0x00,Read,ACK
2.689870437500000,0,0x5D,0x00,Read,ACK
2.689893562500000,0,0x5D,0x00,Read,ACK
2.689915062500000,0,0x5D,0x00,Read,ACK
2.689936531250000,0,0x5D,0x00,Read,ACK
2.689958875000000,0,0x5D,0x00,Read,ACK
2.689980687500000,0,0x5D,0x00,Read,ACK
2.690002500000000,0,0x5D,0x00,Read,ACK
2.690023968750000,0,0x5D,0x00,Read,ACK
2.690045437500000,0,0x5D,0x00,Read,ACK
2.690066937500000,0,0x5D,0x00,Read,ACK
2.690089687500000,0,0x5D,0x00,Read,NAK
2.696270906250000,0,0x5D,0x2F,Read,ACK
2.696300687500000,0,0x5D,0x00,Read,ACK
2.696322187500000,0,0x5D,0x04,Read,ACK
2.696343656250000,0,0x5D,0x03,Read,ACK
2.696365125000000,0,0x5D,0x92,Read,ACK
2.696386593750000,0,0x5D,0x09,Read,ACK
2.696408562500000,0,0x5D,0x26,Read,ACK
2.696432250000000,0,0x5D,0x04,Read,ACK
2.696453750000000,0,0x5D,0x03,Read,ACK
2.696475468750000,0,0x5D,0x02,Read,ACK
2.696498468750000,0,0x5D,0x20,Read,ACK
2.696521187500000,0,0x5D,0x13,Read,ACK
2.696542843750000,0,0x5D,0x81,Read,ACK
2.696564281250000,0,0x5D,0x04,Read,ACK
2.696585750000000,0,0x5D,0x6D,Read,ACK
2.696607250000000,0,0x5D,0x04,Read,ACK
2.696628718750000,0,0x5D,0x03,Read,ACK
2.696651218750000,0,0x5D,0x02,Read,ACK
2.696673156250000,0,0x5D,0x20,Read,ACK
2.696696125000000,0,0x5D,0x23,Read,ACK
2.696717593750000,0,0x5D,0x11,Read,ACK
2.696739062500000,0,0x5D,0x07,Read,ACK
2.696761406250000,0,0x5D,0xB1,Read,ACK
2.696782875000000,0,0x5D,0x03,Read,ACK
2.696805656250000,0,0x5D,0x03,Read,ACK
2.696827125000000,0,0x5D,0x03,Read,ACK
2.696848593750000,0,0x5D,0x20,Read,ACK
2.696870625000000,0,0x5D,0x00,Read,ACK
2.696893281250000,0,0x5D,0x00,Read,ACK
2.696914750000000,0,0x5D,0x00,Read,ACK
2.696936375000000,0,0x5D,0x00,Read,ACK
2.696957843750000,0,0x5D,0x00,Read,ACK
2.696979312500000,0,0x5D,0x00,Read,ACK
2.697000781250000,0,0x5D,0x00,Read,ACK
2.697022781250000,0,0x5D,0x00,Read,ACK
2.697046343750000,0,0x5D,0x00,Read,ACK
2.697067812500000,0,0x5D,0x00,Read,ACK
2.697090625000000,0,0x5D,0x00,Read,ACK
2.697113500000000,0,0x5D,0x00,Read,ACK
2.697134968750000,0,0x5D,0x00,Read,ACK
2.697156437500000,0,0x5D,0x00,Read,ACK
2.697178625000000,0,0x5D,0x00,Read,ACK
2.697200250000000,0,0x5D,0x00,Read,ACK
2.697221718750000,0,0x5D,0x36,Read,ACK
2.697243187500000,0,0x5D,0x09,Read,ACK
2.697264687500000,0,0x5D,0x03,Read,ACK
2.697286187500000,0,0x5D,0x00,Read,ACK
2.697307656250000,0,0x5D,0x00,Read,ACK
2.697329437500000,0,0x5D,0x00,Read,ACK
2.697351250000000,0,0x5D,0x00,Read,ACK
2.697372718750000,0,0x5D,0x00,Read,ACK
2.697394187500000,0,0x5D,0x00,Read,ACK
2.697416312500000,0,0x5D,0x00,Read,ACK
2.697439593750000,0,0x5D,0x00,Read,ACK
2.697461093750000,0,0x5D,0x00,Read,ACK
2.697482531250000,0,0x5D,0x00,Read,ACK
2.697504000000000,0,0x5D,0x00,Read,ACK
2.697525500000000,0,0x5D,0x00,Read,ACK
2.697546968750000,0,0x5D,0x00,Read,ACK
2.697568468750000,0,0x5D,0x00,Read,ACK
2.697589937500000,0,0x5D,0x00,Read,ACK
2.697611812500000,0,0x5D,0x00,Read,ACK
2.697633250000000,0,0x5D,0x00,Read,ACK
2.697654750000000,0,0x5D,0x00,Read,NAK
2.702859812500000,0,0x5D,0x2F,Read,ACK
2.702887937500000,0,0x5D,0x00,Read,ACK
2.702909656250000,0,0x5D,0x04,Read,ACK
2.702931156250000,0,0x5D,0x03,Read,ACK
2.702952656250000,0,0x5D,0x9D,Read,ACK
2.702974156250000,0,0x5D,0x09,Read,ACK
2.702995875000000,0,0x5D,0x1B,Read,ACK
2.703018750000000,0,0x5D,0x04,Read,ACK
2.703040218750000,0,0x5D,0x03,Read,ACK
2.703061687500000,0,0x5D,0x02,Read,ACK
2.703083156250000,0,0x5D,0x20,Read,ACK
2.703104625000000,0,0x5D,0x13,Read,ACK
2.703127468750000,0,0x5D,0x91,Read,ACK
2.703148937500000,0,0x5D,0x04,Read,ACK
2.703170406250000,0,0x5D,0x5D,Read,ACK
2.703191906250000,0,0x5D,0x04,Read,ACK
2.703213406250000,0,0x5D,0x03,Read,ACK
2.703235031250000,0,0x5D,0x03,Read,ACK
2.703256500000000,0,0x5D,0x20,Read,ACK
2.703277968750000,0,0x5D,0x23,Read,ACK
2.703299437500000,0,0x5D,0x1D,Read,ACK
2.703320906250000,0,0x5D,0x07,Read,ACK
2.703342375000000,0,0x5D,0xA4,Read,ACK
2.703363875000000,0,0x5D,0x03,Read,ACK
2.703385343750000,0,0x5D,0x03,Read,ACK
2.703406812500000,0,0x5D,0x03,Read,ACK
2.703428281250000,0,0x5D,0x20,Read,ACK
2.703449781250000,0,0x5D,0x00,Read,ACK
2.703471218750000,0,0x5D,0x00,Read,ACK
2.703492718750000,0,0x5D,0x00,Read,ACK
2.703514156250000,0,0x5D,0x00,Read,ACK
2.703535906250000,0,0x5D,0x00,Read,ACK
2.703557375000000,0,0x5D,0x00,Read,ACK
2.703582156250000,0,0x5D,0x00,Read,ACK
2.703608687500000,0,0x5D,0x00,Read,ACK
2.703632062500000,0,0x5D,0x00,Read,ACK
2.703655593750000,0,0x5D,0x00,Read,ACK
2.703677500000000,0,0x5D,0x00,Read,ACK
2.703700750000000,0,0x5D,0x00,Read,ACK
2.703722218750000,0,0x5D,0x00,Read,ACK
2.703743687500000,0,0x5D,0x00,Read,ACK
2.703765187500000,0,0x5D,0x00,Read,ACK
2.703786656250000,0,0x5D,0x00,Read,ACK
2.703808187500000,0,0x5D,0x7C,Read,ACK
2.703829968750000,0,0x5D,0x09,Read,ACK
2.703852343750000,0,0x5D,0x03,Read,ACK
2.703873843750000,0,0x5D,0x00,Read,ACK
2.703895343750000,0,0x5D,0x00,Read,ACK
2.703917000000000,0,0x5D,0x00,Read,ACK
2.703939312500000,0,0x5D,0x00,Read,ACK
2.703960781250000,0,0x5D,0x00,Read,ACK
2.703982250000000,0,0x5D,0x00,Read,ACK
2.704003718750000,0,0x5D,0x00,Read,ACK
2.704025437500000,0,0x5D,0x00,Read,ACK
2.704046906250000,0,0x5D,0x00,Read,ACK
2.704069468750000,0,0x5D,0x00,Read,ACK
2.704090906250000,0,0x5D,0x00,Read,ACK
2.704112406250000,0,0x5D,0x00,Read,ACK
2.704135218750000,0,0x5D,0x00,Read,ACK
2.704156687500000,0,0x5D,0x00,Read,ACK
2.704178187500000,0,0x5D,0x00,Read,ACK
2.704199968750000,0,0x5D,0x00,Read,ACK
2.704221906250000,0,0x5D,0x00,Read,ACK
2.704244187500000,0,0x5D,0x00,Read,NAK
2.710292531250000,0,0x5D,0x2F,Read,ACK
2.710316562500000,0,0x5D,0x00,Read,ACK
2.710338062500000,0,0x5D,0x04,Read,ACK
2.710359718750000,0,0x5D,0x03,Read,ACK
2.710381187500000,0,0x5D,0xAA,Read,ACK
2.710402656250000,0,0x5D,0x09,Read,ACK
2.710424125000000,0,0x5D,0x11,Read,ACK
2.710445625000000,0,0x5D,0x04,Read,ACK
2.710467062500000,0,0x5D,0x03,Read,ACK
2.710488562500000,0,0x5D,0x03,Read,ACK
2.710510031250000,0,0x5D,0x20,Read,ACK
2.710531531250000,0,0x5D,0x13,Read,ACK
2.710553343750000,0,0x5D,0xA3,Read,ACK
2.710574812500000,0,0x5D,0x04,Read,ACK
2.710596281250000,0,0x5D,0x4D,Read,ACK
2.710617781250000,0,0x5D,0x04,Read,ACK
2.710639218750000,0,0x5D,0x03,Read,ACK
2.710660718750000,0,0x5D,0x03,Read,ACK
2.710686593750000,0,0x5D,0x20,Read,ACK
2.710708031250000,0,0x5D,0x23,Read,ACK
2.710729500000000,0,0x5D,0x2C,Read,ACK
2.710751468750000,0,0x5D,0x07,Read,ACK
2.710773343750000,0,0x5D,0x97,Read,ACK
2.710794875000000,0,0x5D,0x03,Read,ACK
2.710816375000000,0,0x5D,0x03,Read,ACK
2.710837875000000,0,0x5D,0x02,Read,ACK
2.710860500000000,0,0x5D,0x20,Read,ACK
2.710882968750000,0,0x5D,0x00,Read,ACK
2.710904593750000,0,0x5D,0x00,Read,ACK
2.710926062500000,0,0x5D,0x00,Read,ACK
2.710949343750000,0,0x5D,0x00,Read,ACK
2.710971187500000,0,0x5D,0x00,Read,ACK
2.710993718750000,0,0x5D,0x00,Read,ACK
2.711015187500000,0,0x5D,0x00,Read,ACK
2.711036656250000,0,0x5D,0x00,Read,ACK
2.711058156250000,0,0x5D,0x00,Read,ACK
2.711080125000000,0,0x5D,0x00,Read,ACK
2.711101593750000,0,0x5D,0x00,Read,ACK
2.711123531250000,0,0x5D,0x00,Read,ACK
2.711145062500000,0,0x5D,0x00,Read,ACK
2.711166562500000,0,0x5D,0x00,Read,ACK
2.711188437500000,0,0x5D,0x00,Read,ACK
2.711209875000000,0,0x5D,0x00,Read,ACK
2.711231375000000,0,0x5D,0xC2,Read,ACK
2.711254156250000,0,0x5D,0x09,Read,ACK
2.711275906250000,0,0x5D,0x03,Read,ACK
2.711297343750000,0,0x5D,0x00,Read,ACK
2.711318812500000,0,0x5D,0x00,Read,ACK
2.711340718750000,0,0x5D,0x00,Read,ACK
2.711362437500000,0,0x5D,0x00,Read,ACK
2.711385281250000,0,0x5D,0x00,Read,ACK
2.711409781250000,0,0x5D,0x00,Read,ACK
2.711432031250000,0,0x5D,0x00,Read,ACK
2.711453531250000,0,0x5D,0x00,Read,ACK
2.711475281250000,0,0x5D,0x00,Read,ACK
2.711499531250000,0,0x5D,0x00,Read,ACK
2.711521375000000,0,0x5D,0x00,Read,ACK
2.711543156250000,0,0x5D,0x00,Read,ACK
2.711564625000000,0,0x5D,0x00,Read,ACK
2.711586093750000,0,0x5D,0x00,Read,ACK
2.711607687500000,0,0x5D,0x00,Read,ACK
2.711629468750000,0,0x5D,0x00,Read,ACK
2.711650937500000,0,0x5D,0x00,Read,ACK
2.711672500000000,0,0x5D,0x00,Read,NAK
2.717076218750000,0,0x5D,0x2F,Read,ACK
2.717100750000000,0,0x5D,0x00,Read,ACK
2.717122218750000,0,0x5D,0x04,Read,ACK
2.717143687500000,0,0x5D,0x03,Read,ACK
2.717165500000000,0,0x5D,0xB9,Read,ACK
2.717187531250000,0,0x5D,0x09,Read,ACK
2.717209031250000,0,0x5D,0x06,Read,ACK
2.717230500000000,0,0x5D,0x04,Read,ACK
2.717251968750000,0,0x5D,0x03,Read,ACK
2.717274843750000,0,0x5D,0x03,Read,ACK
2.717296718750000,0,0x5D,0x20,Read,ACK
2.717318187500000,0,0x5D,0x13,Read,ACK
2.717339812500000,0,0x5D,0xB6,Read,ACK
2.717361312500000,0,0x5D,0x04,Read,ACK
2.717382781250000,0,0x5D,0x3E,Read,ACK
2.717408125000000,0,0x5D,0x04,Read,ACK
2.717430687500000,0,0x5D,0x02,Read,ACK
2.717452156250000,0,0x5D,0x03,Read,ACK
2.717474062500000,0,0x5D,0x20,Read,ACK
2.717495531250000,0,0x5D,0x23,Read,ACK
2.717517000000000,0,0x5D,0x3D,Read,ACK
2.717538625000000,0,0x5D,0x07,Read,ACK
2.717560062500000,0,0x5D,0x8B,Read,ACK
2.717581562500000,0,0x5D,0x03,Read,ACK
2.717603000000000,0,0x5D,0x03,Read,ACK
2.717624500000000,0,0x5D,0x02,Read,ACK
2.717646343750000,0,0x5D,0x20,Read,ACK
2.717667812500000,0,0x5D,0x00,Read,ACK
2.717689281250000,0,0x5D,0x00,Read,ACK
2.717710750000000,0,0x5D,0x00,Read,ACK
2.717732218750000,0,0x5D,0x00,Read,ACK
2.717754156250000,0,0x5D,0x00,Read,ACK
2.717775656250000,0,0x5D,0x00,Read,ACK
2.717797281250000,0,0x5D,0x00,Read,ACK
2.717818781250000,0,0x5D,0x00,Read,ACK
2.717840250000000,0,0x5D,0x00,Read,ACK
2.717863937500000,0,0x5D,0x00,Read,ACK
2.717887093750000,0,0x5D,0x00,Read,ACK
2.717908593750000,0,0x5D,0x00,Read,ACK
2.717931875000000,0,0x5D,0x00,Read,ACK
2.717953906250000,0,0x5D,0x00,Read,ACK
2.717975375000000,0,0x5D,0x00,Read,ACK
2.717996843750000,0,0x5D,0x00,Read,ACK
2.718018312500000,0,0x5D,0x08,Read,ACK
2.718039812500000,0,0x5D,0x0A,Read,ACK
2.718061625000000,0,0x5D,0x03,Read,ACK
2.718083125000000,0,0x5D,0x00,Read,ACK
2.718104593750000,0,0x5D,0x00,Read,ACK
2.718127156250000,0,0x5D,0x00,Read,ACK
2.718150218750000,0,0x5D,0x00,Read,ACK
2.718173125000000,0,0x5D,0x00,Read,ACK
2.718195937500000,0,0x5D,0x00,Read,ACK
2.718217562500000,0,0x5D,0x00,Read,ACK
2.718239062500000,0,0x5D,0x00,Read,ACK
2.718261781250000,0,0x5D,0x00,Read,ACK
2.718283250000000,0,0x5D,0x00,Read,ACK
2.718306656250000,0,0x5D,0x00,Read,ACK
2.718329531250000,0,0x5D,0x00,Read,ACK
2.718351500000000,0,0x5D,0x00,Read,ACK
2.718372968750000,0,0x5D,0x00,Read,ACK
2.718394437500000,0,0x5D,0x00,Read,ACK
2.718416468750000,0,0x5D,0x00,Read,ACK
2.718437937500000,0,0x5D,0x00,Read,ACK
2.718459437500000,0,0x5D,0x00,Read,NAK
2.724449156250000,0,0x5D,0x2F,Read,ACK
2.724478218750000,0,0x5D,0x00,Read,ACK
2.724499718750000,0,0x5D,0x04,Read,ACK
2.724521250000000,0,0x5D,0x03,Read,ACK
2.724542687500000,0,0x5D,0xCA,Read,ACK
2.724565687500000,0,0x5D,0x09,Read,ACK
2.724587125000000,0,0x5D,0xFC,Read,ACK
2.724608593750000,0,0x5D,0x03,Read,ACK
2.724630093750000,0,0x5D,0x03,Read,ACK
2.724651593750000,0,0x5D,0x03,Read,ACK
2.724673093750000,0,0x5D,0x20,Read,ACK
2.724694562500000,0,0x5D,0x13,Read,ACK
2.724716031250000,0,0x5D,0xCA,Read,ACK
2.724737656250000,0,0x5D,0x04,Read,ACK
2.724759156250000,0,0x5D,0x30,Read,ACK
2.724780625000000,0,0x5D,0x04,Read,ACK
2.724802093750000,0,0x5D,0x02,Read,ACK
2.724823562500000,0,0x5D,0x02,Read,ACK
2.724845031250000,0,0x5D,0x20,Read,ACK
2.724866500000000,0,0x5D,0x23,Read,ACK
2.724888000000000,0,0x5D,0x50,Read,ACK
2.724909468750000,0,0x5D,0x07,Read,ACK
2.724930937500000,0,0x5D,0x7E,Read,ACK
2.724952406250000,0,0x5D,0x03,Read,ACK
2.724973875000000,0,0x5D,0x02,Read,ACK
2.724997343750000,0,0x5D,0x03,Read,ACK
2.725022531250000,0,0x5D,0x20,Read,ACK
2.725044000000000,0,0x5D,0x00,Read,ACK
2.725065687500000,0,0x5D,0x00,Read,ACK
2.725087156250000,0,0x5D,0x00,Read,ACK
2.725108625000000,0,0x5D,0x00,Read,ACK
2.725130062500000,0,0x5D,0x00,Read,ACK
2.725151562500000,0,0x5D,0x00,Read,ACK
2.725173031250000,0,0x5D,0x00,Read,ACK
2.725195000000000,0,0x5D,0x00,Read,ACK
2.725216500000000,0,0x5D,0x00,Read,ACK
2.725237937500000,0,0x5D,0x00,Read,ACK
2.725263031250000,0,0x5D,0x00,Read,ACK
2.725284500000000,0,0x5D,0x00,Read,ACK
2.725306031250000,0,0x5D,0x00,Read,ACK
2.725328468750000,0,0x5D,0x00,Read,ACK
2.725352250000000,0,0x5D,0x00,Read,ACK
2.725373875000000,0,0x5D,0x00,Read,ACK
2.725395375000000,0,0x5D,0x4E,Read,ACK
2.725416843750000,0,0x5D,0x0A,Read,ACK
2.725438343750000,0,0x5D,0x03,Read,ACK
2.725461031250000,0,0x5D,0x00,Read,ACK
2.725485343750000,0,0x5D,0x00,Read,ACK
2.725507875000000,0,0x5D,0x00,Read,ACK
2.725529843750000,0,0x5D,0x00,Read,ACK
2.725551281250000,0,0x5D,0x00,Read,ACK
2.725572750000000,0,0x5D,0x00,Read,ACK
2.725594218750000,0,0x5D,0x00,Read,ACK
2.725616468750000,0,0x5D,0x00,Read,ACK
2.725638687500000,0,0x5D,0x00,Read,ACK
2.725660187500000,0,0x5D,0x00,Read,ACK
2.725682906250000,0,0x5D,0x00,Read,ACK
2.725704750000000,0,0x5D,0x00,Read,ACK
2.725726437500000,0,0x5D,0x00,Read,ACK
2.725749281250000,0,0x5D,0x00,Read,ACK
2.725772062500000,0,0x5D,0x00,Read,ACK
2.725794843750000,0,0x5D,0x00,Read,ACK
2.725816656250000,0,0x5D,0x00,Read,ACK
2.725838125000000,0,0x5D,0x00,Read,NAK
2.731414250000000,0,0x5D,0x2F,Read,ACK
2.731439343750000,0,0x5D,0x00,Read,ACK
2.731461156250000,0,0x5D,0x04,Read,ACK
2.731482625000000,0,0x5D,0x03,Read,ACK
2.731504093750000,0,0x5D,0xDC,Read,ACK
2.731525562500000,0,0x5D,0x09,Read,ACK
2.731547937500000,0,0x5D,0xF3,Read,ACK
2.731569406250000,0,0x5D,0x03,Read,ACK
2.731590937500000,0,0x5D,0x03,Read,ACK
2.731612375000000,0,0x5D,0x03,Read,ACK
2.731634250000000,0,0x5D,0x20,Read,ACK
2.731655718750000,0,0x5D,0x13,Read,ACK
2.731677375000000,0,0x5D,0xDE,Read,ACK
2.731698843750000,0,0x5D,0x04,Read,ACK
2.731720375000000,0,0x5D,0x24,Read,ACK
2.731742031250000,0,0x5D,0x04,Read,ACK
2.731763500000000,0,0x5D,0x03,Read,ACK
2.731784968750000,0,0x5D,0x03,Read,ACK
2.731806437500000,0,0x5D,0x20,Read,ACK
2.731827937500000,0,0x5D,0x23,Read,ACK
2.731849531250000,0,0x5D,0x65,Read,ACK
2.731871000000000,0,0x5D,0x07,Read,ACK
2.731892500000000,0,0x5D,0x72,Read,ACK
2.731913937500000,0,0x5D,0x03,Read,ACK
2.731935406250000,0,0x5D,0x03,Read,ACK
2.731956875000000,0,0x5D,0x03,Read,ACK
2.731978375000000,0,0x5D,0x20,Read,ACK
2.731999812500000,0,0x5D,0x00,Read,ACK
2.732021312500000,0,0x5D,0x00,Read,ACK
2.732042781250000,0,0x5D,0x00,Read,ACK
2.732064250000000,0,0x5D,0x00,Read,ACK
2.732085718750000,0,0x5D,0x00,Read,ACK
2.732107500000000,0,0x5D,0x00,Read,ACK
2.732128968750000,0,0x5D,0x00,Read,ACK
2.732154500000000,0,0x5D,0x00,Read,ACK
2.732180312500000,0,0x5D,0x00,Read,ACK
2.732201812500000,0,0x5D,0x00,Read,ACK
2.732223593750000,0,0x5D,0x00,Read,ACK
2.732246000000000,0,0x5D,0x00,Read,ACK
2.732267781250000,0,0x5D,0x00,Read,ACK
2.732289250000000,0,0x5D,0x00,Read,ACK
2.732310906250000,0,0x5D,0x00,Read,ACK
2.732332375000000,0,0x5D,0x00,Read,ACK
2.732354593750000,0,0x5D,0x94,Read,ACK
2.732376062500000,0,0x5D,0x0A,Read,ACK
2.732397531250000,0,0x5D,0x03,Read,ACK
2.732419031250000,0,0x5D,0x00,Read,ACK
2.732441281250000,0,0x5D,0x00,Read,ACK
2.732464281250000,0,0x5D,0x00,Read,ACK
2.732485750000000,0,0x5D,0x00,Read,ACK
2.732507218750000,0,0x5D,0x00,Read,ACK
2.732529843750000,0,0x5D,0x00,Read,ACK
2.732551343750000,0,0x5D,0x00,Read,ACK
2.732572906250000,0,0x5D,0x00,Read,ACK
2.732594468750000,0,0x5D,0x00,Read,ACK
2.732615937500000,0,0x5D,0x00,Read,ACK
2.732638656250000,0,0x5D,0x00,Read,ACK
2.732661375000000,0,0x5D,0x00,Read,ACK
2.732682875000000,0,0x5D,0x00,Read,ACK
2.732704375000000,0,0x5D,0x00,Read,ACK
2.732725843750000,0,0x5D,0x00,Read,ACK
2.732747312500000,0,0x5D,0x00,Read,ACK
2.732769968750000,0,0x5D,0x00,Read,ACK
2.732791875000000,0,0x5D,0x00,Read,NAK
2.738608093750000,0,0x5D,0x2F,Read,ACK
2.738637687500000,0,0x5D,0x00,Read,ACK
2.738659125000000,0,0x5D,0x04,Read,ACK
2.738680625000000,0,0x5D,0x03,Read,ACK
2.738702093750000,0,0x5D,0xF0,Read,ACK
2.738723562500000,0,0x5D,0x09,Read,ACK
2.738745062500000,0,0x5D,0xEA,Read,ACK
2.738766562500000,0,0x5D,0x03,Read,ACK
2.738788031250000,0,0x5D,0x03,Read,ACK
2.738809500000000,0,0x5D,0x03,Read,ACK
2.738831406250000,0,0x5D,0x20,Read,ACK
2.738854375000000,0,0x5D,0x13,Read,ACK
2.738875843750000,0,0x5D,0xF3,Read,ACK
2.738897375000000,0,0x5D,0x04,Read,ACK
2.738919250000000,0,0x5D,0x18,Read,ACK
2.738940718750000,0,0x5D,0x04,Read,ACK
2.738962187500000,0,0x5D,0x03,Read,ACK
2.738983812500000,0,0x5D,0x03,Read,ACK
2.739005312500000,0,0x5D,0x20,Read,ACK
2.739026781250000,0,0x5D,0x23,Read,ACK
2.739048406250000,0,0x5D,0x7A,Read,ACK
2.739070062500000,0,0x5D,0x07,Read,ACK
2.739091531250000,0,0x5D,0x67,Read,ACK
2.739113000000000,0,0x5D,0x03,Read,ACK
2.739134468750000,0,0x5D,0x03,Read,ACK
2.739155968750000,0,0x5D,0x03,Read,ACK
2.739177468750000,0,0x5D,0x20,Read,ACK
2.739198968750000,0,0x5D,0x00,Read,ACK
2.739220437500000,0,0x5D,0x00,Read,ACK
2.739241906250000,0,0x5D,0x00,Read,ACK
2.739263781250000,0,0x5D,0x00,Read,ACK
2.739285281250000,0,0x5D,0x00,Read,ACK
2.739309843750000,0,0x5D,0x00,Read,ACK
2.739335343750000,0,0x5D,0x00,Read,ACK
2.739356812500000,0,0x5D,0x00,Read,ACK
2.739378312500000,0,0x5D,0x00,Read,ACK
2.739401437500000,0,0x5D,0x00,Read,ACK
2.739423093750000,0,0x5D,0x00,Read,ACK
2.739444562500000,0,0x5D,0x00,Read,ACK
2.739466906250000,0,0x5D,0x00,Read,ACK
2.739488375000000,0,0x5D,0x00,Read,ACK
2.739509843750000,0,0x5D,0x00,Read,ACK
2.739532937500000,0,0x5D,0x00,Read,ACK
2.739554437500000,0,0x5D,0xDA,Read,ACK
2.739575906250000,0,0x5D,0x0A,Read,ACK
2.739598187500000,0,0x5D,0x03,Read,ACK
2.739620625000000,0,0x5D,0x00,Read,ACK
2.739643843750000,0,0x5D,0x00,Read,ACK
2.739665281250000,0,0x5D,0x00,Read,ACK
2.739687125000000,0,0x5D,0x00,Read,ACK
2.739709093750000,0,0x5D,0x00,Read,ACK
2.739730625000000,0,0x5D,0x00,Read,ACK
2.739752125000000,0,0x5D,0x00,Read,ACK
2.739773812500000,0,0x5D,0x00,Read,ACK
2.739795312500000,0,0x5D,0x00,Read,ACK
2.739818000000000,0,0x5D,0x00,Read,ACK
2.739839500000000,0,0x5D,0x00,Read,ACK
2.739860968750000,0,0x5D,0x00,Read,ACK
2.739882500000000,0,0x5D,0x00,Read,ACK
2.739904000000000,0,0x5D,0x00,Read,ACK
2.739925750000000,0,0x5D,0x00,Read,ACK
2.739947281250000,0,0x5D,0x00,Read,ACK
2.739969156250000,0,0x5D,0x00,Read,ACK
2.739990687500000,0,0x5D,0x00,Read,NAK
2.745684875000000,0,0x5D,0x2F,Read,ACK
2.745707843750000,0,0x5D,0x00,Read,ACK
2.745729937500000,0,0x5D,0x04,Read,ACK
2.745751406250000,0,0x5D,0x03,Read,ACK
2.745772875000000,0,0x5D,0x04,Read,ACK
2.745795343750000,0,0x5D,0x0A,Read,ACK
2.745817125000000,0,0x5D,0xE2,Read,ACK
2.745839000000000,0,0x5D,0x03,Read,ACK
2.745860875000000,0,0x5D,0x03,Read,ACK
2.745882343750000,0,0x5D,0x03,Read,ACK
2.745903812500000,0,0x5D,0x20,Read,ACK
2.745925281250000,0,0x5D,0x13,Read,ACK
2.745946750000000,0,0x5D,0x08,Read,ACK
2.745968281250000,0,0x5D,0x05,Read,ACK
2.745989781250000,0,0x5D,0x0D,Read,ACK
2.746011218750000,0,0x5D,0x04,Read,ACK
2.746032718750000,0,0x5D,0x03,Read,ACK
2.746054187500000,0,0x5D,0x03,Read,ACK
2.746075656250000,0,0x5D,0x20,Read,ACK
2.746097125000000,0,0x5D,0x23,Read,ACK
2.746118593750000,0,0x5D,0x90,Read,ACK
2.746140218750000,0,0x5D,0x07,Read,ACK
2.746161718750000,0,0x5D,0x5D,Read,ACK
2.746183187500000,0,0x5D,0x03,Read,ACK
2.746204656250000,0,0x5D,0x03,Read,ACK
2.746226125000000,0,0x5D,0x03,Read,ACK
2.746247625000000,0,0x5D,0x20,Read,ACK
2.746269250000000,0,0x5D,0x00,Read,ACK
2.746290718750000,0,0x5D,0x00,Read,ACK
2.746312218750000,0,0x5D,0x00,Read,ACK
2.746333687500000,0,0x5D,0x00,Read,ACK
2.746355156250000,0,0x5D,0x00,Read,ACK
2.746376625000000,0,0x5D,0x00,Read,ACK
2.746398093750000,0,0x5D,0x00,Read,ACK
2.746422562500000,0,0x5D,0x00,Read,ACK
2.746445937500000,0,0x5D,0x00,Read,ACK
2.746467437500000,0,0x5D,0x00,Read,ACK
2.746491312500000,0,0x5D,0x00,Read,ACK
2.746512906250000,0,0x5D,0x00,Read,ACK
2.746535218750000,0,0x5D,0x00,Read,ACK
2.746556687500000,0,0x5D,0x00,Read,ACK
2.746578625000000,0,0x5D,0x00,Read,ACK
2.746600062500000,0,0x5D,0x00,Read,ACK
2.746621531250000,0,0x5D,0x20,Read,ACK
2.746643031250000,0,0x5D,0x0B,Read,ACK
2.746664531250000,0,0x5D,0x03,Read,ACK
2.746689468750000,0,0x5D,0x00,Read,ACK
2.746710906250000,0,0x5D,0x00,Read,ACK
2.746732781250000,0,0x5D,0x00,Read,ACK
2.746754250000000,0,0x5D,0x00,Read,ACK
2.746775718750000,0,0x5D,0x00,Read,ACK
2.746797500000000,0,0x5D,0x00,Read,ACK
2.746820375000000,0,0x5D,0x00,Read,ACK
2.746842218750000,0,0x5D,0x00,Read,ACK
2.746863718750000,0,0x5D,0x00,Read,ACK
2.746886312500000,0,0x5D,0x00,Read,ACK
2.746907843750000,0,0x5D,0x00,Read,ACK
2.746929312500000,0,0x5D,0x00,Read,ACK
2.746951031250000,0,0x5D,0x00,Read,ACK
2.746972625000000,0,0x5D,0x00,Read,ACK
2.746994093750000,0,0x5D,0x00,Read,ACK
2.747016187500000,0,0x5D,0x00,Read,ACK
2.747037968750000,0,0x5D,0x00,Read,ACK
2.747060218750000,0,0x5D,0x00,Read,NAK
2.752913000000000,0,0x5D,0x2F,Read,ACK
2.752942718750000,0,0x5D,0x00,Read,ACK
2.752964218750000,0,0x5D,0x04,Read,ACK
2.752985687500000,0,0x5D,0x03,Read,ACK
2.753007468750000,0,0x5D,0x19,Read,ACK
2.753030062500000,0,0x5D,0x0A,Read,ACK
2.753051562500000,0,0x5D,0xDC,Read,ACK
2.753073625000000,0,0x5D,0x03,Read,ACK
2.753095093750000,0,0x5D,0x03,Read,ACK
2.753116593750000,0,0x5D,0x03,Read,ACK
2.753138718750000,0,0x5D,0x20,Read,ACK
2.753162343750000,0,0x5D,0x13,Read,ACK
2.753183843750000,0,0x5D,0x1E,Read,ACK
2.753205281250000,0,0x5D,0x05,Read,ACK
2.753226750000000,0,0x5D,0x03,Read,ACK
2.753248218750000,0,0x5D,0x04,Read,ACK
2.753269687500000,0,0x5D,0x03,Read,ACK
2.753291250000000,0,0x5D,0x03,Read,ACK
2.753312687500000,0,0x5D,0x20,Read,ACK
2.753334468750000,0,0x5D,0x23,Read,ACK
2.753355968750000,0,0x5D,0xA6,Read,ACK
2.753377437500000,0,0x5D,0x07,Read,ACK
2.753398906250000,0,0x5D,0x53,Read,ACK
2.753420375000000,0,0x5D,0x03,Read,ACK
2.753441843750000,0,0x5D,0x03,Read,ACK
2.753463343750000,0,0x5D,0x03,Read,ACK
2.753484781250000,0,0x5D,0x20,Read,ACK
2.753506281250000,0,0x5D,0x00,Read,ACK
2.753527750000000,0,0x5D,0x00,Read,ACK
2.753549187500000,0,0x5D,0x00,Read,ACK
2.753570687500000,0,0x5D,0x00,Read,ACK
2.753595812500000,0,0x5D,0x00,Read,ACK
2.753618687500000,0,0x5D,0x00,Read,ACK
2.753640156250000,0,0x5D,0x00,Read,ACK
2.753663000000000,0,0x5D,0x00,Read,ACK
2.753685218750000,0,0x5D,0x00,Read,ACK
2.753706687500000,0,0x5D,0x00,Read,ACK
2.753728218750000,0,0x5D,0x00,Read,ACK
2.753751593750000,0,0x5D,0x00,Read,ACK
2.753773218750000,0,0x5D,0x00,Read,ACK
2.753796750000000,0,0x5D,0x00,Read,ACK
2.753819031250000,0,0x5D,0x00,Read,ACK
2.753840531250000,0,0x5D,0x00,Read,ACK
2.753862000000000,0,0x5D,0x66,Read,ACK
2.753883437500000,0,0x5D,0x0B,Read,ACK
2.753905000000000,0,0x5D,0x03,Read,ACK
2.753928281250000,0,0x5D,0x00,Read,ACK
2.753951875000000,0,0x5D,0x00,Read,ACK
2.753976250000000,0,0x5D,0x00,Read,ACK
2.753997937500000,0,0x5D,0x00,Read,ACK
2.754019375000000,0,0x5D,0x00,Read,ACK
2.754041281250000,0,0x5D,0x00,Read,ACK
2.754063812500000,0,0x5D,0x00,Read,ACK
2.754085312500000,0,0x5D,0x00,Read,ACK
2.754106750000000,0,0x5D,0x00,Read,ACK
2.754128218750000,0,0x5D,0x00,Read,ACK
2.754149687500000,0,0x5D,0x00,Read,ACK
2.754172312500000,0,0x5D,0x00,Read,ACK
2.754194062500000,0,0x5D,0x00,Read,ACK
2.754216906250000,0,0x5D,0x00,Read,ACK
2.754238406250000,0,0x5D,0x00,Read,ACK
2.754260312500000,0,0x5D,0x00,Read,ACK
2.754281781250000,0,0x5D,0x00,Read,ACK
2.754303250000000,0,0x5D,0x00,Read,NAK
2.760036781250000,0,0x5D,0x2F,Read,ACK
2.760066125000000,0,0x5D,0x00,Read,ACK
2.760087593750000,0,0x5D,0x04,Read,ACK
2.760109062500000,0,0x5D,0x03,Read,ACK
2.760130593750000,0,0x5D,0x2F,Read,ACK
2.760152125000000,0,0x5D,0x0A,Read,ACK
2.760173656250000,0,0x5D,0xD8,Read,ACK
2.760195343750000,0,0x5D,0x03,Read,ACK
2.760218156250000,0,0x5D,0x02,Read,ACK
2.760239687500000,0,0x5D,0x03,Read,ACK
2.760261187500000,0,0x5D,0x20,Read,ACK
2.760282625000000,0,0x5D,0x13,Read,ACK
2.760305218750000,0,0x5D,0x35,Read,ACK
2.760327562500000,0,0x5D,0x05,Read,ACK
2.760349062500000,0,0x5D,0xFA,Read,ACK
2.760370531250000,0,0x5D,0x03,Read,ACK
2.760392000000000,0,0x5D,0x03,Read,ACK
2.760413468750000,0,0x5D,0x03,Read,ACK
2.760434937500000,0,0x5D,0x20,Read,ACK
2.760456437500000,0,0x5D,0x23,Read,ACK
2.760477875000000,0,0x5D,0xBC,Read,ACK
2.760499343750000,0,0x5D,0x07,Read,ACK
2.760521000000000,0,0x5D,0x4C,Read,ACK
2.760542500000000,0,0x5D,0x03,Read,ACK
2.760563937500000,0,0x5D,0x03,Read,ACK
2.760585562500000,0,0x5D,0x03,Read,ACK
2.760607000000000,0,0x5D,0x20,Read,ACK
2.760628500000000,0,0x5D,0x00,Read,ACK
2.760649968750000,0,0x5D,0x00,Read,ACK
2.760671437500000,0,0x5D,0x00,Read,ACK
2.760693000000000,0,0x5D,0x00,Read,ACK
2.760714500000000,0,0x5D,0x00,Read,ACK
2.760737562500000,0,0x5D,0x00,Read,ACK
2.760762625000000,0,0x5D,0x00,Read,ACK
2.760784093750000,0,0x5D,0x00,Read,ACK
2.760807687500000,0,0x5D,0x00,Read,ACK
2.760829437500000,0,0x5D,0x00,Read,ACK
2.760850937500000,0,0x5D,0x00,Read,ACK
2.760872406250000,0,0x5D,0x00,Read,ACK
2.760893875000000,0,0x5D,0x00,Read,ACK
2.760915375000000,0,0x5D,0x00,Read,ACK
2.760937968750000,0,0x5D,0x00,Read,ACK
2.760959593750000,0,0x5D,0x00,Read,ACK
2.760981375000000,0,0x5D,0xAC,Read,ACK
2.761004250000000,0,0x5D,0x0B,Read,ACK
2.761027437500000,0,0x5D,0x03,Read,ACK
2.761048937500000,0,0x5D,0x00,Read,ACK
2.761070406250000,0,0x5D,0x00,Read,ACK
2.761091875000000,0,0x5D,0x00,Read,ACK
2.761113343750000,0,0x5D,0x00,Read,ACK
2.761135406250000,0,0x5D,0x00,Read,ACK
2.761156843750000,0,0x5D,0x00,Read,ACK
2.761178562500000,0,0x5D,0x00,Read,ACK
2.761200062500000,0,0x5D,0x00,Read,ACK
2.761221656250000,0,0x5D,0x00,Read,ACK
2.761243156250000,0,0x5D,0x00,Read,ACK
2.761265000000000,0,0x5D,0x00,Read,ACK
2.761286468750000,0,0x5D,0x00,Read,ACK
2.761307937500000,0,0x5D,0x00,Read,ACK
2.761329437500000,0,0x5D,0x00,Read,ACK
2.761351000000000,0,0x5D,0x00,Read,ACK
2.761372500000000,0,0x5D,0x00,Read,ACK
2.761393968750000,0,0x5D,0x00,Read,ACK
2.761417531250000,0,0x5D,0x00,Read,NAK
2.767094218750000,0,0x5D,0x2F,Read,ACK
2.767121343750000,0,0x5D,0x00,Read,ACK
2.767142812500000,0,0x5D,0x04,Read,ACK
2.767164750000000,0,0x5D,0x03,Read,ACK
2.767186250000000,0,0x5D,0x45,Read,ACK
2.767207718750000,0,0x5D,0x0A,Read,ACK
2.767229187500000,0,0x5D,0xD6,Read,ACK
2.767251093750000,0,0x5D,0x03,Read,ACK
2.767272968750000,0,0x5D,0x03,Read,ACK
2.767294750000000,0,0x5D,0x03,Read,ACK
2.767316218750000,0,0x5D,0x20,Read,ACK
2.767337687500000,0,0x5D,0x13,Read,ACK
2.767359156250000,0,0x5D,0x4C,Read,ACK
2.767380625000000,0,0x5D,0x05,Read,ACK
2.767402093750000,0,0x5D,0xF3,Read,ACK
2.767423593750000,0,0x5D,0x03,Read,ACK
2.767445031250000,0,0x5D,0x03,Read,ACK
2.767466500000000,0,0x5D,0x03,Read,ACK
2.767487968750000,0,0x5D,0x20,Read,ACK
2.767509437500000,0,0x5D,0x23,Read,ACK
2.767531093750000,0,0x5D,0xD2,Read,ACK
2.767552593750000,0,0x5D,0x07,Read,ACK
2.767574062500000,0,0x5D,0x46,Read,ACK
2.767595531250000,0,0x5D,0x03,Read,ACK
2.767617000000000,0,0x5D,0x03,Read,ACK
2.767638812500000,0,0x5D,0x03,Read,ACK
2.767660250000000,0,0x5D,0x20,Read,ACK
2.767681718750000,0,0x5D,0x00,Read,ACK
2.767703187500000,0,0x5D,0x00,Read,ACK
2.767724687500000,0,0x5D,0x00,Read,ACK
2.767746156250000,0,0x5D,0x00,Read,ACK
2.767767625000000,0,0x5D,0x00,Read,ACK
2.767789093750000,0,0x5D,0x00,Read,ACK
2.767810906250000,0,0x5D,0x00,Read,ACK
2.767832343750000,0,0x5D,0x00,Read,ACK
2.767853812500000,0,0x5D,0x00,Read,ACK
2.767875281250000,0,0x5D,0x00,Read,ACK
2.767896750000000,0,0x5D,0x00,Read,ACK
2.767920031250000,0,0x5D,0x00,Read,ACK
2.767945375000000,0,0x5D,0x00,Read,ACK
2.767966843750000,0,0x5D,0x00,Read,ACK
2.767988593750000,0,0x5D,0x00,Read,ACK
2.768011593750000,0,0x5D,0x00,Read,ACK
2.768033093750000,0,0x5D,0xF2,Read,ACK
2.768054562500000,0,0x5D,0x0B,Read,ACK
2.768076718750000,0,0x5D,0x03,Read,ACK
2.768098187500000,0,0x5D,0x00,Read,ACK
2.768120750000000,0,0x5D,0x00,Read,ACK
2.768143218750000,0,0x5D,0x00,Read,ACK
2.768164937500000,0,0x5D,0x00,Read,ACK
2.768186468750000,0,0x5D,0x00,Read,ACK
2.768207937500000,0,0x5D,0x00,Read,ACK
2.768230531250000,0,0x5D,0x00,Read,ACK
2.768252187500000,0,0x5D,0x00,Read,ACK
2.768274437500000,0,0x5D,0x00,Read,ACK
2.768295937500000,0,0x5D,0x00,Read,ACK
2.768319968750000,0,0x5D,0x00,Read,ACK
2.768341437500000,0,0x5D,0x00,Read,ACK
2.768363031250000,0,0x5D,0x00,Read,ACK
2.768384500000000,0,0x5D,0x00,Read,ACK
2.768405968750000,0,0x5D,0x00,Read,ACK
2.768427562500000,0,0x5D,0x00,Read,ACK
2.768449062500000,0,0x5D,0x00,Read,ACK
2.768470531250000,0,0x5D,0x00,Read,NAK
2.774304343750000,0,0x5D,0x2F,Read,ACK
2.774334281250000,0,0x5D,0x00,Read,ACK
2.774355781250000,0,0x5D,0x04,Read,ACK
2.774377281250000,0,0x5D,0x03,Read,ACK
2.774398781250000,0,0x5D,0x5C,Read,ACK
2.774420406250000,0,0x5D,0x0A,Read,ACK
2.774442031250000,0,0x5D,0xD5,Read,ACK
2.774463625000000,0,0x5D,0x03,Read,ACK
2.774485343750000,0,0x5D,0x03,Read,ACK
2.774506812500000,0,0x5D,0x03,Read,ACK
2.774528312500000,0,0x5D,0x20,Read,ACK
2.774549875000000,0,0x5D,0x13,Read,ACK
2.774571375000000,0,0x5D,0x65,Read,ACK
2.774592812500000,0,0x5D,0x05,Read,ACK
2.774614312500000,0,0x5D,0xED,Read,ACK
2.774635750000000,0,0x5D,0x03,Read,ACK
2.774657312500000,0,0x5D,0x03,Read,ACK
2.774678781250000,0,0x5D,0x03,Read,ACK
2.774700218750000,0,0x5D,0x20,Read,ACK
2.774721718750000,0,0x5D,0x23,Read,ACK
2.774743187500000,0,0x5D,0xE7,Read,ACK
2.774764687500000,0,0x5D,0x07,Read,ACK
2.774786187500000,0,0x5D,0x42,Read,ACK
2.774807656250000,0,0x5D,0x03,Read,ACK
2.774829125000000,0,0x5D,0x03,Read,ACK
2.774850593750000,0,0x5D,0x03,Read,ACK
2.774872062500000,0,0x5D,0x20,Read,ACK
2.774893531250000,0,0x5D,0x00,Read,ACK
2.774915000000000,0,0x5D,0x00,Read,ACK
2.774936500000000,0,0x5D,0x00,Read,ACK
2.774957937500000,0,0x5D,0x00,Read,ACK
2.774979437500000,0,0x5D,0x00,Read,ACK
2.775003343750000,0,0x5D,0x00,Read,ACK
2.775026093750000,0,0x5D,0x00,Read,ACK
2.775047562500000,0,0x5D,0x00,Read,ACK
2.775069093750000,0,0x5D,0x00,Read,ACK
2.775090593750000,0,0x5D,0x00,Read,ACK
2.775112125000000,0,0x5D,0x00,Read,ACK
2.775134156250000,0,0x5D,0x00,Read,ACK
2.775155625000000,0,0x5D,0x00,Read,ACK
2.775177093750000,0,0x5D,0x00,Read,ACK
2.775198562500000,0,0x5D,0x00,Read,ACK
2.775220468750000,0,0x5D,0x00,Read,ACK
2.775242281250000,0,0x5D,0x38,Read,ACK
2.775266156250000,0,0x5D,0x0C,Read,ACK
2.775288375000000,0,0x5D,0x03,Read,ACK
2.775309843750000,0,0x5D,0x00,Read,ACK
2.775333968750000,0,0x5D,0x00,Read,ACK
2.775356750000000,0,0x5D,0x00,Read,ACK
2.775378187500000,0,0x5D,0x00,Read,ACK
2.775399687500000,0,0x5D,0x00,Read,ACK
2.775423000000000,0,0x5D,0x00,Read,ACK
2.775445312500000,0,0x5D,0x00,Read,ACK
2.775467812500000,0,0x5D,0x00,Read,ACK
2.775489281250000,0,0x5D,0x00,Read,ACK
2.775510750000000,0,0x5D,0x00,Read,ACK
2.775532875000000,0,0x5D,0x00,Read,ACK
2.775554312500000,0,0x5D,0x00,Read,ACK
2.775576812500000,0,0x5D,0x00,Read,ACK
2.775598343750000,0,0x5D,0x00,Read,ACK
2.775621093750000,0,0x5D,0x00,Read,ACK
2.775642562500000,0,0x5D,0x00,Read,ACK
2.775668437500000,0,0x5D,0x00,Read,ACK
2.775690125000000,0,0x5D,0x00,Read,NAK
2.781421312500000,0,0x5D,0x2F,Read,ACK
2.781449187500000,0,0x5D,0x00,Read,ACK
2.781470781250000,0,0x5D,0x04,Read,ACK
2.781492812500000,0,0x5D,0x03,Read,ACK
2.781514281250000,0,0x5D,0x73,Read,ACK
2.781536562500000,0,0x5D,0x0A,Read,ACK
2.781558062500000,0,0x5D,0xD6,Read,ACK
2.781579625000000,0,0x5D,0x03,Read,ACK
2.781601125000000,0,0x5D,0x03,Read,ACK
2.781622593750000,0,0x5D,0x03,Read,ACK
2.781644062500000,0,0x5D,0x20,Read,ACK
2.781665531250000,0,0x5D,0x13,Read,ACK
2.781687031250000,0,0x5D,0x7D,Read,ACK
2.781708468750000,0,0x5D,0x05,Read,ACK
2.781729937500000,0,0x5D,0xE9,Read,ACK
2.781751406250000,0,0x5D,0x03,Read,ACK
2.781773312500000,0,0x5D,0x03,Read,ACK
2.781794812500000,0,0x5D,0x03,Read,ACK
2.781816281250000,0,0x5D,0x20,Read,ACK
2.781837843750000,0,0x5D,0x23,Read,ACK
2.781859343750000,0,0x5D,0xFC,Read,ACK
2.781880812500000,0,0x5D,0x07,Read,ACK
2.781902531250000,0,0x5D,0x40,Read,ACK
2.781924093750000,0,0x5D,0x03,Read,ACK
2.781945593750000,0,0x5D,0x03,Read,ACK
2.781967062500000,0,0x5D,0x03,Read,ACK
2.781988531250000,0,0x5D,0x20,Read,ACK
2.782010000000000,0,0x5D,0x00,Read,ACK
2.782031468750000,0,0x5D,0x00,Read,ACK
2.782052937500000,0,0x5D,0x00,Read,ACK
2.782074437500000,0,0x5D,0x00,Read,ACK
2.782095875000000,0,0x5D,0x00,Read,ACK
2.782117781250000,0,0x5D,0x00,Read,ACK
2.782139250000000,0,0x5D,0x00,Read,ACK
2.782161093750000,0,0x5D,0x00,Read,ACK
2.782182562500000,0,0x5D,0x00,Read,ACK
2.782207187500000,0,0x5D,0x00,Read,ACK
2.782228812500000,0,0x5D,0x00,Read,ACK
2.782250281250000,0,0x5D,0x00,Read,ACK
2.782272000000000,0,0x5D,0x00,Read,ACK
2.782293468750000,0,0x5D,0x00,Read,ACK
2.782314968750000,0,0x5D,0x00,Read,ACK
2.782336406250000,0,0x5D,0x00,Read,ACK
2.782357906250000,0,0x5D,0x7E,Read,ACK
2.782381000000000,0,0x5D,0x0C,Read,ACK
2.782402531250000,0,0x5D,0x03,Read,ACK
2.782424437500000,0,0x5D,0x00,Read,ACK
2.782446000000000,0,0x5D,0x00,Read,ACK
2.782467687500000,0,0x5D,0x00,Read,ACK
2.782489125000000,0,0x5D,0x00,Read,ACK
2.782510593750000,0,0x5D,0x00,Read,ACK
2.782533406250000,0,0x5D,0x00,Read,ACK
2.782555343750000,0,0x5D,0x00,Read,ACK
2.782576812500000,0,0x5D,0x00,Read,ACK
2.782598281250000,0,0x5D,0x00,Read,ACK
2.782620093750000,0,0x5D,0x00,Read,ACK
2.782641531250000,0,0x5D,0x00,Read,ACK
2.782663156250000,0,0x5D,0x00,Read,ACK
2.782684593750000,0,0x5D,0x00,Read,ACK
2.782706062500000,0,0x5D,0x00,Read,ACK
2.782728250000000,0,0x5D,0x00,Read,ACK
2.782749718750000,0,0x5D,0x00,Read,ACK
2.782771187500000,0,0x5D,0x00,Read,ACK
2.782793375000000,0,0x5D,0x00,Read,NAK
2.789113250000000,0,0x5D,0x2F,Read,ACK
2.789135906250000,0,0x5D,0x00,Read,ACK
2.789157375000000,0,0x5D,0x04,Read,ACK
2.789178843750000,0,0x5D,0x03,Read,ACK
2.789203687500000,0,0x5D,0x8A,Read,ACK
2.789226156250000,0,0x5D,0x0A,Read,ACK
2.789248562500000,0,0x5D,0xD8,Read,ACK
2.789270468750000,0,0x5D,0x03,Read,ACK
2.789292156250000,0,0x5D,0x03,Read,ACK
2.789313656250000,0,0x5D,0x03,Read,ACK
2.789335156250000,0,0x5D,0x20,Read,ACK
2.789356625000000,0,0x5D,0x13,Read,ACK
2.789378062500000,0,0x5D,0x95,Read,ACK
2.789399937500000,0,0x5D,0x05,Read,ACK
2.789421718750000,0,0x5D,0xE7,Read,ACK
2.789443531250000,0,0x5D,0x03,Read,ACK
2.789465000000000,0,0x5D,0x03,Read,ACK
2.789486468750000,0,0x5D,0x03,Read,ACK
2.789507937500000,0,0x5D,0x20,Read,ACK
2.789529406250000,0,0x5D,0x23,Read,ACK
2.789550875000000,0,0x5D,0x10,Read,ACK
2.789572625000000,0,0x5D,0x08,Read,ACK
2.789594875000000,0,0x5D,0x3F,Read,ACK
2.789618875000000,0,0x5D,0x03,Read,ACK
2.789640312500000,0,0x5D,0x03,Read,ACK
2.789661812500000,0,0x5D,0x03,Read,ACK
2.789684375000000,0,0x5D,0x20,Read,ACK
2.789705906250000,0,0x5D,0x00,Read,ACK
2.789727750000000,0,0x5D,0x00,Read,ACK
2.789749531250000,0,0x5D,0x00,Read,ACK
2.789771031250000,0,0x5D,0x00,Read,ACK
2.789792500000000,0,0x5D,0x00,Read,ACK
2.789813968750000,0,0x5D,0x00,Read,ACK
2.789835437500000,0,0x5D,0x00,Read,ACK
2.789856906250000,0,0x5D,0x00,Read,ACK
2.789878375000000,0,0x5D,0x00,Read,ACK
2.789903656250000,0,0x5D,0x00,Read,ACK
2.789927125000000,0,0x5D,0x00,Read,ACK
2.789948937500000,0,0x5D,0x00,Read,ACK
2.789970437500000,0,0x5D,0x00,Read,ACK
2.789996812500000,0,0x5D,0x00,Read,ACK
2.790018937500000,0,0x5D,0x00,Read,ACK
2.790040406250000,0,0x5D,0x00,Read,ACK
2.790061906250000,0,0x5D,0xC4,Read,ACK
2.790083406250000,0,0x5D,0x0C,Read,ACK
2.790104937500000,0,0x5D,0x03,Read,ACK
2.790126437500000,0,0x5D,0x00,Read,ACK
2.790147875000000,0,0x5D,0x00,Read,ACK
2.790169343750000,0,0x5D,0x00,Read,ACK
2.790190843750000,0,0x5D,0x00,Read,ACK
2.790212562500000,0,0x5D,0x00,Read,ACK
2.790234406250000,0,0x5D,0x00,Read,ACK
2.790255875000000,0,0x5D,0x00,Read,ACK
2.790277625000000,0,0x5D,0x00,Read,ACK
2.790299062500000,0,0x5D,0x00,Read,ACK
2.790320531250000,0,0x5D,0x00,Read,ACK
2.790342000000000,0,0x5D,0x00,Read,ACK
2.790363468750000,0,0x5D,0x00,Read,ACK
2.790384937500000,0,0x5D,0x00,Read,ACK
2.790407000000000,0,0x5D,0x00,Read,ACK
2.790428437500000,0,0x5D,0x00,Read,ACK
2.790449906250000,0,0x5D,0x00,Read,ACK
2.790471437500000,0,0x5D,0x00,Read,ACK
2.790492906250000,0,0x5D,0x00,Read,NAK
2.796168062500000,0,0x5D,0x2F,Read,ACK
2.796195875000000,0,0x5D,0x00,Read,ACK
2.796217375000000,0,0x5D,0x04,Read,ACK
2.796238812500000,0,0x5D,0x03,Read,ACK
2.796260281250000,0,0x5D,0xA0,Read,ACK
2.796281781250000,0,0x5D,0x0A,Read,ACK
2.796303250000000,0,0x5D,0xDD,Read,ACK
2.796324718750000,0,0x5D,0x03,Read,ACK
2.796346187500000,0,0x5D,0x03,Read,ACK
2.796367687500000,0,0x5D,0x03,Read,ACK
2.796389125000000,0,0x5D,0x20,Read,ACK
2.796410625000000,0,0x5D,0x13,Read,ACK
2.796435875000000,0,0x5D,0xAC,Read,ACK
2.796458531250000,0,0x5D,0x05,Read,ACK
2.796480000000000,0,0x5D,0xE6,Read,ACK
2.796503125000000,0,0x5D,0x03,Read,ACK
2.796525093750000,0,0x5D,0x03,Read,ACK
2.796546562500000,0,0x5D,0x03,Read,ACK
2.796568031250000,0,0x5D,0x20,Read,ACK
2.796589687500000,0,0x5D,0x23,Read,ACK
2.796611156250000,0,0x5D,0x25,Read,ACK
2.796632875000000,0,0x5D,0x08,Read,ACK
2.796654343750000,0,0x5D,0x3F,Read,ACK
2.796676187500000,0,0x5D,0x03,Read,ACK
2.796697718750000,0,0x5D,0x03,Read,ACK
2.796719625000000,0,0x5D,0x03,Read,ACK
2.796741125000000,0,0x5D,0x20,Read,ACK
2.796762593750000,0,0x5D,0x00,Read,ACK
2.796784250000000,0,0x5D,0x00,Read,ACK
2.796805718750000,0,0x5D,0x00,Read,ACK
2.796827187500000,0,0x5D,0x00,Read,ACK
2.796849093750000,0,0x5D,0x00,Read,ACK
2.796870593750000,0,0x5D,0x00,Read,ACK
2.796893062500000,0,0x5D,0x00,Read,ACK
2.796914531250000,0,0x5D,0x00,Read,ACK
2.796937218750000,0,0x5D,0x00,Read,ACK
2.796958687500000,0,0x5D,0x00,Read,ACK
2.796980187500000,0,0x5D,0x00,Read,ACK
2.797002625000000,0,0x5D,0x00,Read,ACK
2.797024125000000,0,0x5D,0x00,Read,ACK
2.797045593750000,0,0x5D,0x00,Read,ACK
2.797067250000000,0,0x5D,0x00,Read,ACK
2.797088718750000,0,0x5D,0x00,Read,ACK
2.797110187500000,0,0x5D,0x0A,Read,ACK
2.797132468750000,0,0x5D,0x0D,Read,ACK
2.797154687500000,0,0x5D,0x03,Read,ACK
2.797176593750000,0,0x5D,0x00,Read,ACK
2.797198500000000,0,0x5D,0x00,Read,ACK
2.797219937500000,0,0x5D,0x00,Read,ACK
2.797241562500000,0,0x5D,0x00,Read,ACK
2.797263093750000,0,0x5D,0x00,Read,ACK
2.797284968750000,0,0x5D,0x00,Read,ACK
2.797306437500000,0,0x5D,0x00,Read,ACK
2.797328031250000,0,0x5D,0x00,Read,ACK
2.797349500000000,0,0x5D,0x00,Read,ACK
2.797370968750000,0,0x5D,0x00,Read,ACK
2.797392531250000,0,0x5D,0x00,Read,ACK
2.797415218750000,0,0x5D,0x00,Read,ACK
2.797436718750000,0,0x5D,0x00,Read,ACK
2.797458187500000,0,0x5D,0x00,Read,ACK
2.797479687500000,0,0x5D,0x00,Read,ACK
2.797505656250000,0,0x5D,0x00,Read,ACK
2.797527156250000,0,0x5D,0x00,Read,ACK
2.797549937500000,0,0x5D,0x00,Read,NAK
2.802890531250000,0,0x5D,0x2F,Read,ACK
2.802918593750000,0,0x5D,0x00,Read,ACK
2.802940031250000,0,0x5D,0x04,Read,ACK
2.802961500000000,0,0x5D,0x03,Read,ACK
2.802982968750000,0,0x5D,0xB6,Read,ACK
2.803004468750000,0,0x5D,0x0A,Read,ACK
2.803025937500000,0,0x5D,0xE4,Read,ACK
2.803047406250000,0,0x5D,0x03,Read,ACK
2.803068875000000,0,0x5D,0x02,Read,ACK
2.803090343750000,0,0x5D,0x03,Read,ACK
2.803113968750000,0,0x5D,0x20,Read,ACK
2.803137343750000,0,0x5D,0x13,Read,ACK
2.803158812500000,0,0x5D,0xC2,Read,ACK
2.803180281250000,0,0x5D,0x05,Read,ACK
2.803201750000000,0,0x5D,0xE8,Read,ACK
2.803223218750000,0,0x5D,0x03,Read,ACK
2.803244875000000,0,0x5D,0x03,Read,ACK
2.803266343750000,0,0x5D,0x03,Read,ACK
2.803287843750000,0,0x5D,0x20,Read,ACK
2.803309281250000,0,0x5D,0x23,Read,ACK
2.803330750000000,0,0x5D,0x39,Read,ACK
2.803352218750000,0,0x5D,0x08,Read,ACK
2.803373718750000,0,0x5D,0x42,Read,ACK
2.803395187500000,0,0x5D,0x03,Read,ACK
2.803416656250000,0,0x5D,0x02,Read,ACK
2.803438125000000,0,0x5D,0x03,Read,ACK
2.803459593750000,0,0x5D,0x20,Read,ACK
2.803481093750000,0,0x5D,0x00,Read,ACK
2.803502718750000,0,0x5D,0x00,Read,ACK
2.803524187500000,0,0x5D,0x00,Read,ACK
2.803545656250000,0,0x5D,0x00,Read,ACK
2.803570531250000,0,0x5D,0x00,Read,ACK
2.803592031250000,0,0x5D,0x00,Read,ACK
2.803614968750000,0,0x5D,0x00,Read,ACK
2.803637187500000,0,0x5D,0x00,Read,ACK
2.803659187500000,0,0x5D,0x00,Read,ACK
2.803680656250000,0,0x5D,0x00,Read,ACK
2.803702125000000,0,0x5D,0x00,Read,ACK
2.803723593750000,0,0x5D,0x00,Read,ACK
2.803745968750000,0,0x5D,0x00,Read,ACK
2.803768281250000,0,0x5D,0x00,Read,ACK
2.803789750000000,0,0x5D,0x00,Read,ACK
2.803811218750000,0,0x5D,0x00,Read,ACK
2.803832718750000,0,0x5D,0x50,Read,ACK
2.803854218750000,0,0x5D,0x0D,Read,ACK
2.803875687500000,0,0x5D,0x03,Read,ACK
2.803897156250000,0,0x5D,0x00,Read,ACK
2.803918937500000,0,0x5D,0x00,Read,ACK
2.803941687500000,0,0x5D,0x00,Read,ACK
2.803963937500000,0,0x5D,0x00,Read,ACK
2.803985656250000,0,0x5D,0x00,Read,ACK
2.804007125000000,0,0x5D,0x00,Read,ACK
2.804028718750000,0,0x5D,0x00,Read,ACK
2.804051218750000,0,0x5D,0x00,Read,ACK
2.804072656250000,0,0x5D,0x00,Read,ACK
2.804094468750000,0,0x5D,0x00,Read,ACK
2.804115968750000,0,0x5D,0x00,Read,ACK
2.804137437500000,0,0x5D,0x00,Read,ACK
2.804160093750000,0,0x5D,0x00,Read,ACK
2.804181906250000,0,0x5D,0x00,Read,ACK
2.804203343750000,0,0x5D,0x00,Read,ACK
2.804226093750000,0,0x5D,0x00,Read,ACK
2.804248281250000,0,0x5D,0x00,Read,ACK
2.804270375000000,0,0x5D,0x00,Read,NAK
2.810022375000000,0,0x5D,0x2F,Read,ACK
2.810051375000000,0,0x5D,0x00,Read,ACK
2.810072968750000,0,0x5D,0x04,Read,ACK
2.810094406250000,0,0x5D,0x03,Read,ACK
2.810115906250000,0,0x5D,0xCC,Read,ACK
2.810137375000000,0,0x5D,0x0A,Read,ACK
2.810158843750000,0,0x5D,0xED,Read,ACK
2.810182250000000,0,0x5D,0x03,Read,ACK
2.810203718750000,0,0x5D,0x02,Read,ACK
2.810225218750000,0,0x5D,0x03,Read,ACK
2.810246656250000,0,0x5D,0x20,Read,ACK
2.810268125000000,0,0x5D,0x13,Read,ACK
2.810291218750000,0,0x5D,0xD9,Read,ACK
2.810312687500000,0,0x5D,0x05,Read,ACK
2.810334156250000,0,0x5D,0xEB,Read,ACK
2.810355625000000,0,0x5D,0x03,Read,ACK
2.810377093750000,0,0x5D,0x03,Read,ACK
2.810398562500000,0,0x5D,0x03,Read,ACK
2.810420031250000,0,0x5D,0x20,Read,ACK
2.810441531250000,0,0x5D,0x23,Read,ACK
2.810462968750000,0,0x5D,0x4E,Read,ACK
2.810484437500000,0,0x5D,0x08,Read,ACK
2.810505937500000,0,0x5D,0x46,Read,ACK
2.810527406250000,0,0x5D,0x03,Read,ACK
2.810548875000000,0,0x5D,0x02,Read,ACK
2.810570343750000,0,0x5D,0x02,Read,ACK
2.810592062500000,0,0x5D,0x20,Read,ACK
2.810613531250000,0,0x5D,0x00,Read,ACK
2.810635000000000,0,0x5D,0x00,Read,ACK
2.810656468750000,0,0x5D,0x00,Read,ACK
2.810677937500000,0,0x5D,0x00,Read,ACK
2.810699406250000,0,0x5D,0x00,Read,ACK
2.810720875000000,0,0x5D,0x00,Read,ACK
2.810746125000000,0,0x5D,0x00,Read,ACK
2.810769718750000,0,0x5D,0x00,Read,ACK
2.810791156250000,0,0x5D,0x00,Read,ACK
2.810816750000000,0,0x5D,0x00,Read,ACK
2.810838687500000,0,0x5D,0x00,Read,ACK
2.810862625000000,0,0x5D,0x00,Read,ACK
2.810884125000000,0,0x5D,0x00,Read,ACK
2.810905562500000,0,0x5D,0x00,Read,ACK
2.810928875000000,0,0x5D,0x00,Read,ACK
2.810950687500000,0,0x5D,0x00,Read,ACK
2.810972156250000,0,0x5D,0x96,Read,ACK
2.810994593750000,0,0x5D,0x0D,Read,ACK
2.811017062500000,0,0x5D,0x03,Read,ACK
2.811038500000000,0,0x5D,0x00,Read,ACK
2.811060000000000,0,0x5D,0x00,Read,ACK
2.811082593750000,0,0x5D,0x00,Read,ACK
2.811104093750000,0,0x5D,0x00,Read,ACK
2.811125593750000,0,0x5D,0x00,Read,ACK
2.811147031250000,0,0x5D,0x00,Read,ACK
2.811168500000000,0,0x5D,0x00,Read,ACK
2.811190031250000,0,0x5D,0x00,Read,ACK
2.811211718750000,0,0x5D,0x00,Read,ACK
2.811233281250000,0,0x5D,0x00,Read,ACK
2.811254781250000,0,0x5D,0x00,Read,ACK
2.811276218750000,0,0x5D,0x00,Read,ACK
2.811297718750000,0,0x5D,0x00,Read,ACK
2.811319156250000,0,0x5D,0x00,Read,ACK
2.811340968750000,0,0x5D,0x00,Read,ACK
2.811362437500000,0,0x5D,0x00,Read,ACK
2.811383906250000,0,0x5D,0x00,Read,ACK
2.811405875000000,0,0x5D,0x00,Read,NAK
2.817093156250000,0,0x5D,0x2F,Read,ACK
2.817118250000000,0,0x5D,0x00,Read,ACK
2.817139718750000,0,0x5D,0x04,Read,ACK
2.817161187500000,0,0x5D,0x03,Read,ACK
2.817182656250000,0,0x5D,0xE2,Read,ACK
2.817204125000000,0,0x5D,0x0A,Read,ACK
2.817225593750000,0,0x5D,0xF8,Read,ACK
2.817247062500000,0,0x5D,0x03,Read,ACK
2.817268593750000,0,0x5D,0x03,Read,ACK
2.817290687500000,0,0x5D,0x03,Read,ACK
2.817312281250000,0,0x5D,0x20,Read,ACK
2.817333781250000,0,0x5D,0x13,Read,ACK
2.817355250000000,0,0x5D,0xEE,Read,ACK
2.817376718750000,0,0x5D,0x05,Read,ACK
2.817398187500000,0,0x5D,0xF0,Read,ACK
2.817420937500000,0,0x5D,0x03,Read,ACK
2.817443343750000,0,0x5D,0x03,Read,ACK
2.817464843750000,0,0x5D,0x03,Read,ACK
2.817486562500000,0,0x5D,0x20,Read,ACK
2.817508031250000,0,0x5D,0x23,Read,ACK
2.817529500000000,0,0x5D,0x63,Read,ACK
2.817550968750000,0,0x5D,0x08,Read,ACK
2.817572437500000,0,0x5D,0x4B,Read,ACK
2.817593937500000,0,0x5D,0x03,Read,ACK
2.817615406250000,0,0x5D,0x03,Read,ACK
2.817637062500000,0,0x5D,0x02,Read,ACK
2.817658593750000,0,0x5D,0x20,Read,ACK
2.817680062500000,0,0x5D,0x00,Read,ACK
2.817701531250000,0,0x5D,0x00,Read,ACK
2.817723000000000,0,0x5D,0x00,Read,ACK
2.817744468750000,0,0x5D,0x00,Read,ACK
2.817765937500000,0,0x5D,0x00,Read,ACK
2.817787406250000,0,0x5D,0x00,Read,ACK
2.817808875000000,0,0x5D,0x00,Read,ACK
2.817830343750000,0,0x5D,0x00,Read,ACK
2.817851843750000,0,0x5D,0x00,Read,ACK
2.817874187500000,0,0x5D,0x00,Read,ACK
2.817897750000000,0,0x5D,0x00,Read,ACK
2.817922156250000,0,0x5D,0x00,Read,ACK
2.817943812500000,0,0x5D,0x00,Read,ACK
2.817966843750000,0,0x5D,0x00,Read,ACK
2.817988343750000,0,0x5D,0x00,Read,ACK
2.818009843750000,0,0x5D,0x00,Read,ACK
2.818031312500000,0,0x5D,0xDC,Read,ACK
2.818052812500000,0,0x5D,0x0D,Read,ACK
2.818074531250000,0,0x5D,0x03,Read,ACK
2.818096000000000,0,0x5D,0x00,Read,ACK
2.818117437500000,0,0x5D,0x00,Read,ACK
2.818140250000000,0,0x5D,0x00,Read,ACK
2.818161687500000,0,0x5D,0x00,Read,ACK
2.818183218750000,0,0x5D,0x00,Read,ACK
2.818204687500000,0,0x5D,0x00,Read,ACK
2.818226312500000,0,0x5D,0x00,Read,ACK
2.818248093750000,0,0x5D,0x00,Read,ACK
2.818269562500000,0,0x5D,0x00,Read,ACK
2.818292937500000,0,0x5D,0x00,Read,ACK
2.818314406250000,0,0x5D,0x00,Read,ACK
2.818336718750000,0,0x5D,0x00,Read,ACK
2.818358187500000,0,0x5D,0x00,Read,ACK
2.818379656250000,0,0x5D,0x00,Read,ACK
2.818401281250000,0,0x5D,0x00,Read,ACK
2.818422781250000,0,0x5D,0x00,Read,ACK
2.818444250000000,0,0x5D,0x00,Read,ACK
2.818465968750000,0,0x5D,0x00,Read,NAK
2.824348375000000,0,0x5D,0x2F,Read,ACK
2.824375062500000,0,0x5D,0x00,Read,ACK
2.824396562500000,0,0x5D,0x04,Read,ACK
2.824418031250000,0,0x5D,0x03,Read,ACK
2.824440406250000,0,0x5D,0xF7,Read,ACK
2.824461906250000,0,0x5D,0x0A,Read,ACK
2.824483375000000,0,0x5D,0x03,Read,ACK
2.824505937500000,0,0x5D,0x04,Read,ACK
2.824527437500000,0,0x5D,0x03,Read,ACK
2.824548906250000,0,0x5D,0x03,Read,ACK
2.824570468750000,0,0x5D,0x20,Read,ACK
2.824591906250000,0,0x5D,0x13,Read,ACK
2.824613375000000,0,0x5D,0x02,Read,ACK
2.824634875000000,0,0x5D,0x06,Read,ACK
2.824656343750000,0,0x5D,0xF6,Read,ACK
2.824677812500000,0,0x5D,0x03,Read,ACK
2.824699281250000,0,0x5D,0x03,Read,ACK
2.824720750000000,0,0x5D,0x03,Read,ACK
2.824742968750000,0,0x5D,0x20,Read,ACK
2.824764437500000,0,0x5D,0x23,Read,ACK
2.824786000000000,0,0x5D,0x76,Read,ACK
2.824807437500000,0,0x5D,0x08,Read,ACK
2.824828906250000,0,0x5D,0x52,Read,ACK
2.824850375000000,0,0x5D,0x03,Read,ACK
2.824871875000000,0,0x5D,0x03,Read,ACK
2.824893312500000,0,0x5D,0x02,Read,ACK
2.824914812500000,0,0x5D,0x20,Read,ACK
2.824936281250000,0,0x5D,0x00,Read,ACK
2.824957750000000,0,0x5D,0x00,Read,ACK
2.824979562500000,0,0x5D,0x00,Read,ACK
2.825001062500000,0,0x5D,0x00,Read,ACK
2.825023937500000,0,0x5D,0x00,Read,ACK
2.825045437500000,0,0x5D,0x00,Read,ACK
2.825066906250000,0,0x5D,0x00,Read,ACK
2.825089968750000,0,0x5D,0x00,Read,ACK
2.825111875000000,0,0x5D,0x00,Read,ACK
2.825133375000000,0,0x5D,0x00,Read,ACK
2.825155031250000,0,0x5D,0x00,Read,ACK
2.825178781250000,0,0x5D,0x00,Read,ACK
2.825200437500000,0,0x5D,0x00,Read,ACK
2.825222562500000,0,0x5D,0x00,Read,ACK
2.825244031250000,0,0x5D,0x00,Read,ACK
2.825265531250000,0,0x5D,0x00,Read,ACK
2.825287625000000,0,0x5D,0x22,Read,ACK
2.825309093750000,0,0x5D,0x0E,Read,ACK
2.825330781250000,0,0x5D,0x03,Read,ACK
2.825352312500000,0,0x5D,0x00,Read,ACK
2.825373750000000,0,0x5D,0x00,Read,ACK
2.825395312500000,0,0x5D,0x00,Read,ACK
2.825416750000000,0,0x5D,0x00,Read,ACK
2.825439781250000,0,0x5D,0x00,Read,ACK
2.825461281250000,0,0x5D,0x00,Read,ACK
2.825483468750000,0,0x5D,0x00,Read,ACK
2.825504968750000,0,0x5D,0x00,Read,ACK
2.825526468750000,0,0x5D,0x00,Read,ACK
2.825548406250000,0,0x5D,0x00,Read,ACK
2.825569875000000,0,0x5D,0x00,Read,ACK
2.825591343750000,0,0x5D,0x00,Read,ACK
2.825613656250000,0,0x5D,0x00,Read,ACK
2.825636093750000,0,0x5D,0x00,Read,ACK
2.825657750000000,0,0x5D,0x00,Read,ACK
2.825680093750000,0,0x5D,0x00,Read,ACK
2.825703000000000,0,0x5D,0x00,Read,ACK
2.825725906250000,0,0x5D,0x00,Read,NAK
2.831406968750000,0,0x5D,0x2F,Read,ACK
2.831435250000000,0,0x5D,0x00,Read,ACK
2.831457218750000,0,0x5D,0x04,Read,ACK
2.831478812500000,0,0x5D,0x03,Read,ACK
2.831501375000000,0,0x5D,0x0A,Read,ACK
2.831522843750000,0,0x5D,0x0B,Read,ACK
2.831544312500000,0,0x5D,0x10,Read,ACK
2.831565781250000,0,0x5D,0x04,Read,ACK
2.831587718750000,0,0x5D,0x03,Read,ACK
2.831609218750000,0,0x5D,0x03,Read,ACK
2.831630687500000,0,0x5D,0x20,Read,ACK
2.831652156250000,0,0x5D,0x13,Read,ACK
2.831673625000000,0,0x5D,0x13,Read,ACK
2.831695125000000,0,0x5D,0x06,Read,ACK
2.831716625000000,0,0x5D,0xFD,Read,ACK
2.831738062500000,0,0x5D,0x03,Read,ACK
2.831759531250000,0,0x5D,0x03,Read,ACK
2.831781000000000,0,0x5D,0x03,Read,ACK
2.831802468750000,0,0x5D,0x20,Read,ACK
2.831823937500000,0,0x5D,0x23,Read,ACK
2.831845406250000,0,0x5D,0x87,Read,ACK
2.831866875000000,0,0x5D,0x08,Read,ACK
2.831888343750000,0,0x5D,0x5B,Read,ACK
2.831909843750000,0,0x5D,0x03,Read,ACK
2.831931312500000,0,0x5D,0x03,Read,ACK
2.831952781250000,0,0x5D,0x02,Read,ACK
2.831974281250000,0,0x5D,0x20,Read,ACK
2.831996031250000,0,0x5D,0x00,Read,ACK
2.832017531250000,0,0x5D,0x00,Read,ACK
2.832039031250000,0,0x5D,0x00,Read,ACK
2.832060500000000,0,0x5D,0x00,Read,ACK
2.832082218750000,0,0x5D,0x00,Read,ACK
2.832103718750000,0,0x5D,0x00,Read,ACK
2.832125187500000,0,0x5D,0x00,Read,ACK
2.832146656250000,0,0x5D,0x00,Read,ACK
2.832169218750000,0,0x5D,0x00,Read,ACK
2.832190968750000,0,0x5D,0x00,Read,ACK
2.832214156250000,0,0x5D,0x00,Read,ACK
2.832237312500000,0,0x5D,0x00,Read,ACK
2.832260468750000,0,0x5D,0x00,Read,ACK
2.832282625000000,0,0x5D,0x00,Read,ACK
2.832304375000000,0,0x5D,0x00,Read,ACK
2.832325843750000,0,0x5D,0x00,Read,ACK
2.832347312500000,0,0x5D,0x68,Read,ACK
2.832368781250000,0,0x5D,0x0E,Read,ACK
2.832390968750000,0,0x5D,0x03,Read,ACK
2.832415593750000,0,0x5D,0x00,Read,ACK
2.832437093750000,0,0x5D,0x00,Read,ACK
2.832458562500000,0,0x5D,0x00,Read,ACK
2.832481000000000,0,0x5D,0x00,Read,ACK
2.832502500000000,0,0x5D,0x00,Read,ACK
2.832526968750000,0,0x5D,0x00,Read,ACK
2.832549593750000,0,0x5D,0x00,Read,ACK
2.832571281250000,0,0x5D,0x00,Read,ACK
2.832593000000000,0,0x5D,0x00,Read,ACK
2.832614468750000,0,0x5D,0x00,Read,ACK
2.832637031250000,0,0x5D,0x00,Read,ACK
2.832660156250000,0,0x5D,0x00,Read,ACK
2.832681625000000,0,0x5D,0x00,Read,ACK
2.832704031250000,0,0x5D,0x00,Read,ACK
2.832725531250000,0,0x5D,0x00,Read,ACK
2.832746968750000,0,0x5D,0x00,Read,ACK
2.832769187500000,0,0x5D,0x00,Read,ACK
2.832791093750000,0,0x5D,0x00,Read,NAK
2.839155593750000,0,0x5D,0x2F,Read,ACK
2.839178718750000,0,0x5D,0x00,Read,ACK
2.839200187500000,0,0x5D,0x04,Read,ACK
2.839221656250000,0,0x5D,0x03,Read,ACK
2.839243125000000,0,0x5D,0x1C,Read,ACK
2.839264593750000,0,0x5D,0x0B,Read,ACK
2.839287468750000,0,0x5D,0x1D,Read,ACK
2.839309156250000,0,0x5D,0x04,Read,ACK
2.839330625000000,0,0x5D,0x03,Read,ACK
2.839354093750000,0,0x5D,0x02,Read,ACK
2.839376500000000,0,0x5D,0x20,Read,ACK
2.839398000000000,0,0x5D,0x13,Read,ACK
2.839419468750000,0,0x5D,0x21,Read,ACK
2.839440937500000,0,0x5D,0x06,Read,ACK
2.839463375000000,0,0x5D,0x06,Read,ACK
2.839486531250000,0,0x5D,0x04,Read,ACK
2.839508062500000,0,0x5D,0x03,Read,ACK
2.839530625000000,0,0x5D,0x02,Read,ACK
2.839553093750000,0,0x5D,0x20,Read,ACK
2.839574562500000,0,0x5D,0x23,Read,ACK
2.839596437500000,0,0x5D,0x96,Read,ACK
2.839617906250000,0,0x5D,0x08,Read,ACK
2.839640562500000,0,0x5D,0x64,Read,ACK
2.839662312500000,0,0x5D,0x03,Read,ACK
2.839683812500000,0,0x5D,0x03,Read,ACK
2.839706312500000,0,0x5D,0x03,Read,ACK
2.839728281250000,0,0x5D,0x20,Read,ACK
2.839749781250000,0,0x5D,0x00,Read,ACK
2.839772562500000,0,0x5D,0x00,Read,ACK
2.839794062500000,0,0x5D,0x00,Read,ACK
2.839815718750000,0,0x5D,0x00,Read,ACK
2.839838750000000,0,0x5D,0x00,Read,ACK
2.839861375000000,0,0x5D,0x00,Read,ACK
2.839882875000000,0,0x5D,0x00,Read,ACK
2.839904343750000,0,0x5D,0x00,Read,ACK
2.839926000000000,0,0x5D,0x00,Read,ACK
2.839947781250000,0,0x5D,0x00,Read,ACK
2.839969937500000,0,0x5D,0x00,Read,ACK
2.839994062500000,0,0x5D,0x00,Read,ACK
2.840015531250000,0,0x5D,0x00,Read,ACK
2.840038250000000,0,0x5D,0x00,Read,ACK
2.840060906250000,0,0x5D,0x00,Read,ACK
2.840082375000000,0,0x5D,0x00,Read,ACK
2.840104937500000,0,0x5D,0xAE,Read,ACK
2.840126468750000,0,0x5D,0x0E,Read,ACK
2.840148843750000,0,0x5D,0x03,Read,ACK
2.840170562500000,0,0x5D,0x00,Read,ACK
2.840192062500000,0,0x5D,0x00,Read,ACK
2.840215093750000,0,0x5D,0x00,Read,ACK
2.840240937500000,0,0x5D,0x00,Read,ACK
2.840262406250000,0,0x5D,0x00,Read,ACK
2.840284250000000,0,0x5D,0x00,Read,ACK
2.840305718750000,0,0x5D,0x00,Read,ACK
2.840327187500000,0,0x5D,0x00,Read,ACK
2.840348687500000,0,0x5D,0x00,Read,ACK
2.840370125000000,0,0x5D,0x00,Read,ACK
2.840392250000000,0,0x5D,0x00,Read,ACK
2.840413718750000,0,0x5D,0x00,Read,ACK
2.840435187500000,0,0x5D,0x00,Read,ACK
2.840456656250000,0,0x5D,0x00,Read,ACK
2.840478218750000,0,0x5D,0x00,Read,ACK
2.840499937500000,0,0x5D,0x00,Read,ACK
2.840521468750000,0,0x5D,0x00,Read,ACK
2.840542906250000,0,0x5D,0x00,Read,NAK
2.846164000000000,0,0x5D,0x2F,Read,ACK
2.846189781250000,0,0x5D,0x00,Read,ACK
2.846211250000000,0,0x5D,0x04,Read,ACK
2.846232750000000,0,0x5D,0x03,Read,ACK
2.846254187500000,0,0x5D,0x2A,Read,ACK
2.846275875000000,0,0x5D,0x0B,Read,ACK
2.846297375000000,0,0x5D,0x2B,Read,ACK
2.846318875000000,0,0x5D,0x04,Read,ACK
2.846340343750000,0,0x5D,0x03,Read,ACK
2.846361812500000,0,0x5D,0x02,Read,ACK
2.846383281250000,0,0x5D,0x20,Read,ACK
2.846406218750000,0,0x5D,0x13,Read,ACK
2.846428531250000,0,0x5D,0x2C,Read,ACK
2.846450000000000,0,0x5D,0x06,Read,ACK
2.846472250000000,0,0x5D,0x10,Read,ACK
2.846494250000000,0,0x5D,0x04,Read,ACK
2.846515750000000,0,0x5D,0x03,Read,ACK
2.846537218750000,0,0x5D,0x03,Read,ACK
2.846558687500000,0,0x5D,0x20,Read,ACK
2.846581375000000,0,0x5D,0x23,Read,ACK
2.846603718750000,0,0x5D,0xA2,Read,ACK
2.846625218750000,0,0x5D,0x08,Read,ACK
2.846647312500000,0,0x5D,0x70,Read,ACK
2.846669000000000,0,0x5D,0x03,Read,ACK
2.846690437500000,0,0x5D,0x03,Read,ACK
2.846711906250000,0,0x5D,0x03,Read,ACK
2.846733375000000,0,0x5D,0x20,Read,ACK
2.846758250000000,0,0x5D,0x00,Read,ACK
2.846780906250000,0,0x5D,0x00,Read,ACK
2.846802406250000,0,0x5D,0x00,Read,ACK
2.846824625000000,0,0x5D,0x00,Read,ACK
2.846846125000000,0,0x5D,0x00,Read,ACK
2.846868593750000,0,0x5D,0x00,Read,ACK
2.846891750000000,0,0x5D,0x00,Read,ACK
2.846913218750000,0,0x5D,0x00,Read,ACK
2.846934687500000,0,0x5D,0x00,Read,ACK
2.846956187500000,0,0x5D,0x00,Read,ACK
2.846977687500000,0,0x5D,0x00,Read,ACK
2.846999156250000,0,0x5D,0x00,Read,ACK
2.847021812500000,0,0x5D,0x00,Read,ACK
2.847043281250000,0,0x5D,0x00,Read,ACK
2.847064750000000,0,0x5D,0x00,Read,ACK
2.847089812500000,0,0x5D,0x00,Read,ACK
2.847112468750000,0,0x5D,0xF4,Read,ACK
2.847134250000000,0,0x5D,0x0E,Read,ACK
2.847157531250000,0,0x5D,0x03,Read,ACK
2.847179187500000,0,0x5D,0x00,Read,ACK
2.847200625000000,0,0x5D,0x00,Read,ACK
2.847224937500000,0,0x5D,0x00,Read,ACK
2.847246500000000,0,0x5D,0x00,Read,ACK
2.847268375000000,0,0x5D,0x00,Read,ACK
2.847289875000000,0,0x5D,0x00,Read,ACK
2.847311500000000,0,0x5D,0x00,Read,ACK
2.847332968750000,0,0x5D,0x00,Read,ACK
2.847354406250000,0,0x5D,0x00,Read,ACK
2.847378593750000,0,0x5D,0x00,Read,ACK
2.847401718750000,0,0x5D,0x00,Read,ACK
2.847423218750000,0,0x5D,0x00,Read,ACK
2.847444937500000,0,0x5D,0x00,Read,ACK
2.847466781250000,0,0x5D,0x00,Read,ACK
2.847488250000000,0,0x5D,0x00,Read,ACK
2.847509718750000,0,0x5D,0x00,Read,ACK
2.847531187500000,0,0x5D,0x00,Read,ACK
2.847552656250000,0,0x5D,0x00,Read,NAK
2.852883500000000,0,0x5D,0x2F,Read,ACK
2.852912468750000,0,0x5D,0x00,Read,ACK
2.852934187500000,0,0x5D,0x04,Read,ACK
2.852955687500000,0,0x5D,0x03,Read,ACK
2.852977156250000,0,0x5D,0x36,Read,ACK
2.852998625000000,0,0x5D,0x0B,Read,ACK
2.853020125000000,0,0x5D,0x39,Read,ACK
2.853041562500000,0,0x5D,0x04,Read,ACK
2.853063062500000,0,0x5D,0x03,Read,ACK
2.853084531250000,0,0x5D,0x02,Read,ACK
2.853106000000000,0,0x5D,0x20,Read,ACK
2.853127500000000,0,0x5D,0x13,Read,ACK
2.853150656250000,0,0x5D,0x33,Read,ACK
2.853172156250000,0,0x5D,0x06,Read,ACK
2.853193625000000,0,0x5D,0x1B,Read,ACK
2.853215093750000,0,0x5D,0x04,Read,ACK
2.853236562500000,0,0x5D,0x03,Read,ACK
2.853258062500000,0,0x5D,0x03,Read,ACK
2.853279500000000,0,0x5D,0x20,Read,ACK
2.853301156250000,0,0x5D,0x23,Read,ACK
2.853322656250000,0,0x5D,0xAC,Read,ACK
2.853344125000000,0,0x5D,0x08,Read,ACK
2.853365593750000,0,0x5D,0x7C,Read,ACK
2.853387093750000,0,0x5D,0x03,Read,ACK
2.853408531250000,0,0x5D,0x03,Read,ACK
2.853430000000000,0,0x5D,0x03,Read,ACK
2.853451718750000,0,0x5D,0x20,Read,ACK
2.853473218750000,0,0x5D,0x00,Read,ACK
2.853494687500000,0,0x5D,0x00,Read,ACK
2.853516125000000,0,0x5D,0x00,Read,ACK
2.853537937500000,0,0x5D,0x00,Read,ACK
2.853559406250000,0,0x5D,0x00,Read,ACK
2.853583500000000,0,0x5D,0x00,Read,ACK
2.853606468750000,0,0x5D,0x00,Read,ACK
2.853628468750000,0,0x5D,0x00,Read,ACK
2.853649968750000,0,0x5D,0x00,Read,ACK
2.853672593750000,0,0x5D,0x00,Read,ACK
2.853694093750000,0,0x5D,0x00,Read,ACK
2.853715593750000,0,0x5D,0x00,Read,ACK
2.853737031250000,0,0x5D,0x00,Read,ACK
2.853758531250000,0,0x5D,0x00,Read,ACK
2.853780343750000,0,0x5D,0x00,Read,ACK
2.853801843750000,0,0x5D,0x00,Read,ACK
2.853823312500000,0,0x5D,0x3A,Read,ACK
2.853847500000000,0,0x5D,0x0F,Read,ACK
2.853869000000000,0,0x5D,0x03,Read,ACK
2.853890468750000,0,0x5D,0x00,Read,ACK
2.853912093750000,0,0x5D,0x00,Read,ACK
2.853933531250000,0,0x5D,0x00,Read,ACK
2.853955000000000,0,0x5D,0x00,Read,ACK
2.853976468750000,0,0x5D,0x00,Read,ACK
2.853999812500000,0,0x5D,0x00,Read,ACK
2.854021281250000,0,0x5D,0x00,Read,ACK
2.854042906250000,0,0x5D,0x00,Read,ACK
2.854064375000000,0,0x5D,0x00,Read,ACK
2.854085843750000,0,0x5D,0x00,Read,ACK
2.854107562500000,0,0x5D,0x00,Read,ACK
2.854129031250000,0,0x5D,0x00,Read,ACK
2.854150562500000,0,0x5D,0x00,Read,ACK
2.854172312500000,0,0x5D,0x00,Read,ACK
2.854193812500000,0,0x5D,0x00,Read,ACK
2.854215281250000,0,0x5D,0x00,Read,ACK
2.854239750000000,0,0x5D,0x00,Read,ACK
2.854262843750000,0,0x5D,0x00,Read,NAK
2.860046750000000,0,0x5D,0x2F,Read,ACK
2.860073156250000,0,0x5D,0x00,Read,ACK
2.860094656250000,0,0x5D,0x04,Read,ACK
2.860116125000000,0,0x5D,0x03,Read,ACK
2.860137687500000,0,0x5D,0x3D,Read,ACK
2.860159125000000,0,0x5D,0x0B,Read,ACK
2.860181718750000,0,0x5D,0x4A,Read,ACK
2.860204531250000,0,0x5D,0x04,Read,ACK
2.860226062500000,0,0x5D,0x03,Read,ACK
2.860247500000000,0,0x5D,0x02,Read,ACK
2.860269000000000,0,0x5D,0x20,Read,ACK
2.860290468750000,0,0x5D,0x13,Read,ACK
2.860311937500000,0,0x5D,0x38,Read,ACK
2.860333406250000,0,0x5D,0x06,Read,ACK
2.860354875000000,0,0x5D,0x28,Read,ACK
2.860376343750000,0,0x5D,0x04,Read,ACK
2.860398093750000,0,0x5D,0x03,Read,ACK
2.860420718750000,0,0x5D,0x03,Read,ACK
2.860442187500000,0,0x5D,0x20,Read,ACK
2.860463687500000,0,0x5D,0x23,Read,ACK
2.860485531250000,0,0x5D,0xB1,Read,ACK
2.860507031250000,0,0x5D,0x08,Read,ACK
2.860528562500000,0,0x5D,0x88,Read,ACK
2.860550000000000,0,0x5D,0x03,Read,ACK
2.860571500000000,0,0x5D,0x03,Read,ACK
2.860592937500000,0,0x5D,0x03,Read,ACK
2.860614437500000,0,0x5D,0x20,Read,ACK
2.860635906250000,0,0x5D,0x00,Read,ACK
2.860657375000000,0,0x5D,0x00,Read,ACK
2.860678843750000,0,0x5D,0x00,Read,ACK
2.860702156250000,0,0x5D,0x00,Read,ACK
2.860725000000000,0,0x5D,0x00,Read,ACK
2.860746500000000,0,0x5D,0x00,Read,ACK
2.860767968750000,0,0x5D,0x00,Read,ACK
2.860789437500000,0,0x5D,0x00,Read,ACK
2.860810937500000,0,0x5D,0x00,Read,ACK
2.860832375000000,0,0x5D,0x00,Read,ACK
2.860853843750000,0,0x5D,0x00,Read,ACK
2.860876187500000,0,0x5D,0x00,Read,ACK
2.860899468750000,0,0x5D,0x00,Read,ACK
2.860920968750000,0,0x5D,0x00,Read,ACK
2.860942656250000,0,0x5D,0x00,Read,ACK
2.860965125000000,0,0x5D,0x00,Read,ACK
2.860989437500000,0,0x5D,0x80,Read,ACK
2.861011125000000,0,0x5D,0x0F,Read,ACK
2.861034125000000,0,0x5D,0x03,Read,ACK
2.861055593750000,0,0x5D,0x00,Read,ACK
2.861077687500000,0,0x5D,0x00,Read,ACK
2.861099156250000,0,0x5D,0x00,Read,ACK
2.861121031250000,0,0x5D,0x00,Read,ACK
2.861142531250000,0,0x5D,0x00,Read,ACK
2.861166093750000,0,0x5D,0x00,Read,ACK
2.861187593750000,0,0x5D,0x00,Read,ACK
2.861209062500000,0,0x5D,0x00,Read,ACK
2.861230656250000,0,0x5D,0x00,Read,ACK
2.861252125000000,0,0x5D,0x00,Read,ACK
2.861273625000000,0,0x5D,0x00,Read,ACK
2.861295281250000,0,0x5D,0x00,Read,ACK
2.861316750000000,0,0x5D,0x00,Read,ACK
2.861338562500000,0,0x5D,0x00,Read,ACK
2.861360062500000,0,0x5D,0x00,Read,ACK
2.861382781250000,0,0x5D,0x00,Read,ACK
2.861405156250000,0,0x5D,0x00,Read,ACK
2.861426937500000,0,0x5D,0x00,Read,NAK
2.867119500000000,0,0x5D,0x2F,Read,ACK
2.867147250000000,0,0x5D,0x00,Read,ACK
2.867170218750000,0,0x5D,0x04,Read,ACK
2.867192187500000,0,0x5D,0x03,Read,ACK
2.867213656250000,0,0x5D,0x41,Read,ACK
2.867235156250000,0,0x5D,0x0B,Read,ACK
2.867256625000000,0,0x5D,0x5C,Read,ACK
2.867278093750000,0,0x5D,0x04,Read,ACK
2.867299562500000,0,0x5D,0x03,Read,ACK
2.867321031250000,0,0x5D,0x02,Read,ACK
2.867342500000000,0,0x5D,0x20,Read,ACK
2.867363968750000,0,0x5D,0x13,Read,ACK
2.867385437500000,0,0x5D,0x3B,Read,ACK
2.867406906250000,0,0x5D,0x06,Read,ACK
2.867428406250000,0,0x5D,0x37,Read,ACK
2.867449843750000,0,0x5D,0x04,Read,ACK
2.867471593750000,0,0x5D,0x03,Read,ACK
2.867493031250000,0,0x5D,0x03,Read,ACK
2.867514718750000,0,0x5D,0x20,Read,ACK
2.867536156250000,0,0x5D,0x23,Read,ACK
2.867557656250000,0,0x5D,0xB4,Read,ACK
2.867579125000000,0,0x5D,0x08,Read,ACK
2.867600593750000,0,0x5D,0x97,Read,ACK
2.867622062500000,0,0x5D,0x03,Read,ACK
2.867643531250000,0,0x5D,0x03,Read,ACK
2.867665000000000,0,0x5D,0x02,Read,ACK
2.867687968750000,0,0x5D,0x20,Read,ACK
2.867709468750000,0,0x5D,0x00,Read,ACK
2.867731375000000,0,0x5D,0x00,Read,ACK
2.867752812500000,0,0x5D,0x00,Read,ACK
2.867774281250000,0,0x5D,0x00,Read,ACK
2.867795781250000,0,0x5D,0x00,Read,ACK
2.867817250000000,0,0x5D,0x00,Read,ACK
2.867838718750000,0,0x5D,0x00,Read,ACK
2.867860187500000,0,0x5D,0x00,Read,ACK
2.867881781250000,0,0x5D,0x00,Read,ACK
2.867903250000000,0,0x5D,0x00,Read,ACK
2.867924750000000,0,0x5D,0x00,Read,ACK
2.867947906250000,0,0x5D,0x00,Read,ACK
2.867971093750000,0,0x5D,0x00,Read,ACK
2.867992562500000,0,0x5D,0x00,Read,ACK
2.868014125000000,0,0x5D,0x00,Read,ACK
2.868035906250000,0,0x5D,0x00,Read,ACK
2.868057375000000,0,0x5D,0xC6,Read,ACK
2.868078843750000,0,0x5D,0x0F,Read,ACK
2.868100406250000,0,0x5D,0x03,Read,ACK
2.868121937500000,0,0x5D,0x00,Read,ACK
2.868143531250000,0,0x5D,0x00,Read,ACK
2.868165437500000,0,0x5D,0x00,Read,ACK
2.868187781250000,0,0x5D,0x00,Read,ACK
2.868209218750000,0,0x5D,0x00,Read,ACK
2.868230875000000,0,0x5D,0x00,Read,ACK
2.868253218750000,0,0x5D,0x00,Read,ACK
2.868274687500000,0,0x5D,0x00,Read,ACK
2.868296187500000,0,0x5D,0x00,Read,ACK
2.868317625000000,0,0x5D,0x00,Read,ACK
2.868339656250000,0,0x5D,0x00,Read,ACK
2.868361875000000,0,0x5D,0x00,Read,ACK
2.868383875000000,0,0x5D,0x00,Read,ACK
2.868405312500000,0,0x5D,0x00,Read,ACK
2.868426781250000,0,0x5D,0x00,Read,ACK
2.868448250000000,0,0x5D,0x00,Read,ACK
2.868469750000000,0,0x5D,0x00,Read,ACK
2.868491187500000,0,0x5D,0x00,Read,NAK
2.874367281250000,0,0x5D,0x2F,Read,ACK
2.874397031250000,0,0x5D,0x00,Read,ACK
2.874418500000000,0,0x5D,0x04,Read,ACK
2.874440937500000,0,0x5D,0x03,Read,ACK
2.874462593750000,0,0x5D,0x42,Read,ACK
2.874484062500000,0,0x5D,0x0B,Read,ACK
2.874505687500000,0,0x5D,0x6F,Read,ACK
2.874527187500000,0,0x5D,0x04,Read,ACK
2.874548625000000,0,0x5D,0x03,Read,ACK
2.874570281250000,0,0x5D,0x03,Read,ACK
2.874591781250000,0,0x5D,0x20,Read,ACK
2.874613250000000,0,0x5D,0x13,Read,ACK
2.874635000000000,0,0x5D,0x3C,Read,ACK
2.874656500000000,0,0x5D,0x06,Read,ACK
2.874677968750000,0,0x5D,0x49,Read,ACK
2.874699468750000,0,0x5D,0x04,Read,ACK
2.874720906250000,0,0x5D,0x03,Read,ACK
2.874742375000000,0,0x5D,0x03,Read,ACK
2.874763843750000,0,0x5D,0x20,Read,ACK
2.874785343750000,0,0x5D,0x23,Read,ACK
2.874806812500000,0,0x5D,0xB4,Read,ACK
2.874828250000000,0,0x5D,0x08,Read,ACK
2.874849718750000,0,0x5D,0xA7,Read,ACK
2.874871218750000,0,0x5D,0x03,Read,ACK
2.874892718750000,0,0x5D,0x03,Read,ACK
2.874914187500000,0,0x5D,0x02,Read,ACK
2.874935687500000,0,0x5D,0x20,Read,ACK
2.874957218750000,0,0x5D,0x00,Read,ACK
2.874978687500000,0,0x5D,0x00,Read,ACK
2.875000156250000,0,0x5D,0x00,Read,ACK
2.875023312500000,0,0x5D,0x00,Read,ACK
2.875046937500000,0,0x5D,0x00,Read,ACK
2.875071437500000,0,0x5D,0x00,Read,ACK
2.875095656250000,0,0x5D,0x00,Read,ACK
2.875117531250000,0,0x5D,0x00,Read,ACK
2.875139593750000,0,0x5D,0x00,Read,ACK
2.875161187500000,0,0x5D,0x00,Read,ACK
2.875182656250000,0,0x5D,0x00,Read,ACK
2.875204125000000,0,0x5D,0x00,Read,ACK
2.875225625000000,0,0x5D,0x00,Read,ACK
2.875247093750000,0,0x5D,0x00,Read,ACK
2.875269812500000,0,0x5D,0x00,Read,ACK
2.875291312500000,0,0x5D,0x00,Read,ACK
2.875312781250000,0,0x5D,0x0C,Read,ACK
2.875334281250000,0,0x5D,0x10,Read,ACK
2.875357937500000,0,0x5D,0x03,Read,ACK
2.875379593750000,0,0x5D,0x00,Read,ACK
2.875401093750000,0,0x5D,0x00,Read,ACK
2.875422781250000,0,0x5D,0x00,Read,ACK
2.875444281250000,0,0x5D,0x00,Read,ACK
2.875466437500000,0,0x5D,0x00,Read,ACK
2.875487906250000,0,0x5D,0x00,Read,ACK
2.875509375000000,0,0x5D,0x00,Read,ACK
2.875530843750000,0,0x5D,0x00,Read,ACK
2.875552312500000,0,0x5D,0x00,Read,ACK
2.875573781250000,0,0x5D,0x00,Read,ACK
2.875595250000000,0,0x5D,0x00,Read,ACK
2.875616750000000,0,0x5D,0x00,Read,ACK
2.875640437500000,0,0x5D,0x00,Read,ACK
2.875662406250000,0,0x5D,0x00,Read,ACK
2.875684187500000,0,0x5D,0x00,Read,ACK
2.875705656250000,0,0x5D,0x00,Read,ACK
2.875727843750000,0,0x5D,0x00,Read,ACK
2.875750281250000,0,0x5D,0x00,Read,NAK
2.881418562500000,0,0x5D,0x2F,Read,ACK
2.881442625000000,0,0x5D,0x00,Read,ACK
2.881464687500000,0,0x5D,0x04,Read,ACK
2.881486187500000,0,0x5D,0x03,Read,ACK
2.881507656250000,0,0x5D,0x40,Read,ACK
2.881529125000000,0,0x5D,0x0B,Read,ACK
2.881550593750000,0,0x5D,0x81,Read,ACK
2.881573187500000,0,0x5D,0x04,Read,ACK
2.881594687500000,0,0x5D,0x03,Read,ACK
2.881616125000000,0,0x5D,0x03,Read,ACK
2.881637593750000,0,0x5D,0x20,Read,ACK
2.881659062500000,0,0x5D,0x13,Read,ACK
2.881682250000000,0,0x5D,0x3A,Read,ACK
2.881703750000000,0,0x5D,0x06,Read,ACK
2.881725250000000,0,0x5D,0x5B,Read,ACK
2.881746718750000,0,0x5D,0x04,Read,ACK
2.881768156250000,0,0x5D,0x03,Read,ACK
2.881789625000000,0,0x5D,0x03,Read,ACK
2.881811093750000,0,0x5D,0x20,Read,ACK
2.881832562500000,0,0x5D,0x23,Read,ACK
2.881854031250000,0,0x5D,0xB2,Read,ACK
2.881875531250000,0,0x5D,0x08,Read,ACK
2.881897000000000,0,0x5D,0xB8,Read,ACK
2.881918437500000,0,0x5D,0x03,Read,ACK
2.881939937500000,0,0x5D,0x03,Read,ACK
2.881961406250000,0,0x5D,0x02,Read,ACK
2.881982875000000,0,0x5D,0x20,Read,ACK
2.882004343750000,0,0x5D,0x00,Read,ACK
2.882025812500000,0,0x5D,0x00,Read,ACK
2.882047281250000,0,0x5D,0x00,Read,ACK
2.882068750000000,0,0x5D,0x00,Read,ACK
2.882090250000000,0,0x5D,0x00,Read,ACK
2.882111718750000,0,0x5D,0x00,Read,ACK
2.882133156250000,0,0x5D,0x00,Read,ACK
2.882154625000000,0,0x5D,0x00,Read,ACK
2.882178093750000,0,0x5D,0x00,Read,ACK
2.882199562500000,0,0x5D,0x00,Read,ACK
2.882221812500000,0,0x5D,0x00,Read,ACK
2.882243625000000,0,0x5D,0x00,Read,ACK
2.882265343750000,0,0x5D,0x00,Read,ACK
2.882287000000000,0,0x5D,0x00,Read,ACK
2.882308468750000,0,0x5D,0x00,Read,ACK
2.882329968750000,0,0x5D,0x00,Read,ACK
2.882351468750000,0,0x5D,0x52,Read,ACK
2.882372968750000,0,0x5D,0x10,Read,ACK
2.882395625000000,0,0x5D,0x03,Read,ACK
2.882417531250000,0,0x5D,0x00,Read,ACK
2.882438968750000,0,0x5D,0x00,Read,ACK
2.882462656250000,0,0x5D,0x00,Read,ACK
2.882485687500000,0,0x5D,0x00,Read,ACK
2.882508281250000,0,0x5D,0x00,Read,ACK
2.882529718750000,0,0x5D,0x00,Read,ACK
2.882551187500000,0,0x5D,0x00,Read,ACK
2.882572656250000,0,0x5D,0x00,Read,ACK
2.882594156250000,0,0x5D,0x00,Read,ACK
2.882615625000000,0,0x5D,0x00,Read,ACK
2.882637062500000,0,0x5D,0x00,Read,ACK
2.882660281250000,0,0x5D,0x00,Read,ACK
2.882681750000000,0,0x5D,0x00,Read,ACK
2.882703218750000,0,0x5D,0x00,Read,ACK
2.882724687500000,0,0x5D,0x00,Read,ACK
2.882746156250000,0,0x5D,0x00,Read,ACK
2.882767656250000,0,0x5D,0x00,Read,ACK
2.882789906250000,0,0x5D,0x00,Read,NAK
2.888519937500000,0,0x5D,0x2F,Read,ACK
2.888543406250000,0,0x5D,0x00,Read,ACK
2.888564875000000,0,0x5D,0x04,Read,ACK
2.888586343750000,0,0x5D,0x03,Read,ACK
2.888610281250000,0,0x5D,0x3D,Read,ACK
2.888632187500000,0,0x5D,0x0B,Read,ACK
2.888653625000000,0,0x5D,0x94,Read,ACK
2.888675125000000,0,0x5D,0x04,Read,ACK
2.888696593750000,0,0x5D,0x03,Read,ACK
2.888718093750000,0,0x5D,0x03,Read,ACK
2.888740968750000,0,0x5D,0x20,Read,ACK
2.888762437500000,0,0x5D,0x13,Read,ACK
2.888783906250000,0,0x5D,0x38,Read,ACK
2.888805375000000,0,0x5D,0x06,Read,ACK
2.888826875000000,0,0x5D,0x6F,Read,ACK
2.888849312500000,0,0x5D,0x04,Read,ACK
2.888870781250000,0,0x5D,0x03,Read,ACK
2.888892250000000,0,0x5D,0x02,Read,ACK
2.888913718750000,0,0x5D,0x20,Read,ACK
2.888935187500000,0,0x5D,0x23,Read,ACK
2.888956656250000,0,0x5D,0xAF,Read,ACK
2.888978125000000,0,0x5D,0x08,Read,ACK
2.888999593750000,0,0x5D,0xCB,Read,ACK
2.889021062500000,0,0x5D,0x03,Read,ACK
2.889042562500000,0,0x5D,0x03,Read,ACK
2.889064031250000,0,0x5D,0x03,Read,ACK
2.889085500000000,0,0x5D,0x20,Read,ACK
2.889106968750000,0,0x5D,0x00,Read,ACK
2.889128437500000,0,0x5D,0x00,Read,ACK
2.889150281250000,0,0x5D,0x00,Read,ACK
2.889171750000000,0,0x5D,0x00,Read,ACK
2.889193218750000,0,0x5D,0x00,Read,ACK
2.889214687500000,0,0x5D,0x00,Read,ACK
2.889236187500000,0,0x5D,0x00,Read,ACK
2.889257625000000,0,0x5D,0x00,Read,ACK
2.889279093750000,0,0x5D,0x00,Read,ACK
2.889302031250000,0,0x5D,0x00,Read,ACK
2.889324375000000,0,0x5D,0x00,Read,ACK
2.889346000000000,0,0x5D,0x00,Read,ACK
2.889367906250000,0,0x5D,0x00,Read,ACK
2.889389875000000,0,0x5D,0x00,Read,ACK
2.889411375000000,0,0x5D,0x00,Read,ACK
2.889434156250000,0,0x5D,0x00,Read,ACK
2.889455625000000,0,0x5D,0x98,Read,ACK
2.889477968750000,0,0x5D,0x10,Read,ACK
2.889499968750000,0,0x5D,0x03,Read,ACK
2.889521687500000,0,0x5D,0x00,Read,ACK
2.889543968750000,0,0x5D,0x00,Read,ACK
2.889566531250000,0,0x5D,0x00,Read,ACK
2.889588031250000,0,0x5D,0x00,Read,ACK
2.889609468750000,0,0x5D,0x00,Read,ACK
2.889631406250000,0,0x5D,0x00,Read,ACK
2.889653031250000,0,0x5D,0x00,Read,ACK
2.889674500000000,0,0x5D,0x00,Read,ACK
2.889696000000000,0,0x5D,0x00,Read,ACK
2.889717843750000,0,0x5D,0x00,Read,ACK
2.889739281250000,0,0x5D,0x00,Read,ACK
2.889762062500000,0,0x5D,0x00,Read,ACK
2.889783562500000,0,0x5D,0x00,Read,ACK
2.889805000000000,0,0x5D,0x00,Read,ACK
2.889827531250000,0,0x5D,0x00,Read,ACK
2.889849031250000,0,0x5D,0x00,Read,ACK
2.889870468750000,0,0x5D,0x00,Read,ACK
2.889892000000000,0,0x5D,0x00,Read,NAK
2.895401281250000,0,0x5D,0x2F,Read,ACK
2.895428000000000,0,0x5D,0x00,Read,ACK
2.895449500000000,0,0x5D,0x04,Read,ACK
2.895470968750000,0,0x5D,0x03,Read,ACK
2.895492437500000,0,0x5D,0x37,Read,ACK
2.895513906250000,0,0x5D,0x0B,Read,ACK
2.895535906250000,0,0x5D,0xA5,Read,ACK
2.895557437500000,0,0x5D,0x04,Read,ACK
2.895583031250000,0,0x5D,0x03,Read,ACK
2.895604500000000,0,0x5D,0x02,Read,ACK
2.895625968750000,0,0x5D,0x20,Read,ACK
2.895647437500000,0,0x5D,0x13,Read,ACK
2.895668906250000,0,0x5D,0x34,Read,ACK
2.895690375000000,0,0x5D,0x06,Read,ACK
2.895711843750000,0,0x5D,0x83,Read,ACK
2.895733312500000,0,0x5D,0x04,Read,ACK
2.895754781250000,0,0x5D,0x03,Read,ACK
2.895777218750000,0,0x5D,0x02,Read,ACK
2.895799218750000,0,0x5D,0x20,Read,ACK
2.895820687500000,0,0x5D,0x23,Read,ACK
2.895842187500000,0,0x5D,0xA9,Read,ACK
2.895863656250000,0,0x5D,0x08,Read,ACK
2.895885187500000,0,0x5D,0xDD,Read,ACK
2.895906656250000,0,0x5D,0x03,Read,ACK
2.895928125000000,0,0x5D,0x03,Read,ACK
2.895949593750000,0,0x5D,0x03,Read,ACK
2.895971062500000,0,0x5D,0x20,Read,ACK
2.895992531250000,0,0x5D,0x00,Read,ACK
2.896014031250000,0,0x5D,0x00,Read,ACK
2.896037656250000,0,0x5D,0x00,Read,ACK
2.896059156250000,0,0x5D,0x00,Read,ACK
2.896080625000000,0,0x5D,0x00,Read,ACK
2.896102093750000,0,0x5D,0x00,Read,ACK
2.896123562500000,0,0x5D,0x00,Read,ACK
2.896145031250000,0,0x5D,0x00,Read,ACK
2.896166531250000,0,0x5D,0x00,Read,ACK
2.896188000000000,0,0x5D,0x00,Read,ACK
2.896209437500000,0,0x5D,0x00,Read,ACK
2.896230906250000,0,0x5D,0x00,Read,ACK
2.896252406250000,0,0x5D,0x00,Read,ACK
2.896273875000000,0,0x5D,0x00,Read,ACK
2.896295343750000,0,0x5D,0x00,Read,ACK
2.896316812500000,0,0x5D,0x00,Read,ACK
2.896338375000000,0,0x5D,0xDE,Read,ACK
2.896359875000000,0,0x5D,0x10,Read,ACK
2.896381343750000,0,0x5D,0x03,Read,ACK
2.896402812500000,0,0x5D,0x00,Read,ACK
2.896424281250000,0,0x5D,0x00,Read,ACK
2.896445781250000,0,0x5D,0x00,Read,ACK
2.896467218750000,0,0x5D,0x00,Read,ACK
2.896488687500000,0,0x5D,0x00,Read,ACK
2.896510187500000,0,0x5D,0x00,Read,ACK
2.896533562500000,0,0x5D,0x00,Read,ACK
2.896555312500000,0,0x5D,0x00,Read,ACK
2.896578250000000,0,0x5D,0x00,Read,ACK
2.896600843750000,0,0x5D,0x00,Read,ACK
2.896622718750000,0,0x5D,0x00,Read,ACK
2.896644218750000,0,0x5D,0x00,Read,ACK
2.896665656250000,0,0x5D,0x00,Read,ACK
2.896687843750000,0,0x5D,0x00,Read,ACK
2.896709343750000,0,0x5D,0x00,Read,ACK
2.896731562500000,0,0x5D,0x00,Read,ACK
2.896753468750000,0,0x5D,0x00,Read,ACK
2.896776468750000,0,0x5D,0x00,Read,NAK
2.902493031250000,0,0x5D,0x2F,Read,ACK
2.902520250000000,0,0x5D,0x00,Read,ACK
2.902541750000000,0,0x5D,0x04,Read,ACK
2.902564937500000,0,0x5D,0x03,Read,ACK
2.902586375000000,0,0x5D,0x2F,Read,ACK
2.902607875000000,0,0x5D,0x0B,Read,ACK
2.902630562500000,0,0x5D,0xB7,Read,ACK
2.902652031250000,0,0x5D,0x04,Read,ACK
2.902673500000000,0,0x5D,0x02,Read,ACK
2.902695593750000,0,0x5D,0x02,Read,ACK
2.902721062500000,0,0x5D,0x20,Read,ACK
2.902742562500000,0,0x5D,0x13,Read,ACK
2.902764000000000,0,0x5D,0x2E,Read,ACK
2.902785500000000,0,0x5D,0x06,Read,ACK
2.902806968750000,0,0x5D,0x96,Read,ACK
2.902828437500000,0,0x5D,0x04,Read,ACK
2.902849906250000,0,0x5D,0x03,Read,ACK
2.902871375000000,0,0x5D,0x03,Read,ACK
2.902892843750000,0,0x5D,0x20,Read,ACK
2.902914312500000,0,0x5D,0x23,Read,ACK
2.902936625000000,0,0x5D,0xA1,Read,ACK
2.902958093750000,0,0x5D,0x08,Read,ACK
2.902979593750000,0,0x5D,0xEE,Read,ACK
2.903001125000000,0,0x5D,0x03,Read,ACK
2.903022625000000,0,0x5D,0x03,Read,ACK
2.903046250000000,0,0x5D,0x03,Read,ACK
2.903067750000000,0,0x5D,0x20,Read,ACK
2.903090531250000,0,0x5D,0x00,Read,ACK
2.903112156250000,0,0x5D,0x00,Read,ACK
2.903133687500000,0,0x5D,0x00,Read,ACK
2.903155125000000,0,0x5D,0x00,Read,ACK
2.903177812500000,0,0x5D,0x00,Read,ACK
2.903200812500000,0,0x5D,0x00,Read,ACK
2.903222281250000,0,0x5D,0x00,Read,ACK
2.903243750000000,0,0x5D,0x00,Read,ACK
2.903265218750000,0,0x5D,0x00,Read,ACK
2.903286687500000,0,0x5D,0x00,Read,ACK
2.903308187500000,0,0x5D,0x00,Read,ACK
2.903329656250000,0,0x5D,0x00,Read,ACK
2.903351125000000,0,0x5D,0x00,Read,ACK
2.903372656250000,0,0x5D,0x00,Read,ACK
2.903394093750000,0,0x5D,0x00,Read,ACK
2.903415593750000,0,0x5D,0x00,Read,ACK
2.903437031250000,0,0x5D,0x24,Read,ACK
2.903458531250000,0,0x5D,0x11,Read,ACK
2.903480000000000,0,0x5D,0x03,Read,ACK
2.903501468750000,0,0x5D,0x00,Read,ACK
2.903522937500000,0,0x5D,0x00,Read,ACK
2.903544406250000,0,0x5D,0x00,Read,ACK
2.903565875000000,0,0x5D,0x00,Read,ACK
2.903587343750000,0,0x5D,0x00,Read,ACK
2.903608812500000,0,0x5D,0x00,Read,ACK
2.903630312500000,0,0x5D,0x00,Read,ACK
2.903657312500000,0,0x5D,0x00,Read,ACK
2.903678781250000,0,0x5D,0x00,Read,ACK
2.903700968750000,0,0x5D,0x00,Read,ACK
2.903723437500000,0,0x5D,0x00,Read,ACK
2.903744875000000,0,0x5D,0x00,Read,ACK
2.903766343750000,0,0x5D,0x00,Read,ACK
2.903788218750000,0,0x5D,0x00,Read,ACK
2.903809656250000,0,0x5D,0x00,Read,ACK
2.903831125000000,0,0x5D,0x00,Read,ACK
2.903852625000000,0,0x5D,0x00,Read,ACK
2.903874062500000,0,0x5D,0x00,Read,NAK
2.909651218750000,0,0x5D,0x2F,Read,ACK
2.909681406250000,0,0x5D,0x00,Read,ACK
2.909705781250000,0,0x5D,0x04,Read,ACK
2.909727281250000,0,0x5D,0x03,Read,ACK
2.909748750000000,0,0x5D,0x25,Read,ACK
2.909770218750000,0,0x5D,0x0B,Read,ACK
2.909791687500000,0,0x5D,0xC8,Read,ACK
2.909813187500000,0,0x5D,0x04,Read,ACK
2.909834937500000,0,0x5D,0x02,Read,ACK
2.909858937500000,0,0x5D,0x02,Read,ACK
2.909881968750000,0,0x5D,0x20,Read,ACK
2.909903437500000,0,0x5D,0x13,Read,ACK
2.909924906250000,0,0x5D,0x25,Read,ACK
2.909946375000000,0,0x5D,0x06,Read,ACK
2.909967843750000,0,0x5D,0xA9,Read,ACK
2.909989343750000,0,0x5D,0x04,Read,ACK
2.910010781250000,0,0x5D,0x03,Read,ACK
2.910032281250000,0,0x5D,0x03,Read,ACK
2.910053750000000,0,0x5D,0x20,Read,ACK
2.910076125000000,0,0x5D,0x23,Read,ACK
2.910097625000000,0,0x5D,0x98,Read,ACK
2.910119093750000,0,0x5D,0x08,Read,ACK
2.910140562500000,0,0x5D,0xFE,Read,ACK
2.910162031250000,0,0x5D,0x03,Read,ACK
2.910183500000000,0,0x5D,0x03,Read,ACK
2.910204968750000,0,0x5D,0x03,Read,ACK
2.910227031250000,0,0x5D,0x20,Read,ACK
2.910248468750000,0,0x5D,0x00,Read,ACK
2.910269968750000,0,0x5D,0x00,Read,ACK
2.910291437500000,0,0x5D,0x00,Read,ACK
2.910312906250000,0,0x5D,0x00,Read,ACK
2.910334375000000,0,0x5D,0x00,Read,ACK
2.910355843750000,0,0x5D,0x00,Read,ACK
2.910377312500000,0,0x5D,0x00,Read,ACK
2.910398781250000,0,0x5D,0x00,Read,ACK
2.910420281250000,0,0x5D,0x00,Read,ACK
2.910441781250000,0,0x5D,0x00,Read,ACK
2.910463250000000,0,0x5D,0x00,Read,ACK
2.910484718750000,0,0x5D,0x00,Read,ACK
2.910506187500000,0,0x5D,0x00,Read,ACK
2.910527687500000,0,0x5D,0x00,Read,ACK
2.910549437500000,0,0x5D,0x00,Read,ACK
2.910570937500000,0,0x5D,0x00,Read,ACK
2.910592937500000,0,0x5D,0x6A,Read,ACK
2.910614406250000,0,0x5D,0x11,Read,ACK
2.910636031250000,0,0x5D,0x03,Read,ACK
2.910657500000000,0,0x5D,0x00,Read,ACK
2.910678968750000,0,0x5D,0x00,Read,ACK
2.910700468750000,0,0x5D,0x00,Read,ACK
2.910721968750000,0,0x5D,0x00,Read,ACK
2.910743468750000,0,0x5D,0x00,Read,ACK
2.910764906250000,0,0x5D,0x00,Read,ACK
2.910786375000000,0,0x5D,0x00,Read,ACK
2.910807875000000,0,0x5D,0x00,Read,ACK
2.910833656250000,0,0x5D,0x00,Read,ACK
2.910857062500000,0,0x5D,0x00,Read,ACK
2.910878562500000,0,0x5D,0x00,Read,ACK
2.910900000000000,0,0x5D,0x00,Read,ACK
2.910921781250000,0,0x5D,0x00,Read,ACK
2.910943250000000,0,0x5D,0x00,Read,ACK
2.910964718750000,0,0x5D,0x00,Read,ACK
2.910986187500000,0,0x5D,0x00,Read,ACK
2.911008531250000,0,0x5D,0x00,Read,ACK
2.911030968750000,0,0x5D,0x00,Read,NAK
2.916823218750000,0,0x5D,0x2F,Read,ACK
2.916851906250000,0,0x5D,0x00,Read,ACK
2.916873375000000,0,0x5D,0x04,Read,ACK
2.916894812500000,0,0x5D,0x03,Read,ACK
2.916916312500000,0,0x5D,0x19,Read,ACK
2.916937750000000,0,0x5D,0x0B,Read,ACK
2.916959250000000,0,0x5D,0xDA,Read,ACK
2.916981750000000,0,0x5D,0x04,Read,ACK
2.917003656250000,0,0x5D,0x02,Read,ACK
2.917026187500000,0,0x5D,0x02,Read,ACK
2.917047968750000,0,0x5D,0x20,Read,ACK
2.917069468750000,0,0x5D,0x13,Read,ACK
2.917090937500000,0,0x5D,0x1A,Read,ACK
2.917112406250000,0,0x5D,0x06,Read,ACK
2.917133875000000,0,0x5D,0xBB,Read,ACK
2.917155343750000,0,0x5D,0x04,Read,ACK
2.917176812500000,0,0x5D,0x02,Read,ACK
2.917198281250000,0,0x5D,0x03,Read,ACK
2.917221093750000,0,0x5D,0x20,Read,ACK
2.917243843750000,0,0x5D,0x23,Read,ACK
2.917265343750000,0,0x5D,0x8B,Read,ACK
2.917287625000000,0,0x5D,0x08,Read,ACK
2.917309062500000,0,0x5D,0x0E,Read,ACK
2.917330656250000,0,0x5D,0x04,Read,ACK
2.917353312500000,0,0x5D,0x02,Read,ACK
2.917374812500000,0,0x5D,0x03,Read,ACK
2.917396281250000,0,0x5D,0x20,Read,ACK
2.917417750000000,0,0x5D,0x00,Read,ACK
2.917439218750000,0,0x5D,0x00,Read,ACK
2.917460687500000,0,0x5D,0x00,Read,ACK
2.917482156250000,0,0x5D,0x00,Read,ACK
2.917503656250000,0,0x5D,0x00,Read,ACK
2.917525125000000,0,0x5D,0x00,Read,ACK
2.917546593750000,0,0x5D,0x00,Read,ACK
2.917568062500000,0,0x5D,0x00,Read,ACK
2.917589531250000,0,0x5D,0x00,Read,ACK
2.917611000000000,0,0x5D,0x00,Read,ACK
2.917632468750000,0,0x5D,0x00,Read,ACK
2.917653937500000,0,0x5D,0x00,Read,ACK
2.917675406250000,0,0x5D,0x00,Read,ACK
2.917696875000000,0,0x5D,0x00,Read,ACK
2.917718468750000,0,0x5D,0x00,Read,ACK
2.917739968750000,0,0x5D,0x00,Read,ACK
2.917761406250000,0,0x5D,0xB0,Read,ACK
2.917782875000000,0,0x5D,0x11,Read,ACK
2.917804343750000,0,0x5D,0x03,Read,ACK
2.917825812500000,0,0x5D,0x00,Read,ACK
2.917847593750000,0,0x5D,0x00,Read,ACK
2.917869062500000,0,0x5D,0x00,Read,ACK
2.917890531250000,0,0x5D,0x00,Read,ACK
2.917912031250000,0,0x5D,0x00,Read,ACK
2.917933500000000,0,0x5D,0x00,Read,ACK
2.917954968750000,0,0x5D,0x00,Read,ACK
2.917976468750000,0,0x5D,0x00,Read,ACK
2.918000500000000,0,0x5D,0x00,Read,ACK
2.918023687500000,0,0x5D,0x00,Read,ACK
2.918047562500000,0,0x5D,0x00,Read,ACK
2.918072125000000,0,0x5D,0x00,Read,ACK
2.918095125000000,0,0x5D,0x00,Read,ACK
2.918116656250000,0,0x5D,0x00,Read,ACK
2.918138093750000,0,0x5D,0x00,Read,ACK
2.918159562500000,0,0x5D,0x00,Read,ACK
2.918181781250000,0,0x5D,0x00,Read,ACK
2.918203250000000,0,0x5D,0x00,Read,NAK
2.924060343750000,0,0x5D,0x2F,Read,ACK
2.924084500000000,0,0x5D,0x00,Read,ACK
2.924107593750000,0,0x5D,0x04,Read,ACK
2.924130625000000,0,0x5D,0x03,Read,ACK
2.924152968750000,0,0x5D,0x09,Read,ACK
2.924174406250000,0,0x5D,0x0B,Read,ACK
2.924195875000000,0,0x5D,0xEB,Read,ACK
2.924217343750000,0,0x5D,0x04,Read,ACK
2.924238843750000,0,0x5D,0x02,Read,ACK
2.924260281250000,0,0x5D,0x02,Read,ACK
2.924281781250000,0,0x5D,0x20,Read,ACK
2.924303250000000,0,0x5D,0x13,Read,ACK
2.924324718750000,0,0x5D,0x0B,Read,ACK
2.924347968750000,0,0x5D,0x06,Read,ACK
2.924369437500000,0,0x5D,0xCE,Read,ACK
2.924390937500000,0,0x5D,0x04,Read,ACK
2.924412406250000,0,0x5D,0x03,Read,ACK
2.924434125000000,0,0x5D,0x03,Read,ACK
2.924455593750000,0,0x5D,0x20,Read,ACK
2.924477062500000,0,0x5D,0x23,Read,ACK
2.924498562500000,0,0x5D,0x7C,Read,ACK
2.924520031250000,0,0x5D,0x08,Read,ACK
2.924541468750000,0,0x5D,0x1D,Read,ACK
2.924562937500000,0,0x5D,0x04,Read,ACK
2.924584437500000,0,0x5D,0x02,Read,ACK
2.924605875000000,0,0x5D,0x02,Read,ACK
2.924627375000000,0,0x5D,0x20,Read,ACK
2.924648843750000,0,0x5D,0x00,Read,ACK
2.924670343750000,0,0x5D,0x00,Read,ACK
2.924691843750000,0,0x5D,0x00,Read,ACK
2.924713312500000,0,0x5D,0x00,Read,ACK
2.924734781250000,0,0x5D,0x00,Read,ACK
2.924756250000000,0,0x5D,0x00,Read,ACK
2.924777750000000,0,0x5D,0x00,Read,ACK
2.924799187500000,0,0x5D,0x00,Read,ACK
2.924821437500000,0,0x5D,0x00,Read,ACK
2.924842875000000,0,0x5D,0x00,Read,ACK
2.924864625000000,0,0x5D,0x00,Read,ACK
2.924886125000000,0,0x5D,0x00,Read,ACK
2.924907625000000,0,0x5D,0x00,Read,ACK
2.924929093750000,0,0x5D,0x00,Read,ACK
2.924950562500000,0,0x5D,0x00,Read,ACK
2.924972031250000,0,0x5D,0x00,Read,ACK
2.924993500000000,0,0x5D,0xF6,Read,ACK
2.925015000000000,0,0x5D,0x11,Read,ACK
2.925036468750000,0,0x5D,0x03,Read,ACK
2.925057937500000,0,0x5D,0x00,Read,ACK
2.925079375000000,0,0x5D,0x00,Read,ACK
2.925103187500000,0,0x5D,0x00,Read,ACK
2.925128531250000,0,0x5D,0x00,Read,ACK
2.925152343750000,0,0x5D,0x00,Read,ACK
2.925175312500000,0,0x5D,0x00,Read,ACK
2.925197093750000,0,0x5D,0x00,Read,ACK
2.925219156250000,0,0x5D,0x00,Read,ACK
2.925241031250000,0,0x5D,0x00,Read,ACK
2.925264687500000,0,0x5D,0x00,Read,ACK
2.925286562500000,0,0x5D,0x00,Read,ACK
2.925308031250000,0,0x5D,0x00,Read,ACK
2.925329500000000,0,0x5D,0x00,Read,ACK
2.925350968750000,0,0x5D,0x00,Read,ACK
2.925372437500000,0,0x5D,0x00,Read,ACK
2.925395218750000,0,0x5D,0x00,Read,ACK
2.925416687500000,0,0x5D,0x00,Read,ACK
2.925438156250000,0,0x5D,0x00,Read,NAK
2.931406437500000,0,0x5D,0x2F,Read,ACK
2.931431031250000,0,0x5D,0x00,Read,ACK
2.931452531250000,0,0x5D,0x04,Read,ACK
2.931475093750000,0,0x5D,0x03,Read,ACK
2.931496562500000,0,0x5D,0xF7,Read,ACK
2.931518062500000,0,0x5D,0x0A,Read,ACK
2.931539500000000,0,0x5D,0xFB,Read,ACK
2.931561562500000,0,0x5D,0x04,Read,ACK
2.931583718750000,0,0x5D,0x03,Read,ACK
2.931606500000000,0,0x5D,0x02,Read,ACK
2.931627968750000,0,0x5D,0x20,Read,ACK
2.931649437500000,0,0x5D,0x13,Read,ACK
2.931670906250000,0,0x5D,0xFA,Read,ACK
2.931694968750000,0,0x5D,0x05,Read,ACK
2.931717937500000,0,0x5D,0xE0,Read,ACK
2.931739593750000,0,0x5D,0x04,Read,ACK
2.931761062500000,0,0x5D,0x03,Read,ACK
2.931782562500000,0,0x5D,0x03,Read,ACK
2.931804031250000,0,0x5D,0x20,Read,ACK
2.931825500000000,0,0x5D,0x23,Read,ACK
2.931847000000000,0,0x5D,0x6B,Read,ACK
2.931868437500000,0,0x5D,0x08,Read,ACK
2.931889937500000,0,0x5D,0x2C,Read,ACK
2.931911406250000,0,0x5D,0x04,Read,ACK
2.931933187500000,0,0x5D,0x03,Read,ACK
2.931954625000000,0,0x5D,0x02,Read,ACK
2.931976125000000,0,0x5D,0x20,Read,ACK
2.931997593750000,0,0x5D,0x00,Read,ACK
2.932019062500000,0,0x5D,0x00,Read,ACK
2.932040531250000,0,0x5D,0x00,Read,ACK
2.932062000000000,0,0x5D,0x00,Read,ACK
2.932083656250000,0,0x5D,0x00,Read,ACK
2.932105125000000,0,0x5D,0x00,Read,ACK
2.932126593750000,0,0x5D,0x00,Read,ACK
2.932148875000000,0,0x5D,0x00,Read,ACK
2.932170781250000,0,0x5D,0x00,Read,ACK
2.932192250000000,0,0x5D,0x00,Read,ACK
2.932214093750000,0,0x5D,0x00,Read,ACK
2.932236500000000,0,0x5D,0x00,Read,ACK
2.932257968750000,0,0x5D,0x00,Read,ACK
2.932279437500000,0,0x5D,0x00,Read,ACK
2.932301031250000,0,0x5D,0x00,Read,ACK
2.932322500000000,0,0x5D,0x00,Read,ACK
2.932344718750000,0,0x5D,0x3C,Read,ACK
2.932367687500000,0,0x5D,0x12,Read,ACK
2.932390312500000,0,0x5D,0x03,Read,ACK
2.932412281250000,0,0x5D,0x00,Read,ACK
2.932435093750000,0,0x5D,0x00,Read,ACK
2.932456562500000,0,0x5D,0x00,Read,ACK
2.932480718750000,0,0x5D,0x00,Read,ACK
2.932504718750000,0,0x5D,0x00,Read,ACK
2.932526218750000,0,0x5D,0x00,Read,ACK
2.932547687500000,0,0x5D,0x00,Read,ACK
2.932569562500000,0,0x5D,0x00,Read,ACK
2.932591062500000,0,0x5D,0x00,Read,ACK
2.932612781250000,0,0x5D,0x00,Read,ACK
2.932634250000000,0,0x5D,0x00,Read,ACK
2.932655718750000,0,0x5D,0x00,Read,ACK
2.932677250000000,0,0x5D,0x00,Read,ACK
2.932698718750000,0,0x5D,0x00,Read,ACK
2.932720187500000,0,0x5D,0x00,Read,ACK
2.932742093750000,0,0x5D,0x00,Read,ACK
2.932763968750000,0,0x5D,0x00,Read,ACK
2.932785406250000,0,0x5D,0x00,Read,NAK
2.938539593750000,0,0x5D,0x2F,Read,ACK
2.938563687500000,0,0x5D,0x00,Read,ACK
2.938585187500000,0,0x5D,0x04,Read,ACK
2.938607593750000,0,0x5D,0x03,Read,ACK
2.938631156250000,0,0x5D,0xE2,Read,ACK
2.938654250000000,0,0x5D,0x0A,Read,ACK
2.938676093750000,0,0x5D,0x09,Read,ACK
2.938697593750000,0,0x5D,0x05,Read,ACK
2.938719062500000,0,0x5D,0x03,Read,ACK
2.938740531250000,0,0x5D,0x03,Read,ACK
2.938762781250000,0,0x5D,0x20,Read,ACK
2.938784281250000,0,0x5D,0x13,Read,ACK
2.938805750000000,0,0x5D,0xE5,Read,ACK
2.938827218750000,0,0x5D,0x05,Read,ACK
2.938848687500000,0,0x5D,0xF1,Read,ACK
2.938870218750000,0,0x5D,0x04,Read,ACK
2.938891687500000,0,0x5D,0x03,Read,ACK
2.938913156250000,0,0x5D,0x03,Read,ACK
2.938934656250000,0,0x5D,0x20,Read,ACK
2.938956093750000,0,0x5D,0x23,Read,ACK
2.938977562500000,0,0x5D,0x56,Read,ACK
2.938999031250000,0,0x5D,0x08,Read,ACK
2.939020500000000,0,0x5D,0x3A,Read,ACK
2.939041968750000,0,0x5D,0x04,Read,ACK
2.939063468750000,0,0x5D,0x03,Read,ACK
2.939084937500000,0,0x5D,0x02,Read,ACK
2.939106406250000,0,0x5D,0x20,Read,ACK
2.939127875000000,0,0x5D,0x00,Read,ACK
2.939149343750000,0,0x5D,0x00,Read,ACK
2.939170781250000,0,0x5D,0x00,Read,ACK
2.939192250000000,0,0x5D,0x00,Read,ACK
2.939213781250000,0,0x5D,0x00,Read,ACK
2.939235218750000,0,0x5D,0x00,Read,ACK
2.939256687500000,0,0x5D,0x00,Read,ACK
2.939278468750000,0,0x5D,0x00,Read,ACK
2.939299937500000,0,0x5D,0x00,Read,ACK
2.939321437500000,0,0x5D,0x00,Read,ACK
2.939342875000000,0,0x5D,0x00,Read,ACK
2.939364343750000,0,0x5D,0x00,Read,ACK
2.939386718750000,0,0x5D,0x00,Read,ACK
2.939411531250000,0,0x5D,0x00,Read,ACK
2.939434000000000,0,0x5D,0x00,Read,ACK
2.939455468750000,0,0x5D,0x00,Read,ACK
2.939477218750000,0,0x5D,0x82,Read,ACK
2.939498718750000,0,0x5D,0x12,Read,ACK
2.939520187500000,0,0x5D,0x03,Read,ACK
2.939541781250000,0,0x5D,0x00,Read,ACK
2.939563281250000,0,0x5D,0x00,Read,ACK
2.939585437500000,0,0x5D,0x00,Read,ACK
2.939606906250000,0,0x5D,0x00,Read,ACK
2.939628750000000,0,0x5D,0x00,Read,ACK
2.939650281250000,0,0x5D,0x00,Read,ACK
2.939671750000000,0,0x5D,0x00,Read,ACK
2.939693937500000,0,0x5D,0x00,Read,ACK
2.939715718750000,0,0x5D,0x00,Read,ACK
2.939737218750000,0,0x5D,0x00,Read,ACK
2.939759968750000,0,0x5D,0x00,Read,ACK
2.939781656250000,0,0x5D,0x00,Read,ACK
2.939803156250000,0,0x5D,0x00,Read,ACK
2.939825593750000,0,0x5D,0x00,Read,ACK
2.939848187500000,0,0x5D,0x00,Read,ACK
2.939869718750000,0,0x5D,0x00,Read,ACK
2.939891156250000,0,0x5D,0x00,Read,ACK
2.939912656250000,0,0x5D,0x00,Read,NAK
2.945422343750000,0,0x5D,0x2F,Read,ACK
2.945449500000000,0,0x5D,0x00,Read,ACK
2.945470937500000,0,0x5D,0x04,Read,ACK
2.945492406250000,0,0x5D,0x03,Read,ACK
2.945515312500000,0,0x5D,0xCB,Read,ACK
2.945537093750000,0,0x5D,0x0A,Read,ACK
2.945558562500000,0,0x5D,0x15,Read,ACK
2.945580062500000,0,0x5D,0x05,Read,ACK
2.945601531250000,0,0x5D,0x02,Read,ACK
2.945623000000000,0,0x5D,0x03,Read,ACK
2.945644468750000,0,0x5D,0x20,Read,ACK
2.945665937500000,0,0x5D,0x13,Read,ACK
2.945687406250000,0,0x5D,0xCF,Read,ACK
2.945708906250000,0,0x5D,0x05,Read,ACK
2.945730343750000,0,0x5D,0x01,Read,ACK
2.945753218750000,0,0x5D,0x05,Read,ACK
2.945775281250000,0,0x5D,0x03,Read,ACK
2.945796750000000,0,0x5D,0x02,Read,ACK
2.945818218750000,0,0x5D,0x20,Read,ACK
2.945839687500000,0,0x5D,0x23,Read,ACK
2.945861281250000,0,0x5D,0x40,Read,ACK
2.945883968750000,0,0x5D,0x08,Read,ACK
2.945905406250000,0,0x5D,0x48,Read,ACK
2.945926875000000,0,0x5D,0x04,Read,ACK
2.945948343750000,0,0x5D,0x03,Read,ACK
2.945969843750000,0,0x5D,0x02,Read,ACK
2.945991281250000,0,0x5D,0x20,Read,ACK
2.946012750000000,0,0x5D,0x00,Read,ACK
2.946034343750000,0,0x5D,0x00,Read,ACK
2.946055781250000,0,0x5D,0x00,Read,ACK
2.946077250000000,0,0x5D,0x00,Read,ACK
2.946098718750000,0,0x5D,0x00,Read,ACK
2.946120187500000,0,0x5D,0x00,Read,ACK
2.946141687500000,0,0x5D,0x00,Read,ACK
2.946163125000000,0,0x5D,0x00,Read,ACK
2.946184593750000,0,0x5D,0x00,Read,ACK
2.946206062500000,0,0x5D,0x00,Read,ACK
2.946227562500000,0,0x5D,0x00,Read,ACK
2.946249000000000,0,0x5D,0x00,Read,ACK
2.946270468750000,0,0x5D,0x00,Read,ACK
2.946291937500000,0,0x5D,0x00,Read,ACK
2.946313437500000,0,0x5D,0x00,Read,ACK
2.946334906250000,0,0x5D,0x00,Read,ACK
2.946356375000000,0,0x5D,0xC8,Read,ACK
2.946377812500000,0,0x5D,0x12,Read,ACK
2.946399312500000,0,0x5D,0x03,Read,ACK
2.946420781250000,0,0x5D,0x00,Read,ACK
2.946442250000000,0,0x5D,0x00,Read,ACK
2.946463718750000,0,0x5D,0x00,Read,ACK
2.946485437500000,0,0x5D,0x00,Read,ACK
2.946510656250000,0,0x5D,0x00,Read,ACK
2.946534593750000,0,0x5D,0x00,Read,ACK
2.946557031250000,0,0x5D,0x00,Read,ACK
2.946578968750000,0,0x5D,0x00,Read,ACK
2.946600468750000,0,0x5D,0x00,Read,ACK
2.946621937500000,0,0x5D,0x00,Read,ACK
2.946643406250000,0,0x5D,0x00,Read,ACK
2.946665718750000,0,0x5D,0x00,Read,ACK
2.946687156250000,0,0x5D,0x00,Read,ACK
2.946708906250000,0,0x5D,0x00,Read,ACK
2.946731843750000,0,0x5D,0x00,Read,ACK
2.946753343750000,0,0x5D,0x00,Read,ACK
2.946776937500000,0,0x5D,0x00,Read,ACK
2.946798406250000,0,0x5D,0x00,Read,NAK
2.952523343750000,0,0x5D,0x2F,Read,ACK
2.952549531250000,0,0x5D,0x00,Read,ACK
2.952572468750000,0,0x5D,0x04,Read,ACK
2.952593937500000,0,0x5D,0x03,Read,ACK
2.952615406250000,0,0x5D,0xB3,Read,ACK
2.952636875000000,0,0x5D,0x0A,Read,ACK
2.952658343750000,0,0x5D,0x20,Read,ACK
2.952679812500000,0,0x5D,0x05,Read,ACK
2.952701375000000,0,0x5D,0x02,Read,ACK
2.952724125000000,0,0x5D,0x03,Read,ACK
2.952747468750000,0,0x5D,0x20,Read,ACK
2.952768937500000,0,0x5D,0x13,Read,ACK
2.952790406250000,0,0x5D,0xB8,Read,ACK
2.952811906250000,0,0x5D,0x05,Read,ACK
2.952833343750000,0,0x5D,0x10,Read,ACK
2.952854843750000,0,0x5D,0x05,Read,ACK
2.952876312500000,0,0x5D,0x03,Read,ACK
2.952897750000000,0,0x5D,0x02,Read,ACK
2.952919218750000,0,0x5D,0x20,Read,ACK
2.952940687500000,0,0x5D,0x23,Read,ACK
2.952962187500000,0,0x5D,0x28,Read,ACK
2.952983625000000,0,0x5D,0x08,Read,ACK
2.953005125000000,0,0x5D,0x54,Read,ACK
2.953026687500000,0,0x5D,0x04,Read,ACK
2.953048562500000,0,0x5D,0x02,Read,ACK
2.953070031250000,0,0x5D,0x02,Read,ACK
2.953091500000000,0,0x5D,0x20,Read,ACK
2.953112968750000,0,0x5D,0x00,Read,ACK
2.953135281250000,0,0x5D,0x00,Read,ACK
2.953156750000000,0,0x5D,0x00,Read,ACK
2.953178187500000,0,0x5D,0x00,Read,ACK
2.953199687500000,0,0x5D,0x00,Read,ACK
2.953221156250000,0,0x5D,0x00,Read,ACK
2.953242625000000,0,0x5D,0x00,Read,ACK
2.953264093750000,0,0x5D,0x00,Read,ACK
2.953285656250000,0,0x5D,0x00,Read,ACK
2.953307125000000,0,0x5D,0x00,Read,ACK
2.953328625000000,0,0x5D,0x00,Read,ACK
2.953350062500000,0,0x5D,0x00,Read,ACK
2.953371562500000,0,0x5D,0x00,Read,ACK
2.953393031250000,0,0x5D,0x00,Read,ACK
2.953414500000000,0,0x5D,0x00,Read,ACK
2.953435968750000,0,0x5D,0x00,Read,ACK
2.953457437500000,0,0x5D,0x0E,Read,ACK
2.953478906250000,0,0x5D,0x13,Read,ACK
2.953500375000000,0,0x5D,0x03,Read,ACK
2.953521843750000,0,0x5D,0x00,Read,ACK
2.953543343750000,0,0x5D,0x00,Read,ACK
2.953564781250000,0,0x5D,0x00,Read,ACK
2.953586250000000,0,0x5D,0x00,Read,ACK
2.953607718750000,0,0x5D,0x00,Read,ACK
2.953629218750000,0,0x5D,0x00,Read,ACK
2.953650812500000,0,0x5D,0x00,Read,ACK
2.953674500000000,0,0x5D,0x00,Read,ACK
2.953698218750000,0,0x5D,0x00,Read,ACK
2.953722906250000,0,0x5D,0x00,Read,ACK
2.953745406250000,0,0x5D,0x00,Read,ACK
2.953767187500000,0,0x5D,0x00,Read,ACK
2.953788687500000,0,0x5D,0x00,Read,ACK
2.953810187500000,0,0x5D,0x00,Read,ACK
2.953831656250000,0,0x5D,0x00,Read,ACK
2.953853156250000,0,0x5D,0x00,Read,ACK
2.953875593750000,0,0x5D,0x00,Read,ACK
2.953897062500000,0,0x5D,0x00,Read,NAK
2.959820656250000,0,0x5D,0x2F,Read,ACK
2.959849968750000,0,0x5D,0x00,Read,ACK
2.959872593750000,0,0x5D,0x04,Read,ACK
2.959894750000000,0,0x5D,0x03,Read,ACK
2.959916250000000,0,0x5D,0x9A,Read,ACK
2.959937718750000,0,0x5D,0x0A,Read,ACK
2.959959218750000,0,0x5D,0x2A,Read,ACK
2.959980656250000,0,0x5D,0x05,Read,ACK
2.960002156250000,0,0x5D,0x02,Read,ACK
2.960023593750000,0,0x5D,0x02,Read,ACK
2.960045093750000,0,0x5D,0x20,Read,ACK
2.960066531250000,0,0x5D,0x13,Read,ACK
2.960088062500000,0,0x5D,0x9E,Read,ACK
2.960109562500000,0,0x5D,0x05,Read,ACK
2.960131031250000,0,0x5D,0x1C,Read,ACK
2.960153843750000,0,0x5D,0x05,Read,ACK
2.960177437500000,0,0x5D,0x03,Read,ACK
2.960198937500000,0,0x5D,0x02,Read,ACK
2.960220625000000,0,0x5D,0x20,Read,ACK
2.960242062500000,0,0x5D,0x23,Read,ACK
2.960263531250000,0,0x5D,0x0F,Read,ACK
2.960285000000000,0,0x5D,0x08,Read,ACK
2.960306875000000,0,0x5D,0x60,Read,ACK
2.960328375000000,0,0x5D,0x04,Read,ACK
2.960349875000000,0,0x5D,0x02,Read,ACK
2.960371375000000,0,0x5D,0x02,Read,ACK
2.960392875000000,0,0x5D,0x20,Read,ACK
2.960414343750000,0,0x5D,0x00,Read,ACK
2.960435812500000,0,0x5D,0x00,Read,ACK
2.960457281250000,0,0x5D,0x00,Read,ACK
2.960478750000000,0,0x5D,0x00,Read,ACK
2.960500250000000,0,0x5D,0x00,Read,ACK
2.960521687500000,0,0x5D,0x00,Read,ACK
2.960543156250000,0,0x5D,0x00,Read,ACK
2.960564625000000,0,0x5D,0x00,Read,ACK
2.960586093750000,0,0x5D,0x00,Read,ACK
2.960607562500000,0,0x5D,0x00,Read,ACK
2.960629031250000,0,0x5D,0x00,Read,ACK
2.960650500000000,0,0x5D,0x00,Read,ACK
2.960671968750000,0,0x5D,0x00,Read,ACK
2.960693437500000,0,0x5D,0x00,Read,ACK
2.960714906250000,0,0x5D,0x00,Read,ACK
2.960736406250000,0,0x5D,0x00,Read,ACK
2.960757875000000,0,0x5D,0x54,Read,ACK
2.960779343750000,0,0x5D,0x13,Read,ACK
2.960800812500000,0,0x5D,0x03,Read,ACK
2.960822281250000,0,0x5D,0x00,Read,ACK
2.960848437500000,0,0x5D,0x00,Read,ACK
2.960869906250000,0,0x5D,0x00,Read,ACK
2.960892093750000,0,0x5D,0x00,Read,ACK
2.960914562500000,0,0x5D,0x00,Read,ACK
2.960936812500000,0,0x5D,0x00,Read,ACK
2.960958312500000,0,0x5D,0x00,Read,ACK
2.960979812500000,0,0x5D,0x00,Read,ACK
2.961001281250000,0,0x5D,0x00,Read,ACK
2.961022750000000,0,0x5D,0x00,Read,ACK
2.961044218750000,0,0x5D,0x00,Read,ACK
2.961067187500000,0,0x5D,0x00,Read,ACK
2.961090781250000,0,0x5D,0x00,Read,ACK
2.961112250000000,0,0x5D,0x00,Read,ACK
2.961133906250000,0,0x5D,0x00,Read,ACK
2.961155375000000,0,0x5D,0x00,Read,ACK
2.961179812500000,0,0x5D,0x00,Read,ACK
2.961201281250000,0,0x5D,0x00,Read,NAK
2.966868312500000,0,0x5D,0x2F,Read,ACK
2.966894625000000,0,0x5D,0x00,Read,ACK
2.966916125000000,0,0x5D,0x04,Read,ACK
2.966937593750000,0,0x5D,0x03,Read,ACK
2.966960281250000,0,0x5D,0x81,Read,ACK
2.966987687500000,0,0x5D,0x0A,Read,ACK
2.967009187500000,0,0x5D,0x31,Read,ACK
2.967030625000000,0,0x5D,0x05,Read,ACK
2.967052093750000,0,0x5D,0x03,Read,ACK
2.967073562500000,0,0x5D,0x02,Read,ACK
2.967095062500000,0,0x5D,0x20,Read,ACK
2.967116500000000,0,0x5D,0x13,Read,ACK
2.967138000000000,0,0x5D,0x84,Read,ACK
2.967159468750000,0,0x5D,0x05,Read,ACK
2.967181000000000,0,0x5D,0x26,Read,ACK
2.967204125000000,0,0x5D,0x05,Read,ACK
2.967225593750000,0,0x5D,0x03,Read,ACK
2.967247875000000,0,0x5D,0x03,Read,ACK
2.967269343750000,0,0x5D,0x20,Read,ACK
2.967290812500000,0,0x5D,0x23,Read,ACK
2.967313750000000,0,0x5D,0xF5,Read,ACK
2.967335218750000,0,0x5D,0x07,Read,ACK
2.967356687500000,0,0x5D,0x6A,Read,ACK
2.967378156250000,0,0x5D,0x04,Read,ACK
2.967399812500000,0,0x5D,0x03,Read,ACK
2.967421437500000,0,0x5D,0x02,Read,ACK
2.967442937500000,0,0x5D,0x20,Read,ACK
2.967464468750000,0,0x5D,0x00,Read,ACK
2.967485937500000,0,0x5D,0x00,Read,ACK
2.967507375000000,0,0x5D,0x00,Read,ACK
2.967528875000000,0,0x5D,0x00,Read,ACK
2.967550343750000,0,0x5D,0x00,Read,ACK
2.967571812500000,0,0x5D,0x00,Read,ACK
2.967593281250000,0,0x5D,0x00,Read,ACK
2.967614750000000,0,0x5D,0x00,Read,ACK
2.967636218750000,0,0x5D,0x00,Read,ACK
2.967657937500000,0,0x5D,0x00,Read,ACK
2.967679406250000,0,0x5D,0x00,Read,ACK
2.967700875000000,0,0x5D,0x00,Read,ACK
2.967722406250000,0,0x5D,0x00,Read,ACK
2.967743875000000,0,0x5D,0x00,Read,ACK
2.967765343750000,0,0x5D,0x00,Read,ACK
2.967786812500000,0,0x5D,0x00,Read,ACK
2.967808281250000,0,0x5D,0x9A,Read,ACK
2.967829781250000,0,0x5D,0x13,Read,ACK
2.967851250000000,0,0x5D,0x03,Read,ACK
2.967872718750000,0,0x5D,0x00,Read,ACK
2.967894187500000,0,0x5D,0x00,Read,ACK
2.967915656250000,0,0x5D,0x00,Read,ACK
2.967937625000000,0,0x5D,0x00,Read,ACK
2.967959125000000,0,0x5D,0x00,Read,ACK
2.967980625000000,0,0x5D,0x00,Read,ACK
2.968002093750000,0,0x5D,0x00,Read,ACK
2.968023562500000,0,0x5D,0x00,Read,ACK
2.968045031250000,0,0x5D,0x00,Read,ACK
2.968066500000000,0,0x5D,0x00,Read,ACK
2.968088750000000,0,0x5D,0x00,Read,ACK
2.968110250000000,0,0x5D,0x00,Read,ACK
2.968132437500000,0,0x5D,0x00,Read,ACK
2.968153937500000,0,0x5D,0x00,Read,ACK
2.968175406250000,0,0x5D,0x00,Read,ACK
2.968196875000000,0,0x5D,0x00,Read,ACK
2.968219000000000,0,0x5D,0x00,Read,ACK
2.968241375000000,0,0x5D,0x00,Read,NAK
2.974081125000000,0,0x5D,0x2F,Read,ACK
2.974110250000000,0,0x5D,0x00,Read,ACK
2.974131781250000,0,0x5D,0x04,Read,ACK
2.974153781250000,0,0x5D,0x03,Read,ACK
2.974175218750000,0,0x5D,0x68,Read,ACK
2.974196687500000,0,0x5D,0x0A,Read,ACK
2.974218156250000,0,0x5D,0x38,Read,ACK
2.974239656250000,0,0x5D,0x05,Read,ACK
2.974261093750000,0,0x5D,0x03,Read,ACK
2.974282562500000,0,0x5D,0x02,Read,ACK
2.974304062500000,0,0x5D,0x20,Read,ACK
2.974328156250000,0,0x5D,0x13,Read,ACK
2.974350781250000,0,0x5D,0x6A,Read,ACK
2.974372781250000,0,0x5D,0x05,Read,ACK
2.974394250000000,0,0x5D,0x2F,Read,ACK
2.974415750000000,0,0x5D,0x05,Read,ACK
2.974437187500000,0,0x5D,0x03,Read,ACK
2.974458656250000,0,0x5D,0x03,Read,ACK
2.974480281250000,0,0x5D,0x20,Read,ACK
2.974501750000000,0,0x5D,0x23,Read,ACK
2.974523187500000,0,0x5D,0xDC,Read,ACK
2.974544656250000,0,0x5D,0x07,Read,ACK
2.974566500000000,0,0x5D,0x73,Read,ACK
2.974587968750000,0,0x5D,0x04,Read,ACK
2.974609468750000,0,0x5D,0x03,Read,ACK
2.974631375000000,0,0x5D,0x02,Read,ACK
2.974652843750000,0,0x5D,0x20,Read,ACK
2.974674312500000,0,0x5D,0x00,Read,ACK
2.974695875000000,0,0x5D,0x00,Read,ACK
2.974717312500000,0,0x5D,0x00,Read,ACK
2.974738812500000,0,0x5D,0x00,Read,ACK
2.974760250000000,0,0x5D,0x00,Read,ACK
2.974781750000000,0,0x5D,0x00,Read,ACK
2.974803187500000,0,0x5D,0x00,Read,ACK
2.974824656250000,0,0x5D,0x00,Read,ACK
2.974846156250000,0,0x5D,0x00,Read,ACK
2.974867625000000,0,0x5D,0x00,Read,ACK
2.974889093750000,0,0x5D,0x00,Read,ACK
2.974910562500000,0,0x5D,0x00,Read,ACK
2.974932031250000,0,0x5D,0x00,Read,ACK
2.974953500000000,0,0x5D,0x00,Read,ACK
2.974974968750000,0,0x5D,0x00,Read,ACK
2.974996437500000,0,0x5D,0x00,Read,ACK
2.975017937500000,0,0x5D,0xE0,Read,ACK
2.975039375000000,0,0x5D,0x13,Read,ACK
2.975060906250000,0,0x5D,0x03,Read,ACK
2.975082406250000,0,0x5D,0x00,Read,ACK
2.975104562500000,0,0x5D,0x00,Read,ACK
2.975126437500000,0,0x5D,0x00,Read,ACK
2.975148656250000,0,0x5D,0x00,Read,ACK
2.975170156250000,0,0x5D,0x00,Read,ACK
2.975191625000000,0,0x5D,0x00,Read,ACK
2.975213093750000,0,0x5D,0x00,Read,ACK
2.975234906250000,0,0x5D,0x00,Read,ACK
2.975256406250000,0,0x5D,0x00,Read,ACK
2.975278906250000,0,0x5D,0x00,Read,ACK
2.975302031250000,0,0x5D,0x00,Read,ACK
2.975323500000000,0,0x5D,0x00,Read,ACK
2.975345000000000,0,0x5D,0x00,Read,ACK
2.975366500000000,0,0x5D,0x00,Read,ACK
2.975387968750000,0,0x5D,0x00,Read,ACK
2.975411968750000,0,0x5D,0x00,Read,ACK
2.975433406250000,0,0x5D,0x00,Read,ACK
2.975455125000000,0,0x5D,0x00,Read,NAK
2.981391531250000,0,0x5D,0x2F,Read,ACK
2.981419281250000,0,0x5D,0x00,Read,ACK
2.981440750000000,0,0x5D,0x04,Read,ACK
2.981462218750000,0,0x5D,0x03,Read,ACK
2.981483687500000,0,0x5D,0x4E,Read,ACK
2.981506531250000,0,0x5D,0x0A,Read,ACK
2.981528000000000,0,0x5D,0x3E,Read,ACK
2.981549468750000,0,0x5D,0x05,Read,ACK
2.981570937500000,0,0x5D,0x02,Read,ACK
2.981593062500000,0,0x5D,0x02,Read,ACK
2.981614937500000,0,0x5D,0x20,Read,ACK
2.981637312500000,0,0x5D,0x13,Read,ACK
2.981658750000000,0,0x5D,0x50,Read,ACK
2.981680218750000,0,0x5D,0x05,Read,ACK
2.981701687500000,0,0x5D,0x36,Read,ACK
2.981723156250000,0,0x5D,0x05,Read,ACK
2.981744625000000,0,0x5D,0x03,Read,ACK
2.981766125000000,0,0x5D,0x03,Read,ACK
2.981787718750000,0,0x5D,0x20,Read,ACK
2.981809187500000,0,0x5D,0x23,Read,ACK
2.981830656250000,0,0x5D,0xC1,Read,ACK
2.981852156250000,0,0x5D,0x07,Read,ACK
2.981873656250000,0,0x5D,0x7A,Read,ACK
2.981896375000000,0,0x5D,0x04,Read,ACK
2.981917906250000,0,0x5D,0x03,Read,ACK
2.981939500000000,0,0x5D,0x03,Read,ACK
2.981960968750000,0,0x5D,0x20,Read,ACK
2.981982437500000,0,0x5D,0x00,Read,ACK
2.982003937500000,0,0x5D,0x00,Read,ACK
2.982025375000000,0,0x5D,0x00,Read,ACK
2.982046875000000,0,0x5D,0x00,Read,ACK
2.982068343750000,0,0x5D,0x00,Read,ACK
2.982089812500000,0,0x5D,0x00,Read,ACK
2.982111281250000,0,0x5D,0x00,Read,ACK
2.982132750000000,0,0x5D,0x00,Read,ACK
2.982154218750000,0,0x5D,0x00,Read,ACK
2.982175687500000,0,0x5D,0x00,Read,ACK
2.982197156250000,0,0x5D,0x00,Read,ACK
2.982218625000000,0,0x5D,0x00,Read,ACK
2.982240125000000,0,0x5D,0x00,Read,ACK
2.982262250000000,0,0x5D,0x00,Read,ACK
2.982284906250000,0,0x5D,0x00,Read,ACK
2.982307000000000,0,0x5D,0x00,Read,ACK
2.982329000000000,0,0x5D,0x26,Read,ACK
2.982350468750000,0,0x5D,0x14,Read,ACK
2.982373250000000,0,0x5D,0x03,Read,ACK
2.982394937500000,0,0x5D,0x00,Read,ACK
2.982416437500000,0,0x5D,0x00,Read,ACK
2.982438875000000,0,0x5D,0x00,Read,ACK
2.982460687500000,0,0x5D,0x00,Read,ACK
2.982482156250000,0,0x5D,0x00,Read,ACK
2.982504718750000,0,0x5D,0x00,Read,ACK
2.982526968750000,0,0x5D,0x00,Read,ACK
2.982548437500000,0,0x5D,0x00,Read,ACK
2.982569906250000,0,0x5D,0x00,Read,ACK
2.982591375000000,0,0x5D,0x00,Read,ACK
2.982612843750000,0,0x5D,0x00,Read,ACK
2.982636437500000,0,0x5D,0x00,Read,ACK
2.982659406250000,0,0x5D,0x00,Read,ACK
2.982680968750000,0,0x5D,0x00,Read,ACK
2.982702468750000,0,0x5D,0x00,Read,ACK
2.982723968750000,0,0x5D,0x00,Read,ACK
2.982745406250000,0,0x5D,0x00,Read,ACK
2.982766875000000,0,0x5D,0x00,Read,NAK
2.988452812500000,0,0x5D,0x2F,Read,ACK
2.988477875000000,0,0x5D,0x00,Read,ACK
2.988499343750000,0,0x5D,0x04,Read,ACK
2.988520812500000,0,0x5D,0x03,Read,ACK
2.988542281250000,0,0x5D,0x35,Read,ACK
2.988563781250000,0,0x5D,0x0A,Read,ACK
2.988585218750000,0,0x5D,0x41,Read,ACK
2.988607156250000,0,0x5D,0x05,Read,ACK
2.988629031250000,0,0x5D,0x02,Read,ACK
2.988650500000000,0,0x5D,0x02,Read,ACK
2.988672000000000,0,0x5D,0x20,Read,ACK
2.988693468750000,0,0x5D,0x13,Read,ACK
2.988715062500000,0,0x5D,0x37,Read,ACK
2.988736656250000,0,0x5D,0x05,Read,ACK
2.988758093750000,0,0x5D,0x3C,Read,ACK
2.988779593750000,0,0x5D,0x05,Read,ACK
2.988801062500000,0,0x5D,0x03,Read,ACK
2.988822531250000,0,0x5D,0x03,Read,ACK
2.988844000000000,0,0x5D,0x20,Read,ACK
2.988865437500000,0,0x5D,0x23,Read,ACK
2.988886937500000,0,0x5D,0xA7,Read,ACK
2.988908468750000,0,0x5D,0x07,Read,ACK
2.988929937500000,0,0x5D,0x7F,Read,ACK
2.988951406250000,0,0x5D,0x04,Read,ACK
2.988972937500000,0,0x5D,0x02,Read,ACK
2.988994406250000,0,0x5D,0x02,Read,ACK
2.989015875000000,0,0x5D,0x20,Read,ACK
2.989037375000000,0,0x5D,0x00,Read,ACK
2.989059562500000,0,0x5D,0x00,Read,ACK
2.989081031250000,0,0x5D,0x00,Read,ACK
2.989102656250000,0,0x5D,0x00,Read,ACK
2.989124093750000,0,0x5D,0x00,Read,ACK
2.989145562500000,0,0x5D,0x00,Read,ACK
2.989167031250000,0,0x5D,0x00,Read,ACK
2.989188500000000,0,0x5D,0x00,Read,ACK
2.989209968750000,0,0x5D,0x00,Read,ACK
2.989231437500000,0,0x5D,0x00,Read,ACK
2.989253187500000,0,0x5D,0x00,Read,ACK
2.989274625000000,0,0x5D,0x00,Read,ACK
2.989296125000000,0,0x5D,0x00,Read,ACK
2.989317562500000,0,0x5D,0x00,Read,ACK
2.989339468750000,0,0x5D,0x00,Read,ACK
2.989360937500000,0,0x5D,0x00,Read,ACK
2.989383812500000,0,0x5D,0x6C,Read,ACK
2.989406062500000,0,0x5D,0x14,Read,ACK
2.989428093750000,0,0x5D,0x03,Read,ACK
2.989449562500000,0,0x5D,0x00,Read,ACK
2.989471031250000,0,0x5D,0x00,Read,ACK
2.989492500000000,0,0x5D,0x00,Read,ACK
2.989515437500000,0,0x5D,0x00,Read,ACK
2.989536875000000,0,0x5D,0x00,Read,ACK
2.989558375000000,0,0x5D,0x00,Read,ACK
2.989580375000000,0,0x5D,0x00,Read,ACK
2.989601843750000,0,0x5D,0x00,Read,ACK
2.989623343750000,0,0x5D,0x00,Read,ACK
2.989644781250000,0,0x5D,0x00,Read,ACK
2.989666250000000,0,0x5D,0x00,Read,ACK
2.989687937500000,0,0x5D,0x00,Read,ACK
2.989709375000000,0,0x5D,0x00,Read,ACK
2.989731000000000,0,0x5D,0x00,Read,ACK
2.989752500000000,0,0x5D,0x00,Read,ACK
2.989774125000000,0,0x5D,0x00,Read,ACK
2.989795562500000,0,0x5D,0x00,Read,ACK
2.989818500000000,0,0x5D,0x00,Read,NAK
2.995405093750000,0,0x5D,0x2F,Read,ACK
2.995433500000000,0,0x5D,0x00,Read,ACK
2.995454968750000,0,0x5D,0x04,Read,ACK
2.995476437500000,0,0x5D,0x03,Read,ACK
2.995497906250000,0,0x5D,0x1C,Read,ACK
2.995519375000000,0,0x5D,0x0A,Read,ACK
2.995540843750000,0,0x5D,0x43,Read,ACK
2.995562718750000,0,0x5D,0x05,Read,ACK
2.995588187500000,0,0x5D,0x03,Read,ACK
2.995611437500000,0,0x5D,0x02,Read,ACK
2.995632906250000,0,0x5D,0x20,Read,ACK
2.995654375000000,0,0x5D,0x13,Read,ACK
2.995675843750000,0,0x5D,0x1F,Read,ACK
2.995697312500000,0,0x5D,0x05,Read,ACK
2.995718781250000,0,0x5D,0x3F,Read,ACK
2.995740281250000,0,0x5D,0x05,Read,ACK
2.995761781250000,0,0x5D,0x03,Read,ACK
2.995783750000000,0,0x5D,0x03,Read,ACK
2.995805656250000,0,0x5D,0x20,Read,ACK
2.995827093750000,0,0x5D,0x23,Read,ACK
2.995848750000000,0,0x5D,0x8D,Read,ACK
2.995870218750000,0,0x5D,0x07,Read,ACK
2.995891687500000,0,0x5D,0x81,Read,ACK
2.995913156250000,0,0x5D,0x04,Read,ACK
2.995934625000000,0,0x5D,0x02,Read,ACK
2.995956125000000,0,0x5D,0x02,Read,ACK
2.995977593750000,0,0x5D,0x20,Read,ACK
2.995999062500000,0,0x5D,0x00,Read,ACK
2.996020718750000,0,0x5D,0x00,Read,ACK
2.996042187500000,0,0x5D,0x00,Read,ACK
2.996063656250000,0,0x5D,0x00,Read,ACK
2.996085281250000,0,0x5D,0x00,Read,ACK
2.996106812500000,0,0x5D,0x00,Read,ACK
2.996128250000000,0,0x5D,0x00,Read,ACK
2.996149718750000,0,0x5D,0x00,Read,ACK
2.996171187500000,0,0x5D,0x00,Read,ACK
2.996192687500000,0,0x5D,0x00,Read,ACK
2.996214187500000,0,0x5D,0x00,Read,ACK
2.996235593750000,0,0x5D,0x00,Read,ACK
2.996257062500000,0,0x5D,0x00,Read,ACK
2.996278562500000,0,0x5D,0x00,Read,ACK
2.996300218750000,0,0x5D,0x00,Read,ACK
2.996321687500000,0,0x5D,0x00,Read,ACK
2.996343156250000,0,0x5D,0xB2,Read,ACK
2.996364625000000,0,0x5D,0x14,Read,ACK
2.996386125000000,0,0x5D,0x03,Read,ACK
2.996407593750000,0,0x5D,0x00,Read,ACK
2.996429031250000,0,0x5D,0x00,Read,ACK
2.996450500000000,0,0x5D,0x00,Read,ACK
2.996472000000000,0,0x5D,0x00,Read,ACK
2.996493468750000,0,0x5D,0x00,Read,ACK
2.996514937500000,0,0x5D,0x00,Read,ACK
2.996540968750000,0,0x5D,0x00,Read,ACK
2.996566218750000,0,0x5D,0x00,Read,ACK
2.996589406250000,0,0x5D,0x00,Read,ACK
2.996613812500000,0,0x5D,0x00,Read,ACK
2.996635718750000,0,0x5D,0x00,Read,ACK
2.996657156250000,0,0x5D,0x00,Read,ACK
2.996678656250000,0,0x5D,0x00,Read,ACK
2.996700093750000,0,0x5D,0x00,Read,ACK
2.996723781250000,0,0x5D,0x00,Read,ACK
2.996745500000000,0,0x5D,0x00,Read,ACK
2.996766968750000,0,0x5D,0x00,Read,ACK
2.996788687500000,0,0x5D,0x00,Read,NAK
3.002497156250000,0,0x5D,0x2F,Read,ACK
3.002525906250000,0,0x5D,0x00,Read,ACK
3.002550593750000,0,0x5D,0x04,Read,ACK
3.002572250000000,0,0x5D,0x03,Read,ACK
3.002593718750000,0,0x5D,0x04,Read,ACK
3.002615218750000,0,0x5D,0x0A,Read,ACK
3.002636656250000,0,0x5D,0x43,Read,ACK
3.002658125000000,0,0x5D,0x05,Read,ACK
3.002679968750000,0,0x5D,0x03,Read,ACK
3.002701937500000,0,0x5D,0x02,Read,ACK
3.002727531250000,0,0x5D,0x20,Read,ACK
3.002751750000000,0,0x5D,0x13,Read,ACK
3.002773250000000,0,0x5D,0x07,Read,ACK
3.002794718750000,0,0x5D,0x05,Read,ACK
3.002816156250000,0,0x5D,0x40,Read,ACK
3.002837625000000,0,0x5D,0x05,Read,ACK
3.002859093750000,0,0x5D,0x03,Read,ACK
3.002880562500000,0,0x5D,0x03,Read,ACK
3.002902062500000,0,0x5D,0x20,Read,ACK
3.002924718750000,0,0x5D,0x23,Read,ACK
3.002946187500000,0,0x5D,0x74,Read,ACK
3.002967656250000,0,0x5D,0x07,Read,ACK
3.002989125000000,0,0x5D,0x82,Read,ACK
3.003010593750000,0,0x5D,0x04,Read,ACK
3.003032031250000,0,0x5D,0x03,Read,ACK
3.003053531250000,0,0x5D,0x02,Read,ACK
3.003075000000000,0,0x5D,0x20,Read,ACK
3.003097031250000,0,0x5D,0x00,Read,ACK
3.003118500000000,0,0x5D,0x00,Read,ACK
3.003139968750000,0,0x5D,0x00,Read,ACK
3.003161437500000,0,0x5D,0x00,Read,ACK
3.003183875000000,0,0x5D,0x00,Read,ACK
3.003205375000000,0,0x5D,0x00,Read,ACK
3.003226937500000,0,0x5D,0x00,Read,ACK
3.003248375000000,0,0x5D,0x00,Read,ACK
3.003269843750000,0,0x5D,0x00,Read,ACK
3.003291312500000,0,0x5D,0x00,Read,ACK
3.003312781250000,0,0x5D,0x00,Read,ACK
3.003334250000000,0,0x5D,0x00,Read,ACK
3.003355750000000,0,0x5D,0x00,Read,ACK
3.003377187500000,0,0x5D,0x00,Read,ACK
3.003398656250000,0,0x5D,0x00,Read,ACK
3.003420156250000,0,0x5D,0x00,Read,ACK
3.003441625000000,0,0x5D,0xF8,Read,ACK
3.003463093750000,0,0x5D,0x14,Read,ACK
3.003484593750000,0,0x5D,0x03,Read,ACK
3.003506093750000,0,0x5D,0x00,Read,ACK
3.003527562500000,0,0x5D,0x00,Read,ACK
3.003549031250000,0,0x5D,0x00,Read,ACK
3.003570500000000,0,0x5D,0x00,Read,ACK
3.003592125000000,0,0x5D,0x00,Read,ACK
3.003613625000000,0,0x5D,0x00,Read,ACK
3.003635093750000,0,0x5D,0x00,Read,ACK
3.003656593750000,0,0x5D,0x00,Read,ACK
3.003678062500000,0,0x5D,0x00,Read,ACK
3.003703843750000,0,0x5D,0x00,Read,ACK
3.003726375000000,0,0x5D,0x00,Read,ACK
3.003747937500000,0,0x5D,0x00,Read,ACK
3.003769593750000,0,0x5D,0x00,Read,ACK
3.003791218750000,0,0x5D,0x00,Read,ACK
3.003812843750000,0,0x5D,0x00,Read,ACK
3.003834343750000,0,0x5D,0x00,Read,ACK
3.003856031250000,0,0x5D,0x00,Read,ACK
3.003877750000000,0,0x5D,0x00,Read,NAK
3.009803500000000,0,0x5D,0x2F,Read,ACK
3.009834218750000,0,0x5D,0x00,Read,ACK
3.009855718750000,0,0x5D,0x04,Read,ACK
3.009878031250000,0,0x5D,0x03,Read,ACK
3.009899500000000,0,0x5D,0xED,Read,ACK
3.009921000000000,0,0x5D,0x09,Read,ACK
3.009942468750000,0,0x5D,0x43,Read,ACK
3.009963937500000,0,0x5D,0x05,Read,ACK
3.009985406250000,0,0x5D,0x03,Read,ACK
3.010006875000000,0,0x5D,0x03,Read,ACK
3.010028375000000,0,0x5D,0x20,Read,ACK
3.010049937500000,0,0x5D,0x13,Read,ACK
3.010071937500000,0,0x5D,0xF1,Read,ACK
3.010093750000000,0,0x5D,0x04,Read,ACK
3.010115218750000,0,0x5D,0x3F,Read,ACK
3.010136718750000,0,0x5D,0x05,Read,ACK
3.010158156250000,0,0x5D,0x03,Read,ACK
3.010179750000000,0,0x5D,0x03,Read,ACK
3.010201218750000,0,0x5D,0x20,Read,ACK
3.010222906250000,0,0x5D,0x23,Read,ACK
3.010244375000000,0,0x5D,0x5D,Read,ACK
3.010265875000000,0,0x5D,0x07,Read,ACK
3.010287375000000,0,0x5D,0x81,Read,ACK
3.010308843750000,0,0x5D,0x04,Read,ACK
3.010330281250000,0,0x5D,0x03,Read,ACK
3.010351750000000,0,0x5D,0x02,Read,ACK
3.010373250000000,0,0x5D,0x20,Read,ACK
3.010394687500000,0,0x5D,0x00,Read,ACK
3.010416156250000,0,0x5D,0x00,Read,ACK
3.010437625000000,0,0x5D,0x00,Read,ACK
3.010459125000000,0,0x5D,0x00,Read,ACK
3.010480593750000,0,0x5D,0x00,Read,ACK
3.010502031250000,0,0x5D,0x00,Read,ACK
3.010523531250000,0,0x5D,0x00,Read,ACK
3.010545000000000,0,0x5D,0x00,Read,ACK
3.010566468750000,0,0x5D,0x00,Read,ACK
3.010588343750000,0,0x5D,0x00,Read,ACK
3.010609781250000,0,0x5D,0x00,Read,ACK
3.010631250000000,0,0x5D,0x00,Read,ACK
3.010652718750000,0,0x5D,0x00,Read,ACK
3.010674187500000,0,0x5D,0x00,Read,ACK
3.010695906250000,0,0x5D,0x00,Read,ACK
3.010717406250000,0,0x5D,0x00,Read,ACK
3.010738843750000,0,0x5D,0x3E,Read,ACK
3.010760562500000,0,0x5D,0x15,Read,ACK
3.010782031250000,0,0x5D,0x03,Read,ACK
3.010803531250000,0,0x5D,0x00,Read,ACK
3.010828343750000,0,0x5D,0x00,Read,ACK
3.010849875000000,0,0x5D,0x00,Read,ACK
3.010871343750000,0,0x5D,0x00,Read,ACK
3.010893718750000,0,0x5D,0x00,Read,ACK
3.010915625000000,0,0x5D,0x00,Read,ACK
3.010937125000000,0,0x5D,0x00,Read,ACK
3.010958843750000,0,0x5D,0x00,Read,ACK
3.010980312500000,0,0x5D,0x00,Read,ACK
3.011001812500000,0,0x5D,0x00,Read,ACK
3.011023593750000,0,0x5D,0x00,Read,ACK
3.011045125000000,0,0x5D,0x00,Read,ACK
3.011067187500000,0,0x5D,0x00,Read,ACK
3.011090437500000,0,0x5D,0x00,Read,ACK
3.011112687500000,0,0x5D,0x00,Read,ACK
3.011134156250000,0,0x5D,0x00,Read,ACK
3.011156656250000,0,0x5D,0x00,Read,ACK
3.011178125000000,0,0x5D,0x00,Read,NAK
3.016840437500000,0,0x5D,0x2F,Read,ACK
3.016863656250000,0,0x5D,0x00,Read,ACK
3.016885218750000,0,0x5D,0x04,Read,ACK
3.016906656250000,0,0x5D,0x03,Read,ACK
3.016928125000000,0,0x5D,0xD7,Read,ACK
3.016950312500000,0,0x5D,0x09,Read,ACK
3.016974281250000,0,0x5D,0x40,Read,ACK
3.016995812500000,0,0x5D,0x05,Read,ACK
3.017017343750000,0,0x5D,0x03,Read,ACK
3.017038781250000,0,0x5D,0x03,Read,ACK
3.017060250000000,0,0x5D,0x20,Read,ACK
3.017081750000000,0,0x5D,0x13,Read,ACK
3.017103187500000,0,0x5D,0xDB,Read,ACK
3.017124656250000,0,0x5D,0x04,Read,ACK
3.017146125000000,0,0x5D,0x3D,Read,ACK
3.017167625000000,0,0x5D,0x05,Read,ACK
3.017190656250000,0,0x5D,0x03,Read,ACK
3.017212125000000,0,0x5D,0x02,Read,ACK
3.017234031250000,0,0x5D,0x20,Read,ACK
3.017255500000000,0,0x5D,0x23,Read,ACK
3.017276968750000,0,0x5D,0x46,Read,ACK
3.017298437500000,0,0x5D,0x07,Read,ACK
3.017320937500000,0,0x5D,0x7F,Read,ACK
3.017342437500000,0,0x5D,0x04,Read,ACK
3.017363906250000,0,0x5D,0x03,Read,ACK
3.017385375000000,0,0x5D,0x02,Read,ACK
3.017406843750000,0,0x5D,0x20,Read,ACK
3.017429562500000,0,0x5D,0x00,Read,ACK
3.017451031250000,0,0x5D,0x00,Read,ACK
3.017472500000000,0,0x5D,0x00,Read,ACK
3.017493968750000,0,0x5D,0x00,Read,ACK
3.017515437500000,0,0x5D,0x00,Read,ACK
3.017536906250000,0,0x5D,0x00,Read,ACK
3.017558375000000,0,0x5D,0x00,Read,ACK
3.017579843750000,0,0x5D,0x00,Read,ACK
3.017601312500000,0,0x5D,0x00,Read,ACK
3.017622781250000,0,0x5D,0x00,Read,ACK
3.017644250000000,0,0x5D,0x00,Read,ACK
3.017665718750000,0,0x5D,0x00,Read,ACK
3.017687187500000,0,0x5D,0x00,Read,ACK
3.017708656250000,0,0x5D,0x00,Read,ACK
3.017730125000000,0,0x5D,0x00,Read,ACK
3.017751625000000,0,0x5D,0x00,Read,ACK
3.017773125000000,0,0x5D,0x84,Read,ACK
3.017794593750000,0,0x5D,0x15,Read,ACK
3.017816062500000,0,0x5D,0x03,Read,ACK
3.017837531250000,0,0x5D,0x00,Read,ACK
3.017859031250000,0,0x5D,0x00,Read,ACK
3.017880468750000,0,0x5D,0x00,Read,ACK
3.017901937500000,0,0x5D,0x00,Read,ACK
3.017923406250000,0,0x5D,0x00,Read,ACK
3.017947156250000,0,0x5D,0x00,Read,ACK
3.017969593750000,0,0x5D,0x00,Read,ACK
3.017991093750000,0,0x5D,0x00,Read,ACK
3.018012531250000,0,0x5D,0x00,Read,ACK
3.018035281250000,0,0x5D,0x00,Read,ACK
3.018056906250000,0,0x5D,0x00,Read,ACK
3.018078406250000,0,0x5D,0x00,Read,ACK
3.018099875000000,0,0x5D,0x00,Read,ACK
3.018123437500000,0,0x5D,0x00,Read,ACK
3.018145281250000,0,0x5D,0x00,Read,ACK
3.018168218750000,0,0x5D,0x00,Read,ACK
3.018189937500000,0,0x5D,0x00,Read,ACK
3.018212031250000,0,0x5D,0x00,Read,NAK
3.024055281250000,0,0x5D,0x2F,Read,ACK
3.024079437500000,0,0x5D,0x00,Read,ACK
3.024100875000000,0,0x5D,0x04,Read,ACK
3.024123406250000,0,0x5D,0x03,Read,ACK
3.024145250000000,0,0x5D,0xC3,Read,ACK
3.024171375000000,0,0x5D,0x09,Read,ACK
3.024192875000000,0,0x5D,0x3B,Read,ACK
3.024214343750000,0,0x5D,0x05,Read,ACK
3.024235812500000,0,0x5D,0x03,Read,ACK
3.024257312500000,0,0x5D,0x03,Read,ACK
3.024278750000000,0,0x5D,0x20,Read,ACK
3.024300218750000,0,0x5D,0x13,Read,ACK
3.024321687500000,0,0x5D,0xC6,Read,ACK
3.024344187500000,0,0x5D,0x04,Read,ACK
3.024365625000000,0,0x5D,0x39,Read,ACK
3.024387093750000,0,0x5D,0x05,Read,ACK
3.024409406250000,0,0x5D,0x03,Read,ACK
3.024430843750000,0,0x5D,0x02,Read,ACK
3.024453718750000,0,0x5D,0x20,Read,ACK
3.024475906250000,0,0x5D,0x23,Read,ACK
3.024497375000000,0,0x5D,0x31,Read,ACK
3.024518843750000,0,0x5D,0x07,Read,ACK
3.024540281250000,0,0x5D,0x79,Read,ACK
3.024561781250000,0,0x5D,0x04,Read,ACK
3.024583250000000,0,0x5D,0x03,Read,ACK
3.024605468750000,0,0x5D,0x02,Read,ACK
3.024626906250000,0,0x5D,0x20,Read,ACK
3.024648375000000,0,0x5D,0x00,Read,ACK
3.024669843750000,0,0x5D,0x00,Read,ACK
3.024691312500000,0,0x5D,0x00,Read,ACK
3.024712812500000,0,0x5D,0x00,Read,ACK
3.024734281250000,0,0x5D,0x00,Read,ACK
3.024755750000000,0,0x5D,0x00,Read,ACK
3.024777218750000,0,0x5D,0x00,Read,ACK
3.024798687500000,0,0x5D,0x00,Read,ACK
3.024820156250000,0,0x5D,0x00,Read,ACK
3.024841593750000,0,0x5D,0x00,Read,ACK
3.024863093750000,0,0x5D,0x00,Read,ACK
3.024884562500000,0,0x5D,0x00,Read,ACK
3.024906031250000,0,0x5D,0x00,Read,ACK
3.024927531250000,0,0x5D,0x00,Read,ACK
3.024948968750000,0,0x5D,0x00,Read,ACK
3.024970437500000,0,0x5D,0x00,Read,ACK
3.024991906250000,0,0x5D,0xCA,Read,ACK
3.025013375000000,0,0x5D,0x15,Read,ACK
3.025034843750000,0,0x5D,0x03,Read,ACK
3.025056312500000,0,0x5D,0x00,Read,ACK
3.025077781250000,0,0x5D,0x00,Read,ACK
3.025099250000000,0,0x5D,0x00,Read,ACK
3.025123937500000,0,0x5D,0x00,Read,ACK
3.025148937500000,0,0x5D,0x00,Read,ACK
3.025172812500000,0,0x5D,0x00,Read,ACK
3.025196250000000,0,0x5D,0x00,Read,ACK
3.025218531250000,0,0x5D,0x00,Read,ACK
3.025241468750000,0,0x5D,0x00,Read,ACK
3.025262968750000,0,0x5D,0x00,Read,ACK
3.025284437500000,0,0x5D,0x00,Read,ACK
3.025305906250000,0,0x5D,0x00,Read,ACK
3.025327562500000,0,0x5D,0x00,Read,ACK
3.025349031250000,0,0x5D,0x00,Read,ACK
3.025370562500000,0,0x5D,0x00,Read,ACK
3.025392000000000,0,0x5D,0x00,Read,ACK
3.025413468750000,0,0x5D,0x00,Read,ACK
3.025435187500000,0,0x5D,0x00,Read,NAK
3.031361000000000,0,0x5D,0x2F,Read,ACK
3.031385562500000,0,0x5D,0x00,Read,ACK
3.031407062500000,0,0x5D,0x04,Read,ACK
3.031428562500000,0,0x5D,0x03,Read,ACK
3.031450437500000,0,0x5D,0xB1,Read,ACK
3.031472000000000,0,0x5D,0x09,Read,ACK
3.031494406250000,0,0x5D,0x34,Read,ACK
3.031515906250000,0,0x5D,0x05,Read,ACK
3.031537406250000,0,0x5D,0x02,Read,ACK
3.031559031250000,0,0x5D,0x03,Read,ACK
3.031580500000000,0,0x5D,0x20,Read,ACK
3.031602656250000,0,0x5D,0x13,Read,ACK
3.031624125000000,0,0x5D,0xB1,Read,ACK
3.031646906250000,0,0x5D,0x04,Read,ACK
3.031668375000000,0,0x5D,0x33,Read,ACK
3.031689843750000,0,0x5D,0x05,Read,ACK
3.031711343750000,0,0x5D,0x04,Read,ACK
3.031734031250000,0,0x5D,0x03,Read,ACK
3.031755500000000,0,0x5D,0x20,Read,ACK
3.031776968750000,0,0x5D,0x23,Read,ACK
3.031798437500000,0,0x5D,0x1D,Read,ACK
3.031819937500000,0,0x5D,0x07,Read,ACK
3.031841375000000,0,0x5D,0x72,Read,ACK
3.031862843750000,0,0x5D,0x04,Read,ACK
3.031884312500000,0,0x5D,0x03,Read,ACK
3.031905812500000,0,0x5D,0x02,Read,ACK
3.031927281250000,0,0x5D,0x20,Read,ACK
3.031948750000000,0,0x5D,0x00,Read,ACK
3.031970218750000,0,0x5D,0x00,Read,ACK
3.031991687500000,0,0x5D,0x00,Read,ACK
3.032013156250000,0,0x5D,0x00,Read,ACK
3.032034625000000,0,0x5D,0x00,Read,ACK
3.032056156250000,0,0x5D,0x00,Read,ACK
3.032077625000000,0,0x5D,0x00,Read,ACK
3.032099093750000,0,0x5D,0x00,Read,ACK
3.032120593750000,0,0x5D,0x00,Read,ACK
3.032142093750000,0,0x5D,0x00,Read,ACK
3.032163562500000,0,0x5D,0x00,Read,ACK
3.032185031250000,0,0x5D,0x00,Read,ACK
3.032207750000000,0,0x5D,0x00,Read,ACK
3.032229218750000,0,0x5D,0x00,Read,ACK
3.032252781250000,0,0x5D,0x00,Read,ACK
3.032276093750000,0,0x5D,0x00,Read,ACK
3.032297656250000,0,0x5D,0x10,Read,ACK
3.032319093750000,0,0x5D,0x16,Read,ACK
3.032340562500000,0,0x5D,0x03,Read,ACK
3.032362031250000,0,0x5D,0x00,Read,ACK
3.032383500000000,0,0x5D,0x00,Read,ACK
3.032405093750000,0,0x5D,0x00,Read,ACK
3.032426593750000,0,0x5D,0x00,Read,ACK
3.032448125000000,0,0x5D,0x00,Read,ACK
3.032471468750000,0,0x5D,0x00,Read,ACK
3.032493656250000,0,0x5D,0x00,Read,ACK
3.032515156250000,0,0x5D,0x00,Read,ACK
3.032537343750000,0,0x5D,0x00,Read,ACK
3.032558937500000,0,0x5D,0x00,Read,ACK
3.032580437500000,0,0x5D,0x00,Read,ACK
3.032601875000000,0,0x5D,0x00,Read,ACK
3.032623968750000,0,0x5D,0x00,Read,ACK
3.032645468750000,0,0x5D,0x00,Read,ACK
3.032667968750000,0,0x5D,0x00,Read,ACK
3.032691625000000,0,0x5D,0x00,Read,ACK
3.032713093750000,0,0x5D,0x00,Read,ACK
3.032734562500000,0,0x5D,0x00,Read,NAK
3.038473093750000,0,0x5D,0x2F,Read,ACK
3.038498687500000,0,0x5D,0x00,Read,ACK
3.038520125000000,0,0x5D,0x04,Read,ACK
3.038541593750000,0,0x5D,0x03,Read,ACK
3.038563093750000,0,0x5D,0x9F,Read,ACK
3.038584531250000,0,0x5D,0x09,Read,ACK
3.038606031250000,0,0x5D,0x2C,Read,ACK
3.038628875000000,0,0x5D,0x05,Read,ACK
3.038653250000000,0,0x5D,0x03,Read,ACK
3.038674718750000,0,0x5D,0x03,Read,ACK
3.038696218750000,0,0x5D,0x20,Read,ACK
3.038717687500000,0,0x5D,0x13,Read,ACK
3.038739218750000,0,0x5D,0x9D,Read,ACK
3.038760718750000,0,0x5D,0x04,Read,ACK
3.038782218750000,0,0x5D,0x2B,Read,ACK
3.038803656250000,0,0x5D,0x05,Read,ACK
3.038825125000000,0,0x5D,0x03,Read,ACK
3.038846593750000,0,0x5D,0x03,Read,ACK
3.038868093750000,0,0x5D,0x20,Read,ACK
3.038889562500000,0,0x5D,0x23,Read,ACK
3.038911156250000,0,0x5D,0x0B,Read,ACK
3.038932625000000,0,0x5D,0x07,Read,ACK
3.038954062500000,0,0x5D,0x69,Read,ACK
3.038975531250000,0,0x5D,0x04,Read,ACK
3.038997281250000,0,0x5D,0x02,Read,ACK
3.039018718750000,0,0x5D,0x02,Read,ACK
3.039040218750000,0,0x5D,0x20,Read,ACK
3.039061687500000,0,0x5D,0x00,Read,ACK
3.039083156250000,0,0x5D,0x00,Read,ACK
3.039104625000000,0,0x5D,0x00,Read,ACK
3.039126093750000,0,0x5D,0x00,Read,ACK
3.039147562500000,0,0x5D,0x00,Read,ACK
3.039169031250000,0,0x5D,0x00,Read,ACK
3.039190500000000,0,0x5D,0x00,Read,ACK
3.039211968750000,0,0x5D,0x00,Read,ACK
3.039233437500000,0,0x5D,0x00,Read,ACK
3.039254906250000,0,0x5D,0x00,Read,ACK
3.039276343750000,0,0x5D,0x00,Read,ACK
3.039297843750000,0,0x5D,0x00,Read,ACK
3.039319312500000,0,0x5D,0x00,Read,ACK
3.039340781250000,0,0x5D,0x00,Read,ACK
3.039362312500000,0,0x5D,0x00,Read,ACK
3.039384000000000,0,0x5D,0x00,Read,ACK
3.039407562500000,0,0x5D,0x56,Read,ACK
3.039429250000000,0,0x5D,0x16,Read,ACK
3.039450750000000,0,0x5D,0x03,Read,ACK
3.039472343750000,0,0x5D,0x00,Read,ACK
3.039493812500000,0,0x5D,0x00,Read,ACK
3.039515250000000,0,0x5D,0x00,Read,ACK
3.039536718750000,0,0x5D,0x00,Read,ACK
3.039558218750000,0,0x5D,0x00,Read,ACK
3.039579843750000,0,0x5D,0x00,Read,ACK
3.039602343750000,0,0x5D,0x00,Read,ACK
3.039625062500000,0,0x5D,0x00,Read,ACK
3.039647562500000,0,0x5D,0x00,Read,ACK
3.039669031250000,0,0x5D,0x00,Read,ACK
3.039691437500000,0,0x5D,0x00,Read,ACK
3.039713062500000,0,0x5D,0x00,Read,ACK
3.039734500000000,0,0x5D,0x00,Read,ACK
3.039755968750000,0,0x5D,0x00,Read,ACK
3.039777875000000,0,0x5D,0x00,Read,ACK
3.039799343750000,0,0x5D,0x00,Read,ACK
3.039821156250000,0,0x5D,0x00,Read,ACK
3.039842656250000,0,0x5D,0x00,Read,NAK
3.045403156250000,0,0x5D,0x2F,Read,ACK
3.045429656250000,0,0x5D,0x00,Read,ACK
3.045451093750000,0,0x5D,0x04,Read,ACK
3.045472562500000,0,0x5D,0x03,Read,ACK
3.045494062500000,0,0x5D,0x8F,Read,ACK
3.045515531250000,0,0x5D,0x09,Read,ACK
3.045536968750000,0,0x5D,0x22,Read,ACK
3.045559312500000,0,0x5D,0x05,Read,ACK
3.045581937500000,0,0x5D,0x03,Read,ACK
3.045610093750000,0,0x5D,0x03,Read,ACK
3.045631562500000,0,0x5D,0x20,Read,ACK
3.045653031250000,0,0x5D,0x13,Read,ACK
3.045674468750000,0,0x5D,0x8B,Read,ACK
3.045695968750000,0,0x5D,0x04,Read,ACK
3.045717437500000,0,0x5D,0x22,Read,ACK
3.045738906250000,0,0x5D,0x05,Read,ACK
3.045760375000000,0,0x5D,0x03,Read,ACK
3.045781843750000,0,0x5D,0x03,Read,ACK
3.045804687500000,0,0x5D,0x20,Read,ACK
3.045826156250000,0,0x5D,0x23,Read,ACK
3.045847625000000,0,0x5D,0xF9,Read,ACK
3.045869125000000,0,0x5D,0x06,Read,ACK
3.045890562500000,0,0x5D,0x5F,Read,ACK
3.045912031250000,0,0x5D,0x04,Read,ACK
3.045933500000000,0,0x5D,0x02,Read,ACK
3.045955000000000,0,0x5D,0x03,Read,ACK
3.045976437500000,0,0x5D,0x20,Read,ACK
3.045997906250000,0,0x5D,0x00,Read,ACK
3.046021062500000,0,0x5D,0x00,Read,ACK
3.046042562500000,0,0x5D,0x00,Read,ACK
3.046064000000000,0,0x5D,0x00,Read,ACK
3.046085468750000,0,0x5D,0x00,Read,ACK
3.046106937500000,0,0x5D,0x00,Read,ACK
3.046128406250000,0,0x5D,0x00,Read,ACK
3.046150062500000,0,0x5D,0x00,Read,ACK
3.046171531250000,0,0x5D,0x00,Read,ACK
3.046193000000000,0,0x5D,0x00,Read,ACK
3.046214531250000,0,0x5D,0x00,Read,ACK
3.046236031250000,0,0x5D,0x00,Read,ACK
3.046257468750000,0,0x5D,0x00,Read,ACK
3.046278968750000,0,0x5D,0x00,Read,ACK
3.046300718750000,0,0x5D,0x00,Read,ACK
3.046322312500000,0,0x5D,0x00,Read,ACK
3.046343781250000,0,0x5D,0x9C,Read,ACK
3.046365250000000,0,0x5D,0x16,Read,ACK
3.046386750000000,0,0x5D,0x03,Read,ACK
3.046408218750000,0,0x5D,0x00,Read,ACK
3.046429687500000,0,0x5D,0x00,Read,ACK
3.046451156250000,0,0x5D,0x00,Read,ACK
3.046472625000000,0,0x5D,0x00,Read,ACK
3.046494093750000,0,0x5D,0x00,Read,ACK
3.046515562500000,0,0x5D,0x00,Read,ACK
3.046537250000000,0,0x5D,0x00,Read,ACK
3.046559125000000,0,0x5D,0x00,Read,ACK
3.046583250000000,0,0x5D,0x00,Read,ACK
3.046604750000000,0,0x5D,0x00,Read,ACK
3.046627500000000,0,0x5D,0x00,Read,ACK
3.046649187500000,0,0x5D,0x00,Read,ACK
3.046670812500000,0,0x5D,0x00,Read,ACK
3.046692312500000,0,0x5D,0x00,Read,ACK
3.046714593750000,0,0x5D,0x00,Read,ACK
3.046736250000000,0,0x5D,0x00,Read,ACK
3.046757843750000,0,0x5D,0x00,Read,ACK
3.046780281250000,0,0x5D,0x00,Read,NAK
3.052507687500000,0,0x5D,0x2F,Read,ACK
3.052536000000000,0,0x5D,0x00,Read,ACK
3.052557906250000,0,0x5D,0x04,Read,ACK
3.052579375000000,0,0x5D,0x03,Read,ACK
3.052600875000000,0,0x5D,0x7F,Read,ACK
3.052622312500000,0,0x5D,0x09,Read,ACK
3.052643968750000,0,0x5D,0x17,Read,ACK
3.052665437500000,0,0x5D,0x05,Read,ACK
3.052686906250000,0,0x5D,0x03,Read,ACK
3.052708375000000,0,0x5D,0x02,Read,ACK
3.052731968750000,0,0x5D,0x20,Read,ACK
3.052753437500000,0,0x5D,0x13,Read,ACK
3.052774937500000,0,0x5D,0x7A,Read,ACK
3.052796375000000,0,0x5D,0x04,Read,ACK
3.052817843750000,0,0x5D,0x18,Read,ACK
3.052839312500000,0,0x5D,0x05,Read,ACK
3.052860781250000,0,0x5D,0x03,Read,ACK
3.052882250000000,0,0x5D,0x03,Read,ACK
3.052903718750000,0,0x5D,0x20,Read,ACK
3.052925187500000,0,0x5D,0x23,Read,ACK
3.052946750000000,0,0x5D,0xE9,Read,ACK
3.052968281250000,0,0x5D,0x06,Read,ACK
3.052989781250000,0,0x5D,0x53,Read,ACK
3.053011250000000,0,0x5D,0x04,Read,ACK
3.053032750000000,0,0x5D,0x03,Read,ACK
3.053054187500000,0,0x5D,0x03,Read,ACK
3.053076187500000,0,0x5D,0x20,Read,ACK
3.053098375000000,0,0x5D,0x00,Read,ACK
3.053120656250000,0,0x5D,0x00,Read,ACK
3.053142125000000,0,0x5D,0x00,Read,ACK
3.053163593750000,0,0x5D,0x00,Read,ACK
3.053185062500000,0,0x5D,0x00,Read,ACK
3.053206531250000,0,0x5D,0x00,Read,ACK
3.053228437500000,0,0x5D,0x00,Read,ACK
3.053249937500000,0,0x5D,0x00,Read,ACK
3.053271375000000,0,0x5D,0x00,Read,ACK
3.053292843750000,0,0x5D,0x00,Read,ACK
3.053314343750000,0,0x5D,0x00,Read,ACK
3.053335812500000,0,0x5D,0x00,Read,ACK
3.053357281250000,0,0x5D,0x00,Read,ACK
3.053378750000000,0,0x5D,0x00,Read,ACK
3.053400218750000,0,0x5D,0x00,Read,ACK
3.053421687500000,0,0x5D,0x00,Read,ACK
3.053443156250000,0,0x5D,0xE2,Read,ACK
3.053464656250000,0,0x5D,0x16,Read,ACK
3.053486093750000,0,0x5D,0x03,Read,ACK
3.053507562500000,0,0x5D,0x00,Read,ACK
3.053529031250000,0,0x5D,0x00,Read,ACK
3.053550531250000,0,0x5D,0x00,Read,ACK
3.053571968750000,0,0x5D,0x00,Read,ACK
3.053593718750000,0,0x5D,0x00,Read,ACK
3.053615218750000,0,0x5D,0x00,Read,ACK
3.053638656250000,0,0x5D,0x00,Read,ACK
3.053660093750000,0,0x5D,0x00,Read,ACK
3.053681593750000,0,0x5D,0x00,Read,ACK
3.053704000000000,0,0x5D,0x00,Read,ACK
3.053725906250000,0,0x5D,0x00,Read,ACK
3.053747343750000,0,0x5D,0x00,Read,ACK
3.053768968750000,0,0x5D,0x00,Read,ACK
3.053790406250000,0,0x5D,0x00,Read,ACK
3.053811906250000,0,0x5D,0x00,Read,ACK
3.053834406250000,0,0x5D,0x00,Read,ACK
3.053857375000000,0,0x5D,0x00,Read,ACK
3.053878875000000,0,0x5D,0x00,Read,NAK
3.059811031250000,0,0x5D,0x2F,Read,ACK
3.059841281250000,0,0x5D,0x00,Read,ACK
3.059864843750000,0,0x5D,0x04,Read,ACK
3.059886375000000,0,0x5D,0x03,Read,ACK
3.059907843750000,0,0x5D,0x71,Read,ACK
3.059929312500000,0,0x5D,0x09,Read,ACK
3.059950812500000,0,0x5D,0x0A,Read,ACK
3.059972281250000,0,0x5D,0x05,Read,ACK
3.059993718750000,0,0x5D,0x03,Read,ACK
3.060015218750000,0,0x5D,0x02,Read,ACK
3.060036687500000,0,0x5D,0x20,Read,ACK
3.060061125000000,0,0x5D,0x13,Read,ACK
3.060082625000000,0,0x5D,0x6B,Read,ACK
3.060104250000000,0,0x5D,0x04,Read,ACK
3.060125687500000,0,0x5D,0x0C,Read,ACK
3.060147156250000,0,0x5D,0x05,Read,ACK
3.060168718750000,0,0x5D,0x03,Read,ACK
3.060190250000000,0,0x5D,0x03,Read,ACK
3.060211750000000,0,0x5D,0x20,Read,ACK
3.060233218750000,0,0x5D,0x23,Read,ACK
3.060254718750000,0,0x5D,0xDB,Read,ACK
3.060276156250000,0,0x5D,0x06,Read,ACK
3.060297625000000,0,0x5D,0x46,Read,ACK
3.060319093750000,0,0x5D,0x04,Read,ACK
3.060340593750000,0,0x5D,0x03,Read,ACK
3.060362062500000,0,0x5D,0x03,Read,ACK
3.060383531250000,0,0x5D,0x20,Read,ACK
3.060405000000000,0,0x5D,0x00,Read,ACK
3.060426468750000,0,0x5D,0x00,Read,ACK
3.060447937500000,0,0x5D,0x00,Read,ACK
3.060469406250000,0,0x5D,0x00,Read,ACK
3.060490875000000,0,0x5D,0x00,Read,ACK
3.060512343750000,0,0x5D,0x00,Read,ACK
3.060533812500000,0,0x5D,0x00,Read,ACK
3.060556187500000,0,0x5D,0x00,Read,ACK
3.060577687500000,0,0x5D,0x00,Read,ACK
3.060599156250000,0,0x5D,0x00,Read,ACK
3.060620625000000,0,0x5D,0x00,Read,ACK
3.060642093750000,0,0x5D,0x00,Read,ACK
3.060663562500000,0,0x5D,0x00,Read,ACK
3.060685031250000,0,0x5D,0x00,Read,ACK
3.060706531250000,0,0x5D,0x00,Read,ACK
3.060727968750000,0,0x5D,0x00,Read,ACK
3.060749437500000,0,0x5D,0x28,Read,ACK
3.060770937500000,0,0x5D,0x17,Read,ACK
3.060792406250000,0,0x5D,0x03,Read,ACK
3.060813875000000,0,0x5D,0x00,Read,ACK
3.060837156250000,0,0x5D,0x00,Read,ACK
3.060863437500000,0,0x5D,0x00,Read,ACK
3.060885125000000,0,0x5D,0x00,Read,ACK
3.060911406250000,0,0x5D,0x00,Read,ACK
3.060934312500000,0,0x5D,0x00,Read,ACK
3.060956031250000,0,0x5D,0x00,Read,ACK
3.060977531250000,0,0x5D,0x00,Read,ACK
3.060999000000000,0,0x5D,0x00,Read,ACK
3.061020468750000,0,0x5D,0x00,Read,ACK
3.061041906250000,0,0x5D,0x00,Read,ACK
3.061063406250000,0,0x5D,0x00,Read,ACK
3.061084968750000,0,0x5D,0x00,Read,ACK
3.061106468750000,0,0x5D,0x00,Read,ACK
3.061128468750000,0,0x5D,0x00,Read,ACK
3.061149968750000,0,0x5D,0x00,Read,ACK
3.061171750000000,0,0x5D,0x00,Read,ACK
3.061193250000000,0,0x5D,0x00,Read,NAK
3.067248781250000,0,0x5D,0x2F,Read,ACK
3.067279093750000,0,0x5D,0x00,Read,ACK
3.067300593750000,0,0x5D,0x04,Read,ACK
3.067322375000000,0,0x5D,0x03,Read,ACK
3.067343843750000,0,0x5D,0x65,Read,ACK
3.067365312500000,0,0x5D,0x09,Read,ACK
3.067386750000000,0,0x5D,0xFC,Read,ACK
3.067408937500000,0,0x5D,0x04,Read,ACK
3.067430406250000,0,0x5D,0x03,Read,ACK
3.067451875000000,0,0x5D,0x02,Read,ACK
3.067474125000000,0,0x5D,0x20,Read,ACK
3.067495562500000,0,0x5D,0x13,Read,ACK
3.067517031250000,0,0x5D,0x5E,Read,ACK
3.067538593750000,0,0x5D,0x04,Read,ACK
3.067560031250000,0,0x5D,0xFE,Read,ACK
3.067581500000000,0,0x5D,0x04,Read,ACK
3.067602968750000,0,0x5D,0x03,Read,ACK
3.067624437500000,0,0x5D,0x03,Read,ACK
3.067645906250000,0,0x5D,0x20,Read,ACK
3.067667375000000,0,0x5D,0x23,Read,ACK
3.067688843750000,0,0x5D,0xCD,Read,ACK
3.067710312500000,0,0x5D,0x06,Read,ACK
3.067731812500000,0,0x5D,0x37,Read,ACK
3.067753250000000,0,0x5D,0x04,Read,ACK
3.067774718750000,0,0x5D,0x03,Read,ACK
3.067796187500000,0,0x5D,0x03,Read,ACK
3.067817656250000,0,0x5D,0x20,Read,ACK
3.067839125000000,0,0x5D,0x00,Read,ACK
3.067860593750000,0,0x5D,0x00,Read,ACK
3.067882093750000,0,0x5D,0x00,Read,ACK
3.067903562500000,0,0x5D,0x00,Read,ACK
3.067925031250000,0,0x5D,0x00,Read,ACK
3.067946500000000,0,0x5D,0x00,Read,ACK
3.067967968750000,0,0x5D,0x00,Read,ACK
3.067989625000000,0,0x5D,0x00,Read,ACK
3.068013937500000,0,0x5D,0x00,Read,ACK
3.068036093750000,0,0x5D,0x00,Read,ACK
3.068057593750000,0,0x5D,0x00,Read,ACK
3.068079937500000,0,0x5D,0x00,Read,ACK
3.068101406250000,0,0x5D,0x00,Read,ACK
3.068122875000000,0,0x5D,0x00,Read,ACK
3.068144781250000,0,0x5D,0x00,Read,ACK
3.068166593750000,0,0x5D,0x00,Read,ACK
3.068190625000000,0,0x5D,0x6E,Read,ACK
3.068212093750000,0,0x5D,0x17,Read,ACK
3.068233531250000,0,0x5D,0x03,Read,ACK
3.068255000000000,0,0x5D,0x00,Read,ACK
3.068276656250000,0,0x5D,0x00,Read,ACK
3.068298156250000,0,0x5D,0x00,Read,ACK
3.068319625000000,0,0x5D,0x00,Read,ACK
3.068341093750000,0,0x5D,0x00,Read,ACK
3.068363187500000,0,0x5D,0x00,Read,ACK
3.068386218750000,0,0x5D,0x00,Read,ACK
3.068408406250000,0,0x5D,0x00,Read,ACK
3.068430781250000,0,0x5D,0x00,Read,ACK
3.068453343750000,0,0x5D,0x00,Read,ACK
3.068474781250000,0,0x5D,0x00,Read,ACK
3.068496250000000,0,0x5D,0x00,Read,ACK
3.068517750000000,0,0x5D,0x00,Read,ACK
3.068539187500000,0,0x5D,0x00,Read,ACK
3.068560656250000,0,0x5D,0x00,Read,ACK
3.068582812500000,0,0x5D,0x00,Read,ACK
3.068605593750000,0,0x5D,0x00,Read,ACK
3.068627062500000,0,0x5D,0x00,Read,NAK
3.074483750000000,0,0x5D,0x2F,Read,ACK
3.074512562500000,0,0x5D,0x00,Read,ACK
3.074534031250000,0,0x5D,0x04,Read,ACK
3.074555500000000,0,0x5D,0x03,Read,ACK
3.074576937500000,0,0x5D,0x59,Read,ACK
3.074598468750000,0,0x5D,0x09,Read,ACK
3.074619968750000,0,0x5D,0xEC,Read,ACK
3.074641500000000,0,0x5D,0x04,Read,ACK
3.074662968750000,0,0x5D,0x03,Read,ACK
3.074684437500000,0,0x5D,0x03,Read,ACK
3.074705906250000,0,0x5D,0x20,Read,ACK
3.074727375000000,0,0x5D,0x13,Read,ACK
3.074748843750000,0,0x5D,0x53,Read,ACK
3.074770343750000,0,0x5D,0x04,Read,ACK
3.074791781250000,0,0x5D,0xEF,Read,ACK
3.074813250000000,0,0x5D,0x04,Read,ACK
3.074834718750000,0,0x5D,0x03,Read,ACK
3.074857781250000,0,0x5D,0x03,Read,ACK
3.074879218750000,0,0x5D,0x20,Read,ACK
3.074900718750000,0,0x5D,0x23,Read,ACK
3.074922156250000,0,0x5D,0xC2,Read,ACK
3.074943656250000,0,0x5D,0x06,Read,ACK
3.074965125000000,0,0x5D,0x29,Read,ACK
3.074986593750000,0,0x5D,0x04,Read,ACK
3.075008093750000,0,0x5D,0x03,Read,ACK
3.075029531250000,0,0x5D,0x03,Read,ACK
3.075051000000000,0,0x5D,0x20,Read,ACK
3.075073718750000,0,0x5D,0x00,Read,ACK
3.075095500000000,0,0x5D,0x00,Read,ACK
3.075123187500000,0,0x5D,0x00,Read,ACK
3.075147750000000,0,0x5D,0x00,Read,ACK
3.075169343750000,0,0x5D,0x00,Read,ACK
3.075190812500000,0,0x5D,0x00,Read,ACK
3.075212281250000,0,0x5D,0x00,Read,ACK
3.075233750000000,0,0x5D,0x00,Read,ACK
3.075255375000000,0,0x5D,0x00,Read,ACK
3.075276937500000,0,0x5D,0x00,Read,ACK
3.075300125000000,0,0x5D,0x00,Read,ACK
3.075322750000000,0,0x5D,0x00,Read,ACK
3.075344218750000,0,0x5D,0x00,Read,ACK
3.075366187500000,0,0x5D,0x00,Read,ACK
3.075387625000000,0,0x5D,0x00,Read,ACK
3.075409093750000,0,0x5D,0x00,Read,ACK
3.075431093750000,0,0x5D,0xB4,Read,ACK
3.075452531250000,0,0x5D,0x17,Read,ACK
3.075474031250000,0,0x5D,0x03,Read,ACK
3.075495468750000,0,0x5D,0x00,Read,ACK
3.075518593750000,0,0x5D,0x00,Read,ACK
3.075540093750000,0,0x5D,0x00,Read,ACK
3.075561687500000,0,0x5D,0x00,Read,ACK
3.075583156250000,0,0x5D,0x00,Read,ACK
3.075604656250000,0,0x5D,0x00,Read,ACK
3.075626750000000,0,0x5D,0x00,Read,ACK
3.075648250000000,0,0x5D,0x00,Read,ACK
3.075669718750000,0,0x5D,0x00,Read,ACK
3.075691437500000,0,0x5D,0x00,Read,ACK
3.075713281250000,0,0x5D,0x00,Read,ACK
3.075734781250000,0,0x5D,0x00,Read,ACK
3.075756218750000,0,0x5D,0x00,Read,ACK
3.075777906250000,0,0x5D,0x00,Read,ACK
3.075799375000000,0,0x5D,0x00,Read,ACK
3.075820812500000,0,0x5D,0x00,Read,ACK
3.075843125000000,0,0x5D,0x00,Read,ACK
3.075864906250000,0,0x5D,0x00,Read,NAK
3.081760781250000,0,0x5D,0x2F,Read,ACK
3.081788968750000,0,0x5D,0x00,Read,ACK
3.081810406250000,0,0x5D,0x04,Read,ACK
3.081831906250000,0,0x5D,0x03,Read,ACK
3.081853375000000,0,0x5D,0x50,Read,ACK
3.081874843750000,0,0x5D,0x09,Read,ACK
3.081896312500000,0,0x5D,0xDB,Read,ACK
3.081917781250000,0,0x5D,0x04,Read,ACK
3.081939281250000,0,0x5D,0x03,Read,ACK
3.081960718750000,0,0x5D,0x03,Read,ACK
3.081982218750000,0,0x5D,0x20,Read,ACK
3.082003656250000,0,0x5D,0x13,Read,ACK
3.082025156250000,0,0x5D,0x49,Read,ACK
3.082046625000000,0,0x5D,0x04,Read,ACK
3.082068062500000,0,0x5D,0xDE,Read,ACK
3.082089562500000,0,0x5D,0x04,Read,ACK
3.082111062500000,0,0x5D,0x03,Read,ACK
3.082132562500000,0,0x5D,0x03,Read,ACK
3.082154031250000,0,0x5D,0x20,Read,ACK
3.082175687500000,0,0x5D,0x23,Read,ACK
3.082197156250000,0,0x5D,0xB9,Read,ACK
3.082220968750000,0,0x5D,0x06,Read,ACK
3.082242718750000,0,0x5D,0x19,Read,ACK
3.082264187500000,0,0x5D,0x04,Read,ACK
3.082285656250000,0,0x5D,0x03,Read,ACK
3.082308343750000,0,0x5D,0x02,Read,ACK
3.082329968750000,0,0x5D,0x20,Read,ACK
3.082351437500000,0,0x5D,0x00,Read,ACK
3.082372906250000,0,0x5D,0x00,Read,ACK
3.082394656250000,0,0x5D,0x00,Read,ACK
3.082417062500000,0,0x5D,0x00,Read,ACK
3.082438937500000,0,0x5D,0x00,Read,ACK
3.082461531250000,0,0x5D,0x00,Read,ACK
3.082484593750000,0,0x5D,0x00,Read,ACK
3.082506031250000,0,0x5D,0x00,Read,ACK
3.082528218750000,0,0x5D,0x00,Read,ACK
3.082549687500000,0,0x5D,0x00,Read,ACK
3.082571156250000,0,0x5D,0x00,Read,ACK
3.082592625000000,0,0x5D,0x00,Read,ACK
3.082614093750000,0,0x5D,0x00,Read,ACK
3.082635562500000,0,0x5D,0x00,Read,ACK
3.082657500000000,0,0x5D,0x00,Read,ACK
3.082679031250000,0,0x5D,0x00,Read,ACK
3.082700468750000,0,0x5D,0xFA,Read,ACK
3.082721937500000,0,0x5D,0x17,Read,ACK
3.082743437500000,0,0x5D,0x03,Read,ACK
3.082764875000000,0,0x5D,0x00,Read,ACK
3.082786531250000,0,0x5D,0x00,Read,ACK
3.082808406250000,0,0x5D,0x00,Read,ACK
3.082830625000000,0,0x5D,0x00,Read,ACK
3.082852125000000,0,0x5D,0x00,Read,ACK
3.082874437500000,0,0x5D,0x00,Read,ACK
3.082896187500000,0,0x5D,0x00,Read,ACK
3.082917656250000,0,0x5D,0x00,Read,ACK
3.082939187500000,0,0x5D,0x00,Read,ACK
3.082961531250000,0,0x5D,0x00,Read,ACK
3.082983250000000,0,0x5D,0x00,Read,ACK
3.083004687500000,0,0x5D,0x00,Read,ACK
3.083026156250000,0,0x5D,0x00,Read,ACK
3.083047656250000,0,0x5D,0x00,Read,ACK
3.083069093750000,0,0x5D,0x00,Read,ACK
3.083090593750000,0,0x5D,0x00,Read,ACK
3.083112468750000,0,0x5D,0x00,Read,ACK
3.083134218750000,0,0x5D,0x00,Read,NAK
3.088470625000000,0,0x5D,0x2F,Read,ACK
3.088496187500000,0,0x5D,0x00,Read,ACK
3.088517687500000,0,0x5D,0x04,Read,ACK
3.088539156250000,0,0x5D,0x03,Read,ACK
3.088560625000000,0,0x5D,0x48,Read,ACK
3.088582093750000,0,0x5D,0x09,Read,ACK
3.088603562500000,0,0x5D,0xC9,Read,ACK
3.088625750000000,0,0x5D,0x04,Read,ACK
3.088648343750000,0,0x5D,0x03,Read,ACK
3.088669781250000,0,0x5D,0x03,Read,ACK
3.088691250000000,0,0x5D,0x20,Read,ACK
3.088712718750000,0,0x5D,0x13,Read,ACK
3.088734750000000,0,0x5D,0x41,Read,ACK
3.088757531250000,0,0x5D,0x04,Read,ACK
3.088779031250000,0,0x5D,0xCC,Read,ACK
3.088801031250000,0,0x5D,0x04,Read,ACK
3.088822531250000,0,0x5D,0x03,Read,ACK
3.088844000000000,0,0x5D,0x03,Read,ACK
3.088865500000000,0,0x5D,0x20,Read,ACK
3.088887406250000,0,0x5D,0x23,Read,ACK
3.088908843750000,0,0x5D,0xB1,Read,ACK
3.088930312500000,0,0x5D,0x06,Read,ACK
3.088951812500000,0,0x5D,0x09,Read,ACK
3.088973281250000,0,0x5D,0x04,Read,ACK
3.088994750000000,0,0x5D,0x03,Read,ACK
3.089016218750000,0,0x5D,0x02,Read,ACK
3.089037718750000,0,0x5D,0x20,Read,ACK
3.089059156250000,0,0x5D,0x00,Read,ACK
3.089080625000000,0,0x5D,0x00,Read,ACK
3.089102125000000,0,0x5D,0x00,Read,ACK
3.089123906250000,0,0x5D,0x00,Read,ACK
3.089145343750000,0,0x5D,0x00,Read,ACK
3.089166812500000,0,0x5D,0x00,Read,ACK
3.089188312500000,0,0x5D,0x00,Read,ACK
3.089209781250000,0,0x5D,0x00,Read,ACK
3.089231250000000,0,0x5D,0x00,Read,ACK
3.089252687500000,0,0x5D,0x00,Read,ACK
3.089274187500000,0,0x5D,0x00,Read,ACK
3.089295656250000,0,0x5D,0x00,Read,ACK
3.089317125000000,0,0x5D,0x00,Read,ACK
3.089338593750000,0,0x5D,0x00,Read,ACK
3.089360062500000,0,0x5D,0x00,Read,ACK
3.089381531250000,0,0x5D,0x00,Read,ACK
3.089404562500000,0,0x5D,0x40,Read,ACK
3.089427656250000,0,0x5D,0x18,Read,ACK
3.089449125000000,0,0x5D,0x03,Read,ACK
3.089471062500000,0,0x5D,0x00,Read,ACK
3.089492500000000,0,0x5D,0x00,Read,ACK
3.089513968750000,0,0x5D,0x00,Read,ACK
3.089535437500000,0,0x5D,0x00,Read,ACK
3.089557218750000,0,0x5D,0x00,Read,ACK
3.089578937500000,0,0x5D,0x00,Read,ACK
3.089600906250000,0,0x5D,0x00,Read,ACK
3.089622593750000,0,0x5D,0x00,Read,ACK
3.089644968750000,0,0x5D,0x00,Read,ACK
3.089666468750000,0,0x5D,0x00,Read,ACK
3.089687906250000,0,0x5D,0x00,Read,ACK
3.089709406250000,0,0x5D,0x00,Read,ACK
3.089730875000000,0,0x5D,0x00,Read,ACK
3.089753687500000,0,0x5D,0x00,Read,ACK
3.089776125000000,0,0x5D,0x00,Read,ACK
3.089797593750000,0,0x5D,0x00,Read,ACK
3.089820093750000,0,0x5D,0x00,Read,ACK
3.089841593750000,0,0x5D,0x00,Read,NAK
3.095393750000000,0,0x5D,0x2F,Read,ACK
3.095422218750000,0,0x5D,0x00,Read,ACK
3.095443781250000,0,0x5D,0x04,Read,ACK
3.095465281250000,0,0x5D,0x03,Read,ACK
3.095486750000000,0,0x5D,0x42,Read,ACK
3.095508218750000,0,0x5D,0x09,Read,ACK
3.095529687500000,0,0x5D,0xB9,Read,ACK
3.095551187500000,0,0x5D,0x04,Read,ACK
3.095572625000000,0,0x5D,0x03,Read,ACK
3.095594125000000,0,0x5D,0x03,Read,ACK
3.095617187500000,0,0x5D,0x20,Read,ACK
3.095642187500000,0,0x5D,0x13,Read,ACK
3.095663656250000,0,0x5D,0x3B,Read,ACK
3.095685125000000,0,0x5D,0x04,Read,ACK
3.095706562500000,0,0x5D,0xBB,Read,ACK
3.095728093750000,0,0x5D,0x04,Read,ACK
3.095749531250000,0,0x5D,0x03,Read,ACK
3.095771031250000,0,0x5D,0x03,Read,ACK
3.095792468750000,0,0x5D,0x20,Read,ACK
3.095814750000000,0,0x5D,0x23,Read,ACK
3.095836218750000,0,0x5D,0xAB,Read,ACK
3.095857687500000,0,0x5D,0x06,Read,ACK
3.095879156250000,0,0x5D,0xF7,Read,ACK
3.095900656250000,0,0x5D,0x03,Read,ACK
3.095922562500000,0,0x5D,0x03,Read,ACK
3.095944156250000,0,0x5D,0x02,Read,ACK
3.095965625000000,0,0x5D,0x20,Read,ACK
3.095987093750000,0,0x5D,0x00,Read,ACK
3.096008593750000,0,0x5D,0x00,Read,ACK
3.096030031250000,0,0x5D,0x00,Read,ACK
3.096051500000000,0,0x5D,0x00,Read,ACK
3.096073375000000,0,0x5D,0x00,Read,ACK
3.096094843750000,0,0x5D,0x00,Read,ACK
3.096116312500000,0,0x5D,0x00,Read,ACK
3.096137781250000,0,0x5D,0x00,Read,ACK
3.096159281250000,0,0x5D,0x00,Read,ACK
3.096180718750000,0,0x5D,0x00,Read,ACK
3.096202187500000,0,0x5D,0x00,Read,ACK
3.096223656250000,0,0x5D,0x00,Read,ACK
3.096245125000000,0,0x5D,0x00,Read,ACK
3.096266625000000,0,0x5D,0x00,Read,ACK
3.096288062500000,0,0x5D,0x00,Read,ACK
3.096309562500000,0,0x5D,0x00,Read,ACK
3.096331031250000,0,0x5D,0x86,Read,ACK
3.096352500000000,0,0x5D,0x18,Read,ACK
3.096374250000000,0,0x5D,0x03,Read,ACK
3.096395750000000,0,0x5D,0x00,Read,ACK
3.096417218750000,0,0x5D,0x00,Read,ACK
3.096438906250000,0,0x5D,0x00,Read,ACK
3.096460406250000,0,0x5D,0x00,Read,ACK
3.096481875000000,0,0x5D,0x00,Read,ACK
3.096503343750000,0,0x5D,0x00,Read,ACK
3.096524843750000,0,0x5D,0x00,Read,ACK
3.096546343750000,0,0x5D,0x00,Read,ACK
3.096567812500000,0,0x5D,0x00,Read,ACK
3.096591500000000,0,0x5D,0x00,Read,ACK
3.096615125000000,0,0x5D,0x00,Read,ACK
3.096637156250000,0,0x5D,0x00,Read,ACK
3.096659000000000,0,0x5D,0x00,Read,ACK
3.096681843750000,0,0x5D,0x00,Read,ACK
3.096703312500000,0,0x5D,0x00,Read,ACK
3.096724812500000,0,0x5D,0x00,Read,ACK
3.096747531250000,0,0x5D,0x00,Read,ACK
3.096769187500000,0,0x5D,0x00,Read,NAK
3.102533031250000,0,0x5D,0x2F,Read,ACK
3.102560187500000,0,0x5D,0x00,Read,ACK
3.102583125000000,0,0x5D,0x04,Read,ACK
3.102604562500000,0,0x5D,0x03,Read,ACK
3.102626062500000,0,0x5D,0x3F,Read,ACK
3.102647531250000,0,0x5D,0x09,Read,ACK
3.102669000000000,0,0x5D,0xA9,Read,ACK
3.102691281250000,0,0x5D,0x04,Read,ACK
3.102712843750000,0,0x5D,0x03,Read,ACK
3.102737687500000,0,0x5D,0x03,Read,ACK
3.102759125000000,0,0x5D,0x20,Read,ACK
3.102780593750000,0,0x5D,0x13,Read,ACK
3.102802062500000,0,0x5D,0x37,Read,ACK
3.102823562500000,0,0x5D,0x04,Read,ACK
3.102845000000000,0,0x5D,0xA9,Read,ACK
3.102866468750000,0,0x5D,0x04,Read,ACK
3.102887968750000,0,0x5D,0x03,Read,ACK
3.102909406250000,0,0x5D,0x03,Read,ACK
3.102930906250000,0,0x5D,0x20,Read,ACK
3.102952375000000,0,0x5D,0x23,Read,ACK
3.102975468750000,0,0x5D,0xA7,Read,ACK
3.102996937500000,0,0x5D,0x06,Read,ACK
3.103018375000000,0,0x5D,0xE4,Read,ACK
3.103039875000000,0,0x5D,0x03,Read,ACK
3.103062593750000,0,0x5D,0x03,Read,ACK
3.103084531250000,0,0x5D,0x03,Read,ACK
3.103106031250000,0,0x5D,0x20,Read,ACK
3.103127500000000,0,0x5D,0x00,Read,ACK
3.103148968750000,0,0x5D,0x00,Read,ACK
3.103170718750000,0,0x5D,0x00,Read,ACK
3.103193562500000,0,0x5D,0x00,Read,ACK
3.103215031250000,0,0x5D,0x00,Read,ACK
3.103236937500000,0,0x5D,0x00,Read,ACK
3.103258375000000,0,0x5D,0x00,Read,ACK
3.103279875000000,0,0x5D,0x00,Read,ACK
3.103301343750000,0,0x5D,0x00,Read,ACK
3.103323031250000,0,0x5D,0x00,Read,ACK
3.103344468750000,0,0x5D,0x00,Read,ACK
3.103365968750000,0,0x5D,0x00,Read,ACK
3.103387468750000,0,0x5D,0x00,Read,ACK
3.103408968750000,0,0x5D,0x00,Read,ACK
3.103430437500000,0,0x5D,0x00,Read,ACK
3.103451906250000,0,0x5D,0x00,Read,ACK
3.103473406250000,0,0x5D,0xCC,Read,ACK
3.103495093750000,0,0x5D,0x18,Read,ACK
3.103516562500000,0,0x5D,0x03,Read,ACK
3.103538062500000,0,0x5D,0x00,Read,ACK
3.103559531250000,0,0x5D,0x00,Read,ACK
3.103581000000000,0,0x5D,0x00,Read,ACK
3.103602437500000,0,0x5D,0x00,Read,ACK
3.103623937500000,0,0x5D,0x00,Read,ACK
3.103645406250000,0,0x5D,0x00,Read,ACK
3.103668031250000,0,0x5D,0x00,Read,ACK
3.103693281250000,0,0x5D,0x00,Read,ACK
3.103717093750000,0,0x5D,0x00,Read,ACK
3.103742750000000,0,0x5D,0x00,Read,ACK
3.103764531250000,0,0x5D,0x00,Read,ACK
3.103787562500000,0,0x5D,0x00,Read,ACK
3.103809000000000,0,0x5D,0x00,Read,ACK
3.103830468750000,0,0x5D,0x00,Read,ACK
3.103851968750000,0,0x5D,0x00,Read,ACK
3.103873406250000,0,0x5D,0x00,Read,ACK
3.103894875000000,0,0x5D,0x00,Read,ACK
3.103916437500000,0,0x5D,0x00,Read,NAK
3.109785312500000,0,0x5D,0x2F,Read,ACK
3.109812625000000,0,0x5D,0x00,Read,ACK
3.109836093750000,0,0x5D,0x04,Read,ACK
3.109861000000000,0,0x5D,0x03,Read,ACK
3.109882500000000,0,0x5D,0x3E,Read,ACK
3.109904000000000,0,0x5D,0x09,Read,ACK
3.109925468750000,0,0x5D,0x99,Read,ACK
3.109946937500000,0,0x5D,0x04,Read,ACK
3.109968406250000,0,0x5D,0x03,Read,ACK
3.109989875000000,0,0x5D,0x02,Read,ACK
3.110011343750000,0,0x5D,0x20,Read,ACK
3.110032843750000,0,0x5D,0x13,Read,ACK
3.110055562500000,0,0x5D,0x34,Read,ACK
3.110078625000000,0,0x5D,0x04,Read,ACK
3.110100093750000,0,0x5D,0x96,Read,ACK
3.110121593750000,0,0x5D,0x04,Read,ACK
3.110143062500000,0,0x5D,0x03,Read,ACK
3.110164781250000,0,0x5D,0x03,Read,ACK
3.110186500000000,0,0x5D,0x20,Read,ACK
3.110207968750000,0,0x5D,0x23,Read,ACK
3.110229437500000,0,0x5D,0xA5,Read,ACK
3.110250906250000,0,0x5D,0x06,Read,ACK
3.110272593750000,0,0x5D,0xD1,Read,ACK
3.110294062500000,0,0x5D,0x03,Read,ACK
3.110315500000000,0,0x5D,0x03,Read,ACK
3.110337000000000,0,0x5D,0x03,Read,ACK
3.110358468750000,0,0x5D,0x20,Read,ACK
3.110379968750000,0,0x5D,0x00,Read,ACK
3.110401406250000,0,0x5D,0x00,Read,ACK
3.110422875000000,0,0x5D,0x00,Read,ACK
3.110444343750000,0,0x5D,0x00,Read,ACK
3.110465843750000,0,0x5D,0x00,Read,ACK
3.110487312500000,0,0x5D,0x00,Read,ACK
3.110508906250000,0,0x5D,0x00,Read,ACK
3.110530781250000,0,0x5D,0x00,Read,ACK
3.110552250000000,0,0x5D,0x00,Read,ACK
3.110573750000000,0,0x5D,0x00,Read,ACK
3.110595218750000,0,0x5D,0x00,Read,ACK
3.110616687500000,0,0x5D,0x00,Read,ACK
3.110638156250000,0,0x5D,0x00,Read,ACK
3.110659625000000,0,0x5D,0x00,Read,ACK
3.110681187500000,0,0x5D,0x00,Read,ACK
3.110703062500000,0,0x5D,0x00,Read,ACK
3.110724531250000,0,0x5D,0x12,Read,ACK
3.110746000000000,0,0x5D,0x19,Read,ACK
3.110767500000000,0,0x5D,0x03,Read,ACK
3.110790500000000,0,0x5D,0x00,Read,ACK
3.110814968750000,0,0x5D,0x00,Read,ACK
3.110837000000000,0,0x5D,0x00,Read,ACK
3.110858531250000,0,0x5D,0x00,Read,ACK
3.110880000000000,0,0x5D,0x00,Read,ACK
3.110901718750000,0,0x5D,0x00,Read,ACK
3.110923218750000,0,0x5D,0x00,Read,ACK
3.110944656250000,0,0x5D,0x00,Read,ACK
3.110966156250000,0,0x5D,0x00,Read,ACK
3.110987718750000,0,0x5D,0x00,Read,ACK
3.111009968750000,0,0x5D,0x00,Read,ACK
3.111031437500000,0,0x5D,0x00,Read,ACK
3.111053656250000,0,0x5D,0x00,Read,ACK
3.111075125000000,0,0x5D,0x00,Read,ACK
3.111096593750000,0,0x5D,0x00,Read,ACK
3.111119218750000,0,0x5D,0x00,Read,ACK
3.111142656250000,0,0x5D,0x00,Read,ACK
3.111164125000000,0,0x5D,0x00,Read,NAK
3.116818343750000,0,0x5D,0x2F,Read,ACK
3.116848000000000,0,0x5D,0x00,Read,ACK
3.116872062500000,0,0x5D,0x04,Read,ACK
3.116893562500000,0,0x5D,0x03,Read,ACK
3.116915000000000,0,0x5D,0x3E,Read,ACK
3.116936500000000,0,0x5D,0x09,Read,ACK
3.116957968750000,0,0x5D,0x89,Read,ACK
3.116979437500000,0,0x5D,0x04,Read,ACK
3.117000906250000,0,0x5D,0x03,Read,ACK
3.117022531250000,0,0x5D,0x02,Read,ACK
3.117044968750000,0,0x5D,0x20,Read,ACK
3.117066687500000,0,0x5D,0x13,Read,ACK
3.117088156250000,0,0x5D,0x34,Read,ACK
3.117109625000000,0,0x5D,0x04,Read,ACK
3.117131093750000,0,0x5D,0x83,Read,ACK
3.117152562500000,0,0x5D,0x04,Read,ACK
3.117174031250000,0,0x5D,0x03,Read,ACK
3.117195531250000,0,0x5D,0x03,Read,ACK
3.117216968750000,0,0x5D,0x20,Read,ACK
3.117238750000000,0,0x5D,0x23,Read,ACK
3.117260625000000,0,0x5D,0xA6,Read,ACK
3.117282093750000,0,0x5D,0x06,Read,ACK
3.117303562500000,0,0x5D,0xBF,Read,ACK
3.117325781250000,0,0x5D,0x03,Read,ACK
3.117347250000000,0,0x5D,0x03,Read,ACK
3.117369187500000,0,0x5D,0x03,Read,ACK
3.117390625000000,0,0x5D,0x20,Read,ACK
3.117412093750000,0,0x5D,0x00,Read,ACK
3.117433562500000,0,0x5D,0x00,Read,ACK
3.117455031250000,0,0x5D,0x00,Read,ACK
3.117476562500000,0,0x5D,0x00,Read,ACK
3.117498062500000,0,0x5D,0x00,Read,ACK
3.117519500000000,0,0x5D,0x00,Read,ACK
3.117540968750000,0,0x5D,0x00,Read,ACK
3.117562437500000,0,0x5D,0x00,Read,ACK
3.117583906250000,0,0x5D,0x00,Read,ACK
3.117605375000000,0,0x5D,0x00,Read,ACK
3.117626843750000,0,0x5D,0x00,Read,ACK
3.117648312500000,0,0x5D,0x00,Read,ACK
3.117669781250000,0,0x5D,0x00,Read,ACK
3.117691250000000,0,0x5D,0x00,Read,ACK
3.117712718750000,0,0x5D,0x00,Read,ACK
3.117734218750000,0,0x5D,0x00,Read,ACK
3.117755750000000,0,0x5D,0x58,Read,ACK
3.117777218750000,0,0x5D,0x19,Read,ACK
3.117798687500000,0,0x5D,0x03,Read,ACK
3.117820156250000,0,0x5D,0x00,Read,ACK
3.117841625000000,0,0x5D,0x00,Read,ACK
3.117863093750000,0,0x5D,0x00,Read,ACK
3.117884562500000,0,0x5D,0x00,Read,ACK
3.117906062500000,0,0x5D,0x00,Read,ACK
3.117927500000000,0,0x5D,0x00,Read,ACK
3.117949000000000,0,0x5D,0x00,Read,ACK
3.117970437500000,0,0x5D,0x00,Read,ACK
3.117991906250000,0,0x5D,0x00,Read,ACK
3.118014062500000,0,0x5D,0x00,Read,ACK
3.118035531250000,0,0x5D,0x00,Read,ACK
3.118057031250000,0,0x5D,0x00,Read,ACK
3.118078875000000,0,0x5D,0x00,Read,ACK
3.118101375000000,0,0x5D,0x00,Read,ACK
3.118122875000000,0,0x5D,0x00,Read,ACK
3.118144343750000,0,0x5D,0x00,Read,ACK
3.118165937500000,0,0x5D,0x00,Read,ACK
3.118187375000000,0,0x5D,0x00,Read,NAK
3.124084781250000,0,0x5D,0x2F,Read,ACK
3.124113468750000,0,0x5D,0x00,Read,ACK
3.124134937500000,0,0x5D,0x04,Read,ACK
3.124159593750000,0,0x5D,0x03,Read,ACK
3.124181531250000,0,0x5D,0x40,Read,ACK
3.124203031250000,0,0x5D,0x09,Read,ACK
3.124224500000000,0,0x5D,0x78,Read,ACK
3.124246000000000,0,0x5D,0x04,Read,ACK
3.124267531250000,0,0x5D,0x03,Read,ACK
3.124288968750000,0,0x5D,0x02,Read,ACK
3.124310468750000,0,0x5D,0x20,Read,ACK
3.124331906250000,0,0x5D,0x13,Read,ACK
3.124354781250000,0,0x5D,0x35,Read,ACK
3.124378718750000,0,0x5D,0x04,Read,ACK
3.124400250000000,0,0x5D,0x70,Read,ACK
3.124421750000000,0,0x5D,0x04,Read,ACK
3.124443218750000,0,0x5D,0x03,Read,ACK
3.124464718750000,0,0x5D,0x03,Read,ACK
3.124489375000000,0,0x5D,0x20,Read,ACK
3.124510875000000,0,0x5D,0x23,Read,ACK
3.124532312500000,0,0x5D,0xA8,Read,ACK
3.124553812500000,0,0x5D,0x06,Read,ACK
3.124575281250000,0,0x5D,0xAD,Read,ACK
3.124596750000000,0,0x5D,0x03,Read,ACK
3.124618218750000,0,0x5D,0x03,Read,ACK
3.124639843750000,0,0x5D,0x03,Read,ACK
3.124661343750000,0,0x5D,0x20,Read,ACK
3.124682781250000,0,0x5D,0x00,Read,ACK
3.124704281250000,0,0x5D,0x00,Read,ACK
3.124725750000000,0,0x5D,0x00,Read,ACK
3.124747187500000,0,0x5D,0x00,Read,ACK
3.124768687500000,0,0x5D,0x00,Read,ACK
3.124790156250000,0,0x5D,0x00,Read,ACK
3.124811625000000,0,0x5D,0x00,Read,ACK
3.124833093750000,0,0x5D,0x00,Read,ACK
3.124854562500000,0,0x5D,0x00,Read,ACK
3.124876031250000,0,0x5D,0x00,Read,ACK
3.124897500000000,0,0x5D,0x00,Read,ACK
3.124919000000000,0,0x5D,0x00,Read,ACK
3.124940437500000,0,0x5D,0x00,Read,ACK
3.124961906250000,0,0x5D,0x00,Read,ACK
3.124983406250000,0,0x5D,0x00,Read,ACK
3.125005093750000,0,0x5D,0x00,Read,ACK
3.125026562500000,0,0x5D,0x9E,Read,ACK
3.125048031250000,0,0x5D,0x19,Read,ACK
3.125069500000000,0,0x5D,0x03,Read,ACK
3.125090968750000,0,0x5D,0x00,Read,ACK
3.125112468750000,0,0x5D,0x00,Read,ACK
3.125135343750000,0,0x5D,0x00,Read,ACK
3.125159093750000,0,0x5D,0x00,Read,ACK
3.125180531250000,0,0x5D,0x00,Read,ACK
3.125203281250000,0,0x5D,0x00,Read,ACK
3.125225531250000,0,0x5D,0x00,Read,ACK
3.125247031250000,0,0x5D,0x00,Read,ACK
3.125268468750000,0,0x5D,0x00,Read,ACK
3.125290218750000,0,0x5D,0x00,Read,ACK
3.125312906250000,0,0x5D,0x00,Read,ACK
3.125334375000000,0,0x5D,0x00,Read,ACK
3.125355843750000,0,0x5D,0x00,Read,ACK
3.125378343750000,0,0x5D,0x00,Read,ACK
3.125401125000000,0,0x5D,0x00,Read,ACK
3.125422562500000,0,0x5D,0x00,Read,ACK
3.125444250000000,0,0x5D,0x00,Read,ACK
3.125465750000000,0,0x5D,0x00,Read,NAK
3.131310406250000,0,0x5D,0x2F,Read,ACK
3.131338062500000,0,0x5D,0x00,Read,ACK
3.131359562500000,0,0x5D,0x04,Read,ACK
3.131381031250000,0,0x5D,0x03,Read,ACK
3.131402531250000,0,0x5D,0x44,Read,ACK
3.131423968750000,0,0x5D,0x09,Read,ACK
3.131445468750000,0,0x5D,0x68,Read,ACK
3.131466937500000,0,0x5D,0x04,Read,ACK
3.131488656250000,0,0x5D,0x03,Read,ACK
3.131510281250000,0,0x5D,0x03,Read,ACK
3.131531781250000,0,0x5D,0x20,Read,ACK
3.131553312500000,0,0x5D,0x13,Read,ACK
3.131574781250000,0,0x5D,0x38,Read,ACK
3.131597218750000,0,0x5D,0x04,Read,ACK
3.131618656250000,0,0x5D,0x5D,Read,ACK
3.131640125000000,0,0x5D,0x04,Read,ACK
3.131661625000000,0,0x5D,0x03,Read,ACK
3.131683093750000,0,0x5D,0x03,Read,ACK
3.131704562500000,0,0x5D,0x20,Read,ACK
3.131726031250000,0,0x5D,0x23,Read,ACK
3.131747500000000,0,0x5D,0xAD,Read,ACK
3.131768968750000,0,0x5D,0x06,Read,ACK
3.131790437500000,0,0x5D,0x9D,Read,ACK
3.131811937500000,0,0x5D,0x03,Read,ACK
3.131833375000000,0,0x5D,0x03,Read,ACK
3.131854843750000,0,0x5D,0x03,Read,ACK
3.131876312500000,0,0x5D,0x20,Read,ACK
3.131897812500000,0,0x5D,0x00,Read,ACK
3.131919250000000,0,0x5D,0x00,Read,ACK
3.131940750000000,0,0x5D,0x00,Read,ACK
3.131962218750000,0,0x5D,0x00,Read,ACK
3.131983718750000,0,0x5D,0x00,Read,ACK
3.132005156250000,0,0x5D,0x00,Read,ACK
3.132026625000000,0,0x5D,0x00,Read,ACK
3.132048250000000,0,0x5D,0x00,Read,ACK
3.132069718750000,0,0x5D,0x00,Read,ACK
3.132091156250000,0,0x5D,0x00,Read,ACK
3.132112625000000,0,0x5D,0x00,Read,ACK
3.132134125000000,0,0x5D,0x00,Read,ACK
3.132155593750000,0,0x5D,0x00,Read,ACK
3.132177062500000,0,0x5D,0x00,Read,ACK
3.132198531250000,0,0x5D,0x00,Read,ACK
3.132220000000000,0,0x5D,0x00,Read,ACK
3.132241468750000,0,0x5D,0xE4,Read,ACK
3.132264375000000,0,0x5D,0x19,Read,ACK
3.132287375000000,0,0x5D,0x03,Read,ACK
3.132310468750000,0,0x5D,0x00,Read,ACK
3.132332843750000,0,0x5D,0x00,Read,ACK
3.132354656250000,0,0x5D,0x00,Read,ACK
3.132376093750000,0,0x5D,0x00,Read,ACK
3.132397593750000,0,0x5D,0x00,Read,ACK
3.132419062500000,0,0x5D,0x00,Read,ACK
3.132440531250000,0,0x5D,0x00,Read,ACK
3.132462281250000,0,0x5D,0x00,Read,ACK
3.132483781250000,0,0x5D,0x00,Read,ACK
3.132505250000000,0,0x5D,0x00,Read,ACK
3.132528031250000,0,0x5D,0x00,Read,ACK
3.132549500000000,0,0x5D,0x00,Read,ACK
3.132570968750000,0,0x5D,0x00,Read,ACK
3.132592968750000,0,0x5D,0x00,Read,ACK
3.132614437500000,0,0x5D,0x00,Read,ACK
3.132636937500000,0,0x5D,0x00,Read,ACK
3.132659406250000,0,0x5D,0x00,Read,ACK
3.132680875000000,0,0x5D,0x00,Read,NAK
3.138296187500000,0,0x5D,0x2F,Read,ACK
3.138322593750000,0,0x5D,0x00,Read,ACK
3.138344062500000,0,0x5D,0x04,Read,ACK
3.138365531250000,0,0x5D,0x03,Read,ACK
3.138387000000000,0,0x5D,0x4A,Read,ACK
3.138408500000000,0,0x5D,0x09,Read,ACK
3.138430375000000,0,0x5D,0x58,Read,ACK
3.138455625000000,0,0x5D,0x04,Read,ACK
3.138481187500000,0,0x5D,0x03,Read,ACK
3.138502656250000,0,0x5D,0x03,Read,ACK
3.138524125000000,0,0x5D,0x20,Read,ACK
3.138545593750000,0,0x5D,0x13,Read,ACK
3.138567062500000,0,0x5D,0x3E,Read,ACK
3.138588531250000,0,0x5D,0x04,Read,ACK
3.138610000000000,0,0x5D,0x4B,Read,ACK
3.138632187500000,0,0x5D,0x04,Read,ACK
3.138654781250000,0,0x5D,0x03,Read,ACK
3.138676250000000,0,0x5D,0x04,Read,ACK
3.138697718750000,0,0x5D,0x20,Read,ACK
3.138719156250000,0,0x5D,0x23,Read,ACK
3.138740656250000,0,0x5D,0xB3,Read,ACK
3.138762125000000,0,0x5D,0x06,Read,ACK
3.138784218750000,0,0x5D,0x8E,Read,ACK
3.138805687500000,0,0x5D,0x03,Read,ACK
3.138827531250000,0,0x5D,0x03,Read,ACK
3.138849000000000,0,0x5D,0x02,Read,ACK
3.138870500000000,0,0x5D,0x20,Read,ACK
3.138891968750000,0,0x5D,0x00,Read,ACK
3.138913468750000,0,0x5D,0x00,Read,ACK
3.138934937500000,0,0x5D,0x00,Read,ACK
3.138956437500000,0,0x5D,0x00,Read,ACK
3.138977875000000,0,0x5D,0x00,Read,ACK
3.138999343750000,0,0x5D,0x00,Read,ACK
3.139020812500000,0,0x5D,0x00,Read,ACK
3.139042312500000,0,0x5D,0x00,Read,ACK
3.139063781250000,0,0x5D,0x00,Read,ACK
3.139085218750000,0,0x5D,0x00,Read,ACK
3.139106718750000,0,0x5D,0x00,Read,ACK
3.139128187500000,0,0x5D,0x00,Read,ACK
3.139149656250000,0,0x5D,0x00,Read,ACK
3.139171125000000,0,0x5D,0x00,Read,ACK
3.139192593750000,0,0x5D,0x00,Read,ACK
3.139214093750000,0,0x5D,0x00,Read,ACK
3.139235593750000,0,0x5D,0x2A,Read,ACK
3.139257062500000,0,0x5D,0x1A,Read,ACK
3.139278531250000,0,0x5D,0x03,Read,ACK
3.139300125000000,0,0x5D,0x00,Read,ACK
3.139321625000000,0,0x5D,0x00,Read,ACK
3.139343093750000,0,0x5D,0x00,Read,ACK
3.139364562500000,0,0x5D,0x00,Read,ACK
3.139386031250000,0,0x5D,0x00,Read,ACK
3.139407500000000,0,0x5D,0x00,Read,ACK
3.139429562500000,0,0x5D,0x00,Read,ACK
3.139451062500000,0,0x5D,0x00,Read,ACK
3.139474281250000,0,0x5D,0x00,Read,ACK
3.139495750000000,0,0x5D,0x00,Read,ACK
3.139518750000000,0,0x5D,0x00,Read,ACK
3.139540406250000,0,0x5D,0x00,Read,ACK
3.139561906250000,0,0x5D,0x00,Read,ACK
3.139583406250000,0,0x5D,0x00,Read,ACK
3.139604875000000,0,0x5D,0x00,Read,ACK
3.139626656250000,0,0x5D,0x00,Read,ACK
3.139648125000000,0,0x5D,0x00,Read,ACK
3.139669750000000,0,0x5D,0x00,Read,NAK
3.145384656250000,0,0x5D,0x2F,Read,ACK
3.145413750000000,0,0x5D,0x00,Read,ACK
3.145435218750000,0,0x5D,0x04,Read,ACK
3.145456687500000,0,0x5D,0x03,Read,ACK
3.145478187500000,0,0x5D,0x52,Read,ACK
3.145499625000000,0,0x5D,0x09,Read,ACK
3.145521093750000,0,0x5D,0x48,Read,ACK
3.145542593750000,0,0x5D,0x04,Read,ACK
3.145564031250000,0,0x5D,0x03,Read,ACK
3.145586250000000,0,0x5D,0x03,Read,ACK
3.145610125000000,0,0x5D,0x20,Read,ACK
3.145631718750000,0,0x5D,0x13,Read,ACK
3.145653187500000,0,0x5D,0x44,Read,ACK
3.145674656250000,0,0x5D,0x04,Read,ACK
3.145696125000000,0,0x5D,0x39,Read,ACK
3.145717593750000,0,0x5D,0x04,Read,ACK
3.145739062500000,0,0x5D,0x03,Read,ACK
3.145760531250000,0,0x5D,0x04,Read,ACK
3.145782031250000,0,0x5D,0x20,Read,ACK
3.145803468750000,0,0x5D,0x23,Read,ACK
3.145824968750000,0,0x5D,0xBB,Read,ACK
3.145846406250000,0,0x5D,0x06,Read,ACK
3.145867875000000,0,0x5D,0x7E,Read,ACK
3.145889343750000,0,0x5D,0x03,Read,ACK
3.145911531250000,0,0x5D,0x02,Read,ACK
3.145932968750000,0,0x5D,0x02,Read,ACK
3.145954437500000,0,0x5D,0x20,Read,ACK
3.145976250000000,0,0x5D,0x00,Read,ACK
3.145997687500000,0,0x5D,0x00,Read,ACK
3.146019187500000,0,0x5D,0x00,Read,ACK
3.146040625000000,0,0x5D,0x00,Read,ACK
3.146062125000000,0,0x5D,0x00,Read,ACK
3.146083718750000,0,0x5D,0x00,Read,ACK
3.146105187500000,0,0x5D,0x00,Read,ACK
3.146126656250000,0,0x5D,0x00,Read,ACK
3.146148125000000,0,0x5D,0x00,Read,ACK
3.146169593750000,0,0x5D,0x00,Read,ACK
3.146191062500000,0,0x5D,0x00,Read,ACK
3.146212531250000,0,0x5D,0x00,Read,ACK
3.146234031250000,0,0x5D,0x00,Read,ACK
3.146255468750000,0,0x5D,0x00,Read,ACK
3.146276937500000,0,0x5D,0x00,Read,ACK
3.146298406250000,0,0x5D,0x00,Read,ACK
3.146319875000000,0,0x5D,0x70,Read,ACK
3.146341375000000,0,0x5D,0x1A,Read,ACK
3.146362812500000,0,0x5D,0x03,Read,ACK
3.146384281250000,0,0x5D,0x00,Read,ACK
3.146405750000000,0,0x5D,0x00,Read,ACK
3.146427250000000,0,0x5D,0x00,Read,ACK
3.146448687500000,0,0x5D,0x00,Read,ACK
3.146470187500000,0,0x5D,0x00,Read,ACK
3.146491625000000,0,0x5D,0x00,Read,ACK
3.146513093750000,0,0x5D,0x00,Read,ACK
3.146534562500000,0,0x5D,0x00,Read,ACK
3.146557281250000,0,0x5D,0x00,Read,ACK
3.146582156250000,0,0x5D,0x00,Read,ACK
3.146605093750000,0,0x5D,0x00,Read,ACK
3.146626562500000,0,0x5D,0x00,Read,ACK
3.146648343750000,0,0x5D,0x00,Read,ACK
3.146669812500000,0,0x5D,0x00,Read,ACK
3.146691281250000,0,0x5D,0x00,Read,ACK
3.146714156250000,0,0x5D,0x00,Read,ACK
3.146735625000000,0,0x5D,0x00,Read,ACK
3.146757968750000,0,0x5D,0x00,Read,NAK
3.152535656250000,0,0x5D,0x2F,Read,ACK
3.152561406250000,0,0x5D,0x00,Read,ACK
3.152583031250000,0,0x5D,0x04,Read,ACK
3.152606031250000,0,0x5D,0x03,Read,ACK
3.152627500000000,0,0x5D,0x5C,Read,ACK
3.152648937500000,0,0x5D,0x09,Read,ACK
3.152670406250000,0,0x5D,0x3B,Read,ACK
3.152691875000000,0,0x5D,0x04,Read,ACK
3.152713687500000,0,0x5D,0x03,Read,ACK
3.152740968750000,0,0x5D,0x03,Read,ACK
3.152763593750000,0,0x5D,0x20,Read,ACK
3.152785062500000,0,0x5D,0x13,Read,ACK
3.152806531250000,0,0x5D,0x4D,Read,ACK
3.152828000000000,0,0x5D,0x04,Read,ACK
3.152849500000000,0,0x5D,0x29,Read,ACK
3.152870937500000,0,0x5D,0x04,Read,ACK
3.152892406250000,0,0x5D,0x03,Read,ACK
3.152913875000000,0,0x5D,0x03,Read,ACK
3.152935343750000,0,0x5D,0x20,Read,ACK
3.152956812500000,0,0x5D,0x23,Read,ACK
3.152979250000000,0,0x5D,0xC5,Read,ACK
3.153000718750000,0,0x5D,0x06,Read,ACK
3.153022187500000,0,0x5D,0x70,Read,ACK
3.153043656250000,0,0x5D,0x03,Read,ACK
3.153065125000000,0,0x5D,0x02,Read,ACK
3.153087937500000,0,0x5D,0x02,Read,ACK
3.153109437500000,0,0x5D,0x20,Read,ACK
3.153130906250000,0,0x5D,0x00,Read,ACK
3.153152375000000,0,0x5D,0x00,Read,ACK
3.153173843750000,0,0x5D,0x00,Read,ACK
3.153198218750000,0,0x5D,0x00,Read,ACK
3.153219718750000,0,0x5D,0x00,Read,ACK
3.153241187500000,0,0x5D,0x00,Read,ACK
3.153262656250000,0,0x5D,0x00,Read,ACK
3.153284125000000,0,0x5D,0x00,Read,ACK
3.153305593750000,0,0x5D,0x00,Read,ACK
3.153327093750000,0,0x5D,0x00,Read,ACK
3.153348593750000,0,0x5D,0x00,Read,ACK
3.153370062500000,0,0x5D,0x00,Read,ACK
3.153391531250000,0,0x5D,0x00,Read,ACK
3.153413000000000,0,0x5D,0x00,Read,ACK
3.153434468750000,0,0x5D,0x00,Read,ACK
3.153455937500000,0,0x5D,0x00,Read,ACK
3.153477406250000,0,0x5D,0xB6,Read,ACK
3.153498875000000,0,0x5D,0x1A,Read,ACK
3.153520343750000,0,0x5D,0x03,Read,ACK
3.153541812500000,0,0x5D,0x00,Read,ACK
3.153563281250000,0,0x5D,0x00,Read,ACK
3.153584750000000,0,0x5D,0x00,Read,ACK
3.153606687500000,0,0x5D,0x00,Read,ACK
3.153628187500000,0,0x5D,0x00,Read,ACK
3.153649656250000,0,0x5D,0x00,Read,ACK
3.153671125000000,0,0x5D,0x00,Read,ACK
3.153692593750000,0,0x5D,0x00,Read,ACK
3.153716281250000,0,0x5D,0x00,Read,ACK
3.153740968750000,0,0x5D,0x00,Read,ACK
3.153764500000000,0,0x5D,0x00,Read,ACK
3.153785968750000,0,0x5D,0x00,Read,ACK
3.153808343750000,0,0x5D,0x00,Read,ACK
3.153829843750000,0,0x5D,0x00,Read,ACK
3.153851312500000,0,0x5D,0x00,Read,ACK
3.153873937500000,0,0x5D,0x00,Read,ACK
3.153896125000000,0,0x5D,0x00,Read,ACK
3.153920562500000,0,0x5D,0x00,Read,NAK
3.159760968750000,0,0x5D,0x2F,Read,ACK
3.159787781250000,0,0x5D,0x00,Read,ACK
3.159809250000000,0,0x5D,0x04,Read,ACK
3.159830687500000,0,0x5D,0x03,Read,ACK
3.159853875000000,0,0x5D,0x67,Read,ACK
3.159880000000000,0,0x5D,0x09,Read,ACK
3.159901468750000,0,0x5D,0x2F,Read,ACK
3.159922937500000,0,0x5D,0x04,Read,ACK
3.159944437500000,0,0x5D,0x03,Read,ACK
3.159965906250000,0,0x5D,0x03,Read,ACK
3.159987375000000,0,0x5D,0x20,Read,ACK
3.160008843750000,0,0x5D,0x13,Read,ACK
3.160030312500000,0,0x5D,0x58,Read,ACK
3.160051781250000,0,0x5D,0x04,Read,ACK
3.160074312500000,0,0x5D,0x1B,Read,ACK
3.160096250000000,0,0x5D,0x04,Read,ACK
3.160117750000000,0,0x5D,0x04,Read,ACK
3.160139218750000,0,0x5D,0x03,Read,ACK
3.160160718750000,0,0x5D,0x20,Read,ACK
3.160182375000000,0,0x5D,0x23,Read,ACK
3.160203843750000,0,0x5D,0xD1,Read,ACK
3.160225312500000,0,0x5D,0x06,Read,ACK
3.160246781250000,0,0x5D,0x61,Read,ACK
3.160268281250000,0,0x5D,0x03,Read,ACK
3.160289718750000,0,0x5D,0x03,Read,ACK
3.160311187500000,0,0x5D,0x02,Read,ACK
3.160334031250000,0,0x5D,0x20,Read,ACK
3.160355500000000,0,0x5D,0x00,Read,ACK
3.160376968750000,0,0x5D,0x00,Read,ACK
3.160398468750000,0,0x5D,0x00,Read,ACK
3.160419906250000,0,0x5D,0x00,Read,ACK
3.160441406250000,0,0x5D,0x00,Read,ACK
3.160462875000000,0,0x5D,0x00,Read,ACK
3.160484343750000,0,0x5D,0x00,Read,ACK
3.160505781250000,0,0x5D,0x00,Read,ACK
3.160527437500000,0,0x5D,0x00,Read,ACK
3.160548937500000,0,0x5D,0x00,Read,ACK
3.160570406250000,0,0x5D,0x00,Read,ACK
3.160591875000000,0,0x5D,0x00,Read,ACK
3.160613343750000,0,0x5D,0x00,Read,ACK
3.160635000000000,0,0x5D,0x00,Read,ACK
3.160656500000000,0,0x5D,0x00,Read,ACK
3.160677937500000,0,0x5D,0x00,Read,ACK
3.160699406250000,0,0x5D,0xFC,Read,ACK
3.160720875000000,0,0x5D,0x1A,Read,ACK
3.160742343750000,0,0x5D,0x03,Read,ACK
3.160763812500000,0,0x5D,0x00,Read,ACK
3.160785312500000,0,0x5D,0x00,Read,ACK
3.160806812500000,0,0x5D,0x00,Read,ACK
3.160829968750000,0,0x5D,0x00,Read,ACK
3.160855031250000,0,0x5D,0x00,Read,ACK
3.160877937500000,0,0x5D,0x00,Read,ACK
3.160899593750000,0,0x5D,0x00,Read,ACK
3.160921093750000,0,0x5D,0x00,Read,ACK
3.160942593750000,0,0x5D,0x00,Read,ACK
3.160964062500000,0,0x5D,0x00,Read,ACK
3.160985843750000,0,0x5D,0x00,Read,ACK
3.161007531250000,0,0x5D,0x00,Read,ACK
3.161028968750000,0,0x5D,0x00,Read,ACK
3.161050687500000,0,0x5D,0x00,Read,ACK
3.161072343750000,0,0x5D,0x00,Read,ACK
3.161095187500000,0,0x5D,0x00,Read,ACK
3.161116656250000,0,0x5D,0x00,Read,ACK
3.161139406250000,0,0x5D,0x00,Read,NAK
3.166865531250000,0,0x5D,0x2F,Read,ACK
3.166892218750000,0,0x5D,0x00,Read,ACK
3.166913718750000,0,0x5D,0x04,Read,ACK
3.166935156250000,0,0x5D,0x03,Read,ACK
3.166957218750000,0,0x5D,0x73,Read,ACK
3.166978687500000,0,0x5D,0x09,Read,ACK
3.167000125000000,0,0x5D,0x24,Read,ACK
3.167022375000000,0,0x5D,0x04,Read,ACK
3.167046593750000,0,0x5D,0x03,Read,ACK
3.167068062500000,0,0x5D,0x03,Read,ACK
3.167089500000000,0,0x5D,0x20,Read,ACK
3.167111000000000,0,0x5D,0x13,Read,ACK
3.167132437500000,0,0x5D,0x63,Read,ACK
3.167153906250000,0,0x5D,0x04,Read,ACK
3.167175406250000,0,0x5D,0x0D,Read,ACK
3.167196875000000,0,0x5D,0x04,Read,ACK
3.167219531250000,0,0x5D,0x03,Read,ACK
3.167242531250000,0,0x5D,0x03,Read,ACK
3.167263968750000,0,0x5D,0x20,Read,ACK
3.167285437500000,0,0x5D,0x23,Read,ACK
3.167306906250000,0,0x5D,0xDE,Read,ACK
3.167328375000000,0,0x5D,0x06,Read,ACK
3.167349843750000,0,0x5D,0x53,Read,ACK
3.167371312500000,0,0x5D,0x03,Read,ACK
3.167392812500000,0,0x5D,0x03,Read,ACK
3.167414312500000,0,0x5D,0x02,Read,ACK
3.167436906250000,0,0x5D,0x20,Read,ACK
3.167459781250000,0,0x5D,0x00,Read,ACK
3.167481281250000,0,0x5D,0x00,Read,ACK
3.167502781250000,0,0x5D,0x00,Read,ACK
3.167524312500000,0,0x5D,0x00,Read,ACK
3.167545812500000,0,0x5D,0x00,Read,ACK
3.167567281250000,0,0x5D,0x00,Read,ACK
3.167588750000000,0,0x5D,0x00,Read,ACK
3.167610218750000,0,0x5D,0x00,Read,ACK
3.167631687500000,0,0x5D,0x00,Read,ACK
3.167653187500000,0,0x5D,0x00,Read,ACK
3.167674625000000,0,0x5D,0x00,Read,ACK
3.167696093750000,0,0x5D,0x00,Read,ACK
3.167717562500000,0,0x5D,0x00,Read,ACK
3.167739031250000,0,0x5D,0x00,Read,ACK
3.167760500000000,0,0x5D,0x00,Read,ACK
3.167782000000000,0,0x5D,0x00,Read,ACK
3.167803468750000,0,0x5D,0x42,Read,ACK
3.167824937500000,0,0x5D,0x1B,Read,ACK
3.167846406250000,0,0x5D,0x03,Read,ACK
3.167867875000000,0,0x5D,0x00,Read,ACK
3.167889343750000,0,0x5D,0x00,Read,ACK
3.167910812500000,0,0x5D,0x00,Read,ACK
3.167932281250000,0,0x5D,0x00,Read,ACK
3.167953750000000,0,0x5D,0x00,Read,ACK
3.167975218750000,0,0x5D,0x00,Read,ACK
3.167998343750000,0,0x5D,0x00,Read,ACK
3.168020156250000,0,0x5D,0x00,Read,ACK
3.168043031250000,0,0x5D,0x00,Read,ACK
3.168064625000000,0,0x5D,0x00,Read,ACK
3.168087031250000,0,0x5D,0x00,Read,ACK
3.168109187500000,0,0x5D,0x00,Read,ACK
3.168130843750000,0,0x5D,0x00,Read,ACK
3.168152281250000,0,0x5D,0x00,Read,ACK
3.168173750000000,0,0x5D,0x00,Read,ACK
3.168195218750000,0,0x5D,0x00,Read,ACK
3.168216687500000,0,0x5D,0x00,Read,ACK
3.168239406250000,0,0x5D,0x00,Read,NAK
3.174389187500000,0,0x5D,0x2F,Read,ACK
3.174419375000000,0,0x5D,0x00,Read,ACK
3.174441343750000,0,0x5D,0x04,Read,ACK
3.174462812500000,0,0x5D,0x03,Read,ACK
3.174485218750000,0,0x5D,0x80,Read,ACK
3.174506687500000,0,0x5D,0x09,Read,ACK
3.174528562500000,0,0x5D,0x1C,Read,ACK
3.174550375000000,0,0x5D,0x04,Read,ACK
3.174571875000000,0,0x5D,0x03,Read,ACK
3.174593375000000,0,0x5D,0x02,Read,ACK
3.174614843750000,0,0x5D,0x20,Read,ACK
3.174636656250000,0,0x5D,0x13,Read,ACK
3.174658093750000,0,0x5D,0x70,Read,ACK
3.174679593750000,0,0x5D,0x04,Read,ACK
3.174701062500000,0,0x5D,0x01,Read,ACK
3.174722500000000,0,0x5D,0x04,Read,ACK
3.174744000000000,0,0x5D,0x03,Read,ACK
3.174765437500000,0,0x5D,0x03,Read,ACK
3.174786937500000,0,0x5D,0x20,Read,ACK
3.174808375000000,0,0x5D,0x23,Read,ACK
3.174829875000000,0,0x5D,0xEC,Read,ACK
3.174851343750000,0,0x5D,0x06,Read,ACK
3.174872812500000,0,0x5D,0x46,Read,ACK
3.174894312500000,0,0x5D,0x03,Read,ACK
3.174915750000000,0,0x5D,0x03,Read,ACK
3.174937218750000,0,0x5D,0x02,Read,ACK
3.174958687500000,0,0x5D,0x20,Read,ACK
3.174980156250000,0,0x5D,0x00,Read,ACK
3.175001843750000,0,0x5D,0x00,Read,ACK
3.175023281250000,0,0x5D,0x00,Read,ACK
3.175044750000000,0,0x5D,0x00,Read,ACK
3.175067500000000,0,0x5D,0x00,Read,ACK
3.175088937500000,0,0x5D,0x00,Read,ACK
3.175110406250000,0,0x5D,0x00,Read,ACK
3.175132031250000,0,0x5D,0x00,Read,ACK
3.175153968750000,0,0x5D,0x00,Read,ACK
3.175175468750000,0,0x5D,0x00,Read,ACK
3.175196906250000,0,0x5D,0x00,Read,ACK
3.175218375000000,0,0x5D,0x00,Read,ACK
3.175240312500000,0,0x5D,0x00,Read,ACK
3.175262031250000,0,0x5D,0x00,Read,ACK
3.175283500000000,0,0x5D,0x00,Read,ACK
3.175304968750000,0,0x5D,0x00,Read,ACK
3.175329812500000,0,0x5D,0x88,Read,ACK
3.175351281250000,0,0x5D,0x1B,Read,ACK
3.175372812500000,0,0x5D,0x03,Read,ACK
3.175394343750000,0,0x5D,0x00,Read,ACK
3.175415875000000,0,0x5D,0x00,Read,ACK
3.175437781250000,0,0x5D,0x00,Read,ACK
3.175459250000000,0,0x5D,0x00,Read,ACK
3.175481937500000,0,0x5D,0x00,Read,ACK
3.175503375000000,0,0x5D,0x00,Read,ACK
3.175526875000000,0,0x5D,0x00,Read,ACK
3.175548406250000,0,0x5D,0x00,Read,ACK
3.175570093750000,0,0x5D,0x00,Read,ACK
3.175592375000000,0,0x5D,0x00,Read,ACK
3.175613843750000,0,0x5D,0x00,Read,ACK
3.175635312500000,0,0x5D,0x00,Read,ACK
3.175656781250000,0,0x5D,0x00,Read,ACK
3.175678437500000,0,0x5D,0x00,Read,ACK
3.175700125000000,0,0x5D,0x00,Read,ACK
3.175721562500000,0,0x5D,0x00,Read,ACK
3.175743062500000,0,0x5D,0x00,Read,ACK
3.175764500000000,0,0x5D,0x00,Read,NAK
3.181344156250000,0,0x5D,0x2F,Read,ACK
3.181370718750000,0,0x5D,0x00,Read,ACK
3.181392250000000,0,0x5D,0x04,Read,ACK
3.181413687500000,0,0x5D,0x03,Read,ACK
3.181435156250000,0,0x5D,0x8E,Read,ACK
3.181456625000000,0,0x5D,0x09,Read,ACK
3.181478093750000,0,0x5D,0x14,Read,ACK
3.181499718750000,0,0x5D,0x04,Read,ACK
3.181521687500000,0,0x5D,0x03,Read,ACK
3.181543218750000,0,0x5D,0x02,Read,ACK
3.181565062500000,0,0x5D,0x20,Read,ACK
3.181586531250000,0,0x5D,0x13,Read,ACK
3.181608031250000,0,0x5D,0x7D,Read,ACK
3.181631250000000,0,0x5D,0x04,Read,ACK
3.181652906250000,0,0x5D,0xF6,Read,ACK
3.181674343750000,0,0x5D,0x03,Read,ACK
3.181695812500000,0,0x5D,0x03,Read,ACK
3.181717312500000,0,0x5D,0x03,Read,ACK
3.181738750000000,0,0x5D,0x20,Read,ACK
3.181760250000000,0,0x5D,0x23,Read,ACK
3.181781687500000,0,0x5D,0xFA,Read,ACK
3.181803187500000,0,0x5D,0x06,Read,ACK
3.181824625000000,0,0x5D,0x3B,Read,ACK
3.181846125000000,0,0x5D,0x03,Read,ACK
3.181867593750000,0,0x5D,0x03,Read,ACK
3.181889031250000,0,0x5D,0x02,Read,ACK
3.181910531250000,0,0x5D,0x20,Read,ACK
3.181932000000000,0,0x5D,0x00,Read,ACK
3.181953468750000,0,0x5D,0x00,Read,ACK
3.181974937500000,0,0x5D,0x00,Read,ACK
3.181996406250000,0,0x5D,0x00,Read,ACK
3.182017875000000,0,0x5D,0x00,Read,ACK
3.182039343750000,0,0x5D,0x00,Read,ACK
3.182060812500000,0,0x5D,0x00,Read,ACK
3.182082312500000,0,0x5D,0x00,Read,ACK
3.182103781250000,0,0x5D,0x00,Read,ACK
3.182125250000000,0,0x5D,0x00,Read,ACK
3.182147125000000,0,0x5D,0x00,Read,ACK
3.182168625000000,0,0x5D,0x00,Read,ACK
3.182190093750000,0,0x5D,0x00,Read,ACK
3.182211562500000,0,0x5D,0x00,Read,ACK
3.182233031250000,0,0x5D,0x00,Read,ACK
3.182254500000000,0,0x5D,0x00,Read,ACK
3.182275968750000,0,0x5D,0xCE,Read,ACK
3.182303500000000,0,0x5D,0x1B,Read,ACK
3.182326718750000,0,0x5D,0x03,Read,ACK
3.182349250000000,0,0x5D,0x00,Read,ACK
3.182371156250000,0,0x5D,0x00,Read,ACK
3.182392843750000,0,0x5D,0x00,Read,ACK
3.182414281250000,0,0x5D,0x00,Read,ACK
3.182435781250000,0,0x5D,0x00,Read,ACK
3.182457500000000,0,0x5D,0x00,Read,ACK
3.182479031250000,0,0x5D,0x00,Read,ACK
3.182500593750000,0,0x5D,0x00,Read,ACK
3.182522093750000,0,0x5D,0x00,Read,ACK
3.182543531250000,0,0x5D,0x00,Read,ACK
3.182565562500000,0,0x5D,0x00,Read,ACK
3.182587812500000,0,0x5D,0x00,Read,ACK
3.182611000000000,0,0x5D,0x00,Read,ACK
3.182632781250000,0,0x5D,0x00,Read,ACK
3.182654312500000,0,0x5D,0x00,Read,ACK
3.182677312500000,0,0x5D,0x00,Read,ACK
3.182698781250000,0,0x5D,0x00,Read,ACK
3.182720406250000,0,0x5D,0x00,Read,NAK
3.188287531250000,0,0x5D,0x2F,Read,ACK
3.188317406250000,0,0x5D,0x00,Read,ACK
3.188338843750000,0,0x5D,0x04,Read,ACK
3.188360343750000,0,0x5D,0x03,Read,ACK
3.188381781250000,0,0x5D,0x9B,Read,ACK
3.188403281250000,0,0x5D,0x09,Read,ACK
3.188425187500000,0,0x5D,0x0F,Read,ACK
3.188447187500000,0,0x5D,0x04,Read,ACK
3.188470500000000,0,0x5D,0x03,Read,ACK
3.188491968750000,0,0x5D,0x02,Read,ACK
3.188513437500000,0,0x5D,0x20,Read,ACK
3.188534906250000,0,0x5D,0x13,Read,ACK
3.188556406250000,0,0x5D,0x89,Read,ACK
3.188577875000000,0,0x5D,0x04,Read,ACK
3.188599343750000,0,0x5D,0xEE,Read,ACK
3.188620812500000,0,0x5D,0x03,Read,ACK
3.188642281250000,0,0x5D,0x03,Read,ACK
3.188666156250000,0,0x5D,0x03,Read,ACK
3.188688062500000,0,0x5D,0x20,Read,ACK
3.188709843750000,0,0x5D,0x23,Read,ACK
3.188731343750000,0,0x5D,0x08,Read,ACK
3.188752843750000,0,0x5D,0x07,Read,ACK
3.188774281250000,0,0x5D,0x33,Read,ACK
3.188795781250000,0,0x5D,0x03,Read,ACK
3.188817250000000,0,0x5D,0x03,Read,ACK
3.188838718750000,0,0x5D,0x03,Read,ACK
3.188860218750000,0,0x5D,0x20,Read,ACK
3.188881687500000,0,0x5D,0x00,Read,ACK
3.188904562500000,0,0x5D,0x00,Read,ACK
3.188926062500000,0,0x5D,0x00,Read,ACK
3.188947531250000,0,0x5D,0x00,Read,ACK
3.188969000000000,0,0x5D,0x00,Read,ACK
3.188990468750000,0,0x5D,0x00,Read,ACK
3.189011937500000,0,0x5D,0x00,Read,ACK
3.189033406250000,0,0x5D,0x00,Read,ACK
3.189054875000000,0,0x5D,0x00,Read,ACK
3.189076343750000,0,0x5D,0x00,Read,ACK
3.189097843750000,0,0x5D,0x00,Read,ACK
3.189119281250000,0,0x5D,0x00,Read,ACK
3.189140781250000,0,0x5D,0x00,Read,ACK
3.189162250000000,0,0x5D,0x00,Read,ACK
3.189183718750000,0,0x5D,0x00,Read,ACK
3.189205187500000,0,0x5D,0x00,Read,ACK
3.189226656250000,0,0x5D,0x14,Read,ACK
3.189248125000000,0,0x5D,0x1C,Read,ACK
3.189269593750000,0,0x5D,0x03,Read,ACK
3.189291062500000,0,0x5D,0x00,Read,ACK
3.189312562500000,0,0x5D,0x00,Read,ACK
3.189334000000000,0,0x5D,0x00,Read,ACK
3.189355500000000,0,0x5D,0x00,Read,ACK
3.189376968750000,0,0x5D,0x00,Read,ACK
3.189398437500000,0,0x5D,0x00,Read,ACK
3.189423781250000,0,0x5D,0x00,Read,ACK
3.189448531250000,0,0x5D,0x00,Read,ACK
3.189470500000000,0,0x5D,0x00,Read,ACK
3.189493437500000,0,0x5D,0x00,Read,ACK
3.189514906250000,0,0x5D,0x00,Read,ACK
3.189536375000000,0,0x5D,0x00,Read,ACK
3.189557843750000,0,0x5D,0x00,Read,ACK
3.189579312500000,0,0x5D,0x00,Read,ACK
3.189601656250000,0,0x5D,0x00,Read,ACK
3.189623156250000,0,0x5D,0x00,Read,ACK
3.189644593750000,0,0x5D,0x00,Read,ACK
3.189666062500000,0,0x5D,0x00,Read,NAK
3.195392593750000,0,0x5D,0x2F,Read,ACK
3.195419531250000,0,0x5D,0x00,Read,ACK
3.195441000000000,0,0x5D,0x04,Read,ACK
3.195462468750000,0,0x5D,0x03,Read,ACK
3.195483937500000,0,0x5D,0xA7,Read,ACK
3.195505437500000,0,0x5D,0x09,Read,ACK
3.195526875000000,0,0x5D,0x0B,Read,ACK
3.195548656250000,0,0x5D,0x04,Read,ACK
3.195570812500000,0,0x5D,0x03,Read,ACK
3.195595500000000,0,0x5D,0x02,Read,ACK
3.195617000000000,0,0x5D,0x20,Read,ACK
3.195638500000000,0,0x5D,0x13,Read,ACK
3.195659968750000,0,0x5D,0x95,Read,ACK
3.195681437500000,0,0x5D,0x04,Read,ACK
3.195702906250000,0,0x5D,0xE7,Read,ACK
3.195724406250000,0,0x5D,0x03,Read,ACK
3.195745843750000,0,0x5D,0x03,Read,ACK
3.195767312500000,0,0x5D,0x03,Read,ACK
3.195789656250000,0,0x5D,0x20,Read,ACK
3.195811312500000,0,0x5D,0x23,Read,ACK
3.195832781250000,0,0x5D,0x15,Read,ACK
3.195854781250000,0,0x5D,0x07,Read,ACK
3.195876250000000,0,0x5D,0x2D,Read,ACK
3.195897718750000,0,0x5D,0x03,Read,ACK
3.195919375000000,0,0x5D,0x03,Read,ACK
3.195940843750000,0,0x5D,0x02,Read,ACK
3.195962312500000,0,0x5D,0x20,Read,ACK
3.195983781250000,0,0x5D,0x00,Read,ACK
3.196005250000000,0,0x5D,0x00,Read,ACK
3.196028000000000,0,0x5D,0x00,Read,ACK
3.196049468750000,0,0x5D,0x00,Read,ACK
3.196070906250000,0,0x5D,0x00,Read,ACK
3.196092406250000,0,0x5D,0x00,Read,ACK
3.196113875000000,0,0x5D,0x00,Read,ACK
3.196135343750000,0,0x5D,0x00,Read,ACK
3.196156812500000,0,0x5D,0x00,Read,ACK
3.196178312500000,0,0x5D,0x00,Read,ACK
3.196199781250000,0,0x5D,0x00,Read,ACK
3.196221218750000,0,0x5D,0x00,Read,ACK
3.196242687500000,0,0x5D,0x00,Read,ACK
3.196264187500000,0,0x5D,0x00,Read,ACK
3.196285625000000,0,0x5D,0x00,Read,ACK
3.196307125000000,0,0x5D,0x00,Read,ACK
3.196328593750000,0,0x5D,0x5A,Read,ACK
3.196350250000000,0,0x5D,0x1C,Read,ACK
3.196371750000000,0,0x5D,0x03,Read,ACK
3.196393250000000,0,0x5D,0x00,Read,ACK
3.196414718750000,0,0x5D,0x00,Read,ACK
3.196436156250000,0,0x5D,0x00,Read,ACK
3.196457656250000,0,0x5D,0x00,Read,ACK
3.196479468750000,0,0x5D,0x00,Read,ACK
3.196500968750000,0,0x5D,0x00,Read,ACK
3.196523687500000,0,0x5D,0x00,Read,ACK
3.196545812500000,0,0x5D,0x00,Read,ACK
3.196567718750000,0,0x5D,0x00,Read,ACK
3.196589531250000,0,0x5D,0x00,Read,ACK
3.196611000000000,0,0x5D,0x00,Read,ACK
3.196632468750000,0,0x5D,0x00,Read,ACK
3.196653937500000,0,0x5D,0x00,Read,ACK
3.196676812500000,0,0x5D,0x00,Read,ACK
3.196698312500000,0,0x5D,0x00,Read,ACK
3.196720656250000,0,0x5D,0x00,Read,ACK
3.196742125000000,0,0x5D,0x00,Read,ACK
3.196765250000000,0,0x5D,0x00,Read,NAK
3.202569093750000,0,0x5D,0x2F,Read,ACK
3.202596625000000,0,0x5D,0x00,Read,ACK
3.202618093750000,0,0x5D,0x04,Read,ACK
3.202639562500000,0,0x5D,0x03,Read,ACK
3.202661031250000,0,0x5D,0xB3,Read,ACK
3.202682500000000,0,0x5D,0x09,Read,ACK
3.202704000000000,0,0x5D,0x08,Read,ACK
3.202725843750000,0,0x5D,0x04,Read,ACK
3.202747906250000,0,0x5D,0x03,Read,ACK
3.202773375000000,0,0x5D,0x02,Read,ACK
3.202794875000000,0,0x5D,0x20,Read,ACK
3.202816343750000,0,0x5D,0x13,Read,ACK
3.202837812500000,0,0x5D,0xA0,Read,ACK
3.202859281250000,0,0x5D,0x04,Read,ACK
3.202880750000000,0,0x5D,0xE1,Read,ACK
3.202902218750000,0,0x5D,0x03,Read,ACK
3.202923687500000,0,0x5D,0x03,Read,ACK
3.202946187500000,0,0x5D,0x03,Read,ACK
3.202967656250000,0,0x5D,0x20,Read,ACK
3.202989093750000,0,0x5D,0x23,Read,ACK
3.203010593750000,0,0x5D,0x22,Read,ACK
3.203032062500000,0,0x5D,0x07,Read,ACK
3.203053531250000,0,0x5D,0x28,Read,ACK
3.203075000000000,0,0x5D,0x03,Read,ACK
3.203096468750000,0,0x5D,0x03,Read,ACK
3.203118218750000,0,0x5D,0x02,Read,ACK
3.203139718750000,0,0x5D,0x20,Read,ACK
3.203161187500000,0,0x5D,0x00,Read,ACK
3.203184031250000,0,0x5D,0x00,Read,ACK
3.203205500000000,0,0x5D,0x00,Read,ACK
3.203226968750000,0,0x5D,0x00,Read,ACK
3.203248437500000,0,0x5D,0x00,Read,ACK
3.203269906250000,0,0x5D,0x00,Read,ACK
3.203291437500000,0,0x5D,0x00,Read,ACK
3.203313125000000,0,0x5D,0x00,Read,ACK
3.203334593750000,0,0x5D,0x00,Read,ACK
3.203356031250000,0,0x5D,0x00,Read,ACK
3.203377531250000,0,0x5D,0x00,Read,ACK
3.203398968750000,0,0x5D,0x00,Read,ACK
3.203420468750000,0,0x5D,0x00,Read,ACK
3.203441937500000,0,0x5D,0x00,Read,ACK
3.203463375000000,0,0x5D,0x00,Read,ACK
3.203484875000000,0,0x5D,0x00,Read,ACK
3.203506343750000,0,0x5D,0xA0,Read,ACK
3.203527812500000,0,0x5D,0x1C,Read,ACK
3.203549281250000,0,0x5D,0x03,Read,ACK
3.203570750000000,0,0x5D,0x00,Read,ACK
3.203592218750000,0,0x5D,0x00,Read,ACK
3.203613687500000,0,0x5D,0x00,Read,ACK
3.203635156250000,0,0x5D,0x00,Read,ACK
3.203656625000000,0,0x5D,0x00,Read,ACK
3.203678093750000,0,0x5D,0x00,Read,ACK
3.203701906250000,0,0x5D,0x00,Read,ACK
3.203729156250000,0,0x5D,0x00,Read,ACK
3.203754437500000,0,0x5D,0x00,Read,ACK
3.203776000000000,0,0x5D,0x00,Read,ACK
3.203798656250000,0,0x5D,0x00,Read,ACK
3.203820343750000,0,0x5D,0x00,Read,ACK
3.203841843750000,0,0x5D,0x00,Read,ACK
3.203863312500000,0,0x5D,0x00,Read,ACK
3.203884781250000,0,0x5D,0x00,Read,ACK
3.203907312500000,0,0x5D,0x00,Read,ACK
3.203928781250000,0,0x5D,0x00,Read,ACK
3.203950312500000,0,0x5D,0x00,Read,NAK
3.209814468750000,0,0x5D,0x2F,Read,ACK
3.209838781250000,0,0x5D,0x00,Read,ACK
3.209864968750000,0,0x5D,0x04,Read,ACK
3.209886437500000,0,0x5D,0x03,Read,ACK
3.209907906250000,0,0x5D,0xBF,Read,ACK
3.209929375000000,0,0x5D,0x09,Read,ACK
3.209950843750000,0,0x5D,0x07,Read,ACK
3.209972312500000,0,0x5D,0x04,Read,ACK
3.209993781250000,0,0x5D,0x03,Read,ACK
3.210015250000000,0,0x5D,0x02,Read,ACK
3.210036718750000,0,0x5D,0x20,Read,ACK
3.210058218750000,0,0x5D,0x13,Read,ACK
3.210079906250000,0,0x5D,0xAB,Read,ACK
3.210101406250000,0,0x5D,0x04,Read,ACK
3.210122875000000,0,0x5D,0xDE,Read,ACK
3.210144343750000,0,0x5D,0x03,Read,ACK
3.210166500000000,0,0x5D,0x03,Read,ACK
3.210187968750000,0,0x5D,0x03,Read,ACK
3.210209437500000,0,0x5D,0x20,Read,ACK
3.210230906250000,0,0x5D,0x23,Read,ACK
3.210252406250000,0,0x5D,0x2E,Read,ACK
3.210273875000000,0,0x5D,0x07,Read,ACK
3.210297343750000,0,0x5D,0x26,Read,ACK
3.210318843750000,0,0x5D,0x03,Read,ACK
3.210340343750000,0,0x5D,0x02,Read,ACK
3.210361906250000,0,0x5D,0x02,Read,ACK
3.210383406250000,0,0x5D,0x20,Read,ACK
3.210404875000000,0,0x5D,0x00,Read,ACK
3.210426343750000,0,0x5D,0x00,Read,ACK
3.210447812500000,0,0x5D,0x00,Read,ACK
3.210469281250000,0,0x5D,0x00,Read,ACK
3.210490750000000,0,0x5D,0x00,Read,ACK
3.210512218750000,0,0x5D,0x00,Read,ACK
3.210533718750000,0,0x5D,0x00,Read,ACK
3.210555187500000,0,0x5D,0x00,Read,ACK
3.210576656250000,0,0x5D,0x00,Read,ACK
3.210598125000000,0,0x5D,0x00,Read,ACK
3.210619718750000,0,0x5D,0x00,Read,ACK
3.210641218750000,0,0x5D,0x00,Read,ACK
3.210662656250000,0,0x5D,0x00,Read,ACK
3.210684125000000,0,0x5D,0x00,Read,ACK
3.210705593750000,0,0x5D,0x00,Read,ACK
3.210727093750000,0,0x5D,0x00,Read,ACK
3.210748562500000,0,0x5D,0xE6,Read,ACK
3.210770031250000,0,0x5D,0x1C,Read,ACK
3.210791500000000,0,0x5D,0x03,Read,ACK
3.210814593750000,0,0x5D,0x00,Read,ACK
3.210838781250000,0,0x5D,0x00,Read,ACK
3.210861812500000,0,0x5D,0x00,Read,ACK
3.210883250000000,0,0x5D,0x00,Read,ACK
3.210905656250000,0,0x5D,0x00,Read,ACK
3.210927156250000,0,0x5D,0x00,Read,ACK
3.210948593750000,0,0x5D,0x00,Read,ACK
3.210971250000000,0,0x5D,0x00,Read,ACK
3.210992718750000,0,0x5D,0x00,Read,ACK
3.211014375000000,0,0x5D,0x00,Read,ACK
3.211035843750000,0,0x5D,0x00,Read,ACK
3.211057312500000,0,0x5D,0x00,Read,ACK
3.211078843750000,0,0x5D,0x00,Read,ACK
3.211100343750000,0,0x5D,0x00,Read,ACK
3.211122000000000,0,0x5D,0x00,Read,ACK
3.211144687500000,0,0x5D,0x00,Read,ACK
3.211166187500000,0,0x5D,0x00,Read,ACK
3.211188375000000,0,0x5D,0x00,Read,NAK
3.216932218750000,0,0x5D,0x2F,Read,ACK
3.216961437500000,0,0x5D,0x00,Read,ACK
3.216982906250000,0,0x5D,0x04,Read,ACK
3.217005875000000,0,0x5D,0x03,Read,ACK
3.217030687500000,0,0x5D,0xCB,Read,ACK
3.217052187500000,0,0x5D,0x09,Read,ACK
3.217073656250000,0,0x5D,0x08,Read,ACK
3.217095156250000,0,0x5D,0x04,Read,ACK
3.217116625000000,0,0x5D,0x03,Read,ACK
3.217138093750000,0,0x5D,0x02,Read,ACK
3.217159562500000,0,0x5D,0x20,Read,ACK
3.217181031250000,0,0x5D,0x13,Read,ACK
3.217202468750000,0,0x5D,0xB6,Read,ACK
3.217224218750000,0,0x5D,0x04,Read,ACK
3.217245937500000,0,0x5D,0xDC,Read,ACK
3.217267406250000,0,0x5D,0x03,Read,ACK
3.217288875000000,0,0x5D,0x03,Read,ACK
3.217310343750000,0,0x5D,0x03,Read,ACK
3.217333406250000,0,0x5D,0x20,Read,ACK
3.217355718750000,0,0x5D,0x23,Read,ACK
3.217377187500000,0,0x5D,0x3B,Read,ACK
3.217398656250000,0,0x5D,0x07,Read,ACK
3.217420125000000,0,0x5D,0x26,Read,ACK
3.217441625000000,0,0x5D,0x03,Read,ACK
3.217463156250000,0,0x5D,0x02,Read,ACK
3.217484625000000,0,0x5D,0x02,Read,ACK
3.217506250000000,0,0x5D,0x20,Read,ACK
3.217527750000000,0,0x5D,0x00,Read,ACK
3.217549187500000,0,0x5D,0x00,Read,ACK
3.217570656250000,0,0x5D,0x00,Read,ACK
3.217592156250000,0,0x5D,0x00,Read,ACK
3.217613625000000,0,0x5D,0x00,Read,ACK
3.217635093750000,0,0x5D,0x00,Read,ACK
3.217656562500000,0,0x5D,0x00,Read,ACK
3.217678031250000,0,0x5D,0x00,Read,ACK
3.217699500000000,0,0x5D,0x00,Read,ACK
3.217721000000000,0,0x5D,0x00,Read,ACK
3.217742468750000,0,0x5D,0x00,Read,ACK
3.217763906250000,0,0x5D,0x00,Read,ACK
3.217785406250000,0,0x5D,0x00,Read,ACK
3.217806875000000,0,0x5D,0x00,Read,ACK
3.217828343750000,0,0x5D,0x00,Read,ACK
3.217849812500000,0,0x5D,0x00,Read,ACK
3.217871281250000,0,0x5D,0x2C,Read,ACK
3.217892750000000,0,0x5D,0x1D,Read,ACK
3.217914218750000,0,0x5D,0x03,Read,ACK
3.217935687500000,0,0x5D,0x00,Read,ACK
3.217957156250000,0,0x5D,0x00,Read,ACK
3.217981468750000,0,0x5D,0x00,Read,ACK
3.218003000000000,0,0x5D,0x00,Read,ACK
3.218024468750000,0,0x5D,0x00,Read,ACK
3.218045937500000,0,0x5D,0x00,Read,ACK
3.218068031250000,0,0x5D,0x00,Read,ACK
3.218089500000000,0,0x5D,0x00,Read,ACK
3.218110968750000,0,0x5D,0x00,Read,ACK
3.218132781250000,0,0x5D,0x00,Read,ACK
3.218154625000000,0,0x5D,0x00,Read,ACK
3.218176750000000,0,0x5D,0x00,Read,ACK
3.218199875000000,0,0x5D,0x00,Read,ACK
3.218222312500000,0,0x5D,0x00,Read,ACK
3.218244750000000,0,0x5D,0x00,Read,ACK
3.218267406250000,0,0x5D,0x00,Read,ACK
3.218288843750000,0,0x5D,0x00,Read,ACK
3.218310593750000,0,0x5D,0x00,Read,NAK
3.224358062500000,0,0x5D,0x2F,Read,ACK
3.224388562500000,0,0x5D,0x00,Read,ACK
3.224410218750000,0,0x5D,0x04,Read,ACK
3.224431656250000,0,0x5D,0x03,Read,ACK
3.224453156250000,0,0x5D,0xD7,Read,ACK
3.224474625000000,0,0x5D,0x09,Read,ACK
3.224496093750000,0,0x5D,0x0B,Read,ACK
3.224518781250000,0,0x5D,0x04,Read,ACK
3.224540281250000,0,0x5D,0x03,Read,ACK
3.224561750000000,0,0x5D,0x02,Read,ACK
3.224583218750000,0,0x5D,0x20,Read,ACK
3.224604718750000,0,0x5D,0x13,Read,ACK
3.224629156250000,0,0x5D,0xC2,Read,ACK
3.224650656250000,0,0x5D,0x04,Read,ACK
3.224672093750000,0,0x5D,0xDD,Read,ACK
3.224693562500000,0,0x5D,0x03,Read,ACK
3.224715062500000,0,0x5D,0x03,Read,ACK
3.224736531250000,0,0x5D,0x03,Read,ACK
3.224758031250000,0,0x5D,0x20,Read,ACK
3.224779531250000,0,0x5D,0x23,Read,ACK
3.224801000000000,0,0x5D,0x49,Read,ACK
3.224822500000000,0,0x5D,0x07,Read,ACK
3.224843937500000,0,0x5D,0x26,Read,ACK
3.224865406250000,0,0x5D,0x03,Read,ACK
3.224886875000000,0,0x5D,0x02,Read,ACK
3.224908375000000,0,0x5D,0x02,Read,ACK
3.224929843750000,0,0x5D,0x20,Read,ACK
3.224951312500000,0,0x5D,0x00,Read,ACK
3.224972781250000,0,0x5D,0x00,Read,ACK
3.224994250000000,0,0x5D,0x00,Read,ACK
3.225015750000000,0,0x5D,0x00,Read,ACK
3.225037187500000,0,0x5D,0x00,Read,ACK
3.225058687500000,0,0x5D,0x00,Read,ACK
3.225082968750000,0,0x5D,0x00,Read,ACK
3.225105687500000,0,0x5D,0x00,Read,ACK
3.225128843750000,0,0x5D,0x00,Read,ACK
3.225151062500000,0,0x5D,0x00,Read,ACK
3.225173437500000,0,0x5D,0x00,Read,ACK
3.225196093750000,0,0x5D,0x00,Read,ACK
3.225217593750000,0,0x5D,0x00,Read,ACK
3.225239062500000,0,0x5D,0x00,Read,ACK
3.225261312500000,0,0x5D,0x00,Read,ACK
3.225282750000000,0,0x5D,0x00,Read,ACK
3.225304218750000,0,0x5D,0x72,Read,ACK
3.225326312500000,0,0x5D,0x1D,Read,ACK
3.225348906250000,0,0x5D,0x03,Read,ACK
3.225370437500000,0,0x5D,0x00,Read,ACK
3.225392093750000,0,0x5D,0x00,Read,ACK
3.225415906250000,0,0x5D,0x00,Read,ACK
3.225437375000000,0,0x5D,0x00,Read,ACK
3.225458843750000,0,0x5D,0x00,Read,ACK
3.225480343750000,0,0x5D,0x00,Read,ACK
3.225503125000000,0,0x5D,0x00,Read,ACK
3.225524562500000,0,0x5D,0x00,Read,ACK
3.225547500000000,0,0x5D,0x00,Read,ACK
3.225568968750000,0,0x5D,0x00,Read,ACK
3.225590406250000,0,0x5D,0x00,Read,ACK
3.225611937500000,0,0x5D,0x00,Read,ACK
3.225633500000000,0,0x5D,0x00,Read,ACK
3.225654968750000,0,0x5D,0x00,Read,ACK
3.225677875000000,0,0x5D,0x00,Read,ACK
3.225700281250000,0,0x5D,0x00,Read,ACK
3.225721906250000,0,0x5D,0x00,Read,ACK
3.225744750000000,0,0x5D,0x00,Read,NAK
3.231190125000000,0,0x5D,0x2F,Read,ACK
3.231215281250000,0,0x5D,0x00,Read,ACK
3.231236875000000,0,0x5D,0x04,Read,ACK
3.231258312500000,0,0x5D,0x03,Read,ACK
3.231279781250000,0,0x5D,0xE4,Read,ACK
3.231302218750000,0,0x5D,0x09,Read,ACK
3.231324125000000,0,0x5D,0x0F,Read,ACK
3.231351000000000,0,0x5D,0x04,Read,ACK
3.231372500000000,0,0x5D,0x02,Read,ACK
3.231393937500000,0,0x5D,0x02,Read,ACK
3.231415406250000,0,0x5D,0x20,Read,ACK
3.231436906250000,0,0x5D,0x13,Read,ACK
3.231458375000000,0,0x5D,0xCF,Read,ACK
3.231479843750000,0,0x5D,0x04,Read,ACK
3.231501375000000,0,0x5D,0xE0,Read,ACK
3.231523437500000,0,0x5D,0x03,Read,ACK
3.231546718750000,0,0x5D,0x03,Read,ACK
3.231568156250000,0,0x5D,0x03,Read,ACK
3.231589687500000,0,0x5D,0x20,Read,ACK
3.231611156250000,0,0x5D,0x23,Read,ACK
3.231633750000000,0,0x5D,0x57,Read,ACK
3.231655375000000,0,0x5D,0x07,Read,ACK
3.231676843750000,0,0x5D,0x29,Read,ACK
3.231698312500000,0,0x5D,0x03,Read,ACK
3.231719812500000,0,0x5D,0x03,Read,ACK
3.231741281250000,0,0x5D,0x02,Read,ACK
3.231763031250000,0,0x5D,0x20,Read,ACK
3.231784531250000,0,0x5D,0x00,Read,ACK
3.231806000000000,0,0x5D,0x00,Read,ACK
3.231827468750000,0,0x5D,0x00,Read,ACK
3.231848937500000,0,0x5D,0x00,Read,ACK
3.231870406250000,0,0x5D,0x00,Read,ACK
3.231891875000000,0,0x5D,0x00,Read,ACK
3.231913375000000,0,0x5D,0x00,Read,ACK
3.231934843750000,0,0x5D,0x00,Read,ACK
3.231956312500000,0,0x5D,0x00,Read,ACK
3.231977781250000,0,0x5D,0x00,Read,ACK
3.231999250000000,0,0x5D,0x00,Read,ACK
3.232021218750000,0,0x5D,0x00,Read,ACK
3.232042687500000,0,0x5D,0x00,Read,ACK
3.232064406250000,0,0x5D,0x00,Read,ACK
3.232085906250000,0,0x5D,0x00,Read,ACK
3.232107406250000,0,0x5D,0x00,Read,ACK
3.232128843750000,0,0x5D,0xB8,Read,ACK
3.232150312500000,0,0x5D,0x1D,Read,ACK
3.232171781250000,0,0x5D,0x03,Read,ACK
3.232193281250000,0,0x5D,0x00,Read,ACK
3.232214750000000,0,0x5D,0x00,Read,ACK
3.232236187500000,0,0x5D,0x00,Read,ACK
3.232257687500000,0,0x5D,0x00,Read,ACK
3.232279187500000,0,0x5D,0x00,Read,ACK
3.232306281250000,0,0x5D,0x00,Read,ACK
3.232330500000000,0,0x5D,0x00,Read,ACK
3.232352000000000,0,0x5D,0x00,Read,ACK
3.232374437500000,0,0x5D,0x00,Read,ACK
3.232396312500000,0,0x5D,0x00,Read,ACK
3.232418531250000,0,0x5D,0x00,Read,ACK
3.232440000000000,0,0x5D,0x00,Read,ACK
3.232461500000000,0,0x5D,0x00,Read,ACK
3.232482937500000,0,0x5D,0x00,Read,ACK
3.232504406250000,0,0x5D,0x00,Read,ACK
3.232526500000000,0,0x5D,0x00,Read,ACK
3.232547968750000,0,0x5D,0x00,Read,ACK
3.232570812500000,0,0x5D,0x00,Read,NAK
3.238365093750000,0,0x5D,0x2F,Read,ACK
3.238393281250000,0,0x5D,0x00,Read,ACK
3.238414781250000,0,0x5D,0x04,Read,ACK
3.238437718750000,0,0x5D,0x03,Read,ACK
3.238463843750000,0,0x5D,0xF2,Read,ACK
3.238485968750000,0,0x5D,0x09,Read,ACK
3.238507437500000,0,0x5D,0x16,Read,ACK
3.238528906250000,0,0x5D,0x04,Read,ACK
3.238550375000000,0,0x5D,0x03,Read,ACK
3.238571843750000,0,0x5D,0x03,Read,ACK
3.238593312500000,0,0x5D,0x20,Read,ACK
3.238614812500000,0,0x5D,0x13,Read,ACK
3.238637375000000,0,0x5D,0xDD,Read,ACK
3.238659531250000,0,0x5D,0x04,Read,ACK
3.238681031250000,0,0x5D,0xE4,Read,ACK
3.238702468750000,0,0x5D,0x03,Read,ACK
3.238723937500000,0,0x5D,0x03,Read,ACK
3.238745437500000,0,0x5D,0x03,Read,ACK
3.238766906250000,0,0x5D,0x20,Read,ACK
3.238788375000000,0,0x5D,0x23,Read,ACK
3.238809843750000,0,0x5D,0x66,Read,ACK
3.238831437500000,0,0x5D,0x07,Read,ACK
3.238852906250000,0,0x5D,0x2F,Read,ACK
3.238874375000000,0,0x5D,0x03,Read,ACK
3.238895875000000,0,0x5D,0x03,Read,ACK
3.238917312500000,0,0x5D,0x02,Read,ACK
3.238938812500000,0,0x5D,0x20,Read,ACK
3.238960281250000,0,0x5D,0x00,Read,ACK
3.238981750000000,0,0x5D,0x00,Read,ACK
3.239003218750000,0,0x5D,0x00,Read,ACK
3.239024687500000,0,0x5D,0x00,Read,ACK
3.239046156250000,0,0x5D,0x00,Read,ACK
3.239067625000000,0,0x5D,0x00,Read,ACK
3.239089093750000,0,0x5D,0x00,Read,ACK
3.239110562500000,0,0x5D,0x00,Read,ACK
3.239132062500000,0,0x5D,0x00,Read,ACK
3.239153500000000,0,0x5D,0x00,Read,ACK
3.239174968750000,0,0x5D,0x00,Read,ACK
3.239196437500000,0,0x5D,0x00,Read,ACK
3.239217937500000,0,0x5D,0x00,Read,ACK
3.239239375000000,0,0x5D,0x00,Read,ACK
3.239260843750000,0,0x5D,0x00,Read,ACK
3.239282343750000,0,0x5D,0x00,Read,ACK
3.239303812500000,0,0x5D,0xFE,Read,ACK
3.239325281250000,0,0x5D,0x1D,Read,ACK
3.239346781250000,0,0x5D,0x03,Read,ACK
3.239368218750000,0,0x5D,0x00,Read,ACK
3.239389687500000,0,0x5D,0x00,Read,ACK
3.239415125000000,0,0x5D,0x00,Read,ACK
3.239438437500000,0,0x5D,0x00,Read,ACK
3.239464562500000,0,0x5D,0x00,Read,ACK
3.239486125000000,0,0x5D,0x00,Read,ACK
3.239508187500000,0,0x5D,0x00,Read,ACK
3.239529906250000,0,0x5D,0x00,Read,ACK
3.239551406250000,0,0x5D,0x00,Read,ACK
3.239572843750000,0,0x5D,0x00,Read,ACK
3.239594343750000,0,0x5D,0x00,Read,ACK
3.239616250000000,0,0x5D,0x00,Read,ACK
3.239637687500000,0,0x5D,0x00,Read,ACK
3.239659781250000,0,0x5D,0x00,Read,ACK
3.239681281250000,0,0x5D,0x00,Read,ACK
3.239702718750000,0,0x5D,0x00,Read,ACK
3.239724343750000,0,0x5D,0x00,Read,ACK
3.239745906250000,0,0x5D,0x00,Read,NAK
3.245405437500000,0,0x5D,0x2F,Read,ACK
3.245430187500000,0,0x5D,0x00,Read,ACK
3.245451687500000,0,0x5D,0x04,Read,ACK
3.245473156250000,0,0x5D,0x03,Read,ACK
3.245494625000000,0,0x5D,0x01,Read,ACK
3.245516093750000,0,0x5D,0x0A,Read,ACK
3.245537562500000,0,0x5D,0x1F,Read,ACK
3.245559062500000,0,0x5D,0x04,Read,ACK
3.245580500000000,0,0x5D,0x03,Read,ACK
3.245602093750000,0,0x5D,0x03,Read,ACK
3.245624031250000,0,0x5D,0x20,Read,ACK
3.245650031250000,0,0x5D,0x13,Read,ACK
3.245671531250000,0,0x5D,0xED,Read,ACK
3.245692968750000,0,0x5D,0x04,Read,ACK
3.245714437500000,0,0x5D,0xEB,Read,ACK
3.245735937500000,0,0x5D,0x03,Read,ACK
3.245757406250000,0,0x5D,0x03,Read,ACK
3.245778875000000,0,0x5D,0x03,Read,ACK
3.245800343750000,0,0x5D,0x20,Read,ACK
3.245821812500000,0,0x5D,0x23,Read,ACK
3.245843343750000,0,0x5D,0x76,Read,ACK
3.245864812500000,0,0x5D,0x07,Read,ACK
3.245886312500000,0,0x5D,0x36,Read,ACK
3.245907750000000,0,0x5D,0x03,Read,ACK
3.245929656250000,0,0x5D,0x03,Read,ACK
3.245951156250000,0,0x5D,0x02,Read,ACK
3.245972625000000,0,0x5D,0x20,Read,ACK
3.245994093750000,0,0x5D,0x00,Read,ACK
3.246015562500000,0,0x5D,0x00,Read,ACK
3.246037031250000,0,0x5D,0x00,Read,ACK
3.246058500000000,0,0x5D,0x00,Read,ACK
3.246082500000000,0,0x5D,0x00,Read,ACK
3.246103937500000,0,0x5D,0x00,Read,ACK
3.246125406250000,0,0x5D,0x00,Read,ACK
3.246146875000000,0,0x5D,0x00,Read,ACK
3.246168343750000,0,0x5D,0x00,Read,ACK
3.246189843750000,0,0x5D,0x00,Read,ACK
3.246211281250000,0,0x5D,0x00,Read,ACK
3.246232781250000,0,0x5D,0x00,Read,ACK
3.246254250000000,0,0x5D,0x00,Read,ACK
3.246275718750000,0,0x5D,0x00,Read,ACK
3.246297187500000,0,0x5D,0x00,Read,ACK
3.246318656250000,0,0x5D,0x00,Read,ACK
3.246340531250000,0,0x5D,0x44,Read,ACK
3.246362031250000,0,0x5D,0x1E,Read,ACK
3.246383750000000,0,0x5D,0x03,Read,ACK
3.246405218750000,0,0x5D,0x00,Read,ACK
3.246426718750000,0,0x5D,0x00,Read,ACK
3.246448156250000,0,0x5D,0x00,Read,ACK
3.246469968750000,0,0x5D,0x00,Read,ACK
3.246491406250000,0,0x5D,0x00,Read,ACK
3.246512906250000,0,0x5D,0x00,Read,ACK
3.246534375000000,0,0x5D,0x00,Read,ACK
3.246555843750000,0,0x5D,0x00,Read,ACK
3.246577312500000,0,0x5D,0x00,Read,ACK
3.246598812500000,0,0x5D,0x00,Read,ACK
3.246624343750000,0,0x5D,0x00,Read,ACK
3.246647437500000,0,0x5D,0x00,Read,ACK
3.246671375000000,0,0x5D,0x00,Read,ACK
3.246694000000000,0,0x5D,0x00,Read,ACK
3.246717531250000,0,0x5D,0x00,Read,ACK
3.246739031250000,0,0x5D,0x00,Read,ACK
3.246760500000000,0,0x5D,0x00,Read,ACK
3.246782000000000,0,0x5D,0x00,Read,NAK
3.252643968750000,0,0x5D,0x2F,Read,ACK
3.252668000000000,0,0x5D,0x00,Read,ACK
3.252689500000000,0,0x5D,0x04,Read,ACK
3.252710968750000,0,0x5D,0x03,Read,ACK
3.252733062500000,0,0x5D,0x12,Read,ACK
3.252759062500000,0,0x5D,0x0A,Read,ACK
3.252780562500000,0,0x5D,0x2B,Read,ACK
3.252802031250000,0,0x5D,0x04,Read,ACK
3.252823500000000,0,0x5D,0x03,Read,ACK
3.252845000000000,0,0x5D,0x03,Read,ACK
3.252866437500000,0,0x5D,0x20,Read,ACK
3.252887906250000,0,0x5D,0x13,Read,ACK
3.252909375000000,0,0x5D,0xFD,Read,ACK
3.252932312500000,0,0x5D,0x04,Read,ACK
3.252954375000000,0,0x5D,0xF3,Read,ACK
3.252976250000000,0,0x5D,0x03,Read,ACK
3.252997718750000,0,0x5D,0x03,Read,ACK
3.253019156250000,0,0x5D,0x03,Read,ACK
3.253040656250000,0,0x5D,0x20,Read,ACK
3.253062093750000,0,0x5D,0x23,Read,ACK
3.253083562500000,0,0x5D,0x86,Read,ACK
3.253105031250000,0,0x5D,0x07,Read,ACK
3.253126500000000,0,0x5D,0x40,Read,ACK
3.253148000000000,0,0x5D,0x03,Read,ACK
3.253169875000000,0,0x5D,0x03,Read,ACK
3.253191406250000,0,0x5D,0x03,Read,ACK
3.253212906250000,0,0x5D,0x20,Read,ACK
3.253234375000000,0,0x5D,0x00,Read,ACK
3.253255843750000,0,0x5D,0x00,Read,ACK
3.253277281250000,0,0x5D,0x00,Read,ACK
3.253298781250000,0,0x5D,0x00,Read,ACK
3.253320218750000,0,0x5D,0x00,Read,ACK
3.253341718750000,0,0x5D,0x00,Read,ACK
3.253363187500000,0,0x5D,0x00,Read,ACK
3.253384656250000,0,0x5D,0x00,Read,ACK
3.253406125000000,0,0x5D,0x00,Read,ACK
3.253427593750000,0,0x5D,0x00,Read,ACK
3.253449062500000,0,0x5D,0x00,Read,ACK
3.253470531250000,0,0x5D,0x00,Read,ACK
3.253492000000000,0,0x5D,0x00,Read,ACK
3.253513500000000,0,0x5D,0x00,Read,ACK
3.253534937500000,0,0x5D,0x00,Read,ACK
3.253556406250000,0,0x5D,0x00,Read,ACK
3.253577875000000,0,0x5D,0x8A,Read,ACK
3.253599343750000,0,0x5D,0x1E,Read,ACK
3.253620812500000,0,0x5D,0x03,Read,ACK
3.253642312500000,0,0x5D,0x00,Read,ACK
3.253663750000000,0,0x5D,0x00,Read,ACK
3.253685218750000,0,0x5D,0x00,Read,ACK
3.253710343750000,0,0x5D,0x00,Read,ACK
3.253735437500000,0,0x5D,0x00,Read,ACK
3.253757687500000,0,0x5D,0x00,Read,ACK
3.253780531250000,0,0x5D,0x00,Read,ACK
3.253802312500000,0,0x5D,0x00,Read,ACK
3.253823843750000,0,0x5D,0x00,Read,ACK
3.253845312500000,0,0x5D,0x00,Read,ACK
3.253866781250000,0,0x5D,0x00,Read,ACK
3.253889406250000,0,0x5D,0x00,Read,ACK
3.253910906250000,0,0x5D,0x00,Read,ACK
3.253932531250000,0,0x5D,0x00,Read,ACK
3.253955625000000,0,0x5D,0x00,Read,ACK
3.253977093750000,0,0x5D,0x00,Read,ACK
3.253999968750000,0,0x5D,0x00,Read,ACK
3.254022812500000,0,0x5D,0x00,Read,NAK
3.259878812500000,0,0x5D,0x2F,Read,ACK
3.259912375000000,0,0x5D,0x00,Read,ACK
3.259933906250000,0,0x5D,0x04,Read,ACK
3.259955343750000,0,0x5D,0x03,Read,ACK
3.259976812500000,0,0x5D,0x22,Read,ACK
3.259998281250000,0,0x5D,0x0A,Read,ACK
3.260019750000000,0,0x5D,0x39,Read,ACK
3.260041218750000,0,0x5D,0x04,Read,ACK
3.260062687500000,0,0x5D,0x03,Read,ACK
3.260084187500000,0,0x5D,0x03,Read,ACK
3.260105656250000,0,0x5D,0x20,Read,ACK
3.260127125000000,0,0x5D,0x13,Read,ACK
3.260148625000000,0,0x5D,0x0E,Read,ACK
3.260171625000000,0,0x5D,0x05,Read,ACK
3.260193406250000,0,0x5D,0xFD,Read,ACK
3.260215718750000,0,0x5D,0x03,Read,ACK
3.260237218750000,0,0x5D,0x03,Read,ACK
3.260258687500000,0,0x5D,0x03,Read,ACK
3.260280156250000,0,0x5D,0x20,Read,ACK
3.260301625000000,0,0x5D,0x23,Read,ACK
3.260323750000000,0,0x5D,0x97,Read,ACK
3.260345250000000,0,0x5D,0x07,Read,ACK
3.260366718750000,0,0x5D,0x4C,Read,ACK
3.260388187500000,0,0x5D,0x03,Read,ACK
3.260409656250000,0,0x5D,0x03,Read,ACK
3.260431125000000,0,0x5D,0x03,Read,ACK
3.260453062500000,0,0x5D,0x20,Read,ACK
3.260474531250000,0,0x5D,0x00,Read,ACK
3.260496000000000,0,0x5D,0x00,Read,ACK
3.260517468750000,0,0x5D,0x00,Read,ACK
3.260539187500000,0,0x5D,0x00,Read,ACK
3.260560656250000,0,0x5D,0x00,Read,ACK
3.260582125000000,0,0x5D,0x00,Read,ACK
3.260603593750000,0,0x5D,0x00,Read,ACK
3.260625062500000,0,0x5D,0x00,Read,ACK
3.260646531250000,0,0x5D,0x00,Read,ACK
3.260668000000000,0,0x5D,0x00,Read,ACK
3.260689468750000,0,0x5D,0x00,Read,ACK
3.260710968750000,0,0x5D,0x00,Read,ACK
3.260732406250000,0,0x5D,0x00,Read,ACK
3.260753906250000,0,0x5D,0x00,Read,ACK
3.260775343750000,0,0x5D,0x00,Read,ACK
3.260796812500000,0,0x5D,0x00,Read,ACK
3.260818312500000,0,0x5D,0xD0,Read,ACK
3.260839781250000,0,0x5D,0x1E,Read,ACK
3.260861781250000,0,0x5D,0x03,Read,ACK
3.260886468750000,0,0x5D,0x00,Read,ACK
3.260909843750000,0,0x5D,0x00,Read,ACK
3.260931625000000,0,0x5D,0x00,Read,ACK
3.260953437500000,0,0x5D,0x00,Read,ACK
3.260974937500000,0,0x5D,0x00,Read,ACK
3.260996437500000,0,0x5D,0x00,Read,ACK
3.261017906250000,0,0x5D,0x00,Read,ACK
3.261039625000000,0,0x5D,0x00,Read,ACK
3.261061093750000,0,0x5D,0x00,Read,ACK
3.261083281250000,0,0x5D,0x00,Read,ACK
3.261106156250000,0,0x5D,0x00,Read,ACK
3.261127656250000,0,0x5D,0x00,Read,ACK
3.261149812500000,0,0x5D,0x00,Read,ACK
3.261172562500000,0,0x5D,0x00,Read,ACK
3.261194031250000,0,0x5D,0x00,Read,ACK
3.261215531250000,0,0x5D,0x00,Read,ACK
3.261237437500000,0,0x5D,0x00,Read,ACK
3.261258937500000,0,0x5D,0x00,Read,NAK
3.266881312500000,0,0x5D,0x2F,Read,ACK
3.266910750000000,0,0x5D,0x00,Read,ACK
3.266932250000000,0,0x5D,0x04,Read,ACK
3.266953718750000,0,0x5D,0x03,Read,ACK
3.266975218750000,0,0x5D,0x33,Read,ACK
3.266996968750000,0,0x5D,0x0A,Read,ACK
3.267018937500000,0,0x5D,0x49,Read,ACK
3.267042687500000,0,0x5D,0x04,Read,ACK
3.267064156250000,0,0x5D,0x03,Read,ACK
3.267085593750000,0,0x5D,0x02,Read,ACK
3.267107093750000,0,0x5D,0x20,Read,ACK
3.267128562500000,0,0x5D,0x13,Read,ACK
3.267150031250000,0,0x5D,0x1F,Read,ACK
3.267171500000000,0,0x5D,0x05,Read,ACK
3.267192968750000,0,0x5D,0x08,Read,ACK
3.267214437500000,0,0x5D,0x04,Read,ACK
3.267237375000000,0,0x5D,0x03,Read,ACK
3.267258875000000,0,0x5D,0x02,Read,ACK
3.267280375000000,0,0x5D,0x20,Read,ACK
3.267301843750000,0,0x5D,0x23,Read,ACK
3.267323843750000,0,0x5D,0xA7,Read,ACK
3.267346968750000,0,0x5D,0x07,Read,ACK
3.267369468750000,0,0x5D,0x5A,Read,ACK
3.267390968750000,0,0x5D,0x03,Read,ACK
3.267412437500000,0,0x5D,0x02,Read,ACK
3.267433906250000,0,0x5D,0x03,Read,ACK
3.267455406250000,0,0x5D,0x20,Read,ACK
3.267478125000000,0,0x5D,0x00,Read,ACK
3.267499906250000,0,0x5D,0x00,Read,ACK
3.267521375000000,0,0x5D,0x00,Read,ACK
3.267542843750000,0,0x5D,0x00,Read,ACK
3.267564312500000,0,0x5D,0x00,Read,ACK
3.267585781250000,0,0x5D,0x00,Read,ACK
3.267607250000000,0,0x5D,0x00,Read,ACK
3.267628718750000,0,0x5D,0x00,Read,ACK
3.267650187500000,0,0x5D,0x00,Read,ACK
3.267671656250000,0,0x5D,0x00,Read,ACK
3.267693156250000,0,0x5D,0x00,Read,ACK
3.267714656250000,0,0x5D,0x00,Read,ACK
3.267736093750000,0,0x5D,0x00,Read,ACK
3.267757562500000,0,0x5D,0x00,Read,ACK
3.267779031250000,0,0x5D,0x00,Read,ACK
3.267800500000000,0,0x5D,0x00,Read,ACK
3.267821968750000,0,0x5D,0x16,Read,ACK
3.267843468750000,0,0x5D,0x1F,Read,ACK
3.267864937500000,0,0x5D,0x03,Read,ACK
3.267886406250000,0,0x5D,0x00,Read,ACK
3.267907875000000,0,0x5D,0x00,Read,ACK
3.267929343750000,0,0x5D,0x00,Read,ACK
3.267951062500000,0,0x5D,0x00,Read,ACK
3.267972562500000,0,0x5D,0x00,Read,ACK
3.267994156250000,0,0x5D,0x00,Read,ACK
3.268020781250000,0,0x5D,0x00,Read,ACK
3.268042281250000,0,0x5D,0x00,Read,ACK
3.268063750000000,0,0x5D,0x00,Read,ACK
3.268086625000000,0,0x5D,0x00,Read,ACK
3.268108062500000,0,0x5D,0x00,Read,ACK
3.268129562500000,0,0x5D,0x00,Read,ACK
3.268151062500000,0,0x5D,0x00,Read,ACK
3.268172531250000,0,0x5D,0x00,Read,ACK
3.268194781250000,0,0x5D,0x00,Read,ACK
3.268216218750000,0,0x5D,0x00,Read,ACK
3.268237718750000,0,0x5D,0x00,Read,ACK
3.268259187500000,0,0x5D,0x00,Read,NAK
3.274394625000000,0,0x5D,0x2F,Read,ACK
3.274422968750000,0,0x5D,0x00,Read,ACK
3.274444468750000,0,0x5D,0x04,Read,ACK
3.274465906250000,0,0x5D,0x03,Read,ACK
3.274487375000000,0,0x5D,0x44,Read,ACK
3.274509156250000,0,0x5D,0x0A,Read,ACK
3.274532218750000,0,0x5D,0x5B,Read,ACK
3.274553718750000,0,0x5D,0x04,Read,ACK
3.274575218750000,0,0x5D,0x03,Read,ACK
3.274596656250000,0,0x5D,0x02,Read,ACK
3.274618156250000,0,0x5D,0x20,Read,ACK
3.274641125000000,0,0x5D,0x13,Read,ACK
3.274663531250000,0,0x5D,0x2E,Read,ACK
3.274685000000000,0,0x5D,0x05,Read,ACK
3.274706468750000,0,0x5D,0x15,Read,ACK
3.274727937500000,0,0x5D,0x04,Read,ACK
3.274749406250000,0,0x5D,0x03,Read,ACK
3.274770875000000,0,0x5D,0x03,Read,ACK
3.274792343750000,0,0x5D,0x20,Read,ACK
3.274813812500000,0,0x5D,0x23,Read,ACK
3.274835281250000,0,0x5D,0xB7,Read,ACK
3.274857406250000,0,0x5D,0x07,Read,ACK
3.274878843750000,0,0x5D,0x69,Read,ACK
3.274900312500000,0,0x5D,0x03,Read,ACK
3.274921812500000,0,0x5D,0x02,Read,ACK
3.274943250000000,0,0x5D,0x02,Read,ACK
3.274964812500000,0,0x5D,0x20,Read,ACK
3.274986312500000,0,0x5D,0x00,Read,ACK
3.275007812500000,0,0x5D,0x00,Read,ACK
3.275029281250000,0,0x5D,0x00,Read,ACK
3.275050750000000,0,0x5D,0x00,Read,ACK
3.275072187500000,0,0x5D,0x00,Read,ACK
3.275094500000000,0,0x5D,0x00,Read,ACK
3.275117625000000,0,0x5D,0x00,Read,ACK
3.275139125000000,0,0x5D,0x00,Read,ACK
3.275162843750000,0,0x5D,0x00,Read,ACK
3.275186593750000,0,0x5D,0x00,Read,ACK
3.275208093750000,0,0x5D,0x00,Read,ACK
3.275230218750000,0,0x5D,0x00,Read,ACK
3.275252531250000,0,0x5D,0x00,Read,ACK
3.275274000000000,0,0x5D,0x00,Read,ACK
3.275295468750000,0,0x5D,0x00,Read,ACK
3.275317031250000,0,0x5D,0x00,Read,ACK
3.275338468750000,0,0x5D,0x5C,Read,ACK
3.275362000000000,0,0x5D,0x1F,Read,ACK
3.275384937500000,0,0x5D,0x03,Read,ACK
3.275406750000000,0,0x5D,0x00,Read,ACK
3.275429593750000,0,0x5D,0x00,Read,ACK
3.275451062500000,0,0x5D,0x00,Read,ACK
3.275472687500000,0,0x5D,0x00,Read,ACK
3.275494156250000,0,0x5D,0x00,Read,ACK
3.275515718750000,0,0x5D,0x00,Read,ACK
3.275537343750000,0,0x5D,0x00,Read,ACK
3.275558781250000,0,0x5D,0x00,Read,ACK
3.275581875000000,0,0x5D,0x00,Read,ACK
3.275603375000000,0,0x5D,0x00,Read,ACK
3.275624843750000,0,0x5D,0x00,Read,ACK
3.275647125000000,0,0x5D,0x00,Read,ACK
3.275668593750000,0,0x5D,0x00,Read,ACK
3.275690031250000,0,0x5D,0x00,Read,ACK
3.275714656250000,0,0x5D,0x00,Read,ACK
3.275737093750000,0,0x5D,0x00,Read,ACK
3.275758593750000,0,0x5D,0x00,Read,ACK
3.275781687500000,0,0x5D,0x00,Read,NAK
3.281150281250000,0,0x5D,0x2F,Read,ACK
3.281178656250000,0,0x5D,0x00,Read,ACK
3.281200125000000,0,0x5D,0x04,Read,ACK
3.281221656250000,0,0x5D,0x03,Read,ACK
3.281243125000000,0,0x5D,0x53,Read,ACK
3.281264593750000,0,0x5D,0x0A,Read,ACK
3.281286593750000,0,0x5D,0x6E,Read,ACK
3.281310687500000,0,0x5D,0x04,Read,ACK
3.281334531250000,0,0x5D,0x02,Read,ACK
3.281356031250000,0,0x5D,0x02,Read,ACK
3.281377500000000,0,0x5D,0x20,Read,ACK
3.281398968750000,0,0x5D,0x13,Read,ACK
3.281420437500000,0,0x5D,0x3C,Read,ACK
3.281441906250000,0,0x5D,0x05,Read,ACK
3.281463406250000,0,0x5D,0x22,Read,ACK
3.281484843750000,0,0x5D,0x04,Read,ACK
3.281506343750000,0,0x5D,0x03,Read,ACK
3.281528968750000,0,0x5D,0x03,Read,ACK
3.281550468750000,0,0x5D,0x20,Read,ACK
3.281571937500000,0,0x5D,0x23,Read,ACK
3.281593406250000,0,0x5D,0xC6,Read,ACK
3.281614843750000,0,0x5D,0x07,Read,ACK
3.281638531250000,0,0x5D,0x78,Read,ACK
3.281660625000000,0,0x5D,0x03,Read,ACK
3.281682093750000,0,0x5D,0x02,Read,ACK
3.281703562500000,0,0x5D,0x02,Read,ACK
3.281725031250000,0,0x5D,0x20,Read,ACK
3.281746531250000,0,0x5D,0x00,Read,ACK
3.281769593750000,0,0x5D,0x00,Read,ACK
3.281791062500000,0,0x5D,0x00,Read,ACK
3.281812531250000,0,0x5D,0x00,Read,ACK
3.281834000000000,0,0x5D,0x00,Read,ACK
3.281855468750000,0,0x5D,0x00,Read,ACK
3.281876937500000,0,0x5D,0x00,Read,ACK
3.281898437500000,0,0x5D,0x00,Read,ACK
3.281919906250000,0,0x5D,0x00,Read,ACK
3.281941375000000,0,0x5D,0x00,Read,ACK
3.281963281250000,0,0x5D,0x00,Read,ACK
3.281984750000000,0,0x5D,0x00,Read,ACK
3.282006218750000,0,0x5D,0x00,Read,ACK
3.282027687500000,0,0x5D,0x00,Read,ACK
3.282049187500000,0,0x5D,0x00,Read,ACK
3.282070687500000,0,0x5D,0x00,Read,ACK
3.282092156250000,0,0x5D,0xA2,Read,ACK
3.282113625000000,0,0x5D,0x1F,Read,ACK
3.282135093750000,0,0x5D,0x03,Read,ACK
3.282156562500000,0,0x5D,0x00,Read,ACK
3.282178031250000,0,0x5D,0x00,Read,ACK
3.282199500000000,0,0x5D,0x00,Read,ACK
3.282220968750000,0,0x5D,0x00,Read,ACK
3.282242468750000,0,0x5D,0x00,Read,ACK
3.282266625000000,0,0x5D,0x00,Read,ACK
3.282292593750000,0,0x5D,0x00,Read,ACK
3.282315375000000,0,0x5D,0x00,Read,ACK
3.282336812500000,0,0x5D,0x00,Read,ACK
3.282359687500000,0,0x5D,0x00,Read,ACK
3.282381125000000,0,0x5D,0x00,Read,ACK
3.282402625000000,0,0x5D,0x00,Read,ACK
3.282425312500000,0,0x5D,0x00,Read,ACK
3.282446781250000,0,0x5D,0x00,Read,ACK
3.282468718750000,0,0x5D,0x00,Read,ACK
3.282490406250000,0,0x5D,0x00,Read,ACK
3.282511875000000,0,0x5D,0x00,Read,ACK
3.282534750000000,0,0x5D,0x00,Read,NAK
3.288321593750000,0,0x5D,0x2F,Read,ACK
3.288346250000000,0,0x5D,0x00,Read,ACK
3.288367750000000,0,0x5D,0x04,Read,ACK
3.288389218750000,0,0x5D,0x03,Read,ACK
3.288410687500000,0,0x5D,0x60,Read,ACK
3.288432156250000,0,0x5D,0x0A,Read,ACK
3.288453812500000,0,0x5D,0x80,Read,ACK
3.288475875000000,0,0x5D,0x04,Read,ACK
3.288498812500000,0,0x5D,0x02,Read,ACK
3.288520281250000,0,0x5D,0x02,Read,ACK
3.288541750000000,0,0x5D,0x20,Read,ACK
3.288563218750000,0,0x5D,0x13,Read,ACK
3.288584718750000,0,0x5D,0x49,Read,ACK
3.288606187500000,0,0x5D,0x05,Read,ACK
3.288627656250000,0,0x5D,0x30,Read,ACK
3.288649625000000,0,0x5D,0x04,Read,ACK
3.288671250000000,0,0x5D,0x03,Read,ACK
3.288692687500000,0,0x5D,0x03,Read,ACK
3.288714187500000,0,0x5D,0x20,Read,ACK
3.288735687500000,0,0x5D,0x23,Read,ACK
3.288757187500000,0,0x5D,0xD3,Read,ACK
3.288778750000000,0,0x5D,0x07,Read,ACK
3.288800218750000,0,0x5D,0x87,Read,ACK
3.288821718750000,0,0x5D,0x03,Read,ACK
3.288843156250000,0,0x5D,0x02,Read,ACK
3.288864625000000,0,0x5D,0x02,Read,ACK
3.288886125000000,0,0x5D,0x20,Read,ACK
3.288907656250000,0,0x5D,0x00,Read,ACK
3.288929093750000,0,0x5D,0x00,Read,ACK
3.288950593750000,0,0x5D,0x00,Read,ACK
3.288972062500000,0,0x5D,0x00,Read,ACK
3.288993531250000,0,0x5D,0x00,Read,ACK
3.289015000000000,0,0x5D,0x00,Read,ACK
3.289036468750000,0,0x5D,0x00,Read,ACK
3.289057937500000,0,0x5D,0x00,Read,ACK
3.289079406250000,0,0x5D,0x00,Read,ACK
3.289100906250000,0,0x5D,0x00,Read,ACK
3.289122343750000,0,0x5D,0x00,Read,ACK
3.289143843750000,0,0x5D,0x00,Read,ACK
3.289165312500000,0,0x5D,0x00,Read,ACK
3.289186781250000,0,0x5D,0x00,Read,ACK
3.289208687500000,0,0x5D,0x00,Read,ACK
3.289230156250000,0,0x5D,0x00,Read,ACK
3.289251625000000,0,0x5D,0xE8,Read,ACK
3.289273093750000,0,0x5D,0x1F,Read,ACK
3.289294562500000,0,0x5D,0x03,Read,ACK
3.289316031250000,0,0x5D,0x00,Read,ACK
3.289337500000000,0,0x5D,0x00,Read,ACK
3.289358968750000,0,0x5D,0x00,Read,ACK
3.289380437500000,0,0x5D,0x00,Read,ACK
3.289401906250000,0,0x5D,0x00,Read,ACK
3.289423375000000,0,0x5D,0x00,Read,ACK
3.289448781250000,0,0x5D,0x00,Read,ACK
3.289470250000000,0,0x5D,0x00,Read,ACK
3.289492562500000,0,0x5D,0x00,Read,ACK
3.289515312500000,0,0x5D,0x00,Read,ACK
3.289536906250000,0,0x5D,0x00,Read,ACK
3.289558375000000,0,0x5D,0x00,Read,ACK
3.289579843750000,0,0x5D,0x00,Read,ACK
3.289601343750000,0,0x5D,0x00,Read,ACK
3.289623000000000,0,0x5D,0x00,Read,ACK
3.289644500000000,0,0x5D,0x00,Read,ACK
3.289666156250000,0,0x5D,0x00,Read,ACK
3.289687843750000,0,0x5D,0x00,Read,NAK
3.295430875000000,0,0x5D,0x2F,Read,ACK
3.295459437500000,0,0x5D,0x00,Read,ACK
3.295480906250000,0,0x5D,0x04,Read,ACK
3.295502375000000,0,0x5D,0x03,Read,ACK
3.295523843750000,0,0x5D,0x6C,Read,ACK
3.295545343750000,0,0x5D,0x0A,Read,ACK
3.295566781250000,0,0x5D,0x92,Read,ACK
3.295588250000000,0,0x5D,0x04,Read,ACK
3.295610093750000,0,0x5D,0x02,Read,ACK
3.295632781250000,0,0x5D,0x02,Read,ACK
3.295656156250000,0,0x5D,0x20,Read,ACK
3.295677625000000,0,0x5D,0x13,Read,ACK
3.295699125000000,0,0x5D,0x55,Read,ACK
3.295720593750000,0,0x5D,0x05,Read,ACK
3.295742031250000,0,0x5D,0x40,Read,ACK
3.295763500000000,0,0x5D,0x04,Read,ACK
3.295784968750000,0,0x5D,0x03,Read,ACK
3.295807250000000,0,0x5D,0x03,Read,ACK
3.295830375000000,0,0x5D,0x20,Read,ACK
3.295854062500000,0,0x5D,0x23,Read,ACK
3.295875562500000,0,0x5D,0xDF,Read,ACK
3.295897437500000,0,0x5D,0x07,Read,ACK
3.295918937500000,0,0x5D,0x97,Read,ACK
3.295940406250000,0,0x5D,0x03,Read,ACK
3.295961875000000,0,0x5D,0x02,Read,ACK
3.295983343750000,0,0x5D,0x02,Read,ACK
3.296004812500000,0,0x5D,0x20,Read,ACK
3.296026281250000,0,0x5D,0x00,Read,ACK
3.296047750000000,0,0x5D,0x00,Read,ACK
3.296069406250000,0,0x5D,0x00,Read,ACK
3.296090906250000,0,0x5D,0x00,Read,ACK
3.296112625000000,0,0x5D,0x00,Read,ACK
3.296134093750000,0,0x5D,0x00,Read,ACK
3.296155531250000,0,0x5D,0x00,Read,ACK
3.296177000000000,0,0x5D,0x00,Read,ACK
3.296198750000000,0,0x5D,0x00,Read,ACK
3.296220218750000,0,0x5D,0x00,Read,ACK
3.296241687500000,0,0x5D,0x00,Read,ACK
3.296263125000000,0,0x5D,0x00,Read,ACK
3.296284625000000,0,0x5D,0x00,Read,ACK
3.296306093750000,0,0x5D,0x00,Read,ACK
3.296327562500000,0,0x5D,0x00,Read,ACK
3.296349031250000,0,0x5D,0x00,Read,ACK
3.296370531250000,0,0x5D,0x2E,Read,ACK
3.296391968750000,0,0x5D,0x20,Read,ACK
3.296413468750000,0,0x5D,0x03,Read,ACK
3.296434906250000,0,0x5D,0x00,Read,ACK
3.296456406250000,0,0x5D,0x00,Read,ACK
3.296478031250000,0,0x5D,0x00,Read,ACK
3.296499500000000,0,0x5D,0x00,Read,ACK
3.296520968750000,0,0x5D,0x00,Read,ACK
3.296542437500000,0,0x5D,0x00,Read,ACK
3.296563906250000,0,0x5D,0x00,Read,ACK
3.296585406250000,0,0x5D,0x00,Read,ACK
3.296606968750000,0,0x5D,0x00,Read,ACK
3.296628468750000,0,0x5D,0x00,Read,ACK
3.296649937500000,0,0x5D,0x00,Read,ACK
3.296671781250000,0,0x5D,0x00,Read,ACK
3.296693656250000,0,0x5D,0x00,Read,ACK
3.296715468750000,0,0x5D,0x00,Read,ACK
3.296737250000000,0,0x5D,0x00,Read,ACK
3.296758718750000,0,0x5D,0x00,Read,ACK
3.296780187500000,0,0x5D,0x00,Read,ACK
3.296801718750000,0,0x5D,0x00,Read,NAK
3.302643906250000,0,0x5D,0x2F,Read,ACK
3.302668437500000,0,0x5D,0x00,Read,ACK
3.302689875000000,0,0x5D,0x04,Read,ACK
3.302711343750000,0,0x5D,0x03,Read,ACK
3.302733187500000,0,0x5D,0x75,Read,ACK
3.302754656250000,0,0x5D,0x0A,Read,ACK
3.302780093750000,0,0x5D,0xA4,Read,ACK
3.302801531250000,0,0x5D,0x04,Read,ACK
3.302823000000000,0,0x5D,0x03,Read,ACK
3.302844468750000,0,0x5D,0x03,Read,ACK
3.302865937500000,0,0x5D,0x20,Read,ACK
3.302887437500000,0,0x5D,0x13,Read,ACK
3.302908906250000,0,0x5D,0x5F,Read,ACK
3.302930875000000,0,0x5D,0x05,Read,ACK
3.302952406250000,0,0x5D,0x51,Read,ACK
3.302973875000000,0,0x5D,0x04,Read,ACK
3.302995343750000,0,0x5D,0x04,Read,ACK
3.303016812500000,0,0x5D,0x03,Read,ACK
3.303039031250000,0,0x5D,0x20,Read,ACK
3.303060500000000,0,0x5D,0x23,Read,ACK
3.303081968750000,0,0x5D,0xEA,Read,ACK
3.303103437500000,0,0x5D,0x07,Read,ACK
3.303124906250000,0,0x5D,0xA8,Read,ACK
3.303146406250000,0,0x5D,0x03,Read,ACK
3.303167875000000,0,0x5D,0x03,Read,ACK
3.303189718750000,0,0x5D,0x03,Read,ACK
3.303211187500000,0,0x5D,0x20,Read,ACK
3.303232656250000,0,0x5D,0x00,Read,ACK
3.303254093750000,0,0x5D,0x00,Read,ACK
3.303275593750000,0,0x5D,0x00,Read,ACK
3.303297093750000,0,0x5D,0x00,Read,ACK
3.303318531250000,0,0x5D,0x00,Read,ACK
3.303340000000000,0,0x5D,0x00,Read,ACK
3.303361468750000,0,0x5D,0x00,Read,ACK
3.303382937500000,0,0x5D,0x00,Read,ACK
3.303404406250000,0,0x5D,0x00,Read,ACK
3.303425875000000,0,0x5D,0x00,Read,ACK
3.303447375000000,0,0x5D,0x00,Read,ACK
3.303468812500000,0,0x5D,0x00,Read,ACK
3.303490281250000,0,0x5D,0x00,Read,ACK
3.303511750000000,0,0x5D,0x00,Read,ACK
3.303533218750000,0,0x5D,0x00,Read,ACK
3.303554718750000,0,0x5D,0x00,Read,ACK
3.303576156250000,0,0x5D,0x74,Read,ACK
3.303597656250000,0,0x5D,0x20,Read,ACK
3.303619125000000,0,0x5D,0x03,Read,ACK
3.303640593750000,0,0x5D,0x00,Read,ACK
3.303662093750000,0,0x5D,0x00,Read,ACK
3.303683625000000,0,0x5D,0x00,Read,ACK
3.303705062500000,0,0x5D,0x00,Read,ACK
3.303731250000000,0,0x5D,0x00,Read,ACK
3.303756218750000,0,0x5D,0x00,Read,ACK
3.303777718750000,0,0x5D,0x00,Read,ACK
3.303803875000000,0,0x5D,0x00,Read,ACK
3.303827312500000,0,0x5D,0x00,Read,ACK
3.303848937500000,0,0x5D,0x00,Read,ACK
3.303870406250000,0,0x5D,0x00,Read,ACK
3.303891906250000,0,0x5D,0x00,Read,ACK
3.303913500000000,0,0x5D,0x00,Read,ACK
3.303934968750000,0,0x5D,0x00,Read,ACK
3.303956437500000,0,0x5D,0x00,Read,ACK
3.303977906250000,0,0x5D,0x00,Read,ACK
3.303999375000000,0,0x5D,0x00,Read,ACK
3.304021312500000,0,0x5D,0x00,Read,NAK
3.309824218750000,0,0x5D,0x2F,Read,ACK
3.309849937500000,0,0x5D,0x00,Read,ACK
3.309871375000000,0,0x5D,0x04,Read,ACK
3.309894125000000,0,0x5D,0x03,Read,ACK
3.309920031250000,0,0x5D,0x7E,Read,ACK
3.309941531250000,0,0x5D,0x0A,Read,ACK
3.309963031250000,0,0x5D,0xB7,Read,ACK
3.309984500000000,0,0x5D,0x04,Read,ACK
3.310005968750000,0,0x5D,0x03,Read,ACK
3.310027437500000,0,0x5D,0x03,Read,ACK
3.310048906250000,0,0x5D,0x20,Read,ACK
3.310070406250000,0,0x5D,0x13,Read,ACK
3.310093468750000,0,0x5D,0x69,Read,ACK
3.310114937500000,0,0x5D,0x05,Read,ACK
3.310136406250000,0,0x5D,0x64,Read,ACK
3.310157875000000,0,0x5D,0x04,Read,ACK
3.310179343750000,0,0x5D,0x03,Read,ACK
3.310202031250000,0,0x5D,0x03,Read,ACK
3.310223687500000,0,0x5D,0x20,Read,ACK
3.310245750000000,0,0x5D,0x23,Read,ACK
3.310269031250000,0,0x5D,0xF3,Read,ACK
3.310290500000000,0,0x5D,0x07,Read,ACK
3.310311968750000,0,0x5D,0xBA,Read,ACK
3.310333468750000,0,0x5D,0x03,Read,ACK
3.310355031250000,0,0x5D,0x03,Read,ACK
3.310376468750000,0,0x5D,0x03,Read,ACK
3.310397937500000,0,0x5D,0x20,Read,ACK
3.310419406250000,0,0x5D,0x00,Read,ACK
3.310440875000000,0,0x5D,0x00,Read,ACK
3.310462343750000,0,0x5D,0x00,Read,ACK
3.310483812500000,0,0x5D,0x00,Read,ACK
3.310505312500000,0,0x5D,0x00,Read,ACK
3.310526750000000,0,0x5D,0x00,Read,ACK
3.310548218750000,0,0x5D,0x00,Read,ACK
3.310569687500000,0,0x5D,0x00,Read,ACK
3.310591187500000,0,0x5D,0x00,Read,ACK
3.310612656250000,0,0x5D,0x00,Read,ACK
3.310634125000000,0,0x5D,0x00,Read,ACK
3.310655812500000,0,0x5D,0x00,Read,ACK
3.310677343750000,0,0x5D,0x00,Read,ACK
3.310698781250000,0,0x5D,0x00,Read,ACK
3.310720250000000,0,0x5D,0x00,Read,ACK
3.310741718750000,0,0x5D,0x00,Read,ACK
3.310763187500000,0,0x5D,0xBA,Read,ACK
3.310784656250000,0,0x5D,0x20,Read,ACK
3.310806156250000,0,0x5D,0x03,Read,ACK
3.310827625000000,0,0x5D,0x00,Read,ACK
3.310849093750000,0,0x5D,0x00,Read,ACK
3.310870906250000,0,0x5D,0x00,Read,ACK
3.310896875000000,0,0x5D,0x00,Read,ACK
3.310919218750000,0,0x5D,0x00,Read,ACK
3.310941937500000,0,0x5D,0x00,Read,ACK
3.310964062500000,0,0x5D,0x00,Read,ACK
3.310985531250000,0,0x5D,0x00,Read,ACK
3.311008125000000,0,0x5D,0x00,Read,ACK
3.311029812500000,0,0x5D,0x00,Read,ACK
3.311051250000000,0,0x5D,0x00,Read,ACK
3.311073125000000,0,0x5D,0x00,Read,ACK
3.311094562500000,0,0x5D,0x00,Read,ACK
3.311116062500000,0,0x5D,0x00,Read,ACK
3.311141156250000,0,0x5D,0x00,Read,ACK
3.311163812500000,0,0x5D,0x00,Read,ACK
3.311185281250000,0,0x5D,0x00,Read,ACK
3.311206750000000,0,0x5D,0x00,Read,NAK
3.316888375000000,0,0x5D,0x2F,Read,ACK
3.316916250000000,0,0x5D,0x00,Read,ACK
3.316937750000000,0,0x5D,0x04,Read,ACK
3.316959187500000,0,0x5D,0x03,Read,ACK
3.316980656250000,0,0x5D,0x85,Read,ACK
3.317002125000000,0,0x5D,0x0A,Read,ACK
3.317024750000000,0,0x5D,0xCB,Read,ACK
3.317046750000000,0,0x5D,0x04,Read,ACK
3.317070000000000,0,0x5D,0x03,Read,ACK
3.317091437500000,0,0x5D,0x03,Read,ACK
3.317112937500000,0,0x5D,0x20,Read,ACK
3.317134406250000,0,0x5D,0x13,Read,ACK
3.317155875000000,0,0x5D,0x72,Read,ACK
3.317177343750000,0,0x5D,0x05,Read,ACK
3.317198812500000,0,0x5D,0x78,Read,ACK
3.317220281250000,0,0x5D,0x04,Read,ACK
3.317242437500000,0,0x5D,0x03,Read,ACK
3.317264406250000,0,0x5D,0x02,Read,ACK
3.317286281250000,0,0x5D,0x20,Read,ACK
3.317307718750000,0,0x5D,0x23,Read,ACK
3.317329187500000,0,0x5D,0xFB,Read,ACK
3.317350656250000,0,0x5D,0x07,Read,ACK
3.317372125000000,0,0x5D,0xCE,Read,ACK
3.317393593750000,0,0x5D,0x03,Read,ACK
3.317415062500000,0,0x5D,0x03,Read,ACK
3.317436531250000,0,0x5D,0x03,Read,ACK
3.317458031250000,0,0x5D,0x20,Read,ACK
3.317479500000000,0,0x5D,0x00,Read,ACK
3.317500937500000,0,0x5D,0x00,Read,ACK
3.317522812500000,0,0x5D,0x00,Read,ACK
3.317544312500000,0,0x5D,0x00,Read,ACK
3.317565781250000,0,0x5D,0x00,Read,ACK
3.317587250000000,0,0x5D,0x00,Read,ACK
3.317609000000000,0,0x5D,0x00,Read,ACK
3.317630468750000,0,0x5D,0x00,Read,ACK
3.317651937500000,0,0x5D,0x00,Read,ACK
3.317673406250000,0,0x5D,0x00,Read,ACK
3.317694875000000,0,0x5D,0x00,Read,ACK
3.317716343750000,0,0x5D,0x00,Read,ACK
3.317737812500000,0,0x5D,0x00,Read,ACK
3.317759968750000,0,0x5D,0x00,Read,ACK
3.317781437500000,0,0x5D,0x00,Read,ACK
3.317802906250000,0,0x5D,0x00,Read,ACK
3.317824375000000,0,0x5D,0x00,Read,ACK
3.317845875000000,0,0x5D,0x21,Read,ACK
3.317867375000000,0,0x5D,0x03,Read,ACK
3.317889031250000,0,0x5D,0x00,Read,ACK
3.317910500000000,0,0x5D,0x00,Read,ACK
3.317932000000000,0,0x5D,0x00,Read,ACK
3.317953437500000,0,0x5D,0x00,Read,ACK
3.317974937500000,0,0x5D,0x00,Read,ACK
3.317996406250000,0,0x5D,0x00,Read,ACK
3.318020625000000,0,0x5D,0x00,Read,ACK
3.318047312500000,0,0x5D,0x00,Read,ACK
3.318070562500000,0,0x5D,0x00,Read,ACK
3.318092343750000,0,0x5D,0x00,Read,ACK
3.318114218750000,0,0x5D,0x00,Read,ACK
3.318135750000000,0,0x5D,0x00,Read,ACK
3.318157187500000,0,0x5D,0x00,Read,ACK
3.318178656250000,0,0x5D,0x00,Read,ACK
3.318200125000000,0,0x5D,0x00,Read,ACK
3.318221593750000,0,0x5D,0x00,Read,ACK
3.318243531250000,0,0x5D,0x00,Read,ACK
3.318266656250000,0,0x5D,0x00,Read,NAK
3.324356250000000,0,0x5D,0x2F,Read,ACK
3.324384937500000,0,0x5D,0x00,Read,ACK
3.324406875000000,0,0x5D,0x04,Read,ACK
3.324428343750000,0,0x5D,0x03,Read,ACK
3.324450375000000,0,0x5D,0x8B,Read,ACK
3.324471843750000,0,0x5D,0x0A,Read,ACK
3.324494156250000,0,0x5D,0xDF,Read,ACK
3.324517156250000,0,0x5D,0x04,Read,ACK
3.324538812500000,0,0x5D,0x03,Read,ACK
3.324560281250000,0,0x5D,0x02,Read,ACK
3.324582937500000,0,0x5D,0x20,Read,ACK
3.324604406250000,0,0x5D,0x13,Read,ACK
3.324627000000000,0,0x5D,0x7A,Read,ACK
3.324648468750000,0,0x5D,0x05,Read,ACK
3.324669937500000,0,0x5D,0x8B,Read,ACK
3.324691406250000,0,0x5D,0x04,Read,ACK
3.324712875000000,0,0x5D,0x03,Read,ACK
3.324734343750000,0,0x5D,0x03,Read,ACK
3.324755812500000,0,0x5D,0x20,Read,ACK
3.324777281250000,0,0x5D,0x23,Read,ACK
3.324798750000000,0,0x5D,0x02,Read,ACK
3.324820218750000,0,0x5D,0x08,Read,ACK
3.324841687500000,0,0x5D,0xE3,Read,ACK
3.324863187500000,0,0x5D,0x03,Read,ACK
3.324884625000000,0,0x5D,0x03,Read,ACK
3.324906281250000,0,0x5D,0x02,Read,ACK
3.324927781250000,0,0x5D,0x20,Read,ACK
3.324949218750000,0,0x5D,0x00,Read,ACK
3.324970687500000,0,0x5D,0x00,Read,ACK
3.324992187500000,0,0x5D,0x00,Read,ACK
3.325013656250000,0,0x5D,0x00,Read,ACK
3.325035125000000,0,0x5D,0x00,Read,ACK
3.325056593750000,0,0x5D,0x00,Read,ACK
3.325079781250000,0,0x5D,0x00,Read,ACK
3.325104218750000,0,0x5D,0x00,Read,ACK
3.325126125000000,0,0x5D,0x00,Read,ACK
3.325151968750000,0,0x5D,0x00,Read,ACK
3.325175812500000,0,0x5D,0x00,Read,ACK
3.325197375000000,0,0x5D,0x00,Read,ACK
3.325218875000000,0,0x5D,0x00,Read,ACK
3.325240343750000,0,0x5D,0x00,Read,ACK
3.325262062500000,0,0x5D,0x00,Read,ACK
3.325283531250000,0,0x5D,0x00,Read,ACK
3.325305000000000,0,0x5D,0x46,Read,ACK
3.325327625000000,0,0x5D,0x21,Read,ACK
3.325349406250000,0,0x5D,0x03,Read,ACK
3.325374468750000,0,0x5D,0x00,Read,ACK
3.325399187500000,0,0x5D,0x00,Read,ACK
3.325421937500000,0,0x5D,0x00,Read,ACK
3.325444375000000,0,0x5D,0x00,Read,ACK
3.325467312500000,0,0x5D,0x00,Read,ACK
3.325489031250000,0,0x5D,0x00,Read,ACK
3.325510531250000,0,0x5D,0x00,Read,ACK
3.325532343750000,0,0x5D,0x00,Read,ACK
3.325553843750000,0,0x5D,0x00,Read,ACK
3.325575437500000,0,0x5D,0x00,Read,ACK
3.325596906250000,0,0x5D,0x00,Read,ACK
3.325618437500000,0,0x5D,0x00,Read,ACK
3.325641031250000,0,0x5D,0x00,Read,ACK
3.325662531250000,0,0x5D,0x00,Read,ACK
3.325685031250000,0,0x5D,0x00,Read,ACK
3.325706500000000,0,0x5D,0x00,Read,ACK
3.325727968750000,0,0x5D,0x00,Read,ACK
3.325749437500000,0,0x5D,0x00,Read,NAK
3.331163781250000,0,0x5D,0x2F,Read,ACK
3.331193468750000,0,0x5D,0x00,Read,ACK
3.331214937500000,0,0x5D,0x04,Read,ACK
3.331236437500000,0,0x5D,0x03,Read,ACK
3.331257906250000,0,0x5D,0x91,Read,ACK
3.331279375000000,0,0x5D,0x0A,Read,ACK
3.331300843750000,0,0x5D,0xF6,Read,ACK
3.331322562500000,0,0x5D,0x04,Read,ACK
3.331344531250000,0,0x5D,0x03,Read,ACK
3.331373656250000,0,0x5D,0x02,Read,ACK
3.331395156250000,0,0x5D,0x20,Read,ACK
3.331416656250000,0,0x5D,0x13,Read,ACK
3.331438093750000,0,0x5D,0x81,Read,ACK
3.331459562500000,0,0x5D,0x05,Read,ACK
3.331481062500000,0,0x5D,0x9F,Read,ACK
3.331502531250000,0,0x5D,0x04,Read,ACK
3.331524437500000,0,0x5D,0x03,Read,ACK
3.331545906250000,0,0x5D,0x03,Read,ACK
3.331567375000000,0,0x5D,0x20,Read,ACK
3.331588843750000,0,0x5D,0x23,Read,ACK
3.331610312500000,0,0x5D,0x09,Read,ACK
3.331631781250000,0,0x5D,0x08,Read,ACK
3.331653531250000,0,0x5D,0xF9,Read,ACK
3.331676406250000,0,0x5D,0x03,Read,ACK
3.331699000000000,0,0x5D,0x03,Read,ACK
3.331720500000000,0,0x5D,0x02,Read,ACK
3.331742000000000,0,0x5D,0x20,Read,ACK
3.331763468750000,0,0x5D,0x00,Read,ACK
3.331784937500000,0,0x5D,0x00,Read,ACK
3.331806437500000,0,0x5D,0x00,Read,ACK
3.331827906250000,0,0x5D,0x00,Read,ACK
3.331849375000000,0,0x5D,0x00,Read,ACK
3.331870875000000,0,0x5D,0x00,Read,ACK
3.331892375000000,0,0x5D,0x00,Read,ACK
3.331913843750000,0,0x5D,0x00,Read,ACK
3.331935312500000,0,0x5D,0x00,Read,ACK
3.331956812500000,0,0x5D,0x00,Read,ACK
3.331978281250000,0,0x5D,0x00,Read,ACK
3.331999812500000,0,0x5D,0x00,Read,ACK
3.332021281250000,0,0x5D,0x00,Read,ACK
3.332042750000000,0,0x5D,0x00,Read,ACK
3.332064218750000,0,0x5D,0x00,Read,ACK
3.332085687500000,0,0x5D,0x00,Read,ACK
3.332107156250000,0,0x5D,0x8C,Read,ACK
3.332128656250000,0,0x5D,0x21,Read,ACK
3.332150156250000,0,0x5D,0x03,Read,ACK
3.332171625000000,0,0x5D,0x00,Read,ACK
3.332193093750000,0,0x5D,0x00,Read,ACK
3.332214593750000,0,0x5D,0x00,Read,ACK
3.332236093750000,0,0x5D,0x00,Read,ACK
3.332257843750000,0,0x5D,0x00,Read,ACK
3.332279312500000,0,0x5D,0x00,Read,ACK
3.332300781250000,0,0x5D,0x00,Read,ACK
3.332325875000000,0,0x5D,0x00,Read,ACK
3.332347437500000,0,0x5D,0x00,Read,ACK
3.332368937500000,0,0x5D,0x00,Read,ACK
3.332391906250000,0,0x5D,0x00,Read,ACK
3.332414312500000,0,0x5D,0x00,Read,ACK
3.332436562500000,0,0x5D,0x00,Read,ACK
3.332459656250000,0,0x5D,0x00,Read,ACK
3.332481093750000,0,0x5D,0x00,Read,ACK
3.332502593750000,0,0x5D,0x00,Read,ACK
3.332524062500000,0,0x5D,0x00,Read,ACK
3.332545531250000,0,0x5D,0x00,Read,NAK
3.338310250000000,0,0x5D,0x2F,Read,ACK
3.338339250000000,0,0x5D,0x00,Read,ACK
3.338360718750000,0,0x5D,0x04,Read,ACK
3.338382187500000,0,0x5D,0x03,Read,ACK
3.338403656250000,0,0x5D,0x95,Read,ACK
3.338425125000000,0,0x5D,0x0A,Read,ACK
3.338446593750000,0,0x5D,0x0C,Read,ACK
3.338468062500000,0,0x5D,0x05,Read,ACK
3.338490218750000,0,0x5D,0x03,Read,ACK
3.338512093750000,0,0x5D,0x03,Read,ACK
3.338533593750000,0,0x5D,0x20,Read,ACK
3.338555093750000,0,0x5D,0x13,Read,ACK
3.338576531250000,0,0x5D,0x87,Read,ACK
3.338598000000000,0,0x5D,0x05,Read,ACK
3.338619500000000,0,0x5D,0xB4,Read,ACK
3.338640937500000,0,0x5D,0x04,Read,ACK
3.338662406250000,0,0x5D,0x03,Read,ACK
3.338684406250000,0,0x5D,0x03,Read,ACK
3.338708750000000,0,0x5D,0x20,Read,ACK
3.338730218750000,0,0x5D,0x23,Read,ACK
3.338751687500000,0,0x5D,0x0F,Read,ACK
3.338773156250000,0,0x5D,0x08,Read,ACK
3.338796062500000,0,0x5D,0x0E,Read,ACK
3.338817781250000,0,0x5D,0x04,Read,ACK
3.338839250000000,0,0x5D,0x03,Read,ACK
3.338860718750000,0,0x5D,0x02,Read,ACK
3.338882187500000,0,0x5D,0x20,Read,ACK
3.338903687500000,0,0x5D,0x00,Read,ACK
3.338925843750000,0,0x5D,0x00,Read,ACK
3.338947281250000,0,0x5D,0x00,Read,ACK
3.338968968750000,0,0x5D,0x00,Read,ACK
3.338990406250000,0,0x5D,0x00,Read,ACK
3.339011906250000,0,0x5D,0x00,Read,ACK
3.339033343750000,0,0x5D,0x00,Read,ACK
3.339054812500000,0,0x5D,0x00,Read,ACK
3.339076312500000,0,0x5D,0x00,Read,ACK
3.339097781250000,0,0x5D,0x00,Read,ACK
3.339119250000000,0,0x5D,0x00,Read,ACK
3.339140718750000,0,0x5D,0x00,Read,ACK
3.339162187500000,0,0x5D,0x00,Read,ACK
3.339183656250000,0,0x5D,0x00,Read,ACK
3.339205218750000,0,0x5D,0x00,Read,ACK
3.339226656250000,0,0x5D,0x00,Read,ACK
3.339248125000000,0,0x5D,0xD2,Read,ACK
3.339269593750000,0,0x5D,0x21,Read,ACK
3.339291062500000,0,0x5D,0x03,Read,ACK
3.339312562500000,0,0x5D,0x00,Read,ACK
3.339334000000000,0,0x5D,0x00,Read,ACK
3.339355531250000,0,0x5D,0x00,Read,ACK
3.339377031250000,0,0x5D,0x00,Read,ACK
3.339398812500000,0,0x5D,0x00,Read,ACK
3.339420281250000,0,0x5D,0x00,Read,ACK
3.339442812500000,0,0x5D,0x00,Read,ACK
3.339467718750000,0,0x5D,0x00,Read,ACK
3.339489187500000,0,0x5D,0x00,Read,ACK
3.339513500000000,0,0x5D,0x00,Read,ACK
3.339535000000000,0,0x5D,0x00,Read,ACK
3.339557250000000,0,0x5D,0x00,Read,ACK
3.339578718750000,0,0x5D,0x00,Read,ACK
3.339600406250000,0,0x5D,0x00,Read,ACK
3.339621906250000,0,0x5D,0x00,Read,ACK
3.339644500000000,0,0x5D,0x00,Read,ACK
3.339666031250000,0,0x5D,0x00,Read,ACK
3.339688937500000,0,0x5D,0x00,Read,NAK
3.345425250000000,0,0x5D,0x2F,Read,ACK
3.345454562500000,0,0x5D,0x00,Read,ACK
3.345476062500000,0,0x5D,0x04,Read,ACK
3.345497562500000,0,0x5D,0x03,Read,ACK
3.345519000000000,0,0x5D,0x9A,Read,ACK
3.345540500000000,0,0x5D,0x0A,Read,ACK
3.345562250000000,0,0x5D,0x22,Read,ACK
3.345583687500000,0,0x5D,0x05,Read,ACK
3.345605156250000,0,0x5D,0x03,Read,ACK
3.345626687500000,0,0x5D,0x03,Read,ACK
3.345652125000000,0,0x5D,0x20,Read,ACK
3.345673625000000,0,0x5D,0x13,Read,ACK
3.345695093750000,0,0x5D,0x8D,Read,ACK
3.345716593750000,0,0x5D,0x05,Read,ACK
3.345738062500000,0,0x5D,0xCA,Read,ACK
3.345759500000000,0,0x5D,0x04,Read,ACK
3.345781000000000,0,0x5D,0x03,Read,ACK
3.345804218750000,0,0x5D,0x03,Read,ACK
3.345825781250000,0,0x5D,0x20,Read,ACK
3.345847281250000,0,0x5D,0x23,Read,ACK
3.345868750000000,0,0x5D,0x15,Read,ACK
3.345890218750000,0,0x5D,0x08,Read,ACK
3.345913000000000,0,0x5D,0x25,Read,ACK
3.345934468750000,0,0x5D,0x04,Read,ACK
3.345955937500000,0,0x5D,0x03,Read,ACK
3.345977406250000,0,0x5D,0x03,Read,ACK
3.345998875000000,0,0x5D,0x20,Read,ACK
3.346020343750000,0,0x5D,0x00,Read,ACK
3.346041812500000,0,0x5D,0x00,Read,ACK
3.346063281250000,0,0x5D,0x00,Read,ACK
3.346084750000000,0,0x5D,0x00,Read,ACK
3.346106218750000,0,0x5D,0x00,Read,ACK
3.346127687500000,0,0x5D,0x00,Read,ACK
3.346149156250000,0,0x5D,0x00,Read,ACK
3.346170625000000,0,0x5D,0x00,Read,ACK
3.346192093750000,0,0x5D,0x00,Read,ACK
3.346213562500000,0,0x5D,0x00,Read,ACK
3.346235031250000,0,0x5D,0x00,Read,ACK
3.346256562500000,0,0x5D,0x00,Read,ACK
3.346278031250000,0,0x5D,0x00,Read,ACK
3.346299531250000,0,0x5D,0x00,Read,ACK
3.346321000000000,0,0x5D,0x00,Read,ACK
3.346342562500000,0,0x5D,0x00,Read,ACK
3.346364062500000,0,0x5D,0x18,Read,ACK
3.346385531250000,0,0x5D,0x22,Read,ACK
3.346407000000000,0,0x5D,0x03,Read,ACK
3.346428500000000,0,0x5D,0x00,Read,ACK
3.346450000000000,0,0x5D,0x00,Read,ACK
3.346471468750000,0,0x5D,0x00,Read,ACK
3.346492937500000,0,0x5D,0x00,Read,ACK
3.346514406250000,0,0x5D,0x00,Read,ACK
3.346535875000000,0,0x5D,0x00,Read,ACK
3.346557375000000,0,0x5D,0x00,Read,ACK
3.346578843750000,0,0x5D,0x00,Read,ACK
3.346602375000000,0,0x5D,0x00,Read,ACK
3.346624968750000,0,0x5D,0x00,Read,ACK
3.346646437500000,0,0x5D,0x00,Read,ACK
3.346670593750000,0,0x5D,0x00,Read,ACK
3.346692375000000,0,0x5D,0x00,Read,ACK
3.346713937500000,0,0x5D,0x00,Read,ACK
3.346735406250000,0,0x5D,0x00,Read,ACK
3.346756875000000,0,0x5D,0x00,Read,ACK
3.346778343750000,0,0x5D,0x00,Read,ACK
3.346799812500000,0,0x5D,0x00,Read,NAK
3.352634906250000,0,0x5D,0x2F,Read,ACK
3.352657843750000,0,0x5D,0x00,Read,ACK
3.352679312500000,0,0x5D,0x04,Read,ACK
3.352700812500000,0,0x5D,0x03,Read,ACK
3.352724093750000,0,0x5D,0x9E,Read,ACK
3.352747031250000,0,0x5D,0x0A,Read,ACK
3.352768531250000,0,0x5D,0x38,Read,ACK
3.352789968750000,0,0x5D,0x05,Read,ACK
3.352811437500000,0,0x5D,0x03,Read,ACK
3.352832937500000,0,0x5D,0x03,Read,ACK
3.352854406250000,0,0x5D,0x20,Read,ACK
3.352875875000000,0,0x5D,0x13,Read,ACK
3.352897343750000,0,0x5D,0x91,Read,ACK
3.352918812500000,0,0x5D,0x05,Read,ACK
3.352940281250000,0,0x5D,0xDF,Read,ACK
3.352961750000000,0,0x5D,0x04,Read,ACK
3.352983218750000,0,0x5D,0x03,Read,ACK
3.353004687500000,0,0x5D,0x03,Read,ACK
3.353026531250000,0,0x5D,0x20,Read,ACK
3.353048406250000,0,0x5D,0x23,Read,ACK
3.353069843750000,0,0x5D,0x1A,Read,ACK
3.353091718750000,0,0x5D,0x08,Read,ACK
3.353113156250000,0,0x5D,0x3C,Read,ACK
3.353134625000000,0,0x5D,0x04,Read,ACK
3.353156093750000,0,0x5D,0x03,Read,ACK
3.353177781250000,0,0x5D,0x03,Read,ACK
3.353199281250000,0,0x5D,0x20,Read,ACK
3.353220750000000,0,0x5D,0x00,Read,ACK
3.353242218750000,0,0x5D,0x00,Read,ACK
3.353263687500000,0,0x5D,0x00,Read,ACK
3.353285156250000,0,0x5D,0x00,Read,ACK
3.353306625000000,0,0x5D,0x00,Read,ACK
3.353328093750000,0,0x5D,0x00,Read,ACK
3.353349562500000,0,0x5D,0x00,Read,ACK
3.353371031250000,0,0x5D,0x00,Read,ACK
3.353392937500000,0,0x5D,0x00,Read,ACK
3.353414406250000,0,0x5D,0x00,Read,ACK
3.353435875000000,0,0x5D,0x00,Read,ACK
3.353457343750000,0,0x5D,0x00,Read,ACK
3.353478812500000,0,0x5D,0x00,Read,ACK
3.353500281250000,0,0x5D,0x00,Read,ACK
3.353521750000000,0,0x5D,0x00,Read,ACK
3.353543218750000,0,0x5D,0x00,Read,ACK
3.353564687500000,0,0x5D,0x5E,Read,ACK
3.353586187500000,0,0x5D,0x22,Read,ACK
3.353607625000000,0,0x5D,0x03,Read,ACK
3.353629125000000,0,0x5D,0x00,Read,ACK
3.353650593750000,0,0x5D,0x00,Read,ACK
3.353672062500000,0,0x5D,0x00,Read,ACK
3.353696125000000,0,0x5D,0x00,Read,ACK
3.353719593750000,0,0x5D,0x00,Read,ACK
3.353742593750000,0,0x5D,0x00,Read,ACK
3.353764437500000,0,0x5D,0x00,Read,ACK
3.353786031250000,0,0x5D,0x00,Read,ACK
3.353807500000000,0,0x5D,0x00,Read,ACK
3.353828968750000,0,0x5D,0x00,Read,ACK
3.353851500000000,0,0x5D,0x00,Read,ACK
3.353872968750000,0,0x5D,0x00,Read,ACK
3.353896000000000,0,0x5D,0x00,Read,ACK
3.353918843750000,0,0x5D,0x00,Read,ACK
3.353942031250000,0,0x5D,0x00,Read,ACK
3.353964062500000,0,0x5D,0x00,Read,ACK
3.353985562500000,0,0x5D,0x00,Read,ACK
3.354007656250000,0,0x5D,0x00,Read,NAK
3.359843281250000,0,0x5D,0x2F,Read,ACK
3.359871406250000,0,0x5D,0x00,Read,ACK
3.359896500000000,0,0x5D,0x04,Read,ACK
3.359918156250000,0,0x5D,0x03,Read,ACK
3.359939593750000,0,0x5D,0xA1,Read,ACK
3.359961062500000,0,0x5D,0x0A,Read,ACK
3.359982531250000,0,0x5D,0x4F,Read,ACK
3.360004000000000,0,0x5D,0x05,Read,ACK
3.360025468750000,0,0x5D,0x03,Read,ACK
3.360046937500000,0,0x5D,0x02,Read,ACK
3.360068406250000,0,0x5D,0x20,Read,ACK
3.360089875000000,0,0x5D,0x13,Read,ACK
3.360112312500000,0,0x5D,0x94,Read,ACK
3.360133750000000,0,0x5D,0x05,Read,ACK
3.360155218750000,0,0x5D,0xF5,Read,ACK
3.360176687500000,0,0x5D,0x04,Read,ACK
3.360198343750000,0,0x5D,0x03,Read,ACK
3.360221031250000,0,0x5D,0x02,Read,ACK
3.360242500000000,0,0x5D,0x20,Read,ACK
3.360264437500000,0,0x5D,0x23,Read,ACK
3.360285937500000,0,0x5D,0x1E,Read,ACK
3.360307437500000,0,0x5D,0x08,Read,ACK
3.360328875000000,0,0x5D,0x54,Read,ACK
3.360350343750000,0,0x5D,0x04,Read,ACK
3.360371812500000,0,0x5D,0x03,Read,ACK
3.360393437500000,0,0x5D,0x03,Read,ACK
3.360414937500000,0,0x5D,0x20,Read,ACK
3.360436406250000,0,0x5D,0x00,Read,ACK
3.360457968750000,0,0x5D,0x00,Read,ACK
3.360479468750000,0,0x5D,0x00,Read,ACK
3.360500937500000,0,0x5D,0x00,Read,ACK
3.360522406250000,0,0x5D,0x00,Read,ACK
3.360543875000000,0,0x5D,0x00,Read,ACK
3.360565375000000,0,0x5D,0x00,Read,ACK
3.360586875000000,0,0x5D,0x00,Read,ACK
3.360608343750000,0,0x5D,0x00,Read,ACK
3.360629843750000,0,0x5D,0x00,Read,ACK
3.360651343750000,0,0x5D,0x00,Read,ACK
3.360672812500000,0,0x5D,0x00,Read,ACK
3.360694281250000,0,0x5D,0x00,Read,ACK
3.360715750000000,0,0x5D,0x00,Read,ACK
3.360737218750000,0,0x5D,0x00,Read,ACK
3.360758687500000,0,0x5D,0x00,Read,ACK
3.360780156250000,0,0x5D,0xA4,Read,ACK
3.360801625000000,0,0x5D,0x22,Read,ACK
3.360823093750000,0,0x5D,0x03,Read,ACK
3.360844656250000,0,0x5D,0x00,Read,ACK
3.360868281250000,0,0x5D,0x00,Read,ACK
3.360892906250000,0,0x5D,0x00,Read,ACK
3.360914406250000,0,0x5D,0x00,Read,ACK
3.360935875000000,0,0x5D,0x00,Read,ACK
3.360958062500000,0,0x5D,0x00,Read,ACK
3.360979500000000,0,0x5D,0x00,Read,ACK
3.361000968750000,0,0x5D,0x00,Read,ACK
3.361022437500000,0,0x5D,0x00,Read,ACK
3.361045031250000,0,0x5D,0x00,Read,ACK
3.361066468750000,0,0x5D,0x00,Read,ACK
3.361089562500000,0,0x5D,0x00,Read,ACK
3.361112406250000,0,0x5D,0x00,Read,ACK
3.361136656250000,0,0x5D,0x00,Read,ACK
3.361158093750000,0,0x5D,0x00,Read,ACK
3.361179750000000,0,0x5D,0x00,Read,ACK
3.361201218750000,0,0x5D,0x00,Read,ACK
3.361222687500000,0,0x5D,0x00,Read,NAK
3.366881593750000,0,0x5D,0x2F,Read,ACK
3.366910281250000,0,0x5D,0x00,Read,ACK
3.366931781250000,0,0x5D,0x04,Read,ACK
3.366953281250000,0,0x5D,0x03,Read,ACK
3.366974718750000,0,0x5D,0xA2,Read,ACK
3.366996500000000,0,0x5D,0x0A,Read,ACK
3.367018406250000,0,0x5D,0x68,Read,ACK
3.367043406250000,0,0x5D,0x05,Read,ACK
3.367064875000000,0,0x5D,0x03,Read,ACK
3.367086312500000,0,0x5D,0x02,Read,ACK
3.367107781250000,0,0x5D,0x20,Read,ACK
3.367129281250000,0,0x5D,0x13,Read,ACK
3.367150718750000,0,0x5D,0x96,Read,ACK
3.367172218750000,0,0x5D,0x05,Read,ACK
3.367193687500000,0,0x5D,0x0A,Read,ACK
3.367215156250000,0,0x5D,0x05,Read,ACK
3.367238000000000,0,0x5D,0x03,Read,ACK
3.367260000000000,0,0x5D,0x02,Read,ACK
3.367281500000000,0,0x5D,0x20,Read,ACK
3.367303031250000,0,0x5D,0x23,Read,ACK
3.367324500000000,0,0x5D,0x21,Read,ACK
3.367346343750000,0,0x5D,0x08,Read,ACK
3.367367812500000,0,0x5D,0x6C,Read,ACK
3.367389312500000,0,0x5D,0x04,Read,ACK
3.367410750000000,0,0x5D,0x03,Read,ACK
3.367432218750000,0,0x5D,0x02,Read,ACK
3.367453687500000,0,0x5D,0x20,Read,ACK
3.367475156250000,0,0x5D,0x00,Read,ACK
3.367496656250000,0,0x5D,0x00,Read,ACK
3.367518500000000,0,0x5D,0x00,Read,ACK
3.367539937500000,0,0x5D,0x00,Read,ACK
3.367561406250000,0,0x5D,0x00,Read,ACK
3.367582906250000,0,0x5D,0x00,Read,ACK
3.367604343750000,0,0x5D,0x00,Read,ACK
3.367625843750000,0,0x5D,0x00,Read,ACK
3.367647281250000,0,0x5D,0x00,Read,ACK
3.367668781250000,0,0x5D,0x00,Read,ACK
3.367690250000000,0,0x5D,0x00,Read,ACK
3.367711718750000,0,0x5D,0x00,Read,ACK
3.367733187500000,0,0x5D,0x00,Read,ACK
3.367754656250000,0,0x5D,0x00,Read,ACK
3.367776125000000,0,0x5D,0x00,Read,ACK
3.367797593750000,0,0x5D,0x00,Read,ACK
3.367819062500000,0,0x5D,0xEA,Read,ACK
3.367840531250000,0,0x5D,0x22,Read,ACK
3.367862000000000,0,0x5D,0x03,Read,ACK
3.367883468750000,0,0x5D,0x00,Read,ACK
3.367904968750000,0,0x5D,0x00,Read,ACK
3.367926437500000,0,0x5D,0x00,Read,ACK
3.367947875000000,0,0x5D,0x00,Read,ACK
3.367969375000000,0,0x5D,0x00,Read,ACK
3.367992156250000,0,0x5D,0x00,Read,ACK
3.368015468750000,0,0x5D,0x00,Read,ACK
3.368036968750000,0,0x5D,0x00,Read,ACK
3.368058406250000,0,0x5D,0x00,Read,ACK
3.368080187500000,0,0x5D,0x00,Read,ACK
3.368101687500000,0,0x5D,0x00,Read,ACK
3.368123156250000,0,0x5D,0x00,Read,ACK
3.368144625000000,0,0x5D,0x00,Read,ACK
3.368166218750000,0,0x5D,0x00,Read,ACK
3.368187687500000,0,0x5D,0x00,Read,ACK
3.368210250000000,0,0x5D,0x00,Read,ACK
3.368231968750000,0,0x5D,0x00,Read,ACK
3.368253500000000,0,0x5D,0x00,Read,NAK
3.374280750000000,0,0x5D,0x2F,Read,ACK
3.374304843750000,0,0x5D,0x00,Read,ACK
3.374326343750000,0,0x5D,0x04,Read,ACK
3.374347843750000,0,0x5D,0x03,Read,ACK
3.374369375000000,0,0x5D,0xA2,Read,ACK
3.374390875000000,0,0x5D,0x0A,Read,ACK
3.374412343750000,0,0x5D,0x7F,Read,ACK
3.374433968750000,0,0x5D,0x05,Read,ACK
3.374455656250000,0,0x5D,0x03,Read,ACK
3.374477125000000,0,0x5D,0x02,Read,ACK
3.374498968750000,0,0x5D,0x20,Read,ACK
3.374520468750000,0,0x5D,0x13,Read,ACK
3.374541937500000,0,0x5D,0x96,Read,ACK
3.374563406250000,0,0x5D,0x05,Read,ACK
3.374584843750000,0,0x5D,0x1F,Read,ACK
3.374606468750000,0,0x5D,0x05,Read,ACK
3.374628312500000,0,0x5D,0x03,Read,ACK
3.374649781250000,0,0x5D,0x03,Read,ACK
3.374671218750000,0,0x5D,0x20,Read,ACK
3.374692687500000,0,0x5D,0x23,Read,ACK
3.374714187500000,0,0x5D,0x22,Read,ACK
3.374735625000000,0,0x5D,0x08,Read,ACK
3.374757125000000,0,0x5D,0x82,Read,ACK
3.374778593750000,0,0x5D,0x04,Read,ACK
3.374800062500000,0,0x5D,0x03,Read,ACK
3.374821531250000,0,0x5D,0x02,Read,ACK
3.374843000000000,0,0x5D,0x20,Read,ACK
3.374864468750000,0,0x5D,0x00,Read,ACK
3.374885937500000,0,0x5D,0x00,Read,ACK
3.374907406250000,0,0x5D,0x00,Read,ACK
3.374928875000000,0,0x5D,0x00,Read,ACK
3.374950343750000,0,0x5D,0x00,Read,ACK
3.374971812500000,0,0x5D,0x00,Read,ACK
3.374993312500000,0,0x5D,0x00,Read,ACK
3.375014781250000,0,0x5D,0x00,Read,ACK
3.375036250000000,0,0x5D,0x00,Read,ACK
3.375057718750000,0,0x5D,0x00,Read,ACK
3.375079187500000,0,0x5D,0x00,Read,ACK
3.375100656250000,0,0x5D,0x00,Read,ACK
3.375125218750000,0,0x5D,0x00,Read,ACK
3.375149406250000,0,0x5D,0x00,Read,ACK
3.375171375000000,0,0x5D,0x00,Read,ACK
3.375194093750000,0,0x5D,0x00,Read,ACK
3.375217281250000,0,0x5D,0x30,Read,ACK
3.375238781250000,0,0x5D,0x23,Read,ACK
3.375260718750000,0,0x5D,0x03,Read,ACK
3.375282187500000,0,0x5D,0x00,Read,ACK
3.375303687500000,0,0x5D,0x00,Read,ACK
3.375325218750000,0,0x5D,0x00,Read,ACK
3.375346687500000,0,0x5D,0x00,Read,ACK
3.375368156250000,0,0x5D,0x00,Read,ACK
3.375389625000000,0,0x5D,0x00,Read,ACK
3.375411093750000,0,0x5D,0x00,Read,ACK
3.375433343750000,0,0x5D,0x00,Read,ACK
3.375454843750000,0,0x5D,0x00,Read,ACK
3.375476312500000,0,0x5D,0x00,Read,ACK
3.375497781250000,0,0x5D,0x00,Read,ACK
3.375520156250000,0,0x5D,0x00,Read,ACK
3.375542937500000,0,0x5D,0x00,Read,ACK
3.375564531250000,0,0x5D,0x00,Read,ACK
3.375586312500000,0,0x5D,0x00,Read,ACK
3.375608781250000,0,0x5D,0x00,Read,ACK
3.375631343750000,0,0x5D,0x00,Read,ACK
3.375652812500000,0,0x5D,0x00,Read,NAK
3.381175406250000,0,0x5D,0x2F,Read,ACK
3.381203593750000,0,0x5D,0x00,Read,ACK
3.381225062500000,0,0x5D,0x04,Read,ACK
3.381246531250000,0,0x5D,0x03,Read,ACK
3.381268031250000,0,0x5D,0xA0,Read,ACK
3.381289500000000,0,0x5D,0x0A,Read,ACK
3.381310968750000,0,0x5D,0x95,Read,ACK
3.381332437500000,0,0x5D,0x05,Read,ACK
3.381353906250000,0,0x5D,0x03,Read,ACK
3.381376625000000,0,0x5D,0x03,Read,ACK
3.381399812500000,0,0x5D,0x20,Read,ACK
3.381421250000000,0,0x5D,0x13,Read,ACK
3.381442718750000,0,0x5D,0x92,Read,ACK
3.381464187500000,0,0x5D,0x05,Read,ACK
3.381485656250000,0,0x5D,0x32,Read,ACK
3.381507125000000,0,0x5D,0x05,Read,ACK
3.381528593750000,0,0x5D,0x03,Read,ACK
3.381551187500000,0,0x5D,0x03,Read,ACK
3.381574875000000,0,0x5D,0x20,Read,ACK
3.381596312500000,0,0x5D,0x23,Read,ACK
3.381617781250000,0,0x5D,0x20,Read,ACK
3.381639250000000,0,0x5D,0x08,Read,ACK
3.381660718750000,0,0x5D,0x97,Read,ACK
3.381682187500000,0,0x5D,0x04,Read,ACK
3.381703656250000,0,0x5D,0x03,Read,ACK
3.381725125000000,0,0x5D,0x02,Read,ACK
3.381746937500000,0,0x5D,0x20,Read,ACK
3.381768406250000,0,0x5D,0x00,Read,ACK
3.381789937500000,0,0x5D,0x00,Read,ACK
3.381811406250000,0,0x5D,0x00,Read,ACK
3.381832875000000,0,0x5D,0x00,Read,ACK
3.381854343750000,0,0x5D,0x00,Read,ACK
3.381875812500000,0,0x5D,0x00,Read,ACK
3.381897281250000,0,0x5D,0x00,Read,ACK
3.381918781250000,0,0x5D,0x00,Read,ACK
3.381940218750000,0,0x5D,0x00,Read,ACK
3.381961718750000,0,0x5D,0x00,Read,ACK
3.381983187500000,0,0x5D,0x00,Read,ACK
3.382004625000000,0,0x5D,0x00,Read,ACK
3.382026125000000,0,0x5D,0x00,Read,ACK
3.382047593750000,0,0x5D,0x00,Read,ACK
3.382069062500000,0,0x5D,0x00,Read,ACK
3.382090531250000,0,0x5D,0x00,Read,ACK
3.382112000000000,0,0x5D,0x76,Read,ACK
3.382133468750000,0,0x5D,0x23,Read,ACK
3.382154937500000,0,0x5D,0x03,Read,ACK
3.382176406250000,0,0x5D,0x00,Read,ACK
3.382197875000000,0,0x5D,0x00,Read,ACK
3.382219343750000,0,0x5D,0x00,Read,ACK
3.382240812500000,0,0x5D,0x00,Read,ACK
3.382262281250000,0,0x5D,0x00,Read,ACK
3.382283781250000,0,0x5D,0x00,Read,ACK
3.382305218750000,0,0x5D,0x00,Read,ACK
3.382329531250000,0,0x5D,0x00,Read,ACK
3.382351375000000,0,0x5D,0x00,Read,ACK
3.382373031250000,0,0x5D,0x00,Read,ACK
3.382399093750000,0,0x5D,0x00,Read,ACK
3.382420875000000,0,0x5D,0x00,Read,ACK
3.382443562500000,0,0x5D,0x00,Read,ACK
3.382465031250000,0,0x5D,0x00,Read,ACK
3.382486500000000,0,0x5D,0x00,Read,ACK
3.382508062500000,0,0x5D,0x00,Read,ACK
3.382529531250000,0,0x5D,0x00,Read,ACK
3.382552312500000,0,0x5D,0x00,Read,NAK
3.388321812500000,0,0x5D,0x2F,Read,ACK
3.388346937500000,0,0x5D,0x00,Read,ACK
3.388368406250000,0,0x5D,0x04,Read,ACK
3.388389875000000,0,0x5D,0x03,Read,ACK
3.388411343750000,0,0x5D,0x9C,Read,ACK
3.388432812500000,0,0x5D,0x0A,Read,ACK
3.388454312500000,0,0x5D,0xA9,Read,ACK
3.388476468750000,0,0x5D,0x05,Read,ACK
3.388499812500000,0,0x5D,0x03,Read,ACK
3.388523312500000,0,0x5D,0x03,Read,ACK
3.388544812500000,0,0x5D,0x20,Read,ACK
3.388566312500000,0,0x5D,0x13,Read,ACK
3.388587781250000,0,0x5D,0x8C,Read,ACK
3.388609250000000,0,0x5D,0x05,Read,ACK
3.388630718750000,0,0x5D,0x45,Read,ACK
3.388652281250000,0,0x5D,0x05,Read,ACK
3.388676125000000,0,0x5D,0x02,Read,ACK
3.388697625000000,0,0x5D,0x03,Read,ACK
3.388719125000000,0,0x5D,0x20,Read,ACK
3.388740562500000,0,0x5D,0x23,Read,ACK
3.388762031250000,0,0x5D,0x1D,Read,ACK
3.388784593750000,0,0x5D,0x08,Read,ACK
3.388806031250000,0,0x5D,0xAB,Read,ACK
3.388827500000000,0,0x5D,0x04,Read,ACK
3.388848968750000,0,0x5D,0x03,Read,ACK
3.388870468750000,0,0x5D,0x03,Read,ACK
3.388893156250000,0,0x5D,0x20,Read,ACK
3.388914625000000,0,0x5D,0x00,Read,ACK
3.388936125000000,0,0x5D,0x00,Read,ACK
3.388957593750000,0,0x5D,0x00,Read,ACK
3.388979062500000,0,0x5D,0x00,Read,ACK
3.389000531250000,0,0x5D,0x00,Read,ACK
3.389022000000000,0,0x5D,0x00,Read,ACK
3.389043468750000,0,0x5D,0x00,Read,ACK
3.389064937500000,0,0x5D,0x00,Read,ACK
3.389086406250000,0,0x5D,0x00,Read,ACK
3.389108000000000,0,0x5D,0x00,Read,ACK
3.389129468750000,0,0x5D,0x00,Read,ACK
3.389150937500000,0,0x5D,0x00,Read,ACK
3.389172437500000,0,0x5D,0x00,Read,ACK
3.389193968750000,0,0x5D,0x00,Read,ACK
3.389215406250000,0,0x5D,0x00,Read,ACK
3.389236906250000,0,0x5D,0x00,Read,ACK
3.389258375000000,0,0x5D,0xBC,Read,ACK
3.389279843750000,0,0x5D,0x23,Read,ACK
3.389301312500000,0,0x5D,0x03,Read,ACK
3.389322781250000,0,0x5D,0x00,Read,ACK
3.389344250000000,0,0x5D,0x00,Read,ACK
3.389365718750000,0,0x5D,0x00,Read,ACK
3.389387187500000,0,0x5D,0x00,Read,ACK
3.389408656250000,0,0x5D,0x00,Read,ACK
3.389430125000000,0,0x5D,0x00,Read,ACK
3.389451625000000,0,0x5D,0x00,Read,ACK
3.389473125000000,0,0x5D,0x00,Read,ACK
3.389496937500000,0,0x5D,0x00,Read,ACK
3.389519312500000,0,0x5D,0x00,Read,ACK
3.389540906250000,0,0x5D,0x00,Read,ACK
3.389562593750000,0,0x5D,0x00,Read,ACK
3.389585843750000,0,0x5D,0x00,Read,ACK
3.389607343750000,0,0x5D,0x00,Read,ACK
3.389628812500000,0,0x5D,0x00,Read,ACK
3.389650281250000,0,0x5D,0x00,Read,ACK
3.389672781250000,0,0x5D,0x00,Read,ACK
3.389695093750000,0,0x5D,0x00,Read,NAK
3.395448250000000,0,0x5D,0x2F,Read,ACK
3.395477875000000,0,0x5D,0x00,Read,ACK
3.395499343750000,0,0x5D,0x04,Read,ACK
3.395520812500000,0,0x5D,0x03,Read,ACK
3.395542312500000,0,0x5D,0x95,Read,ACK
3.395563750000000,0,0x5D,0x0A,Read,ACK
3.395585218750000,0,0x5D,0xBC,Read,ACK
3.395607125000000,0,0x5D,0x05,Read,ACK
3.395628593750000,0,0x5D,0x03,Read,ACK
3.395653062500000,0,0x5D,0x03,Read,ACK
3.395674531250000,0,0x5D,0x20,Read,ACK
3.395696000000000,0,0x5D,0x13,Read,ACK
3.395717468750000,0,0x5D,0x83,Read,ACK
3.395738937500000,0,0x5D,0x05,Read,ACK
3.395760406250000,0,0x5D,0x58,Read,ACK
3.395781875000000,0,0x5D,0x05,Read,ACK
3.395803343750000,0,0x5D,0x03,Read,ACK
3.395826250000000,0,0x5D,0x03,Read,ACK
3.395848968750000,0,0x5D,0x20,Read,ACK
3.395870437500000,0,0x5D,0x23,Read,ACK
3.395891906250000,0,0x5D,0x16,Read,ACK
3.395913375000000,0,0x5D,0x08,Read,ACK
3.395935031250000,0,0x5D,0xBF,Read,ACK
3.395956687500000,0,0x5D,0x04,Read,ACK
3.395978187500000,0,0x5D,0x02,Read,ACK
3.395999625000000,0,0x5D,0x03,Read,ACK
3.396021093750000,0,0x5D,0x20,Read,ACK
3.396042593750000,0,0x5D,0x00,Read,ACK
3.396064062500000,0,0x5D,0x00,Read,ACK
3.396085531250000,0,0x5D,0x00,Read,ACK
3.396107125000000,0,0x5D,0x00,Read,ACK
3.396128562500000,0,0x5D,0x00,Read,ACK
3.396150031250000,0,0x5D,0x00,Read,ACK
3.396171500000000,0,0x5D,0x00,Read,ACK
3.396192968750000,0,0x5D,0x00,Read,ACK
3.396214468750000,0,0x5D,0x00,Read,ACK
3.396235906250000,0,0x5D,0x00,Read,ACK
3.396257406250000,0,0x5D,0x00,Read,ACK
3.396278875000000,0,0x5D,0x00,Read,ACK
3.396300343750000,0,0x5D,0x00,Read,ACK
3.396321812500000,0,0x5D,0x00,Read,ACK
3.396343281250000,0,0x5D,0x00,Read,ACK
3.396366000000000,0,0x5D,0x00,Read,ACK
3.396387437500000,0,0x5D,0x02,Read,ACK
3.396408906250000,0,0x5D,0x24,Read,ACK
3.396430437500000,0,0x5D,0x03,Read,ACK
3.396451937500000,0,0x5D,0x00,Read,ACK
3.396473406250000,0,0x5D,0x00,Read,ACK
3.396494875000000,0,0x5D,0x00,Read,ACK
3.396516343750000,0,0x5D,0x00,Read,ACK
3.396537812500000,0,0x5D,0x00,Read,ACK
3.396559281250000,0,0x5D,0x00,Read,ACK
3.396580750000000,0,0x5D,0x00,Read,ACK
3.396605718750000,0,0x5D,0x00,Read,ACK
3.396627187500000,0,0x5D,0x00,Read,ACK
3.396648656250000,0,0x5D,0x00,Read,ACK
3.396671031250000,0,0x5D,0x00,Read,ACK
3.396693656250000,0,0x5D,0x00,Read,ACK
3.396715250000000,0,0x5D,0x00,Read,ACK
3.396736718750000,0,0x5D,0x00,Read,ACK
3.396758187500000,0,0x5D,0x00,Read,ACK
3.396779656250000,0,0x5D,0x00,Read,ACK
3.396803031250000,0,0x5D,0x00,Read,ACK
3.396826031250000,0,0x5D,0x00,Read,NAK
3.402636250000000,0,0x5D,0x2F,Read,ACK
3.402659718750000,0,0x5D,0x00,Read,ACK
3.402681156250000,0,0x5D,0x04,Read,ACK
3.402702656250000,0,0x5D,0x03,Read,ACK
3.402724125000000,0,0x5D,0x8D,Read,ACK
3.402745593750000,0,0x5D,0x0A,Read,ACK
3.402767750000000,0,0x5D,0xCD,Read,ACK
3.402791187500000,0,0x5D,0x05,Read,ACK
3.402814656250000,0,0x5D,0x02,Read,ACK
3.402836093750000,0,0x5D,0x03,Read,ACK
3.402857593750000,0,0x5D,0x20,Read,ACK
3.402879031250000,0,0x5D,0x13,Read,ACK
3.402900500000000,0,0x5D,0x78,Read,ACK
3.402921968750000,0,0x5D,0x05,Read,ACK
3.402943625000000,0,0x5D,0x6A,Read,ACK
3.402965687500000,0,0x5D,0x05,Read,ACK
3.402987656250000,0,0x5D,0x03,Read,ACK
3.403009281250000,0,0x5D,0x03,Read,ACK
3.403030781250000,0,0x5D,0x20,Read,ACK
3.403052937500000,0,0x5D,0x23,Read,ACK
3.403074375000000,0,0x5D,0x0D,Read,ACK
3.403095875000000,0,0x5D,0x08,Read,ACK
3.403118531250000,0,0x5D,0xD1,Read,ACK
3.403140906250000,0,0x5D,0x04,Read,ACK
3.403162375000000,0,0x5D,0x02,Read,ACK
3.403183875000000,0,0x5D,0x03,Read,ACK
3.403206406250000,0,0x5D,0x20,Read,ACK
3.403228187500000,0,0x5D,0x00,Read,ACK
3.403249656250000,0,0x5D,0x00,Read,ACK
3.403271125000000,0,0x5D,0x00,Read,ACK
3.403292593750000,0,0x5D,0x00,Read,ACK
3.403314062500000,0,0x5D,0x00,Read,ACK
3.403335531250000,0,0x5D,0x00,Read,ACK
3.403357000000000,0,0x5D,0x00,Read,ACK
3.403378468750000,0,0x5D,0x00,Read,ACK
3.403400000000000,0,0x5D,0x00,Read,ACK
3.403421468750000,0,0x5D,0x00,Read,ACK
3.403442937500000,0,0x5D,0x00,Read,ACK
3.403464437500000,0,0x5D,0x00,Read,ACK
3.403485906250000,0,0x5D,0x00,Read,ACK
3.403507343750000,0,0x5D,0x00,Read,ACK
3.403528843750000,0,0x5D,0x00,Read,ACK
3.403550281250000,0,0x5D,0x00,Read,ACK
3.403571781250000,0,0x5D,0x48,Read,ACK
3.403593218750000,0,0x5D,0x24,Read,ACK
3.403614687500000,0,0x5D,0x03,Read,ACK
3.403636156250000,0,0x5D,0x00,Read,ACK
3.403657656250000,0,0x5D,0x00,Read,ACK
3.403679437500000,0,0x5D,0x00,Read,ACK
3.403700937500000,0,0x5D,0x00,Read,ACK
3.403722437500000,0,0x5D,0x00,Read,ACK
3.403745625000000,0,0x5D,0x00,Read,ACK
3.403767625000000,0,0x5D,0x00,Read,ACK
3.403789156250000,0,0x5D,0x00,Read,ACK
3.403811375000000,0,0x5D,0x00,Read,ACK
3.403833187500000,0,0x5D,0x00,Read,ACK
3.403855375000000,0,0x5D,0x00,Read,ACK
3.403876843750000,0,0x5D,0x00,Read,ACK
3.403898312500000,0,0x5D,0x00,Read,ACK
3.403920000000000,0,0x5D,0x00,Read,ACK
3.403941625000000,0,0x5D,0x00,Read,ACK
3.403963093750000,0,0x5D,0x00,Read,ACK
3.403985906250000,0,0x5D,0x00,Read,ACK
3.404007406250000,0,0x5D,0x00,Read,NAK
3.409840437500000,0,0x5D,0x2F,Read,ACK
3.409866750000000,0,0x5D,0x00,Read,ACK
3.409888218750000,0,0x5D,0x04,Read,ACK
3.409910125000000,0,0x5D,0x03,Read,ACK
3.409931625000000,0,0x5D,0x81,Read,ACK
3.409957250000000,0,0x5D,0x0A,Read,ACK
3.409978718750000,0,0x5D,0xDE,Read,ACK
3.410000218750000,0,0x5D,0x05,Read,ACK
3.410021687500000,0,0x5D,0x03,Read,ACK
3.410043156250000,0,0x5D,0x02,Read,ACK
3.410064625000000,0,0x5D,0x20,Read,ACK
3.410086093750000,0,0x5D,0x13,Read,ACK
3.410108531250000,0,0x5D,0x6B,Read,ACK
3.410131250000000,0,0x5D,0x05,Read,ACK
3.410152937500000,0,0x5D,0x7B,Read,ACK
3.410174437500000,0,0x5D,0x05,Read,ACK
3.410195875000000,0,0x5D,0x03,Read,ACK
3.410218781250000,0,0x5D,0x03,Read,ACK
3.410240312500000,0,0x5D,0x20,Read,ACK
3.410261781250000,0,0x5D,0x23,Read,ACK
3.410284843750000,0,0x5D,0x01,Read,ACK
3.410306281250000,0,0x5D,0x08,Read,ACK
3.410327750000000,0,0x5D,0xE1,Read,ACK
3.410349250000000,0,0x5D,0x04,Read,ACK
3.410371312500000,0,0x5D,0x02,Read,ACK
3.410393031250000,0,0x5D,0x03,Read,ACK
3.410414531250000,0,0x5D,0x20,Read,ACK
3.410436000000000,0,0x5D,0x00,Read,ACK
3.410457437500000,0,0x5D,0x00,Read,ACK
3.410478906250000,0,0x5D,0x00,Read,ACK
3.410500375000000,0,0x5D,0x00,Read,ACK
3.410521875000000,0,0x5D,0x00,Read,ACK
3.410543343750000,0,0x5D,0x00,Read,ACK
3.410564812500000,0,0x5D,0x00,Read,ACK
3.410586281250000,0,0x5D,0x00,Read,ACK
3.410607750000000,0,0x5D,0x00,Read,ACK
3.410629437500000,0,0x5D,0x00,Read,ACK
3.410650875000000,0,0x5D,0x00,Read,ACK
3.410672343750000,0,0x5D,0x00,Read,ACK
3.410693812500000,0,0x5D,0x00,Read,ACK
3.410715281250000,0,0x5D,0x00,Read,ACK
3.410736750000000,0,0x5D,0x00,Read,ACK
3.410758343750000,0,0x5D,0x00,Read,ACK
3.410779843750000,0,0x5D,0x8E,Read,ACK
3.410801312500000,0,0x5D,0x24,Read,ACK
3.410822781250000,0,0x5D,0x03,Read,ACK
3.410844250000000,0,0x5D,0x00,Read,ACK
3.410865718750000,0,0x5D,0x00,Read,ACK
3.410887187500000,0,0x5D,0x00,Read,ACK
3.410911468750000,0,0x5D,0x00,Read,ACK
3.410935062500000,0,0x5D,0x00,Read,ACK
3.410956718750000,0,0x5D,0x00,Read,ACK
3.410979687500000,0,0x5D,0x00,Read,ACK
3.411002031250000,0,0x5D,0x00,Read,ACK
3.411023500000000,0,0x5D,0x00,Read,ACK
3.411045906250000,0,0x5D,0x00,Read,ACK
3.411067406250000,0,0x5D,0x00,Read,ACK
3.411088843750000,0,0x5D,0x00,Read,ACK
3.411110312500000,0,0x5D,0x00,Read,ACK
3.411131781250000,0,0x5D,0x00,Read,ACK
3.411154468750000,0,0x5D,0x00,Read,ACK
3.411176156250000,0,0x5D,0x00,Read,ACK
3.411197937500000,0,0x5D,0x00,Read,ACK
3.411221812500000,0,0x5D,0x00,Read,NAK
3.416854156250000,0,0x5D,0x2F,Read,ACK
3.416881718750000,0,0x5D,0x00,Read,ACK
3.416903218750000,0,0x5D,0x04,Read,ACK
3.416924656250000,0,0x5D,0x03,Read,ACK
3.416946156250000,0,0x5D,0x74,Read,ACK
3.416967625000000,0,0x5D,0x0A,Read,ACK
3.416989062500000,0,0x5D,0xED,Read,ACK
3.417010562500000,0,0x5D,0x05,Read,ACK
3.417032062500000,0,0x5D,0x03,Read,ACK
3.417059343750000,0,0x5D,0x02,Read,ACK
3.417080812500000,0,0x5D,0x20,Read,ACK
3.417102312500000,0,0x5D,0x13,Read,ACK
3.417123781250000,0,0x5D,0x5B,Read,ACK
3.417145250000000,0,0x5D,0x05,Read,ACK
3.417166718750000,0,0x5D,0x8B,Read,ACK
3.417188187500000,0,0x5D,0x05,Read,ACK
3.417209656250000,0,0x5D,0x03,Read,ACK
3.417231125000000,0,0x5D,0x02,Read,ACK
3.417253593750000,0,0x5D,0x20,Read,ACK
3.417275562500000,0,0x5D,0x23,Read,ACK
3.417297062500000,0,0x5D,0xF2,Read,ACK
3.417318500000000,0,0x5D,0x07,Read,ACK
3.417339968750000,0,0x5D,0xF1,Read,ACK
3.417362250000000,0,0x5D,0x04,Read,ACK
3.417383718750000,0,0x5D,0x03,Read,ACK
3.417405187500000,0,0x5D,0x02,Read,ACK
3.417427250000000,0,0x5D,0x20,Read,ACK
3.417448687500000,0,0x5D,0x00,Read,ACK
3.417470156250000,0,0x5D,0x00,Read,ACK
3.417491625000000,0,0x5D,0x00,Read,ACK
3.417513125000000,0,0x5D,0x00,Read,ACK
3.417534781250000,0,0x5D,0x00,Read,ACK
3.417556218750000,0,0x5D,0x00,Read,ACK
3.417577687500000,0,0x5D,0x00,Read,ACK
3.417599156250000,0,0x5D,0x00,Read,ACK
3.417620718750000,0,0x5D,0x00,Read,ACK
3.417642218750000,0,0x5D,0x00,Read,ACK
3.417663687500000,0,0x5D,0x00,Read,ACK
3.417685187500000,0,0x5D,0x00,Read,ACK
3.417706625000000,0,0x5D,0x00,Read,ACK
3.417728125000000,0,0x5D,0x00,Read,ACK
3.417749625000000,0,0x5D,0x00,Read,ACK
3.417771093750000,0,0x5D,0x00,Read,ACK
3.417792593750000,0,0x5D,0xD4,Read,ACK
3.417814250000000,0,0x5D,0x24,Read,ACK
3.417835687500000,0,0x5D,0x03,Read,ACK
3.417857156250000,0,0x5D,0x00,Read,ACK
3.417878656250000,0,0x5D,0x00,Read,ACK
3.417900125000000,0,0x5D,0x00,Read,ACK
3.417921593750000,0,0x5D,0x00,Read,ACK
3.417943062500000,0,0x5D,0x00,Read,ACK
3.417964531250000,0,0x5D,0x00,Read,ACK
3.417986000000000,0,0x5D,0x00,Read,ACK
3.418008750000000,0,0x5D,0x00,Read,ACK
3.418033468750000,0,0x5D,0x00,Read,ACK
3.418054968750000,0,0x5D,0x00,Read,ACK
3.418076437500000,0,0x5D,0x00,Read,ACK
3.418098875000000,0,0x5D,0x00,Read,ACK
3.418120375000000,0,0x5D,0x00,Read,ACK
3.418141843750000,0,0x5D,0x00,Read,ACK
3.418163343750000,0,0x5D,0x00,Read,ACK
3.418184812500000,0,0x5D,0x00,Read,ACK
3.418206562500000,0,0x5D,0x00,Read,ACK
3.418228468750000,0,0x5D,0x00,Read,NAK
3.424325750000000,0,0x5D,0x2F,Read,ACK
3.424349781250000,0,0x5D,0x00,Read,ACK
3.424372781250000,0,0x5D,0x04,Read,ACK
3.424395500000000,0,0x5D,0x03,Read,ACK
3.424416968750000,0,0x5D,0x65,Read,ACK
3.424438468750000,0,0x5D,0x0A,Read,ACK
3.424459906250000,0,0x5D,0xFA,Read,ACK
3.424482250000000,0,0x5D,0x05,Read,ACK
3.424503875000000,0,0x5D,0x03,Read,ACK
3.424525312500000,0,0x5D,0x02,Read,ACK
3.424546812500000,0,0x5D,0x20,Read,ACK
3.424568343750000,0,0x5D,0x13,Read,ACK
3.424589781250000,0,0x5D,0x4A,Read,ACK
3.424611281250000,0,0x5D,0x05,Read,ACK
3.424632781250000,0,0x5D,0x99,Read,ACK
3.424654250000000,0,0x5D,0x05,Read,ACK
3.424675718750000,0,0x5D,0x03,Read,ACK
3.424697187500000,0,0x5D,0x02,Read,ACK
3.424718656250000,0,0x5D,0x20,Read,ACK
3.424740125000000,0,0x5D,0x23,Read,ACK
3.424761593750000,0,0x5D,0xE1,Read,ACK
3.424783093750000,0,0x5D,0x07,Read,ACK
3.424804562500000,0,0x5D,0xFE,Read,ACK
3.424826000000000,0,0x5D,0x04,Read,ACK
3.424847656250000,0,0x5D,0x03,Read,ACK
3.424869125000000,0,0x5D,0x02,Read,ACK
3.424890625000000,0,0x5D,0x20,Read,ACK
3.424912312500000,0,0x5D,0x00,Read,ACK
3.424933781250000,0,0x5D,0x00,Read,ACK
3.424955312500000,0,0x5D,0x00,Read,ACK
3.424976812500000,0,0x5D,0x00,Read,ACK
3.424998281250000,0,0x5D,0x00,Read,ACK
3.425019718750000,0,0x5D,0x00,Read,ACK
3.425041218750000,0,0x5D,0x00,Read,ACK
3.425062687500000,0,0x5D,0x00,Read,ACK
3.425084156250000,0,0x5D,0x00,Read,ACK
3.425105625000000,0,0x5D,0x00,Read,ACK
3.425129187500000,0,0x5D,0x00,Read,ACK
3.425151718750000,0,0x5D,0x00,Read,ACK
3.425173187500000,0,0x5D,0x00,Read,ACK
3.425194656250000,0,0x5D,0x00,Read,ACK
3.425216562500000,0,0x5D,0x00,Read,ACK
3.425238281250000,0,0x5D,0x00,Read,ACK
3.425259781250000,0,0x5D,0x1A,Read,ACK
3.425281218750000,0,0x5D,0x25,Read,ACK
3.425303468750000,0,0x5D,0x03,Read,ACK
3.425325093750000,0,0x5D,0x00,Read,ACK
3.425346593750000,0,0x5D,0x00,Read,ACK
3.425369843750000,0,0x5D,0x00,Read,ACK
3.425391625000000,0,0x5D,0x00,Read,ACK
3.425413281250000,0,0x5D,0x00,Read,ACK
3.425435406250000,0,0x5D,0x00,Read,ACK
3.425458562500000,0,0x5D,0x00,Read,ACK
3.425480000000000,0,0x5D,0x00,Read,ACK
3.425501750000000,0,0x5D,0x00,Read,ACK
3.425523718750000,0,0x5D,0x00,Read,ACK
3.425545156250000,0,0x5D,0x00,Read,ACK
3.425568281250000,0,0x5D,0x00,Read,ACK
3.425589781250000,0,0x5D,0x00,Read,ACK
3.425611250000000,0,0x5D,0x00,Read,ACK
3.425633000000000,0,0x5D,0x00,Read,ACK
3.425654500000000,0,0x5D,0x00,Read,ACK
3.425676000000000,0,0x5D,0x00,Read,ACK
3.425698750000000,0,0x5D,0x00,Read,NAK
3.431165468750000,0,0x5D,0x2F,Read,ACK
3.431191593750000,0,0x5D,0x00,Read,ACK
3.431213093750000,0,0x5D,0x04,Read,ACK
3.431234531250000,0,0x5D,0x03,Read,ACK
3.431256218750000,0,0x5D,0x54,Read,ACK
3.431277687500000,0,0x5D,0x0A,Read,ACK
3.431299156250000,0,0x5D,0x05,Read,ACK
3.431321125000000,0,0x5D,0x06,Read,ACK
3.431344218750000,0,0x5D,0x03,Read,ACK
3.431365687500000,0,0x5D,0x02,Read,ACK
3.431387156250000,0,0x5D,0x20,Read,ACK
3.431408656250000,0,0x5D,0x13,Read,ACK
3.431430093750000,0,0x5D,0x39,Read,ACK
3.431451593750000,0,0x5D,0x05,Read,ACK
3.431473062500000,0,0x5D,0xA5,Read,ACK
3.431494531250000,0,0x5D,0x05,Read,ACK
3.431516000000000,0,0x5D,0x03,Read,ACK
3.431537437500000,0,0x5D,0x02,Read,ACK
3.431560156250000,0,0x5D,0x20,Read,ACK
3.431581656250000,0,0x5D,0x23,Read,ACK
3.431603187500000,0,0x5D,0xCF,Read,ACK
3.431624812500000,0,0x5D,0x07,Read,ACK
3.431646312500000,0,0x5D,0x0A,Read,ACK
3.431667812500000,0,0x5D,0x05,Read,ACK
3.431689406250000,0,0x5D,0x03,Read,ACK
3.431711093750000,0,0x5D,0x02,Read,ACK
3.431732562500000,0,0x5D,0x20,Read,ACK
3.431754031250000,0,0x5D,0x00,Read,ACK
3.431775500000000,0,0x5D,0x00,Read,ACK
3.431797000000000,0,0x5D,0x00,Read,ACK
3.431818437500000,0,0x5D,0x00,Read,ACK
3.431839906250000,0,0x5D,0x00,Read,ACK
3.431861406250000,0,0x5D,0x00,Read,ACK
3.431882875000000,0,0x5D,0x00,Read,ACK
3.431904375000000,0,0x5D,0x00,Read,ACK
3.431925812500000,0,0x5D,0x00,Read,ACK
3.431947281250000,0,0x5D,0x00,Read,ACK
3.431968750000000,0,0x5D,0x00,Read,ACK
3.431990218750000,0,0x5D,0x00,Read,ACK
3.432011718750000,0,0x5D,0x00,Read,ACK
3.432033156250000,0,0x5D,0x00,Read,ACK
3.432054656250000,0,0x5D,0x00,Read,ACK
3.432076125000000,0,0x5D,0x00,Read,ACK
3.432097562500000,0,0x5D,0x60,Read,ACK
3.432119031250000,0,0x5D,0x25,Read,ACK
3.432140531250000,0,0x5D,0x03,Read,ACK
3.432162000000000,0,0x5D,0x00,Read,ACK
3.432183468750000,0,0x5D,0x00,Read,ACK
3.432204968750000,0,0x5D,0x00,Read,ACK
3.432226406250000,0,0x5D,0x00,Read,ACK
3.432247875000000,0,0x5D,0x00,Read,ACK
3.432269343750000,0,0x5D,0x00,Read,ACK
3.432290812500000,0,0x5D,0x00,Read,ACK
3.432316187500000,0,0x5D,0x00,Read,ACK
3.432337687500000,0,0x5D,0x00,Read,ACK
3.432359218750000,0,0x5D,0x00,Read,ACK
3.432380687500000,0,0x5D,0x00,Read,ACK
3.432403968750000,0,0x5D,0x00,Read,ACK
3.432425437500000,0,0x5D,0x00,Read,ACK
3.432446906250000,0,0x5D,0x00,Read,ACK
3.432468375000000,0,0x5D,0x00,Read,ACK
3.432489843750000,0,0x5D,0x00,Read,ACK
3.432512500000000,0,0x5D,0x00,Read,ACK
3.432534968750000,0,0x5D,0x00,Read,NAK
3.438322562500000,0,0x5D,0x2F,Read,ACK
3.438346562500000,0,0x5D,0x00,Read,ACK
3.438368125000000,0,0x5D,0x04,Read,ACK
3.438389625000000,0,0x5D,0x03,Read,ACK
3.438411093750000,0,0x5D,0x42,Read,ACK
3.438432718750000,0,0x5D,0x0A,Read,ACK
3.438455531250000,0,0x5D,0x0E,Read,ACK
3.438480500000000,0,0x5D,0x06,Read,ACK
3.438501968750000,0,0x5D,0x03,Read,ACK
3.438523468750000,0,0x5D,0x02,Read,ACK
3.438544937500000,0,0x5D,0x20,Read,ACK
3.438566437500000,0,0x5D,0x13,Read,ACK
3.438587906250000,0,0x5D,0x26,Read,ACK
3.438609375000000,0,0x5D,0x05,Read,ACK
3.438630843750000,0,0x5D,0xB0,Read,ACK
3.438652312500000,0,0x5D,0x05,Read,ACK
3.438674281250000,0,0x5D,0x02,Read,ACK
3.438696000000000,0,0x5D,0x03,Read,ACK
3.438717468750000,0,0x5D,0x20,Read,ACK
3.438738937500000,0,0x5D,0x23,Read,ACK
3.438761250000000,0,0x5D,0xBB,Read,ACK
3.438782718750000,0,0x5D,0x07,Read,ACK
3.438804156250000,0,0x5D,0x13,Read,ACK
3.438826250000000,0,0x5D,0x05,Read,ACK
3.438847718750000,0,0x5D,0x03,Read,ACK
3.438869187500000,0,0x5D,0x02,Read,ACK
3.438890656250000,0,0x5D,0x20,Read,ACK
3.438912125000000,0,0x5D,0x00,Read,ACK
3.438933656250000,0,0x5D,0x00,Read,ACK
3.438955125000000,0,0x5D,0x00,Read,ACK
3.438976593750000,0,0x5D,0x00,Read,ACK
3.438998093750000,0,0x5D,0x00,Read,ACK
3.439019562500000,0,0x5D,0x00,Read,ACK
3.439041031250000,0,0x5D,0x00,Read,ACK
3.439062531250000,0,0x5D,0x00,Read,ACK
3.439084031250000,0,0x5D,0x00,Read,ACK
3.439105687500000,0,0x5D,0x00,Read,ACK
3.439127156250000,0,0x5D,0x00,Read,ACK
3.439148625000000,0,0x5D,0x00,Read,ACK
3.439171093750000,0,0x5D,0x00,Read,ACK
3.439192562500000,0,0x5D,0x00,Read,ACK
3.439214031250000,0,0x5D,0x00,Read,ACK
3.439235531250000,0,0x5D,0x00,Read,ACK
3.439256968750000,0,0x5D,0xA6,Read,ACK
3.439278468750000,0,0x5D,0x25,Read,ACK
3.439299937500000,0,0x5D,0x03,Read,ACK
3.439321406250000,0,0x5D,0x00,Read,ACK
3.439342875000000,0,0x5D,0x00,Read,ACK
3.439364343750000,0,0x5D,0x00,Read,ACK
3.439385812500000,0,0x5D,0x00,Read,ACK
3.439407281250000,0,0x5D,0x00,Read,ACK
3.439428750000000,0,0x5D,0x00,Read,ACK
3.439455218750000,0,0x5D,0x00,Read,ACK
3.439478468750000,0,0x5D,0x00,Read,ACK
3.439501218750000,0,0x5D,0x00,Read,ACK
3.439524781250000,0,0x5D,0x00,Read,ACK
3.439546531250000,0,0x5D,0x00,Read,ACK
3.439568156250000,0,0x5D,0x00,Read,ACK
3.439589593750000,0,0x5D,0x00,Read,ACK
3.439611062500000,0,0x5D,0x00,Read,ACK
3.439634125000000,0,0x5D,0x00,Read,ACK
3.439655656250000,0,0x5D,0x00,Read,ACK
3.439677093750000,0,0x5D,0x00,Read,ACK
3.439698593750000,0,0x5D,0x00,Read,NAK
3.445429656250000,0,0x5D,0x2F,Read,ACK
3.445460656250000,0,0x5D,0x00,Read,ACK
3.445482718750000,0,0x5D,0x04,Read,ACK
3.445504187500000,0,0x5D,0x03,Read,ACK
3.445525656250000,0,0x5D,0x2E,Read,ACK
3.445547156250000,0,0x5D,0x0A,Read,ACK
3.445568593750000,0,0x5D,0x14,Read,ACK
3.445590062500000,0,0x5D,0x06,Read,ACK
3.445612156250000,0,0x5D,0x02,Read,ACK
3.445635562500000,0,0x5D,0x02,Read,ACK
3.445661375000000,0,0x5D,0x20,Read,ACK
3.445682843750000,0,0x5D,0x13,Read,ACK
3.445704312500000,0,0x5D,0x13,Read,ACK
3.445725750000000,0,0x5D,0x05,Read,ACK
3.445747250000000,0,0x5D,0xB9,Read,ACK
3.445768718750000,0,0x5D,0x05,Read,ACK
3.445790187500000,0,0x5D,0x03,Read,ACK
3.445811625000000,0,0x5D,0x03,Read,ACK
3.445833125000000,0,0x5D,0x20,Read,ACK
3.445855625000000,0,0x5D,0x23,Read,ACK
3.445877062500000,0,0x5D,0xA7,Read,ACK
3.445899687500000,0,0x5D,0x07,Read,ACK
3.445921125000000,0,0x5D,0x1B,Read,ACK
3.445942625000000,0,0x5D,0x05,Read,ACK
3.445965625000000,0,0x5D,0x02,Read,ACK
3.445987562500000,0,0x5D,0x02,Read,ACK
3.446009062500000,0,0x5D,0x20,Read,ACK
3.446030531250000,0,0x5D,0x00,Read,ACK
3.446052031250000,0,0x5D,0x00,Read,ACK
3.446073468750000,0,0x5D,0x00,Read,ACK
3.446095937500000,0,0x5D,0x00,Read,ACK
3.446117437500000,0,0x5D,0x00,Read,ACK
3.446138906250000,0,0x5D,0x00,Read,ACK
3.446160375000000,0,0x5D,0x00,Read,ACK
3.446181843750000,0,0x5D,0x00,Read,ACK
3.446203312500000,0,0x5D,0x00,Read,ACK
3.446224781250000,0,0x5D,0x00,Read,ACK
3.446246250000000,0,0x5D,0x00,Read,ACK
3.446267718750000,0,0x5D,0x00,Read,ACK
3.446289218750000,0,0x5D,0x00,Read,ACK
3.446310656250000,0,0x5D,0x00,Read,ACK
3.446332125000000,0,0x5D,0x00,Read,ACK
3.446353593750000,0,0x5D,0x00,Read,ACK
3.446375187500000,0,0x5D,0xEC,Read,ACK
3.446396656250000,0,0x5D,0x25,Read,ACK
3.446418125000000,0,0x5D,0x03,Read,ACK
3.446439625000000,0,0x5D,0x00,Read,ACK
3.446461093750000,0,0x5D,0x00,Read,ACK
3.446482562500000,0,0x5D,0x00,Read,ACK
3.446504031250000,0,0x5D,0x00,Read,ACK
3.446525500000000,0,0x5D,0x00,Read,ACK
3.446546968750000,0,0x5D,0x00,Read,ACK
3.446571375000000,0,0x5D,0x00,Read,ACK
3.446594343750000,0,0x5D,0x00,Read,ACK
3.446620812500000,0,0x5D,0x00,Read,ACK
3.446646718750000,0,0x5D,0x00,Read,ACK
3.446668218750000,0,0x5D,0x00,Read,ACK
3.446690937500000,0,0x5D,0x00,Read,ACK
3.446712781250000,0,0x5D,0x00,Read,ACK
3.446734218750000,0,0x5D,0x00,Read,ACK
3.446755687500000,0,0x5D,0x00,Read,ACK
3.446777625000000,0,0x5D,0x00,Read,ACK
3.446800031250000,0,0x5D,0x00,Read,ACK
3.446822468750000,0,0x5D,0x00,Read,NAK
3.452624781250000,0,0x5D,0x2F,Read,ACK
3.452651343750000,0,0x5D,0x00,Read,ACK
3.452672843750000,0,0x5D,0x04,Read,ACK
3.452694312500000,0,0x5D,0x03,Read,ACK
3.452715781250000,0,0x5D,0x1A,Read,ACK
3.452737406250000,0,0x5D,0x0A,Read,ACK
3.452764281250000,0,0x5D,0x19,Read,ACK
3.452785750000000,0,0x5D,0x06,Read,ACK
3.452807218750000,0,0x5D,0x03,Read,ACK
3.452828687500000,0,0x5D,0x02,Read,ACK
3.452850156250000,0,0x5D,0x20,Read,ACK
3.452871656250000,0,0x5D,0x13,Read,ACK
3.452893093750000,0,0x5D,0xFF,Read,ACK
3.452914562500000,0,0x5D,0x04,Read,ACK
3.452936031250000,0,0x5D,0xBF,Read,ACK
3.452958906250000,0,0x5D,0x05,Read,ACK
3.452981437500000,0,0x5D,0x03,Read,ACK
3.453003718750000,0,0x5D,0x03,Read,ACK
3.453025218750000,0,0x5D,0x20,Read,ACK
3.453046750000000,0,0x5D,0x23,Read,ACK
3.453070281250000,0,0x5D,0x92,Read,ACK
3.453092812500000,0,0x5D,0x07,Read,ACK
3.453115500000000,0,0x5D,0x21,Read,ACK
3.453137062500000,0,0x5D,0x05,Read,ACK
3.453158562500000,0,0x5D,0x02,Read,ACK
3.453180031250000,0,0x5D,0x02,Read,ACK
3.453201656250000,0,0x5D,0x20,Read,ACK
3.453223156250000,0,0x5D,0x00,Read,ACK
3.453244625000000,0,0x5D,0x00,Read,ACK
3.453266093750000,0,0x5D,0x00,Read,ACK
3.453287562500000,0,0x5D,0x00,Read,ACK
3.453309031250000,0,0x5D,0x00,Read,ACK
3.453330500000000,0,0x5D,0x00,Read,ACK
3.453351968750000,0,0x5D,0x00,Read,ACK
3.453373437500000,0,0x5D,0x00,Read,ACK
3.453394906250000,0,0x5D,0x00,Read,ACK
3.453416375000000,0,0x5D,0x00,Read,ACK
3.453437843750000,0,0x5D,0x00,Read,ACK
3.453459312500000,0,0x5D,0x00,Read,ACK
3.453480812500000,0,0x5D,0x00,Read,ACK
3.453502250000000,0,0x5D,0x00,Read,ACK
3.453523718750000,0,0x5D,0x00,Read,ACK
3.453545187500000,0,0x5D,0x00,Read,ACK
3.453566656250000,0,0x5D,0x32,Read,ACK
3.453588125000000,0,0x5D,0x26,Read,ACK
3.453609593750000,0,0x5D,0x03,Read,ACK
3.453631062500000,0,0x5D,0x00,Read,ACK
3.453652531250000,0,0x5D,0x00,Read,ACK
3.453674000000000,0,0x5D,0x00,Read,ACK
3.453695468750000,0,0x5D,0x00,Read,ACK
3.453719406250000,0,0x5D,0x00,Read,ACK
3.453742531250000,0,0x5D,0x00,Read,ACK
3.453764000000000,0,0x5D,0x00,Read,ACK
3.453785468750000,0,0x5D,0x00,Read,ACK
3.453807187500000,0,0x5D,0x00,Read,ACK
3.453828656250000,0,0x5D,0x00,Read,ACK
3.453850125000000,0,0x5D,0x00,Read,ACK
3.453871593750000,0,0x5D,0x00,Read,ACK
3.453895625000000,0,0x5D,0x00,Read,ACK
3.453917562500000,0,0x5D,0x00,Read,ACK
3.453939968750000,0,0x5D,0x00,Read,ACK
3.453962218750000,0,0x5D,0x00,Read,ACK
3.453984312500000,0,0x5D,0x00,Read,ACK
3.454005781250000,0,0x5D,0x00,Read,NAK
3.459862843750000,0,0x5D,0x2F,Read,ACK
3.459890750000000,0,0x5D,0x00,Read,ACK
3.459912718750000,0,0x5D,0x04,Read,ACK
3.459934156250000,0,0x5D,0x03,Read,ACK
3.459955656250000,0,0x5D,0x05,Read,ACK
3.459977093750000,0,0x5D,0x0A,Read,ACK
3.459998593750000,0,0x5D,0x1B,Read,ACK
3.460020031250000,0,0x5D,0x06,Read,ACK
3.460041500000000,0,0x5D,0x03,Read,ACK
3.460063000000000,0,0x5D,0x02,Read,ACK
3.460084468750000,0,0x5D,0x20,Read,ACK
3.460106093750000,0,0x5D,0x13,Read,ACK
3.460128593750000,0,0x5D,0xEA,Read,ACK
3.460150062500000,0,0x5D,0x04,Read,ACK
3.460171531250000,0,0x5D,0xC4,Read,ACK
3.460193000000000,0,0x5D,0x05,Read,ACK
3.460214468750000,0,0x5D,0x03,Read,ACK
3.460236375000000,0,0x5D,0x03,Read,ACK
3.460257843750000,0,0x5D,0x20,Read,ACK
3.460279312500000,0,0x5D,0x23,Read,ACK
3.460300781250000,0,0x5D,0x7D,Read,ACK
3.460322250000000,0,0x5D,0x07,Read,ACK
3.460346562500000,0,0x5D,0x25,Read,ACK
3.460369312500000,0,0x5D,0x05,Read,ACK
3.460390781250000,0,0x5D,0x02,Read,ACK
3.460412500000000,0,0x5D,0x02,Read,ACK
3.460433968750000,0,0x5D,0x20,Read,ACK
3.460455437500000,0,0x5D,0x00,Read,ACK
3.460477000000000,0,0x5D,0x00,Read,ACK
3.460498531250000,0,0x5D,0x00,Read,ACK
3.460519968750000,0,0x5D,0x00,Read,ACK
3.460541468750000,0,0x5D,0x00,Read,ACK
3.460563218750000,0,0x5D,0x00,Read,ACK
3.460584750000000,0,0x5D,0x00,Read,ACK
3.460606218750000,0,0x5D,0x00,Read,ACK
3.460627718750000,0,0x5D,0x00,Read,ACK
3.460649156250000,0,0x5D,0x00,Read,ACK
3.460670656250000,0,0x5D,0x00,Read,ACK
3.460692125000000,0,0x5D,0x00,Read,ACK
3.460713562500000,0,0x5D,0x00,Read,ACK
3.460735062500000,0,0x5D,0x00,Read,ACK
3.460756937500000,0,0x5D,0x00,Read,ACK
3.460778437500000,0,0x5D,0x00,Read,ACK
3.460801343750000,0,0x5D,0x78,Read,ACK
3.460824343750000,0,0x5D,0x26,Read,ACK
3.460848187500000,0,0x5D,0x03,Read,ACK
3.460869812500000,0,0x5D,0x00,Read,ACK
3.460894000000000,0,0x5D,0x00,Read,ACK
3.460915500000000,0,0x5D,0x00,Read,ACK
3.460936968750000,0,0x5D,0x00,Read,ACK
3.460958656250000,0,0x5D,0x00,Read,ACK
3.460980156250000,0,0x5D,0x00,Read,ACK
3.461003281250000,0,0x5D,0x00,Read,ACK
3.461024781250000,0,0x5D,0x00,Read,ACK
3.461046437500000,0,0x5D,0x00,Read,ACK
3.461068843750000,0,0x5D,0x00,Read,ACK
3.461090656250000,0,0x5D,0x00,Read,ACK
3.461112093750000,0,0x5D,0x00,Read,ACK
3.461133562500000,0,0x5D,0x00,Read,ACK
3.461155531250000,0,0x5D,0x00,Read,ACK
3.461177000000000,0,0x5D,0x00,Read,ACK
3.461199031250000,0,0x5D,0x00,Read,ACK
3.461220500000000,0,0x5D,0x00,Read,ACK
3.461241968750000,0,0x5D,0x00,Read,NAK
3.467210656250000,0,0x5D,0x2F,Read,ACK
3.467240437500000,0,0x5D,0x00,Read,ACK
3.467262718750000,0,0x5D,0x04,Read,ACK
3.467284187500000,0,0x5D,0x03,Read,ACK
3.467305625000000,0,0x5D,0xF1,Read,ACK
3.467327125000000,0,0x5D,0x09,Read,ACK
3.467349250000000,0,0x5D,0x1C,Read,ACK
3.467370750000000,0,0x5D,0x06,Read,ACK
3.467392218750000,0,0x5D,0x03,Read,ACK
3.467413687500000,0,0x5D,0x02,Read,ACK
3.467435156250000,0,0x5D,0x20,Read,ACK
3.467456625000000,0,0x5D,0x13,Read,ACK
3.467478312500000,0,0x5D,0xD4,Read,ACK
3.467499812500000,0,0x5D,0x04,Read,ACK
3.467521281250000,0,0x5D,0xC8,Read,ACK
3.467542750000000,0,0x5D,0x05,Read,ACK
3.467564218750000,0,0x5D,0x03,Read,ACK
3.467585687500000,0,0x5D,0x03,Read,ACK
3.467607156250000,0,0x5D,0x20,Read,ACK
3.467628625000000,0,0x5D,0x23,Read,ACK
3.467650125000000,0,0x5D,0x67,Read,ACK
3.467671562500000,0,0x5D,0x07,Read,ACK
3.467693531250000,0,0x5D,0x27,Read,ACK
3.467715000000000,0,0x5D,0x05,Read,ACK
3.467736500000000,0,0x5D,0x03,Read,ACK
3.467757968750000,0,0x5D,0x02,Read,ACK
3.467779906250000,0,0x5D,0x20,Read,ACK
3.467801375000000,0,0x5D,0x00,Read,ACK
3.467822875000000,0,0x5D,0x00,Read,ACK
3.467844343750000,0,0x5D,0x00,Read,ACK
3.467865843750000,0,0x5D,0x00,Read,ACK
3.467887343750000,0,0x5D,0x00,Read,ACK
3.467908812500000,0,0x5D,0x00,Read,ACK
3.467933375000000,0,0x5D,0x00,Read,ACK
3.467955968750000,0,0x5D,0x00,Read,ACK
3.467977468750000,0,0x5D,0x00,Read,ACK
3.468000000000000,0,0x5D,0x00,Read,ACK
3.468022843750000,0,0x5D,0x00,Read,ACK
3.468044312500000,0,0x5D,0x00,Read,ACK
3.468065781250000,0,0x5D,0x00,Read,ACK
3.468087625000000,0,0x5D,0x00,Read,ACK
3.468109093750000,0,0x5D,0x00,Read,ACK
3.468131000000000,0,0x5D,0x00,Read,ACK
3.468152781250000,0,0x5D,0xBE,Read,ACK
3.468174250000000,0,0x5D,0x26,Read,ACK
3.468195718750000,0,0x5D,0x03,Read,ACK
3.468217218750000,0,0x5D,0x00,Read,ACK
3.468238656250000,0,0x5D,0x00,Read,ACK
3.468260312500000,0,0x5D,0x00,Read,ACK
3.468281781250000,0,0x5D,0x00,Read,ACK
3.468303250000000,0,0x5D,0x00,Read,ACK
3.468324718750000,0,0x5D,0x00,Read,ACK
3.468346281250000,0,0x5D,0x00,Read,ACK
3.468367750000000,0,0x5D,0x00,Read,ACK
3.468390812500000,0,0x5D,0x00,Read,ACK
3.468412906250000,0,0x5D,0x00,Read,ACK
3.468434375000000,0,0x5D,0x00,Read,ACK
3.468455875000000,0,0x5D,0x00,Read,ACK
3.468477375000000,0,0x5D,0x00,Read,ACK
3.468498843750000,0,0x5D,0x00,Read,ACK
3.468521875000000,0,0x5D,0x00,Read,ACK
3.468544218750000,0,0x5D,0x00,Read,ACK
3.468566062500000,0,0x5D,0x00,Read,ACK
3.468587562500000,0,0x5D,0x00,Read,NAK
3.474276468750000,0,0x5D,0x2F,Read,ACK
3.474299687500000,0,0x5D,0x00,Read,ACK
3.474321125000000,0,0x5D,0x04,Read,ACK
3.474342593750000,0,0x5D,0x03,Read,ACK
3.474364093750000,0,0x5D,0xDC,Read,ACK
3.474385625000000,0,0x5D,0x09,Read,ACK
3.474409687500000,0,0x5D,0x1A,Read,ACK
3.474431156250000,0,0x5D,0x06,Read,ACK
3.474452625000000,0,0x5D,0x03,Read,ACK
3.474474125000000,0,0x5D,0x02,Read,ACK
3.474495656250000,0,0x5D,0x20,Read,ACK
3.474517375000000,0,0x5D,0x13,Read,ACK
3.474538875000000,0,0x5D,0xBE,Read,ACK
3.474560343750000,0,0x5D,0x04,Read,ACK
3.474581812500000,0,0x5D,0xC9,Read,ACK
3.474603312500000,0,0x5D,0x05,Read,ACK
3.474624812500000,0,0x5D,0x03,Read,ACK
3.474646281250000,0,0x5D,0x03,Read,ACK
3.474667781250000,0,0x5D,0x20,Read,ACK
3.474689218750000,0,0x5D,0x23,Read,ACK
3.474710687500000,0,0x5D,0x50,Read,ACK
3.474732156250000,0,0x5D,0x07,Read,ACK
3.474753656250000,0,0x5D,0x27,Read,ACK
3.474775125000000,0,0x5D,0x05,Read,ACK
3.474796593750000,0,0x5D,0x03,Read,ACK
3.474818031250000,0,0x5D,0x02,Read,ACK
3.474840093750000,0,0x5D,0x20,Read,ACK
3.474861531250000,0,0x5D,0x00,Read,ACK
3.474883031250000,0,0x5D,0x00,Read,ACK
3.474904468750000,0,0x5D,0x00,Read,ACK
3.474926218750000,0,0x5D,0x00,Read,ACK
3.474947687500000,0,0x5D,0x00,Read,ACK
3.474969125000000,0,0x5D,0x00,Read,ACK
3.474990625000000,0,0x5D,0x00,Read,ACK
3.475012093750000,0,0x5D,0x00,Read,ACK
3.475033531250000,0,0x5D,0x00,Read,ACK
3.475055000000000,0,0x5D,0x00,Read,ACK
3.475076500000000,0,0x5D,0x00,Read,ACK
3.475100281250000,0,0x5D,0x00,Read,ACK
3.475123062500000,0,0x5D,0x00,Read,ACK
3.475144968750000,0,0x5D,0x00,Read,ACK
3.475167250000000,0,0x5D,0x00,Read,ACK
3.475189593750000,0,0x5D,0x00,Read,ACK
3.475211875000000,0,0x5D,0x04,Read,ACK
3.475233343750000,0,0x5D,0x27,Read,ACK
3.475254781250000,0,0x5D,0x03,Read,ACK
3.475277062500000,0,0x5D,0x00,Read,ACK
3.475298937500000,0,0x5D,0x00,Read,ACK
3.475321843750000,0,0x5D,0x00,Read,ACK
3.475344437500000,0,0x5D,0x00,Read,ACK
3.475367062500000,0,0x5D,0x00,Read,ACK
3.475388656250000,0,0x5D,0x00,Read,ACK
3.475410250000000,0,0x5D,0x00,Read,ACK
3.475431718750000,0,0x5D,0x00,Read,ACK
3.475453593750000,0,0x5D,0x00,Read,ACK
3.475475093750000,0,0x5D,0x00,Read,ACK
3.475496562500000,0,0x5D,0x00,Read,ACK
3.475518656250000,0,0x5D,0x00,Read,ACK
3.475540125000000,0,0x5D,0x00,Read,ACK
3.475562187500000,0,0x5D,0x00,Read,ACK
3.475584843750000,0,0x5D,0x00,Read,ACK
3.475607000000000,0,0x5D,0x00,Read,ACK
3.475628875000000,0,0x5D,0x00,Read,ACK
3.475651000000000,0,0x5D,0x00,Read,NAK
3.481175343750000,0,0x5D,0x2F,Read,ACK
3.481202437500000,0,0x5D,0x00,Read,ACK
3.481223875000000,0,0x5D,0x04,Read,ACK
3.481245343750000,0,0x5D,0x03,Read,ACK
3.481266812500000,0,0x5D,0xC9,Read,ACK
3.481288281250000,0,0x5D,0x09,Read,ACK
3.481311093750000,0,0x5D,0x17,Read,ACK
3.481334875000000,0,0x5D,0x06,Read,ACK
3.481356375000000,0,0x5D,0x03,Read,ACK
3.481377843750000,0,0x5D,0x02,Read,ACK
3.481399312500000,0,0x5D,0x20,Read,ACK
3.481420781250000,0,0x5D,0x13,Read,ACK
3.481442250000000,0,0x5D,0xA6,Read,ACK
3.481463718750000,0,0x5D,0x04,Read,ACK
3.481485187500000,0,0x5D,0xC7,Read,ACK
3.481506656250000,0,0x5D,0x05,Read,ACK
3.481528843750000,0,0x5D,0x03,Read,ACK
3.481550843750000,0,0x5D,0x03,Read,ACK
3.481572312500000,0,0x5D,0x20,Read,ACK
3.481593781250000,0,0x5D,0x23,Read,ACK
3.481615250000000,0,0x5D,0x3A,Read,ACK
3.481636718750000,0,0x5D,0x07,Read,ACK
3.481659562500000,0,0x5D,0x25,Read,ACK
3.481681906250000,0,0x5D,0x05,Read,ACK
3.481703375000000,0,0x5D,0x03,Read,ACK
3.481724843750000,0,0x5D,0x03,Read,ACK
3.481746312500000,0,0x5D,0x20,Read,ACK
3.481767781250000,0,0x5D,0x00,Read,ACK
3.481789250000000,0,0x5D,0x00,Read,ACK
3.481810718750000,0,0x5D,0x00,Read,ACK
3.481832218750000,0,0x5D,0x00,Read,ACK
3.481853656250000,0,0x5D,0x00,Read,ACK
3.481875156250000,0,0x5D,0x00,Read,ACK
3.481896875000000,0,0x5D,0x00,Read,ACK
3.481918312500000,0,0x5D,0x00,Read,ACK
3.481939781250000,0,0x5D,0x00,Read,ACK
3.481961343750000,0,0x5D,0x00,Read,ACK
3.481982968750000,0,0x5D,0x00,Read,ACK
3.482004437500000,0,0x5D,0x00,Read,ACK
3.482025937500000,0,0x5D,0x00,Read,ACK
3.482047375000000,0,0x5D,0x00,Read,ACK
3.482068843750000,0,0x5D,0x00,Read,ACK
3.482090312500000,0,0x5D,0x00,Read,ACK
3.482111812500000,0,0x5D,0x4A,Read,ACK
3.482133281250000,0,0x5D,0x27,Read,ACK
3.482154718750000,0,0x5D,0x03,Read,ACK
3.482176218750000,0,0x5D,0x00,Read,ACK
3.482197656250000,0,0x5D,0x00,Read,ACK
3.482219156250000,0,0x5D,0x00,Read,ACK
3.482240625000000,0,0x5D,0x00,Read,ACK
3.482262187500000,0,0x5D,0x00,Read,ACK
3.482286281250000,0,0x5D,0x00,Read,ACK
3.482312312500000,0,0x5D,0x00,Read,ACK
3.482339593750000,0,0x5D,0x00,Read,ACK
3.482362468750000,0,0x5D,0x00,Read,ACK
3.482384406250000,0,0x5D,0x00,Read,ACK
3.482405906250000,0,0x5D,0x00,Read,ACK
3.482427531250000,0,0x5D,0x00,Read,ACK
3.482449000000000,0,0x5D,0x00,Read,ACK
3.482471750000000,0,0x5D,0x00,Read,ACK
3.482493906250000,0,0x5D,0x00,Read,ACK
3.482516656250000,0,0x5D,0x00,Read,ACK
3.482538156250000,0,0x5D,0x00,Read,ACK
3.482559781250000,0,0x5D,0x00,Read,NAK
3.488279625000000,0,0x5D,0x2F,Read,ACK
3.488308437500000,0,0x5D,0x00,Read,ACK
3.488330062500000,0,0x5D,0x04,Read,ACK
3.488351500000000,0,0x5D,0x03,Read,ACK
3.488372968750000,0,0x5D,0xB5,Read,ACK
3.488394468750000,0,0x5D,0x09,Read,ACK
3.488415906250000,0,0x5D,0x12,Read,ACK
3.488437375000000,0,0x5D,0x06,Read,ACK
3.488458906250000,0,0x5D,0x02,Read,ACK
3.488487750000000,0,0x5D,0x02,Read,ACK
3.488509406250000,0,0x5D,0x20,Read,ACK
3.488530875000000,0,0x5D,0x13,Read,ACK
3.488552343750000,0,0x5D,0x8E,Read,ACK
3.488573812500000,0,0x5D,0x04,Read,ACK
3.488595281250000,0,0x5D,0xC4,Read,ACK
3.488616750000000,0,0x5D,0x05,Read,ACK
3.488638218750000,0,0x5D,0x03,Read,ACK
3.488659687500000,0,0x5D,0x02,Read,ACK
3.488681156250000,0,0x5D,0x20,Read,ACK
3.488703812500000,0,0x5D,0x23,Read,ACK
3.488725281250000,0,0x5D,0x24,Read,ACK
3.488746750000000,0,0x5D,0x07,Read,ACK
3.488768250000000,0,0x5D,0x22,Read,ACK
3.488789687500000,0,0x5D,0x05,Read,ACK
3.488811187500000,0,0x5D,0x03,Read,ACK
3.488833875000000,0,0x5D,0x03,Read,ACK
3.488855562500000,0,0x5D,0x20,Read,ACK
3.488877062500000,0,0x5D,0x00,Read,ACK
3.488898531250000,0,0x5D,0x00,Read,ACK
3.488921125000000,0,0x5D,0x00,Read,ACK
3.488942593750000,0,0x5D,0x00,Read,ACK
3.488964062500000,0,0x5D,0x00,Read,ACK
3.488986468750000,0,0x5D,0x00,Read,ACK
3.489007937500000,0,0x5D,0x00,Read,ACK
3.489029437500000,0,0x5D,0x00,Read,ACK
3.489052187500000,0,0x5D,0x00,Read,ACK
3.489073656250000,0,0x5D,0x00,Read,ACK
3.489095125000000,0,0x5D,0x00,Read,ACK
3.489116593750000,0,0x5D,0x00,Read,ACK
3.489138093750000,0,0x5D,0x00,Read,ACK
3.489159531250000,0,0x5D,0x00,Read,ACK
3.489181000000000,0,0x5D,0x00,Read,ACK
3.489202468750000,0,0x5D,0x00,Read,ACK
3.489223937500000,0,0x5D,0x90,Read,ACK
3.489245406250000,0,0x5D,0x27,Read,ACK
3.489266875000000,0,0x5D,0x03,Read,ACK
3.489288343750000,0,0x5D,0x00,Read,ACK
3.489309812500000,0,0x5D,0x00,Read,ACK
3.489331281250000,0,0x5D,0x00,Read,ACK
3.489352750000000,0,0x5D,0x00,Read,ACK
3.489374218750000,0,0x5D,0x00,Read,ACK
3.489397187500000,0,0x5D,0x00,Read,ACK
3.489420406250000,0,0x5D,0x00,Read,ACK
3.489443125000000,0,0x5D,0x00,Read,ACK
3.489466468750000,0,0x5D,0x00,Read,ACK
3.489488562500000,0,0x5D,0x00,Read,ACK
3.489510062500000,0,0x5D,0x00,Read,ACK
3.489531562500000,0,0x5D,0x00,Read,ACK
3.489553000000000,0,0x5D,0x00,Read,ACK
3.489577093750000,0,0x5D,0x00,Read,ACK
3.489598593750000,0,0x5D,0x00,Read,ACK
3.489620406250000,0,0x5D,0x00,Read,ACK
3.489642156250000,0,0x5D,0x00,Read,ACK
3.489665218750000,0,0x5D,0x00,Read,NAK
3.495422218750000,0,0x5D,0x2F,Read,ACK
3.495451718750000,0,0x5D,0x00,Read,ACK
3.495473218750000,0,0x5D,0x04,Read,ACK
3.495494687500000,0,0x5D,0x03,Read,ACK
3.495516156250000,0,0x5D,0xA2,Read,ACK
3.495537625000000,0,0x5D,0x09,Read,ACK
3.495559093750000,0,0x5D,0x0B,Read,ACK
3.495580562500000,0,0x5D,0x06,Read,ACK
3.495602031250000,0,0x5D,0x03,Read,ACK
3.495624875000000,0,0x5D,0x02,Read,ACK
3.495647375000000,0,0x5D,0x20,Read,ACK
3.495674062500000,0,0x5D,0x13,Read,ACK
3.495695531250000,0,0x5D,0x76,Read,ACK
3.495717000000000,0,0x5D,0x04,Read,ACK
3.495738468750000,0,0x5D,0xBE,Read,ACK
3.495759968750000,0,0x5D,0x05,Read,ACK
3.495781406250000,0,0x5D,0x03,Read,ACK
3.495802875000000,0,0x5D,0x02,Read,ACK
3.495824375000000,0,0x5D,0x20,Read,ACK
3.495845906250000,0,0x5D,0x23,Read,ACK
3.495867343750000,0,0x5D,0x0F,Read,ACK
3.495888812500000,0,0x5D,0x07,Read,ACK
3.495910281250000,0,0x5D,0x1B,Read,ACK
3.495931781250000,0,0x5D,0x05,Read,ACK
3.495953312500000,0,0x5D,0x02,Read,ACK
3.495974781250000,0,0x5D,0x03,Read,ACK
3.495996250000000,0,0x5D,0x20,Read,ACK
3.496018718750000,0,0x5D,0x00,Read,ACK
3.496040218750000,0,0x5D,0x00,Read,ACK
3.496061718750000,0,0x5D,0x00,Read,ACK
3.496083187500000,0,0x5D,0x00,Read,ACK
3.496105312500000,0,0x5D,0x00,Read,ACK
3.496126812500000,0,0x5D,0x00,Read,ACK
3.496148656250000,0,0x5D,0x00,Read,ACK
3.496170125000000,0,0x5D,0x00,Read,ACK
3.496191593750000,0,0x5D,0x00,Read,ACK
3.496213156250000,0,0x5D,0x00,Read,ACK
3.496234656250000,0,0x5D,0x00,Read,ACK
3.496256125000000,0,0x5D,0x00,Read,ACK
3.496277593750000,0,0x5D,0x00,Read,ACK
3.496299093750000,0,0x5D,0x00,Read,ACK
3.496320531250000,0,0x5D,0x00,Read,ACK
3.496342031250000,0,0x5D,0x00,Read,ACK
3.496363468750000,0,0x5D,0xD6,Read,ACK
3.496384968750000,0,0x5D,0x27,Read,ACK
3.496406437500000,0,0x5D,0x03,Read,ACK
3.496427906250000,0,0x5D,0x00,Read,ACK
3.496449375000000,0,0x5D,0x00,Read,ACK
3.496470843750000,0,0x5D,0x00,Read,ACK
3.496492312500000,0,0x5D,0x00,Read,ACK
3.496513781250000,0,0x5D,0x00,Read,ACK
3.496535250000000,0,0x5D,0x00,Read,ACK
3.496556718750000,0,0x5D,0x00,Read,ACK
3.496578187500000,0,0x5D,0x00,Read,ACK
3.496599656250000,0,0x5D,0x00,Read,ACK
3.496625625000000,0,0x5D,0x00,Read,ACK
3.496651500000000,0,0x5D,0x00,Read,ACK
3.496672968750000,0,0x5D,0x00,Read,ACK
3.496696781250000,0,0x5D,0x00,Read,ACK
3.496719531250000,0,0x5D,0x00,Read,ACK
3.496742000000000,0,0x5D,0x00,Read,ACK
3.496763468750000,0,0x5D,0x00,Read,ACK
3.496784937500000,0,0x5D,0x00,Read,ACK
3.496806406250000,0,0x5D,0x00,Read,NAK
3.502691875000000,0,0x5D,0x2F,Read,ACK
3.502721625000000,0,0x5D,0x00,Read,ACK
3.502743125000000,0,0x5D,0x04,Read,ACK
3.502764718750000,0,0x5D,0x03,Read,ACK
3.502787437500000,0,0x5D,0x90,Read,ACK
3.502808906250000,0,0x5D,0x09,Read,ACK
3.502830375000000,0,0x5D,0x02,Read,ACK
3.502851843750000,0,0x5D,0x06,Read,ACK
3.502873312500000,0,0x5D,0x03,Read,ACK
3.502894781250000,0,0x5D,0x03,Read,ACK
3.502916281250000,0,0x5D,0x20,Read,ACK
3.502937718750000,0,0x5D,0x13,Read,ACK
3.502960125000000,0,0x5D,0x5E,Read,ACK
3.502981656250000,0,0x5D,0x04,Read,ACK
3.503003125000000,0,0x5D,0xB7,Read,ACK
3.503025093750000,0,0x5D,0x05,Read,ACK
3.503046593750000,0,0x5D,0x03,Read,ACK
3.503068250000000,0,0x5D,0x02,Read,ACK
3.503089718750000,0,0x5D,0x20,Read,ACK
3.503111187500000,0,0x5D,0x23,Read,ACK
3.503132656250000,0,0x5D,0xFA,Read,ACK
3.503154125000000,0,0x5D,0x06,Read,ACK
3.503175593750000,0,0x5D,0x13,Read,ACK
3.503197062500000,0,0x5D,0x05,Read,ACK
3.503219125000000,0,0x5D,0x02,Read,ACK
3.503240593750000,0,0x5D,0x03,Read,ACK
3.503262031250000,0,0x5D,0x20,Read,ACK
3.503283500000000,0,0x5D,0x00,Read,ACK
3.503305000000000,0,0x5D,0x00,Read,ACK
3.503326437500000,0,0x5D,0x00,Read,ACK
3.503347906250000,0,0x5D,0x00,Read,ACK
3.503369406250000,0,0x5D,0x00,Read,ACK
3.503390843750000,0,0x5D,0x00,Read,ACK
3.503412375000000,0,0x5D,0x00,Read,ACK
3.503433843750000,0,0x5D,0x00,Read,ACK
3.503455343750000,0,0x5D,0x00,Read,ACK
3.503476781250000,0,0x5D,0x00,Read,ACK
3.503498250000000,0,0x5D,0x00,Read,ACK
3.503519718750000,0,0x5D,0x00,Read,ACK
3.503541218750000,0,0x5D,0x00,Read,ACK
3.503562687500000,0,0x5D,0x00,Read,ACK
3.503584156250000,0,0x5D,0x00,Read,ACK
3.503605625000000,0,0x5D,0x00,Read,ACK
3.503627093750000,0,0x5D,0x1C,Read,ACK
3.503648593750000,0,0x5D,0x28,Read,ACK
3.503670093750000,0,0x5D,0x03,Read,ACK
3.503691562500000,0,0x5D,0x00,Read,ACK
3.503713031250000,0,0x5D,0x00,Read,ACK
3.503735187500000,0,0x5D,0x00,Read,ACK
3.503758625000000,0,0x5D,0x00,Read,ACK
3.503783000000000,0,0x5D,0x00,Read,ACK
3.503805125000000,0,0x5D,0x00,Read,ACK
3.503827031250000,0,0x5D,0x00,Read,ACK
3.503848468750000,0,0x5D,0x00,Read,ACK
3.503869937500000,0,0x5D,0x00,Read,ACK
3.503893343750000,0,0x5D,0x00,Read,ACK
3.503914968750000,0,0x5D,0x00,Read,ACK
3.503937562500000,0,0x5D,0x00,Read,ACK
3.503960343750000,0,0x5D,0x00,Read,ACK
3.503981781250000,0,0x5D,0x00,Read,ACK
3.504003250000000,0,0x5D,0x00,Read,ACK
3.504024750000000,0,0x5D,0x00,Read,ACK
3.504046812500000,0,0x5D,0x00,Read,ACK
3.504068281250000,0,0x5D,0x00,Read,NAK
3.509935812500000,0,0x5D,0x2F,Read,ACK
3.509964468750000,0,0x5D,0x00,Read,ACK
3.509985937500000,0,0x5D,0x04,Read,ACK
3.510007406250000,0,0x5D,0x03,Read,ACK
3.510028875000000,0,0x5D,0x7F,Read,ACK
3.510050343750000,0,0x5D,0x09,Read,ACK
3.510071812500000,0,0x5D,0xF8,Read,ACK
3.510093281250000,0,0x5D,0x05,Read,ACK
3.510114781250000,0,0x5D,0x03,Read,ACK
3.510136875000000,0,0x5D,0x03,Read,ACK
3.510158375000000,0,0x5D,0x20,Read,ACK
3.510179843750000,0,0x5D,0x13,Read,ACK
3.510201312500000,0,0x5D,0x49,Read,ACK
3.510224093750000,0,0x5D,0x04,Read,ACK
3.510245593750000,0,0x5D,0xAE,Read,ACK
3.510267062500000,0,0x5D,0x05,Read,ACK
3.510289625000000,0,0x5D,0x03,Read,ACK
3.510311093750000,0,0x5D,0x03,Read,ACK
3.510332562500000,0,0x5D,0x20,Read,ACK
3.510354031250000,0,0x5D,0x23,Read,ACK
3.510377062500000,0,0x5D,0xE6,Read,ACK
3.510398531250000,0,0x5D,0x06,Read,ACK
3.510420000000000,0,0x5D,0x08,Read,ACK
3.510441468750000,0,0x5D,0x05,Read,ACK
3.510462968750000,0,0x5D,0x03,Read,ACK
3.510484468750000,0,0x5D,0x03,Read,ACK
3.510505937500000,0,0x5D,0x20,Read,ACK
3.510527437500000,0,0x5D,0x00,Read,ACK
3.510548906250000,0,0x5D,0x00,Read,ACK
3.510570375000000,0,0x5D,0x00,Read,ACK
3.510591812500000,0,0x5D,0x00,Read,ACK
3.510613312500000,0,0x5D,0x00,Read,ACK
3.510634781250000,0,0x5D,0x00,Read,ACK
3.510656250000000,0,0x5D,0x00,Read,ACK
3.510677718750000,0,0x5D,0x00,Read,ACK
3.510699187500000,0,0x5D,0x00,Read,ACK
3.510720656250000,0,0x5D,0x00,Read,ACK
3.510742156250000,0,0x5D,0x00,Read,ACK
3.510763937500000,0,0x5D,0x00,Read,ACK
3.510785375000000,0,0x5D,0x00,Read,ACK
3.510806843750000,0,0x5D,0x00,Read,ACK
3.510828343750000,0,0x5D,0x00,Read,ACK
3.510849781250000,0,0x5D,0x00,Read,ACK
3.510871281250000,0,0x5D,0x62,Read,ACK
3.510893312500000,0,0x5D,0x28,Read,ACK
3.510918437500000,0,0x5D,0x03,Read,ACK
3.510942593750000,0,0x5D,0x00,Read,ACK
3.510964062500000,0,0x5D,0x00,Read,ACK
3.510986968750000,0,0x5D,0x00,Read,ACK
3.511008437500000,0,0x5D,0x00,Read,ACK
3.511029937500000,0,0x5D,0x00,Read,ACK
3.511051437500000,0,0x5D,0x00,Read,ACK
3.511073125000000,0,0x5D,0x00,Read,ACK
3.511096062500000,0,0x5D,0x00,Read,ACK
3.511117750000000,0,0x5D,0x00,Read,ACK
3.511139781250000,0,0x5D,0x00,Read,ACK
3.511161250000000,0,0x5D,0x00,Read,ACK
3.511182687500000,0,0x5D,0x00,Read,ACK
3.511204781250000,0,0x5D,0x00,Read,ACK
3.511226281250000,0,0x5D,0x00,Read,ACK
3.511247750000000,0,0x5D,0x00,Read,ACK
3.511269218750000,0,0x5D,0x00,Read,ACK
3.511292343750000,0,0x5D,0x00,Read,ACK
3.511313781250000,0,0x5D,0x00,Read,NAK
3.517208750000000,0,0x5D,0x2F,Read,ACK
3.517232250000000,0,0x5D,0x00,Read,ACK
3.517253968750000,0,0x5D,0x04,Read,ACK
3.517276562500000,0,0x5D,0x03,Read,ACK
3.517298031250000,0,0x5D,0x6F,Read,ACK
3.517319500000000,0,0x5D,0x09,Read,ACK
3.517340968750000,0,0x5D,0xEB,Read,ACK
3.517362781250000,0,0x5D,0x05,Read,ACK
3.517385531250000,0,0x5D,0x03,Read,ACK
3.517406968750000,0,0x5D,0x03,Read,ACK
3.517428812500000,0,0x5D,0x20,Read,ACK
3.517450281250000,0,0x5D,0x13,Read,ACK
3.517471781250000,0,0x5D,0x36,Read,ACK
3.517495000000000,0,0x5D,0x04,Read,ACK
3.517516500000000,0,0x5D,0xA3,Read,ACK
3.517538062500000,0,0x5D,0x05,Read,ACK
3.517559500000000,0,0x5D,0x03,Read,ACK
3.517580968750000,0,0x5D,0x03,Read,ACK
3.517602687500000,0,0x5D,0x20,Read,ACK
3.517624156250000,0,0x5D,0x23,Read,ACK
3.517645625000000,0,0x5D,0xD4,Read,ACK
3.517667093750000,0,0x5D,0x06,Read,ACK
3.517688562500000,0,0x5D,0xFA,Read,ACK
3.517710156250000,0,0x5D,0x04,Read,ACK
3.517731625000000,0,0x5D,0x03,Read,ACK
3.517753093750000,0,0x5D,0x03,Read,ACK
3.517774562500000,0,0x5D,0x20,Read,ACK
3.517796031250000,0,0x5D,0x00,Read,ACK
3.517817500000000,0,0x5D,0x00,Read,ACK
3.517839000000000,0,0x5D,0x00,Read,ACK
3.517860437500000,0,0x5D,0x00,Read,ACK
3.517881906250000,0,0x5D,0x00,Read,ACK
3.517903656250000,0,0x5D,0x00,Read,ACK
3.517925093750000,0,0x5D,0x00,Read,ACK
3.517946562500000,0,0x5D,0x00,Read,ACK
3.517968062500000,0,0x5D,0x00,Read,ACK
3.517989531250000,0,0x5D,0x00,Read,ACK
3.518012843750000,0,0x5D,0x00,Read,ACK
3.518034562500000,0,0x5D,0x00,Read,ACK
3.518056031250000,0,0x5D,0x00,Read,ACK
3.518077500000000,0,0x5D,0x00,Read,ACK
3.518099343750000,0,0x5D,0x00,Read,ACK
3.518120812500000,0,0x5D,0x00,Read,ACK
3.518142281250000,0,0x5D,0xA8,Read,ACK
3.518163781250000,0,0x5D,0x28,Read,ACK
3.518185250000000,0,0x5D,0x03,Read,ACK
3.518207187500000,0,0x5D,0x00,Read,ACK
3.518229562500000,0,0x5D,0x00,Read,ACK
3.518251125000000,0,0x5D,0x00,Read,ACK
3.518272687500000,0,0x5D,0x00,Read,ACK
3.518294281250000,0,0x5D,0x00,Read,ACK
3.518315718750000,0,0x5D,0x00,Read,ACK
3.518337218750000,0,0x5D,0x00,Read,ACK
3.518358656250000,0,0x5D,0x00,Read,ACK
3.518380125000000,0,0x5D,0x00,Read,ACK
3.518403781250000,0,0x5D,0x00,Read,ACK
3.518426750000000,0,0x5D,0x00,Read,ACK
3.518448218750000,0,0x5D,0x00,Read,ACK
3.518469718750000,0,0x5D,0x00,Read,ACK
3.518491281250000,0,0x5D,0x00,Read,ACK
3.518512875000000,0,0x5D,0x00,Read,ACK
3.518534375000000,0,0x5D,0x00,Read,ACK
3.518555843750000,0,0x5D,0x00,Read,ACK
3.518577500000000,0,0x5D,0x00,Read,NAK
3.524298750000000,0,0x5D,0x2F,Read,ACK
3.524323343750000,0,0x5D,0x00,Read,ACK
3.524344843750000,0,0x5D,0x04,Read,ACK
3.524366281250000,0,0x5D,0x03,Read,ACK
3.524387750000000,0,0x5D,0x61,Read,ACK
3.524409437500000,0,0x5D,0x09,Read,ACK
3.524430906250000,0,0x5D,0xDD,Read,ACK
3.524452500000000,0,0x5D,0x05,Read,ACK
3.524473968750000,0,0x5D,0x03,Read,ACK
3.524495406250000,0,0x5D,0x03,Read,ACK
3.524518406250000,0,0x5D,0x20,Read,ACK
3.524539875000000,0,0x5D,0x13,Read,ACK
3.524561343750000,0,0x5D,0x26,Read,ACK
3.524583531250000,0,0x5D,0x04,Read,ACK
3.524605000000000,0,0x5D,0x97,Read,ACK
3.524628031250000,0,0x5D,0x05,Read,ACK
3.524651218750000,0,0x5D,0x03,Read,ACK
3.524672718750000,0,0x5D,0x03,Read,ACK
3.524694375000000,0,0x5D,0x20,Read,ACK
3.524715875000000,0,0x5D,0x23,Read,ACK
3.524737312500000,0,0x5D,0xC3,Read,ACK
3.524758906250000,0,0x5D,0x06,Read,ACK
3.524780375000000,0,0x5D,0xEB,Read,ACK
3.524801875000000,0,0x5D,0x04,Read,ACK
3.524823312500000,0,0x5D,0x03,Read,ACK
3.524844781250000,0,0x5D,0x02,Read,ACK
3.524866250000000,0,0x5D,0x20,Read,ACK
3.524887718750000,0,0x5D,0x00,Read,ACK
3.524909187500000,0,0x5D,0x00,Read,ACK
3.524930656250000,0,0x5D,0x00,Read,ACK
3.524952125000000,0,0x5D,0x00,Read,ACK
3.524973593750000,0,0x5D,0x00,Read,ACK
3.524995062500000,0,0x5D,0x00,Read,ACK
3.525016531250000,0,0x5D,0x00,Read,ACK
3.525038000000000,0,0x5D,0x00,Read,ACK
3.525059500000000,0,0x5D,0x00,Read,ACK
3.525083656250000,0,0x5D,0x00,Read,ACK
3.525108218750000,0,0x5D,0x00,Read,ACK
3.525129718750000,0,0x5D,0x00,Read,ACK
3.525154468750000,0,0x5D,0x00,Read,ACK
3.525177500000000,0,0x5D,0x00,Read,ACK
3.525198968750000,0,0x5D,0x00,Read,ACK
3.525220875000000,0,0x5D,0x00,Read,ACK
3.525242343750000,0,0x5D,0xEE,Read,ACK
3.525263843750000,0,0x5D,0x28,Read,ACK
3.525285281250000,0,0x5D,0x03,Read,ACK
3.525306750000000,0,0x5D,0x00,Read,ACK
3.525328781250000,0,0x5D,0x00,Read,ACK
3.525352156250000,0,0x5D,0x00,Read,ACK
3.525374750000000,0,0x5D,0x00,Read,ACK
3.525396281250000,0,0x5D,0x00,Read,ACK
3.525419875000000,0,0x5D,0x00,Read,ACK
3.525441312500000,0,0x5D,0x00,Read,ACK
3.525462906250000,0,0x5D,0x00,Read,ACK
3.525484375000000,0,0x5D,0x00,Read,ACK
3.525506187500000,0,0x5D,0x00,Read,ACK
3.525527625000000,0,0x5D,0x00,Read,ACK
3.525550000000000,0,0x5D,0x00,Read,ACK
3.525572156250000,0,0x5D,0x00,Read,ACK
3.525593656250000,0,0x5D,0x00,Read,ACK
3.525615156250000,0,0x5D,0x00,Read,ACK
3.525636625000000,0,0x5D,0x00,Read,ACK
3.525658062500000,0,0x5D,0x00,Read,ACK
3.525680750000000,0,0x5D,0x00,Read,NAK
3.531170531250000,0,0x5D,0x2F,Read,ACK
3.531198281250000,0,0x5D,0x00,Read,ACK
3.531219750000000,0,0x5D,0x04,Read,ACK
3.531241218750000,0,0x5D,0x03,Read,ACK
3.531262687500000,0,0x5D,0x54,Read,ACK
3.531284156250000,0,0x5D,0x09,Read,ACK
3.531305625000000,0,0x5D,0xCE,Read,ACK
3.531327656250000,0,0x5D,0x05,Read,ACK
3.531357562500000,0,0x5D,0x03,Read,ACK
3.531379031250000,0,0x5D,0x02,Read,ACK
3.531400500000000,0,0x5D,0x20,Read,ACK
3.531421968750000,0,0x5D,0x13,Read,ACK
3.531443437500000,0,0x5D,0x18,Read,ACK
3.531464906250000,0,0x5D,0x04,Read,ACK
3.531486343750000,0,0x5D,0x88,Read,ACK
3.531507812500000,0,0x5D,0x05,Read,ACK
3.531529312500000,0,0x5D,0x04,Read,ACK
3.531551687500000,0,0x5D,0x03,Read,ACK
3.531573187500000,0,0x5D,0x20,Read,ACK
3.531594656250000,0,0x5D,0x23,Read,ACK
3.531616125000000,0,0x5D,0xB4,Read,ACK
3.531637593750000,0,0x5D,0x06,Read,ACK
3.531659093750000,0,0x5D,0xDA,Read,ACK
3.531681062500000,0,0x5D,0x04,Read,ACK
3.531702562500000,0,0x5D,0x03,Read,ACK
3.531724031250000,0,0x5D,0x02,Read,ACK
3.531745500000000,0,0x5D,0x20,Read,ACK
3.531767406250000,0,0x5D,0x00,Read,ACK
3.531788906250000,0,0x5D,0x00,Read,ACK
3.531810375000000,0,0x5D,0x00,Read,ACK
3.531832000000000,0,0x5D,0x00,Read,ACK
3.531853500000000,0,0x5D,0x00,Read,ACK
3.531874968750000,0,0x5D,0x00,Read,ACK
3.531896406250000,0,0x5D,0x00,Read,ACK
3.531918093750000,0,0x5D,0x00,Read,ACK
3.531939625000000,0,0x5D,0x00,Read,ACK
3.531961062500000,0,0x5D,0x00,Read,ACK
3.531982531250000,0,0x5D,0x00,Read,ACK
3.532004000000000,0,0x5D,0x00,Read,ACK
3.532025468750000,0,0x5D,0x00,Read,ACK
3.532046937500000,0,0x5D,0x00,Read,ACK
3.532068406250000,0,0x5D,0x00,Read,ACK
3.532089875000000,0,0x5D,0x00,Read,ACK
3.532111343750000,0,0x5D,0x34,Read,ACK
3.532132812500000,0,0x5D,0x29,Read,ACK
3.532154281250000,0,0x5D,0x03,Read,ACK
3.532175750000000,0,0x5D,0x00,Read,ACK
3.532197218750000,0,0x5D,0x00,Read,ACK
3.532218687500000,0,0x5D,0x00,Read,ACK
3.532240156250000,0,0x5D,0x00,Read,ACK
3.532261625000000,0,0x5D,0x00,Read,ACK
3.532283312500000,0,0x5D,0x00,Read,ACK
3.532304937500000,0,0x5D,0x00,Read,ACK
3.532328250000000,0,0x5D,0x00,Read,ACK
3.532349750000000,0,0x5D,0x00,Read,ACK
3.532371187500000,0,0x5D,0x00,Read,ACK
3.532393031250000,0,0x5D,0x00,Read,ACK
3.532414531250000,0,0x5D,0x00,Read,ACK
3.532436000000000,0,0x5D,0x00,Read,ACK
3.532457625000000,0,0x5D,0x00,Read,ACK
3.532480125000000,0,0x5D,0x00,Read,ACK
3.532501718750000,0,0x5D,0x00,Read,ACK
3.532524750000000,0,0x5D,0x00,Read,ACK
3.532546187500000,0,0x5D,0x00,Read,NAK
3.538279031250000,0,0x5D,0x2F,Read,ACK
3.538306343750000,0,0x5D,0x00,Read,ACK
3.538327812500000,0,0x5D,0x04,Read,ACK
3.538350031250000,0,0x5D,0x03,Read,ACK
3.538371500000000,0,0x5D,0x49,Read,ACK
3.538393000000000,0,0x5D,0x09,Read,ACK
3.538414437500000,0,0x5D,0xBE,Read,ACK
3.538435906250000,0,0x5D,0x05,Read,ACK
3.538457375000000,0,0x5D,0x03,Read,ACK
3.538478843750000,0,0x5D,0x02,Read,ACK
3.538500562500000,0,0x5D,0x20,Read,ACK
3.538523156250000,0,0x5D,0x13,Read,ACK
3.538550968750000,0,0x5D,0x0C,Read,ACK
3.538572468750000,0,0x5D,0x04,Read,ACK
3.538593937500000,0,0x5D,0x77,Read,ACK
3.538615406250000,0,0x5D,0x05,Read,ACK
3.538636875000000,0,0x5D,0x03,Read,ACK
3.538658343750000,0,0x5D,0x03,Read,ACK
3.538679812500000,0,0x5D,0x20,Read,ACK
3.538702156250000,0,0x5D,0x23,Read,ACK
3.538723625000000,0,0x5D,0xA7,Read,ACK
3.538745125000000,0,0x5D,0x06,Read,ACK
3.538766562500000,0,0x5D,0xC8,Read,ACK
3.538788031250000,0,0x5D,0x04,Read,ACK
3.538809500000000,0,0x5D,0x03,Read,ACK
3.538830968750000,0,0x5D,0x02,Read,ACK
3.538853593750000,0,0x5D,0x20,Read,ACK
3.538875031250000,0,0x5D,0x00,Read,ACK
3.538896531250000,0,0x5D,0x00,Read,ACK
3.538917968750000,0,0x5D,0x00,Read,ACK
3.538939656250000,0,0x5D,0x00,Read,ACK
3.538961531250000,0,0x5D,0x00,Read,ACK
3.538983031250000,0,0x5D,0x00,Read,ACK
3.539004531250000,0,0x5D,0x00,Read,ACK
3.539026000000000,0,0x5D,0x00,Read,ACK
3.539047468750000,0,0x5D,0x00,Read,ACK
3.539068937500000,0,0x5D,0x00,Read,ACK
3.539090437500000,0,0x5D,0x00,Read,ACK
3.539111875000000,0,0x5D,0x00,Read,ACK
3.539133343750000,0,0x5D,0x00,Read,ACK
3.539154843750000,0,0x5D,0x00,Read,ACK
3.539176281250000,0,0x5D,0x00,Read,ACK
3.539197781250000,0,0x5D,0x00,Read,ACK
3.539219687500000,0,0x5D,0x7A,Read,ACK
3.539241125000000,0,0x5D,0x29,Read,ACK
3.539262593750000,0,0x5D,0x03,Read,ACK
3.539284062500000,0,0x5D,0x00,Read,ACK
3.539305562500000,0,0x5D,0x00,Read,ACK
3.539327000000000,0,0x5D,0x00,Read,ACK
3.539348468750000,0,0x5D,0x00,Read,ACK
3.539369937500000,0,0x5D,0x00,Read,ACK
3.539391468750000,0,0x5D,0x00,Read,ACK
3.539412968750000,0,0x5D,0x00,Read,ACK
3.539434437500000,0,0x5D,0x00,Read,ACK
3.539455906250000,0,0x5D,0x00,Read,ACK
3.539477343750000,0,0x5D,0x00,Read,ACK
3.539500125000000,0,0x5D,0x00,Read,ACK
3.539524718750000,0,0x5D,0x00,Read,ACK
3.539547343750000,0,0x5D,0x00,Read,ACK
3.539569218750000,0,0x5D,0x00,Read,ACK
3.539591031250000,0,0x5D,0x00,Read,ACK
3.539612500000000,0,0x5D,0x00,Read,ACK
3.539634000000000,0,0x5D,0x00,Read,ACK
3.539656687500000,0,0x5D,0x00,Read,NAK
3.545442906250000,0,0x5D,0x2F,Read,ACK
3.545471937500000,0,0x5D,0x00,Read,ACK
3.545495000000000,0,0x5D,0x04,Read,ACK
3.545516500000000,0,0x5D,0x03,Read,ACK
3.545537968750000,0,0x5D,0x3F,Read,ACK
3.545559468750000,0,0x5D,0x09,Read,ACK
3.545580906250000,0,0x5D,0xAC,Read,ACK
3.545602375000000,0,0x5D,0x05,Read,ACK
3.545623843750000,0,0x5D,0x03,Read,ACK
3.545645312500000,0,0x5D,0x02,Read,ACK
3.545666968750000,0,0x5D,0x20,Read,ACK
3.545689406250000,0,0x5D,0x13,Read,ACK
3.545716687500000,0,0x5D,0x02,Read,ACK
3.545738187500000,0,0x5D,0x04,Read,ACK
3.545759656250000,0,0x5D,0x65,Read,ACK
3.545781125000000,0,0x5D,0x05,Read,ACK
3.545802593750000,0,0x5D,0x03,Read,ACK
3.545824062500000,0,0x5D,0x03,Read,ACK
3.545845531250000,0,0x5D,0x20,Read,ACK
3.545866968750000,0,0x5D,0x23,Read,ACK
3.545889250000000,0,0x5D,0x9B,Read,ACK
3.545911750000000,0,0x5D,0x06,Read,ACK
3.545933562500000,0,0x5D,0xB5,Read,ACK
3.545955125000000,0,0x5D,0x04,Read,ACK
3.545976562500000,0,0x5D,0x03,Read,ACK
3.545998031250000,0,0x5D,0x03,Read,ACK
3.546019750000000,0,0x5D,0x20,Read,ACK
3.546041218750000,0,0x5D,0x00,Read,ACK
3.546062687500000,0,0x5D,0x00,Read,ACK
3.546084156250000,0,0x5D,0x00,Read,ACK
3.546105625000000,0,0x5D,0x00,Read,ACK
3.546127125000000,0,0x5D,0x00,Read,ACK
3.546148562500000,0,0x5D,0x00,Read,ACK
3.546170031250000,0,0x5D,0x00,Read,ACK
3.546191531250000,0,0x5D,0x00,Read,ACK
3.546213000000000,0,0x5D,0x00,Read,ACK
3.546234437500000,0,0x5D,0x00,Read,ACK
3.546255906250000,0,0x5D,0x00,Read,ACK
3.546277375000000,0,0x5D,0x00,Read,ACK
3.546298843750000,0,0x5D,0x00,Read,ACK
3.546320312500000,0,0x5D,0x00,Read,ACK
3.546341781250000,0,0x5D,0x00,Read,ACK
3.546363281250000,0,0x5D,0x00,Read,ACK
3.546385218750000,0,0x5D,0xC0,Read,ACK
3.546406718750000,0,0x5D,0x29,Read,ACK
3.546429312500000,0,0x5D,0x03,Read,ACK
3.546450781250000,0,0x5D,0x00,Read,ACK
3.546472218750000,0,0x5D,0x00,Read,ACK
3.546493718750000,0,0x5D,0x00,Read,ACK
3.546515156250000,0,0x5D,0x00,Read,ACK
3.546536625000000,0,0x5D,0x00,Read,ACK
3.546558093750000,0,0x5D,0x00,Read,ACK
3.546579593750000,0,0x5D,0x00,Read,ACK
3.546601062500000,0,0x5D,0x00,Read,ACK
3.546622843750000,0,0x5D,0x00,Read,ACK
3.546644281250000,0,0x5D,0x00,Read,ACK
3.546669031250000,0,0x5D,0x00,Read,ACK
3.546690531250000,0,0x5D,0x00,Read,ACK
3.546712000000000,0,0x5D,0x00,Read,ACK
3.546735343750000,0,0x5D,0x00,Read,ACK
3.546757250000000,0,0x5D,0x00,Read,ACK
3.546778718750000,0,0x5D,0x00,Read,ACK
3.546800218750000,0,0x5D,0x00,Read,ACK
3.546821718750000,0,0x5D,0x00,Read,NAK
3.552642562500000,0,0x5D,0x2F,Read,ACK
3.552672125000000,0,0x5D,0x00,Read,ACK
3.552693625000000,0,0x5D,0x04,Read,ACK
3.552715093750000,0,0x5D,0x03,Read,ACK
3.552736562500000,0,0x5D,0x36,Read,ACK
3.552758031250000,0,0x5D,0x09,Read,ACK
3.552779500000000,0,0x5D,0x99,Read,ACK
3.552802375000000,0,0x5D,0x05,Read,ACK
3.552826187500000,0,0x5D,0x03,Read,ACK
3.552852562500000,0,0x5D,0x03,Read,ACK
3.552874062500000,0,0x5D,0x20,Read,ACK
3.552895500000000,0,0x5D,0x13,Read,ACK
3.552917000000000,0,0x5D,0xFA,Read,ACK
3.552938437500000,0,0x5D,0x03,Read,ACK
3.552959906250000,0,0x5D,0x50,Read,ACK
3.552982437500000,0,0x5D,0x05,Read,ACK
3.553004968750000,0,0x5D,0x03,Read,ACK
3.553026437500000,0,0x5D,0x03,Read,ACK
3.553047906250000,0,0x5D,0x20,Read,ACK
3.553069437500000,0,0x5D,0x23,Read,ACK
3.553090906250000,0,0x5D,0x90,Read,ACK
3.553112406250000,0,0x5D,0x06,Read,ACK
3.553133875000000,0,0x5D,0xA2,Read,ACK
3.553155500000000,0,0x5D,0x04,Read,ACK
3.553176937500000,0,0x5D,0x03,Read,ACK
3.553198375000000,0,0x5D,0x03,Read,ACK
3.553221562500000,0,0x5D,0x20,Read,ACK
3.553243062500000,0,0x5D,0x00,Read,ACK
3.553264718750000,0,0x5D,0x00,Read,ACK
3.553286218750000,0,0x5D,0x00,Read,ACK
3.553307937500000,0,0x5D,0x00,Read,ACK
3.553329656250000,0,0x5D,0x00,Read,ACK
3.553351125000000,0,0x5D,0x00,Read,ACK
3.553372562500000,0,0x5D,0x00,Read,ACK
3.553394062500000,0,0x5D,0x00,Read,ACK
3.553415531250000,0,0x5D,0x00,Read,ACK
3.553437000000000,0,0x5D,0x00,Read,ACK
3.553458437500000,0,0x5D,0x00,Read,ACK
3.553479906250000,0,0x5D,0x00,Read,ACK
3.553501406250000,0,0x5D,0x00,Read,ACK
3.553522843750000,0,0x5D,0x00,Read,ACK
3.553544343750000,0,0x5D,0x00,Read,ACK
3.553566343750000,0,0x5D,0x00,Read,ACK
3.553587843750000,0,0x5D,0x06,Read,ACK
3.553609593750000,0,0x5D,0x2A,Read,ACK
3.553631093750000,0,0x5D,0x03,Read,ACK
3.553652562500000,0,0x5D,0x00,Read,ACK
3.553674031250000,0,0x5D,0x00,Read,ACK
3.553695500000000,0,0x5D,0x00,Read,ACK
3.553717000000000,0,0x5D,0x00,Read,ACK
3.553738437500000,0,0x5D,0x00,Read,ACK
3.553759906250000,0,0x5D,0x00,Read,ACK
3.553781375000000,0,0x5D,0x00,Read,ACK
3.553802843750000,0,0x5D,0x00,Read,ACK
3.553826718750000,0,0x5D,0x00,Read,ACK
3.553850656250000,0,0x5D,0x00,Read,ACK
3.553872343750000,0,0x5D,0x00,Read,ACK
3.553893937500000,0,0x5D,0x00,Read,ACK
3.553916812500000,0,0x5D,0x00,Read,ACK
3.553938281250000,0,0x5D,0x00,Read,ACK
3.553959750000000,0,0x5D,0x00,Read,ACK
3.553981187500000,0,0x5D,0x00,Read,ACK
3.554002687500000,0,0x5D,0x00,Read,ACK
3.554024156250000,0,0x5D,0x00,Read,NAK
3.559942812500000,0,0x5D,0x2F,Read,ACK
3.559972906250000,0,0x5D,0x00,Read,ACK
3.559994406250000,0,0x5D,0x04,Read,ACK
3.560015875000000,0,0x5D,0x03,Read,ACK
3.560037343750000,0,0x5D,0x2E,Read,ACK
3.560058812500000,0,0x5D,0x09,Read,ACK
3.560080281250000,0,0x5D,0x83,Read,ACK
3.560101750000000,0,0x5D,0x05,Read,ACK
3.560123406250000,0,0x5D,0x02,Read,ACK
3.560146093750000,0,0x5D,0x03,Read,ACK
3.560167625000000,0,0x5D,0x20,Read,ACK
3.560189093750000,0,0x5D,0x13,Read,ACK
3.560210562500000,0,0x5D,0xF2,Read,ACK
3.560232406250000,0,0x5D,0x03,Read,ACK
3.560253843750000,0,0x5D,0x3B,Read,ACK
3.560275312500000,0,0x5D,0x05,Read,ACK
3.560296781250000,0,0x5D,0x03,Read,ACK
3.560318250000000,0,0x5D,0x03,Read,ACK
3.560339750000000,0,0x5D,0x20,Read,ACK
3.560361218750000,0,0x5D,0x23,Read,ACK
3.560382656250000,0,0x5D,0x87,Read,ACK
3.560404187500000,0,0x5D,0x06,Read,ACK
3.560425656250000,0,0x5D,0x8D,Read,ACK
3.560447125000000,0,0x5D,0x04,Read,ACK
3.560468593750000,0,0x5D,0x03,Read,ACK
3.560490062500000,0,0x5D,0x03,Read,ACK
3.560511531250000,0,0x5D,0x20,Read,ACK
3.560533000000000,0,0x5D,0x00,Read,ACK
3.560554468750000,0,0x5D,0x00,Read,ACK
3.560575968750000,0,0x5D,0x00,Read,ACK
3.560597406250000,0,0x5D,0x00,Read,ACK
3.560618906250000,0,0x5D,0x00,Read,ACK
3.560640375000000,0,0x5D,0x00,Read,ACK
3.560661812500000,0,0x5D,0x00,Read,ACK
3.560683312500000,0,0x5D,0x00,Read,ACK
3.560704781250000,0,0x5D,0x00,Read,ACK
3.560726250000000,0,0x5D,0x00,Read,ACK
3.560747750000000,0,0x5D,0x00,Read,ACK
3.560769250000000,0,0x5D,0x00,Read,ACK
3.560790718750000,0,0x5D,0x00,Read,ACK
3.560812187500000,0,0x5D,0x00,Read,ACK
3.560833656250000,0,0x5D,0x00,Read,ACK
3.560855187500000,0,0x5D,0x00,Read,ACK
3.560876656250000,0,0x5D,0x4C,Read,ACK
3.560899125000000,0,0x5D,0x2A,Read,ACK
3.560920593750000,0,0x5D,0x03,Read,ACK
3.560942062500000,0,0x5D,0x00,Read,ACK
3.560965093750000,0,0x5D,0x00,Read,ACK
3.560988468750000,0,0x5D,0x00,Read,ACK
3.561010218750000,0,0x5D,0x00,Read,ACK
3.561032812500000,0,0x5D,0x00,Read,ACK
3.561054312500000,0,0x5D,0x00,Read,ACK
3.561076187500000,0,0x5D,0x00,Read,ACK
3.561098781250000,0,0x5D,0x00,Read,ACK
3.561120281250000,0,0x5D,0x00,Read,ACK
3.561143281250000,0,0x5D,0x00,Read,ACK
3.561164781250000,0,0x5D,0x00,Read,ACK
3.561186218750000,0,0x5D,0x00,Read,ACK
3.561208656250000,0,0x5D,0x00,Read,ACK
3.561230093750000,0,0x5D,0x00,Read,ACK
3.561251562500000,0,0x5D,0x00,Read,ACK
3.561273343750000,0,0x5D,0x00,Read,ACK
3.561294812500000,0,0x5D,0x00,Read,ACK
3.561317531250000,0,0x5D,0x00,Read,NAK
3.567174906250000,0,0x5D,0x2F,Read,ACK
3.567199468750000,0,0x5D,0x00,Read,ACK
3.567220906250000,0,0x5D,0x04,Read,ACK
3.567242375000000,0,0x5D,0x03,Read,ACK
3.567264156250000,0,0x5D,0x29,Read,ACK
3.567287281250000,0,0x5D,0x09,Read,ACK
3.567308750000000,0,0x5D,0x6C,Read,ACK
3.567330218750000,0,0x5D,0x05,Read,ACK
3.567351687500000,0,0x5D,0x02,Read,ACK
3.567373250000000,0,0x5D,0x03,Read,ACK
3.567395500000000,0,0x5D,0x20,Read,ACK
3.567416968750000,0,0x5D,0x13,Read,ACK
3.567438437500000,0,0x5D,0xEC,Read,ACK
3.567460406250000,0,0x5D,0x03,Read,ACK
3.567481875000000,0,0x5D,0x23,Read,ACK
3.567503500000000,0,0x5D,0x05,Read,ACK
3.567527000000000,0,0x5D,0x03,Read,ACK
3.567548468750000,0,0x5D,0x03,Read,ACK
3.567569937500000,0,0x5D,0x20,Read,ACK
3.567591437500000,0,0x5D,0x23,Read,ACK
3.567612906250000,0,0x5D,0x7F,Read,ACK
3.567634531250000,0,0x5D,0x06,Read,ACK
3.567656000000000,0,0x5D,0x75,Read,ACK
3.567677500000000,0,0x5D,0x04,Read,ACK
3.567698968750000,0,0x5D,0x03,Read,ACK
3.567720437500000,0,0x5D,0x02,Read,ACK
3.567741906250000,0,0x5D,0x20,Read,ACK
3.567763375000000,0,0x5D,0x00,Read,ACK
3.567784843750000,0,0x5D,0x00,Read,ACK
3.567806312500000,0,0x5D,0x00,Read,ACK
3.567827781250000,0,0x5D,0x00,Read,ACK
3.567849250000000,0,0x5D,0x00,Read,ACK
3.567870718750000,0,0x5D,0x00,Read,ACK
3.567892187500000,0,0x5D,0x00,Read,ACK
3.567913687500000,0,0x5D,0x00,Read,ACK
3.567935125000000,0,0x5D,0x00,Read,ACK
3.567956593750000,0,0x5D,0x00,Read,ACK
3.567979500000000,0,0x5D,0x00,Read,ACK
3.568000968750000,0,0x5D,0x00,Read,ACK
3.568023906250000,0,0x5D,0x00,Read,ACK
3.568046906250000,0,0x5D,0x00,Read,ACK
3.568069375000000,0,0x5D,0x00,Read,ACK
3.568090875000000,0,0x5D,0x00,Read,ACK
3.568112312500000,0,0x5D,0x92,Read,ACK
3.568133781250000,0,0x5D,0x2A,Read,ACK
3.568157062500000,0,0x5D,0x03,Read,ACK
3.568178562500000,0,0x5D,0x00,Read,ACK
3.568200000000000,0,0x5D,0x00,Read,ACK
3.568223500000000,0,0x5D,0x00,Read,ACK
3.568246031250000,0,0x5D,0x00,Read,ACK
3.568267531250000,0,0x5D,0x00,Read,ACK
3.568289031250000,0,0x5D,0x00,Read,ACK
3.568310468750000,0,0x5D,0x00,Read,ACK
3.568331968750000,0,0x5D,0x00,Read,ACK
3.568353406250000,0,0x5D,0x00,Read,ACK
3.568374875000000,0,0x5D,0x00,Read,ACK
3.568396343750000,0,0x5D,0x00,Read,ACK
3.568419437500000,0,0x5D,0x00,Read,ACK
3.568441718750000,0,0x5D,0x00,Read,ACK
3.568464312500000,0,0x5D,0x00,Read,ACK
3.568485812500000,0,0x5D,0x00,Read,ACK
3.568507250000000,0,0x5D,0x00,Read,ACK
3.568528718750000,0,0x5D,0x00,Read,ACK
3.568550187500000,0,0x5D,0x00,Read,NAK
3.574069031250000,0,0x5D,0x2F,Read,ACK
3.574097437500000,0,0x5D,0x00,Read,ACK
3.574118937500000,0,0x5D,0x04,Read,ACK
3.574140437500000,0,0x5D,0x03,Read,ACK
3.574162156250000,0,0x5D,0x24,Read,ACK
3.574183656250000,0,0x5D,0x09,Read,ACK
3.574205125000000,0,0x5D,0x54,Read,ACK
3.574227656250000,0,0x5D,0x05,Read,ACK
3.574249937500000,0,0x5D,0x02,Read,ACK
3.574271406250000,0,0x5D,0x02,Read,ACK
3.574292875000000,0,0x5D,0x20,Read,ACK
3.574314343750000,0,0x5D,0x13,Read,ACK
3.574335812500000,0,0x5D,0xE6,Read,ACK
3.574357281250000,0,0x5D,0x03,Read,ACK
3.574378750000000,0,0x5D,0x0A,Read,ACK
3.574400218750000,0,0x5D,0x05,Read,ACK
3.574421968750000,0,0x5D,0x03,Read,ACK
3.574445156250000,0,0x5D,0x03,Read,ACK
3.574466625000000,0,0x5D,0x20,Read,ACK
3.574488125000000,0,0x5D,0x23,Read,ACK
3.574509562500000,0,0x5D,0x79,Read,ACK
3.574532156250000,0,0x5D,0x06,Read,ACK
3.574553718750000,0,0x5D,0x5C,Read,ACK
3.574575156250000,0,0x5D,0x04,Read,ACK
3.574596625000000,0,0x5D,0x03,Read,ACK
3.574618093750000,0,0x5D,0x02,Read,ACK
3.574639562500000,0,0x5D,0x20,Read,ACK
3.574661062500000,0,0x5D,0x00,Read,ACK
3.574682562500000,0,0x5D,0x00,Read,ACK
3.574704031250000,0,0x5D,0x00,Read,ACK
3.574725531250000,0,0x5D,0x00,Read,ACK
3.574746968750000,0,0x5D,0x00,Read,ACK
3.574768437500000,0,0x5D,0x00,Read,ACK
3.574789906250000,0,0x5D,0x00,Read,ACK
3.574811375000000,0,0x5D,0x00,Read,ACK
3.574832843750000,0,0x5D,0x00,Read,ACK
3.574854343750000,0,0x5D,0x00,Read,ACK
3.574875781250000,0,0x5D,0x00,Read,ACK
3.574897250000000,0,0x5D,0x00,Read,ACK
3.574918718750000,0,0x5D,0x00,Read,ACK
3.574940406250000,0,0x5D,0x00,Read,ACK
3.574961843750000,0,0x5D,0x00,Read,ACK
3.574983312500000,0,0x5D,0x00,Read,ACK
3.575004781250000,0,0x5D,0xD8,Read,ACK
3.575026250000000,0,0x5D,0x2A,Read,ACK
3.575047718750000,0,0x5D,0x03,Read,ACK
3.575069187500000,0,0x5D,0x00,Read,ACK
3.575090656250000,0,0x5D,0x00,Read,ACK
3.575112125000000,0,0x5D,0x00,Read,ACK
3.575133593750000,0,0x5D,0x00,Read,ACK
3.575155062500000,0,0x5D,0x00,Read,ACK
3.575176531250000,0,0x5D,0x00,Read,ACK
3.575201218750000,0,0x5D,0x00,Read,ACK
3.575223093750000,0,0x5D,0x00,Read,ACK
3.575244562500000,0,0x5D,0x00,Read,ACK
3.575266500000000,0,0x5D,0x00,Read,ACK
3.575288718750000,0,0x5D,0x00,Read,ACK
3.575310156250000,0,0x5D,0x00,Read,ACK
3.575331625000000,0,0x5D,0x00,Read,ACK
3.575353093750000,0,0x5D,0x00,Read,ACK
3.575377656250000,0,0x5D,0x00,Read,ACK
3.575399156250000,0,0x5D,0x00,Read,ACK
3.575421718750000,0,0x5D,0x00,Read,ACK
3.575444500000000,0,0x5D,0x00,Read,NAK
3.581185250000000,0,0x5D,0x2F,Read,ACK
3.581210031250000,0,0x5D,0x00,Read,ACK
3.581231531250000,0,0x5D,0x04,Read,ACK
3.581253000000000,0,0x5D,0x03,Read,ACK
3.581274468750000,0,0x5D,0x22,Read,ACK
3.581295937500000,0,0x5D,0x09,Read,ACK
3.581317406250000,0,0x5D,0x3D,Read,ACK
3.581338875000000,0,0x5D,0x05,Read,ACK
3.581360343750000,0,0x5D,0x02,Read,ACK
3.581383031250000,0,0x5D,0x02,Read,ACK
3.581408531250000,0,0x5D,0x20,Read,ACK
3.581430687500000,0,0x5D,0x13,Read,ACK
3.581452125000000,0,0x5D,0xE1,Read,ACK
3.581473625000000,0,0x5D,0x03,Read,ACK
3.581495062500000,0,0x5D,0xF0,Read,ACK
3.581516531250000,0,0x5D,0x04,Read,ACK
3.581538000000000,0,0x5D,0x03,Read,ACK
3.581559468750000,0,0x5D,0x03,Read,ACK
3.581581843750000,0,0x5D,0x20,Read,ACK
3.581604531250000,0,0x5D,0x23,Read,ACK
3.581626031250000,0,0x5D,0x74,Read,ACK
3.581647468750000,0,0x5D,0x06,Read,ACK
3.581668968750000,0,0x5D,0x43,Read,ACK
3.581690750000000,0,0x5D,0x04,Read,ACK
3.581713437500000,0,0x5D,0x03,Read,ACK
3.581734906250000,0,0x5D,0x03,Read,ACK
3.581756562500000,0,0x5D,0x20,Read,ACK
3.581778093750000,0,0x5D,0x00,Read,ACK
3.581799562500000,0,0x5D,0x00,Read,ACK
3.581821531250000,0,0x5D,0x00,Read,ACK
3.581843625000000,0,0x5D,0x00,Read,ACK
3.581865093750000,0,0x5D,0x00,Read,ACK
3.581886562500000,0,0x5D,0x00,Read,ACK
3.581908031250000,0,0x5D,0x00,Read,ACK
3.581929500000000,0,0x5D,0x00,Read,ACK
3.581950968750000,0,0x5D,0x00,Read,ACK
3.581972406250000,0,0x5D,0x00,Read,ACK
3.581993906250000,0,0x5D,0x00,Read,ACK
3.582015375000000,0,0x5D,0x00,Read,ACK
3.582036843750000,0,0x5D,0x00,Read,ACK
3.582058312500000,0,0x5D,0x00,Read,ACK
3.582079781250000,0,0x5D,0x00,Read,ACK
3.582101218750000,0,0x5D,0x00,Read,ACK
3.582122718750000,0,0x5D,0x1E,Read,ACK
3.582144187500000,0,0x5D,0x2B,Read,ACK
3.582165656250000,0,0x5D,0x03,Read,ACK
3.582187125000000,0,0x5D,0x00,Read,ACK
3.582208750000000,0,0x5D,0x00,Read,ACK
3.582230187500000,0,0x5D,0x00,Read,ACK
3.582251656250000,0,0x5D,0x00,Read,ACK
3.582273125000000,0,0x5D,0x00,Read,ACK
3.582294593750000,0,0x5D,0x00,Read,ACK
3.582316062500000,0,0x5D,0x00,Read,ACK
3.582337562500000,0,0x5D,0x00,Read,ACK
3.582359500000000,0,0x5D,0x00,Read,ACK
3.582381500000000,0,0x5D,0x00,Read,ACK
3.582406656250000,0,0x5D,0x00,Read,ACK
3.582428125000000,0,0x5D,0x00,Read,ACK
3.582450906250000,0,0x5D,0x00,Read,ACK
3.582472375000000,0,0x5D,0x00,Read,ACK
3.582493875000000,0,0x5D,0x00,Read,ACK
3.582515437500000,0,0x5D,0x00,Read,ACK
3.582537718750000,0,0x5D,0x00,Read,ACK
3.582560031250000,0,0x5D,0x00,Read,NAK
3.588307656250000,0,0x5D,0x2F,Read,ACK
3.588335781250000,0,0x5D,0x00,Read,ACK
3.588359062500000,0,0x5D,0x04,Read,ACK
3.588382531250000,0,0x5D,0x03,Read,ACK
3.588404031250000,0,0x5D,0x22,Read,ACK
3.588425531250000,0,0x5D,0x09,Read,ACK
3.588447093750000,0,0x5D,0x26,Read,ACK
3.588468562500000,0,0x5D,0x05,Read,ACK
3.588490031250000,0,0x5D,0x03,Read,ACK
3.588511906250000,0,0x5D,0x03,Read,ACK
3.588534312500000,0,0x5D,0x20,Read,ACK
3.588555812500000,0,0x5D,0x13,Read,ACK
3.588577406250000,0,0x5D,0xDD,Read,ACK
3.588598906250000,0,0x5D,0x03,Read,ACK
3.588620343750000,0,0x5D,0xD6,Read,ACK
3.588641812500000,0,0x5D,0x04,Read,ACK
3.588663312500000,0,0x5D,0x03,Read,ACK
3.588684750000000,0,0x5D,0x02,Read,ACK
3.588706250000000,0,0x5D,0x20,Read,ACK
3.588727687500000,0,0x5D,0x23,Read,ACK
3.588749750000000,0,0x5D,0x72,Read,ACK
3.588773531250000,0,0x5D,0x06,Read,ACK
3.588794968750000,0,0x5D,0x29,Read,ACK
3.588816437500000,0,0x5D,0x04,Read,ACK
3.588837906250000,0,0x5D,0x03,Read,ACK
3.588859437500000,0,0x5D,0x03,Read,ACK
3.588880937500000,0,0x5D,0x20,Read,ACK
3.588902406250000,0,0x5D,0x00,Read,ACK
3.588923906250000,0,0x5D,0x00,Read,ACK
3.588945406250000,0,0x5D,0x00,Read,ACK
3.588966875000000,0,0x5D,0x00,Read,ACK
3.588988343750000,0,0x5D,0x00,Read,ACK
3.589010562500000,0,0x5D,0x00,Read,ACK
3.589032031250000,0,0x5D,0x00,Read,ACK
3.589053500000000,0,0x5D,0x00,Read,ACK
3.589074968750000,0,0x5D,0x00,Read,ACK
3.589096437500000,0,0x5D,0x00,Read,ACK
3.589117906250000,0,0x5D,0x00,Read,ACK
3.589140625000000,0,0x5D,0x00,Read,ACK
3.589162125000000,0,0x5D,0x00,Read,ACK
3.589183562500000,0,0x5D,0x00,Read,ACK
3.589205062500000,0,0x5D,0x00,Read,ACK
3.589226500000000,0,0x5D,0x00,Read,ACK
3.589247968750000,0,0x5D,0x64,Read,ACK
3.589270156250000,0,0x5D,0x2B,Read,ACK
3.589291593750000,0,0x5D,0x03,Read,ACK
3.589313187500000,0,0x5D,0x00,Read,ACK
3.589334687500000,0,0x5D,0x00,Read,ACK
3.589356156250000,0,0x5D,0x00,Read,ACK
3.589377656250000,0,0x5D,0x00,Read,ACK
3.589399125000000,0,0x5D,0x00,Read,ACK
3.589420593750000,0,0x5D,0x00,Read,ACK
3.589442062500000,0,0x5D,0x00,Read,ACK
3.589463531250000,0,0x5D,0x00,Read,ACK
3.589485000000000,0,0x5D,0x00,Read,ACK
3.589506468750000,0,0x5D,0x00,Read,ACK
3.589527937500000,0,0x5D,0x00,Read,ACK
3.589550031250000,0,0x5D,0x00,Read,ACK
3.589574250000000,0,0x5D,0x00,Read,ACK
3.589595718750000,0,0x5D,0x00,Read,ACK
3.589619593750000,0,0x5D,0x00,Read,ACK
3.589641093750000,0,0x5D,0x00,Read,ACK
3.589662593750000,0,0x5D,0x00,Read,ACK
3.589685843750000,0,0x5D,0x00,Read,NAK
3.595571593750000,0,0x5D,0x2F,Read,ACK
3.595600093750000,0,0x5D,0x00,Read,ACK
3.595621562500000,0,0x5D,0x04,Read,ACK
3.595643062500000,0,0x5D,0x03,Read,ACK
3.595665000000000,0,0x5D,0x23,Read,ACK
3.595688000000000,0,0x5D,0x09,Read,ACK
3.595709468750000,0,0x5D,0x0E,Read,ACK
3.595730906250000,0,0x5D,0x05,Read,ACK
3.595752406250000,0,0x5D,0x02,Read,ACK
3.595773875000000,0,0x5D,0x03,Read,ACK
3.595795343750000,0,0x5D,0x20,Read,ACK
3.595816812500000,0,0x5D,0x13,Read,ACK
3.595838468750000,0,0x5D,0xDB,Read,ACK
3.595859937500000,0,0x5D,0x03,Read,ACK
3.595881437500000,0,0x5D,0xBC,Read,ACK
3.595902875000000,0,0x5D,0x04,Read,ACK
3.595924343750000,0,0x5D,0x03,Read,ACK
3.595946562500000,0,0x5D,0x03,Read,ACK
3.595970218750000,0,0x5D,0x20,Read,ACK
3.595991687500000,0,0x5D,0x23,Read,ACK
3.596013156250000,0,0x5D,0x72,Read,ACK
3.596034625000000,0,0x5D,0x06,Read,ACK
3.596056093750000,0,0x5D,0x10,Read,ACK
3.596077562500000,0,0x5D,0x04,Read,ACK
3.596099187500000,0,0x5D,0x03,Read,ACK
3.596120625000000,0,0x5D,0x03,Read,ACK
3.596142093750000,0,0x5D,0x20,Read,ACK
3.596163562500000,0,0x5D,0x00,Read,ACK
3.596185031250000,0,0x5D,0x00,Read,ACK
3.596206750000000,0,0x5D,0x00,Read,ACK
3.596228250000000,0,0x5D,0x00,Read,ACK
3.596249687500000,0,0x5D,0x00,Read,ACK
3.596271156250000,0,0x5D,0x00,Read,ACK
3.596292656250000,0,0x5D,0x00,Read,ACK
3.596314093750000,0,0x5D,0x00,Read,ACK
3.596335562500000,0,0x5D,0x00,Read,ACK
3.596357031250000,0,0x5D,0x00,Read,ACK
3.596378531250000,0,0x5D,0x00,Read,ACK
3.596399968750000,0,0x5D,0x00,Read,ACK
3.596421437500000,0,0x5D,0x00,Read,ACK
3.596442937500000,0,0x5D,0x00,Read,ACK
3.596464406250000,0,0x5D,0x00,Read,ACK
3.596485906250000,0,0x5D,0x00,Read,ACK
3.596507406250000,0,0x5D,0xAA,Read,ACK
3.596528875000000,0,0x5D,0x2B,Read,ACK
3.596550343750000,0,0x5D,0x03,Read,ACK
3.596571812500000,0,0x5D,0x00,Read,ACK
3.596593281250000,0,0x5D,0x00,Read,ACK
3.596614750000000,0,0x5D,0x00,Read,ACK
3.596637437500000,0,0x5D,0x00,Read,ACK
3.596659250000000,0,0x5D,0x00,Read,ACK
3.596681781250000,0,0x5D,0x00,Read,ACK
3.596704375000000,0,0x5D,0x00,Read,ACK
3.596725968750000,0,0x5D,0x00,Read,ACK
3.596747437500000,0,0x5D,0x00,Read,ACK
3.596769000000000,0,0x5D,0x00,Read,ACK
3.596790437500000,0,0x5D,0x00,Read,ACK
3.596811906250000,0,0x5D,0x00,Read,ACK
3.596833875000000,0,0x5D,0x00,Read,ACK
3.596855468750000,0,0x5D,0x00,Read,ACK
3.596876937500000,0,0x5D,0x00,Read,ACK
3.596898437500000,0,0x5D,0x00,Read,ACK
3.596920187500000,0,0x5D,0x00,Read,ACK
3.596943187500000,0,0x5D,0x00,Read,NAK
3.602667500000000,0,0x5D,0x2F,Read,ACK
3.602691468750000,0,0x5D,0x00,Read,ACK
3.602714343750000,0,0x5D,0x04,Read,ACK
3.602735781250000,0,0x5D,0x03,Read,ACK
3.602757281250000,0,0x5D,0x26,Read,ACK
3.602778812500000,0,0x5D,0x09,Read,ACK
3.602800625000000,0,0x5D,0xF6,Read,ACK
3.602822125000000,0,0x5D,0x04,Read,ACK
3.602843593750000,0,0x5D,0x02,Read,ACK
3.602865062500000,0,0x5D,0x03,Read,ACK
3.602886531250000,0,0x5D,0x20,Read,ACK
3.602908000000000,0,0x5D,0x13,Read,ACK
3.602929437500000,0,0x5D,0xDA,Read,ACK
3.602952156250000,0,0x5D,0x03,Read,ACK
3.602973656250000,0,0x5D,0xA3,Read,ACK
3.602995531250000,0,0x5D,0x04,Read,ACK
3.603017062500000,0,0x5D,0x03,Read,ACK
3.603038531250000,0,0x5D,0x03,Read,ACK
3.603060031250000,0,0x5D,0x20,Read,ACK
3.603082156250000,0,0x5D,0x23,Read,ACK
3.603103937500000,0,0x5D,0x73,Read,ACK
3.603125593750000,0,0x5D,0x06,Read,ACK
3.603148062500000,0,0x5D,0xF6,Read,ACK
3.603169531250000,0,0x5D,0x03,Read,ACK
3.603191000000000,0,0x5D,0x03,Read,ACK
3.603212500000000,0,0x5D,0x03,Read,ACK
3.603233937500000,0,0x5D,0x20,Read,ACK
3.603255437500000,0,0x5D,0x00,Read,ACK
3.603276875000000,0,0x5D,0x00,Read,ACK
3.603298375000000,0,0x5D,0x00,Read,ACK
3.603319812500000,0,0x5D,0x00,Read,ACK
3.603341281250000,0,0x5D,0x00,Read,ACK
3.603362750000000,0,0x5D,0x00,Read,ACK
3.603384218750000,0,0x5D,0x00,Read,ACK
3.603405718750000,0,0x5D,0x00,Read,ACK
3.603427187500000,0,0x5D,0x00,Read,ACK
3.603448687500000,0,0x5D,0x00,Read,ACK
3.603470156250000,0,0x5D,0x00,Read,ACK
3.603491656250000,0,0x5D,0x00,Read,ACK
3.603513093750000,0,0x5D,0x00,Read,ACK
3.603534593750000,0,0x5D,0x00,Read,ACK
3.603556031250000,0,0x5D,0x00,Read,ACK
3.603577531250000,0,0x5D,0x00,Read,ACK
3.603599000000000,0,0x5D,0xF0,Read,ACK
3.603620468750000,0,0x5D,0x2B,Read,ACK
3.603642281250000,0,0x5D,0x03,Read,ACK
3.603663750000000,0,0x5D,0x00,Read,ACK
3.603685250000000,0,0x5D,0x00,Read,ACK
3.603706718750000,0,0x5D,0x00,Read,ACK
3.603728187500000,0,0x5D,0x00,Read,ACK
3.603750468750000,0,0x5D,0x00,Read,ACK
3.603777031250000,0,0x5D,0x00,Read,ACK
3.603800312500000,0,0x5D,0x00,Read,ACK
3.603821812500000,0,0x5D,0x00,Read,ACK
3.603843625000000,0,0x5D,0x00,Read,ACK
3.603865125000000,0,0x5D,0x00,Read,ACK
3.603886718750000,0,0x5D,0x00,Read,ACK
3.603908218750000,0,0x5D,0x00,Read,ACK
3.603929687500000,0,0x5D,0x00,Read,ACK
3.603951406250000,0,0x5D,0x00,Read,ACK
3.603972906250000,0,0x5D,0x00,Read,ACK
3.603995531250000,0,0x5D,0x00,Read,ACK
3.604017312500000,0,0x5D,0x00,Read,ACK
3.604038812500000,0,0x5D,0x00,Read,NAK
3.609885718750000,0,0x5D,0x2F,Read,ACK
3.609912406250000,0,0x5D,0x00,Read,ACK
3.609934968750000,0,0x5D,0x04,Read,ACK
3.609958125000000,0,0x5D,0x03,Read,ACK
3.609979625000000,0,0x5D,0x2A,Read,ACK
3.610001093750000,0,0x5D,0x09,Read,ACK
3.610022562500000,0,0x5D,0xDE,Read,ACK
3.610044031250000,0,0x5D,0x04,Read,ACK
3.610065468750000,0,0x5D,0x03,Read,ACK
3.610086968750000,0,0x5D,0x02,Read,ACK
3.610108406250000,0,0x5D,0x20,Read,ACK
3.610130031250000,0,0x5D,0x13,Read,ACK
3.610152625000000,0,0x5D,0xDB,Read,ACK
3.610175000000000,0,0x5D,0x03,Read,ACK
3.610196500000000,0,0x5D,0x8B,Read,ACK
3.610217937500000,0,0x5D,0x04,Read,ACK
3.610239437500000,0,0x5D,0x03,Read,ACK
3.610261718750000,0,0x5D,0x03,Read,ACK
3.610283156250000,0,0x5D,0x20,Read,ACK
3.610304812500000,0,0x5D,0x23,Read,ACK
3.610326281250000,0,0x5D,0x77,Read,ACK
3.610347750000000,0,0x5D,0x06,Read,ACK
3.610369937500000,0,0x5D,0xDB,Read,ACK
3.610391437500000,0,0x5D,0x03,Read,ACK
3.610412937500000,0,0x5D,0x03,Read,ACK
3.610434531250000,0,0x5D,0x02,Read,ACK
3.610455968750000,0,0x5D,0x20,Read,ACK
3.610477437500000,0,0x5D,0x00,Read,ACK
3.610498937500000,0,0x5D,0x00,Read,ACK
3.610520437500000,0,0x5D,0x00,Read,ACK
3.610541906250000,0,0x5D,0x00,Read,ACK
3.610563375000000,0,0x5D,0x00,Read,ACK
3.610584843750000,0,0x5D,0x00,Read,ACK
3.610606312500000,0,0x5D,0x00,Read,ACK
3.610628062500000,0,0x5D,0x00,Read,ACK
3.610649500000000,0,0x5D,0x00,Read,ACK
3.610670968750000,0,0x5D,0x00,Read,ACK
3.610692468750000,0,0x5D,0x00,Read,ACK
3.610713906250000,0,0x5D,0x00,Read,ACK
3.610735375000000,0,0x5D,0x00,Read,ACK
3.610756875000000,0,0x5D,0x00,Read,ACK
3.610778343750000,0,0x5D,0x00,Read,ACK
3.610799812500000,0,0x5D,0x00,Read,ACK
3.610821250000000,0,0x5D,0x36,Read,ACK
3.610842781250000,0,0x5D,0x2C,Read,ACK
3.610864281250000,0,0x5D,0x03,Read,ACK
3.610885750000000,0,0x5D,0x00,Read,ACK
3.610911281250000,0,0x5D,0x00,Read,ACK
3.610932750000000,0,0x5D,0x00,Read,ACK
3.610956375000000,0,0x5D,0x00,Read,ACK
3.610978750000000,0,0x5D,0x00,Read,ACK
3.611000218750000,0,0x5D,0x00,Read,ACK
3.611021718750000,0,0x5D,0x00,Read,ACK
3.611043250000000,0,0x5D,0x00,Read,ACK
3.611064750000000,0,0x5D,0x00,Read,ACK
3.611087562500000,0,0x5D,0x00,Read,ACK
3.611110062500000,0,0x5D,0x00,Read,ACK
3.611131531250000,0,0x5D,0x00,Read,ACK
3.611153000000000,0,0x5D,0x00,Read,ACK
3.611174468750000,0,0x5D,0x00,Read,ACK
3.611196718750000,0,0x5D,0x00,Read,ACK
3.611218156250000,0,0x5D,0x00,Read,ACK
3.611239843750000,0,0x5D,0x00,Read,ACK
3.611261687500000,0,0x5D,0x00,Read,NAK
3.617075437500000,0,0x5D,0x2F,Read,ACK
3.617103156250000,0,0x5D,0x00,Read,ACK
3.617124593750000,0,0x5D,0x04,Read,ACK
3.617146062500000,0,0x5D,0x03,Read,ACK
3.617167531250000,0,0x5D,0x31,Read,ACK
3.617189000000000,0,0x5D,0x09,Read,ACK
3.617210468750000,0,0x5D,0xC8,Read,ACK
3.617231937500000,0,0x5D,0x04,Read,ACK
3.617253406250000,0,0x5D,0x03,Read,ACK
3.617274875000000,0,0x5D,0x02,Read,ACK
3.617299656250000,0,0x5D,0x20,Read,ACK
3.617321125000000,0,0x5D,0x13,Read,ACK
3.617342593750000,0,0x5D,0xDE,Read,ACK
3.617364062500000,0,0x5D,0x03,Read,ACK
3.617387156250000,0,0x5D,0x72,Read,ACK
3.617408656250000,0,0x5D,0x04,Read,ACK
3.617430125000000,0,0x5D,0x03,Read,ACK
3.617451562500000,0,0x5D,0x03,Read,ACK
3.617473062500000,0,0x5D,0x20,Read,ACK
3.617494531250000,0,0x5D,0x23,Read,ACK
3.617516000000000,0,0x5D,0x7C,Read,ACK
3.617537562500000,0,0x5D,0x06,Read,ACK
3.617559062500000,0,0x5D,0xC1,Read,ACK
3.617580562500000,0,0x5D,0x03,Read,ACK
3.617602000000000,0,0x5D,0x03,Read,ACK
3.617623468750000,0,0x5D,0x02,Read,ACK
3.617644937500000,0,0x5D,0x20,Read,ACK
3.617666406250000,0,0x5D,0x00,Read,ACK
3.617687875000000,0,0x5D,0x00,Read,ACK
3.617709343750000,0,0x5D,0x00,Read,ACK
3.617730843750000,0,0x5D,0x00,Read,ACK
3.617752343750000,0,0x5D,0x00,Read,ACK
3.617773812500000,0,0x5D,0x00,Read,ACK
3.617795312500000,0,0x5D,0x00,Read,ACK
3.617816781250000,0,0x5D,0x00,Read,ACK
3.617838250000000,0,0x5D,0x00,Read,ACK
3.617859718750000,0,0x5D,0x00,Read,ACK
3.617881218750000,0,0x5D,0x00,Read,ACK
3.617902687500000,0,0x5D,0x00,Read,ACK
3.617924125000000,0,0x5D,0x00,Read,ACK
3.617945625000000,0,0x5D,0x00,Read,ACK
3.617967062500000,0,0x5D,0x00,Read,ACK
3.617988562500000,0,0x5D,0x00,Read,ACK
3.618010437500000,0,0x5D,0x7C,Read,ACK
3.618031937500000,0,0x5D,0x2C,Read,ACK
3.618053656250000,0,0x5D,0x03,Read,ACK
3.618078500000000,0,0x5D,0x00,Read,ACK
3.618101000000000,0,0x5D,0x00,Read,ACK
3.618122937500000,0,0x5D,0x00,Read,ACK
3.618145750000000,0,0x5D,0x00,Read,ACK
3.618167250000000,0,0x5D,0x00,Read,ACK
3.618188718750000,0,0x5D,0x00,Read,ACK
3.618211406250000,0,0x5D,0x00,Read,ACK
3.618232906250000,0,0x5D,0x00,Read,ACK
3.618254500000000,0,0x5D,0x00,Read,ACK
3.618275968750000,0,0x5D,0x00,Read,ACK
3.618297468750000,0,0x5D,0x00,Read,ACK
3.618318968750000,0,0x5D,0x00,Read,ACK
3.618341093750000,0,0x5D,0x00,Read,ACK
3.618363937500000,0,0x5D,0x00,Read,ACK
3.618385468750000,0,0x5D,0x00,Read,ACK
3.618406968750000,0,0x5D,0x00,Read,ACK
3.618428437500000,0,0x5D,0x00,Read,ACK
3.618451593750000,0,0x5D,0x00,Read,NAK
3.624299718750000,0,0x5D,0x2F,Read,ACK
3.624322968750000,0,0x5D,0x00,Read,ACK
3.624344468750000,0,0x5D,0x04,Read,ACK
3.624365937500000,0,0x5D,0x03,Read,ACK
3.624387406250000,0,0x5D,0x38,Read,ACK
3.624408875000000,0,0x5D,0x09,Read,ACK
3.624430843750000,0,0x5D,0xB4,Read,ACK
3.624453437500000,0,0x5D,0x04,Read,ACK
3.624474937500000,0,0x5D,0x03,Read,ACK
3.624497718750000,0,0x5D,0x03,Read,ACK
3.624519187500000,0,0x5D,0x20,Read,ACK
3.624541968750000,0,0x5D,0x13,Read,ACK
3.624563406250000,0,0x5D,0xE3,Read,ACK
3.624584906250000,0,0x5D,0x03,Read,ACK
3.624606750000000,0,0x5D,0x5A,Read,ACK
3.624628218750000,0,0x5D,0x04,Read,ACK
3.624649687500000,0,0x5D,0x04,Read,ACK
3.624674156250000,0,0x5D,0x03,Read,ACK
3.624695687500000,0,0x5D,0x20,Read,ACK
3.624717156250000,0,0x5D,0x23,Read,ACK
3.624738906250000,0,0x5D,0x83,Read,ACK
3.624760343750000,0,0x5D,0x06,Read,ACK
3.624781843750000,0,0x5D,0xAA,Read,ACK
3.624803281250000,0,0x5D,0x03,Read,ACK
3.624824781250000,0,0x5D,0x03,Read,ACK
3.624846250000000,0,0x5D,0x03,Read,ACK
3.624867718750000,0,0x5D,0x20,Read,ACK
3.624889187500000,0,0x5D,0x00,Read,ACK
3.624910656250000,0,0x5D,0x00,Read,ACK
3.624932125000000,0,0x5D,0x00,Read,ACK
3.624953593750000,0,0x5D,0x00,Read,ACK
3.624975093750000,0,0x5D,0x00,Read,ACK
3.624996531250000,0,0x5D,0x00,Read,ACK
3.625018031250000,0,0x5D,0x00,Read,ACK
3.625039500000000,0,0x5D,0x00,Read,ACK
3.625060968750000,0,0x5D,0x00,Read,ACK
3.625082437500000,0,0x5D,0x00,Read,ACK
3.625103906250000,0,0x5D,0x00,Read,ACK
3.625125375000000,0,0x5D,0x00,Read,ACK
3.625147187500000,0,0x5D,0x00,Read,ACK
3.625168625000000,0,0x5D,0x00,Read,ACK
3.625190093750000,0,0x5D,0x00,Read,ACK
3.625215593750000,0,0x5D,0x00,Read,ACK
3.625239343750000,0,0x5D,0xC2,Read,ACK
3.625262375000000,0,0x5D,0x2C,Read,ACK
3.625285562500000,0,0x5D,0x03,Read,ACK
3.625310031250000,0,0x5D,0x00,Read,ACK
3.625331812500000,0,0x5D,0x00,Read,ACK
3.625353250000000,0,0x5D,0x00,Read,ACK
3.625374718750000,0,0x5D,0x00,Read,ACK
3.625396187500000,0,0x5D,0x00,Read,ACK
3.625418093750000,0,0x5D,0x00,Read,ACK
3.625439562500000,0,0x5D,0x00,Read,ACK
3.625461031250000,0,0x5D,0x00,Read,ACK
3.625482531250000,0,0x5D,0x00,Read,ACK
3.625504000000000,0,0x5D,0x00,Read,ACK
3.625526312500000,0,0x5D,0x00,Read,ACK
3.625548218750000,0,0x5D,0x00,Read,ACK
3.625571812500000,0,0x5D,0x00,Read,ACK
3.625593312500000,0,0x5D,0x00,Read,ACK
3.625615593750000,0,0x5D,0x00,Read,ACK
3.625637375000000,0,0x5D,0x00,Read,ACK
3.625658843750000,0,0x5D,0x00,Read,ACK
3.625681843750000,0,0x5D,0x00,Read,NAK
3.631150906250000,0,0x5D,0x2F,Read,ACK
3.631180250000000,0,0x5D,0x00,Read,ACK
3.631201781250000,0,0x5D,0x04,Read,ACK
3.631223281250000,0,0x5D,0x03,Read,ACK
3.631244718750000,0,0x5D,0x41,Read,ACK
3.631266218750000,0,0x5D,0x09,Read,ACK
3.631287718750000,0,0x5D,0xA1,Read,ACK
3.631310375000000,0,0x5D,0x04,Read,ACK
3.631331875000000,0,0x5D,0x03,Read,ACK
3.631353343750000,0,0x5D,0x03,Read,ACK
3.631374812500000,0,0x5D,0x20,Read,ACK
3.631401843750000,0,0x5D,0x13,Read,ACK
3.631423312500000,0,0x5D,0xEB,Read,ACK
3.631444781250000,0,0x5D,0x03,Read,ACK
3.631466250000000,0,0x5D,0x44,Read,ACK
3.631487718750000,0,0x5D,0x04,Read,ACK
3.631509187500000,0,0x5D,0x03,Read,ACK
3.631530656250000,0,0x5D,0x03,Read,ACK
3.631552125000000,0,0x5D,0x20,Read,ACK
3.631573906250000,0,0x5D,0x23,Read,ACK
3.631595906250000,0,0x5D,0x8B,Read,ACK
3.631617781250000,0,0x5D,0x06,Read,ACK
3.631639281250000,0,0x5D,0x96,Read,ACK
3.631660750000000,0,0x5D,0x03,Read,ACK
3.631682812500000,0,0x5D,0x03,Read,ACK
3.631705562500000,0,0x5D,0x03,Read,ACK
3.631727031250000,0,0x5D,0x20,Read,ACK
3.631748531250000,0,0x5D,0x00,Read,ACK
3.631769968750000,0,0x5D,0x00,Read,ACK
3.631791437500000,0,0x5D,0x00,Read,ACK
3.631812906250000,0,0x5D,0x00,Read,ACK
3.631834406250000,0,0x5D,0x00,Read,ACK
3.631855875000000,0,0x5D,0x00,Read,ACK
3.631877343750000,0,0x5D,0x00,Read,ACK
3.631898781250000,0,0x5D,0x00,Read,ACK
3.631920281250000,0,0x5D,0x00,Read,ACK
3.631941750000000,0,0x5D,0x00,Read,ACK
3.631963218750000,0,0x5D,0x00,Read,ACK
3.631984687500000,0,0x5D,0x00,Read,ACK
3.632006156250000,0,0x5D,0x00,Read,ACK
3.632027625000000,0,0x5D,0x00,Read,ACK
3.632049093750000,0,0x5D,0x00,Read,ACK
3.632070906250000,0,0x5D,0x00,Read,ACK
3.632092375000000,0,0x5D,0x08,Read,ACK
3.632113812500000,0,0x5D,0x2D,Read,ACK
3.632135281250000,0,0x5D,0x03,Read,ACK
3.632156750000000,0,0x5D,0x00,Read,ACK
3.632178250000000,0,0x5D,0x00,Read,ACK
3.632199718750000,0,0x5D,0x00,Read,ACK
3.632221218750000,0,0x5D,0x00,Read,ACK
3.632242718750000,0,0x5D,0x00,Read,ACK
3.632264156250000,0,0x5D,0x00,Read,ACK
3.632285656250000,0,0x5D,0x00,Read,ACK
3.632307093750000,0,0x5D,0x00,Read,ACK
3.632328562500000,0,0x5D,0x00,Read,ACK
3.632353281250000,0,0x5D,0x00,Read,ACK
3.632374750000000,0,0x5D,0x00,Read,ACK
3.632397750000000,0,0x5D,0x00,Read,ACK
3.632420906250000,0,0x5D,0x00,Read,ACK
3.632443218750000,0,0x5D,0x00,Read,ACK
3.632464687500000,0,0x5D,0x00,Read,ACK
3.632486187500000,0,0x5D,0x00,Read,ACK
3.632507656250000,0,0x5D,0x00,Read,ACK
3.632530937500000,0,0x5D,0x00,Read,NAK
3.638335968750000,0,0x5D,0x2F,Read,ACK
3.638367312500000,0,0x5D,0x00,Read,ACK
3.638388781250000,0,0x5D,0x04,Read,ACK
3.638410250000000,0,0x5D,0x03,Read,ACK
3.638431718750000,0,0x5D,0x4A,Read,ACK
3.638453187500000,0,0x5D,0x09,Read,ACK
3.638474656250000,0,0x5D,0x91,Read,ACK
3.638496125000000,0,0x5D,0x04,Read,ACK
3.638517593750000,0,0x5D,0x03,Read,ACK
3.638540593750000,0,0x5D,0x03,Read,ACK
3.638562125000000,0,0x5D,0x20,Read,ACK
3.638589781250000,0,0x5D,0x13,Read,ACK
3.638611281250000,0,0x5D,0xF6,Read,ACK
3.638632781250000,0,0x5D,0x03,Read,ACK
3.638654218750000,0,0x5D,0x2F,Read,ACK
3.638675718750000,0,0x5D,0x04,Read,ACK
3.638697187500000,0,0x5D,0x03,Read,ACK
3.638718656250000,0,0x5D,0x03,Read,ACK
3.638740812500000,0,0x5D,0x20,Read,ACK
3.638762281250000,0,0x5D,0x23,Read,ACK
3.638783781250000,0,0x5D,0x95,Read,ACK
3.638805218750000,0,0x5D,0x06,Read,ACK
3.638826687500000,0,0x5D,0x83,Read,ACK
3.638849437500000,0,0x5D,0x03,Read,ACK
3.638872125000000,0,0x5D,0x03,Read,ACK
3.638893625000000,0,0x5D,0x03,Read,ACK
3.638915656250000,0,0x5D,0x20,Read,ACK
3.638937156250000,0,0x5D,0x00,Read,ACK
3.638958625000000,0,0x5D,0x00,Read,ACK
3.638980406250000,0,0x5D,0x00,Read,ACK
3.639001906250000,0,0x5D,0x00,Read,ACK
3.639023343750000,0,0x5D,0x00,Read,ACK
3.639044843750000,0,0x5D,0x00,Read,ACK
3.639066281250000,0,0x5D,0x00,Read,ACK
3.639087781250000,0,0x5D,0x00,Read,ACK
3.639109218750000,0,0x5D,0x00,Read,ACK
3.639130843750000,0,0x5D,0x00,Read,ACK
3.639152281250000,0,0x5D,0x00,Read,ACK
3.639173750000000,0,0x5D,0x00,Read,ACK
3.639195250000000,0,0x5D,0x00,Read,ACK
3.639216718750000,0,0x5D,0x00,Read,ACK
3.639238187500000,0,0x5D,0x00,Read,ACK
3.639259656250000,0,0x5D,0x00,Read,ACK
3.639281125000000,0,0x5D,0x4E,Read,ACK
3.639302593750000,0,0x5D,0x2D,Read,ACK
3.639324062500000,0,0x5D,0x03,Read,ACK
3.639345531250000,0,0x5D,0x00,Read,ACK
3.639367250000000,0,0x5D,0x00,Read,ACK
3.639389000000000,0,0x5D,0x00,Read,ACK
3.639410437500000,0,0x5D,0x00,Read,ACK
3.639431906250000,0,0x5D,0x00,Read,ACK
3.639453375000000,0,0x5D,0x00,Read,ACK
3.639474875000000,0,0x5D,0x00,Read,ACK
3.639496343750000,0,0x5D,0x00,Read,ACK
3.639520562500000,0,0x5D,0x00,Read,ACK
3.639544937500000,0,0x5D,0x00,Read,ACK
3.639566843750000,0,0x5D,0x00,Read,ACK
3.639588312500000,0,0x5D,0x00,Read,ACK
3.639611031250000,0,0x5D,0x00,Read,ACK
3.639633968750000,0,0x5D,0x00,Read,ACK
3.639655437500000,0,0x5D,0x00,Read,ACK
3.639677062500000,0,0x5D,0x00,Read,ACK
3.639698531250000,0,0x5D,0x00,Read,ACK
3.639721750000000,0,0x5D,0x00,Read,NAK
3.645550093750000,0,0x5D,0x2F,Read,ACK
3.645572656250000,0,0x5D,0x00,Read,ACK
3.645594156250000,0,0x5D,0x04,Read,ACK
3.645615625000000,0,0x5D,0x03,Read,ACK
3.645637093750000,0,0x5D,0x55,Read,ACK
3.645658531250000,0,0x5D,0x09,Read,ACK
3.645680437500000,0,0x5D,0x82,Read,ACK
3.645703750000000,0,0x5D,0x04,Read,ACK
3.645725281250000,0,0x5D,0x03,Read,ACK
3.645746718750000,0,0x5D,0x03,Read,ACK
3.645768218750000,0,0x5D,0x20,Read,ACK
3.645789656250000,0,0x5D,0x13,Read,ACK
3.645811156250000,0,0x5D,0x03,Read,ACK
3.645832625000000,0,0x5D,0x04,Read,ACK
3.645854093750000,0,0x5D,0x1D,Read,ACK
3.64