Time [s],Packet ID,Address,Data,Read/Write,ACK/NAK
1.676940200000000,0,0x5D,0x2F,Read,ACK
1.676971240000000,0,0x5D,0x00,Read,ACK
1.676992740000000,0,0x5D,0x04,Read,ACK
1.677014200000000,0,0x5D,0x03,Read,ACK
1.677035660000000,0,0x5D,0xA6,Read,ACK
1.677057120000000,0,0x5D,0x02,Read,ACK
1.677078580000000,0,0x5D,0x8F,Read,ACK
1.677100080000000,0,0x5D,0x05,Read,ACK
1.677121540000000,0,0x5D,0x03,Read,ACK
1.677143020000000,0,0x5D,0x02,Read,ACK
1.677164520000000,0,0x5D,0x20,Read,ACK
1.677185960000000,0,0x5D,0x00,Read,ACK
1.677207440000000,0,0x5D,0x00,Read,ACK
1.677228940000000,0,0x5D,0x00,Read,ACK
1.677251440000000,0,0x5D,0x00,Read,ACK
1.677275080000000,0,0x5D,0x00,Read,ACK
1.677296920000000,0,0x5D,0x00,Read,ACK
1.677318420000000,0,0x5D,0x00,Read,ACK
1.677339920000000,0,0x5D,0x00,Read,ACK
1.677361580000000,0,0x5D,0x00,Read,ACK
1.677383260000000,0,0x5D,0x00,Read,ACK
1.677404760000000,0,0x5D,0x00,Read,ACK
1.677427320000000,0,0x5D,0x00,Read,ACK
1.677448780000000,0,0x5D,0x00,Read,ACK
1.677470600000000,0,0x5D,0x00,Read,ACK
1.677492080000000,0,0x5D,0x00,Read,ACK
1.677513540000000,0,0x5D,0x00,Read,ACK
1.677535260000000,0,0x5D,0x00,Read,ACK
1.677557000000000,0,0x5D,0x00,Read,ACK
1.677578460000000,0,0x5D,0x00,Read,ACK
1.677600340000000,0,0x5D,0x00,Read,ACK
1.677621820000000,0,0x5D,0x00,Read,ACK
1.677643340000000,0,0x5D,0x00,Read,ACK
1.677664840000000,0,0x5D,0x00,Read,ACK
1.677686360000000,0,0x5D,0x00,Read,ACK
1.677707860000000,0,0x5D,0x00,Read,ACK
1.677729320000000,0,0x5D,0x00,Read,ACK
1.677750780000000,0,0x5D,0x00,Read,ACK
1.677772220000000,0,0x5D,0x00,Read,ACK
1.677793680000000,0,0x5D,0x00,Read,ACK
1.677815140000000,0,0x5D,0x00,Read,ACK
1.677836600000000,0,0x5D,0x00,Read,ACK
1.677858080000000,0,0x5D,0x00,Read,ACK
1.677879580000000,0,0x5D,0x5A,Read,ACK
1.677902320000000,0,0x5D,0x13,Read,ACK
1.677924400000000,0,0x5D,0x01,Read,ACK
1.677945880000000,0,0x5D,0x00,Read,ACK
1.677967320000000,0,0x5D,0x00,Read,ACK
1.677988820000000,0,0x5D,0x00,Read,ACK
1.678010320000000,0,0x5D,0x00,Read,ACK
1.678031840000000,0,0x5D,0x00,Read,ACK
1.678053340000000,0,0x5D,0x00,Read,ACK
1.678074800000000,0,0x5D,0x00,Read,ACK
1.678096260000000,0,0x5D,0x00,Read,ACK
1.678117740000000,0,0x5D,0x00,Read,ACK
1.678139220000000,0,0x5D,0x00,Read,ACK
1.678163000000000,0,0x5D,0x00,Read,ACK
1.678184460000000,0,0x5D,0x00,Read,ACK
1.678206300000000,0,0x5D,0x00,Read,ACK
1.678228180000000,0,0x5D,0x00,Read,ACK
1.678249940000000,0,0x5D,0x00,Read,ACK
1.678271380000000,0,0x5D,0x00,Read,ACK
1.678293080000000,0,0x5D,0x00,Read,ACK
1.678314560000000,0,0x5D,0x00,Read,NAK
1.684065860000000,0,0x5D,0x2F,Read,ACK
1.684091900000000,0,0x5D,0x00,Read,ACK
1.684113640000000,0,0x5D,0x04,Read,ACK
1.684137960000000,0,0x5D,0x03,Read,ACK
1.684159480000000,0,0x5D,0xA6,Read,ACK
1.684180940000000,0,0x5D,0x02,Read,ACK
1.684202380000000,0,0x5D,0x8F,Read,ACK
1.684223840000000,0,0x5D,0x05,Read,ACK
1.684245300000000,0,0x5D,0x02,Read,ACK
1.684266760000000,0,0x5D,0x02,Read,ACK
1.684288220000000,0,0x5D,0x20,Read,ACK
1.684309660000000,0,0x5D,0x00,Read,ACK
1.684331140000000,0,0x5D,0x00,Read,ACK
1.684352640000000,0,0x5D,0x00,Read,ACK
1.684374100000000,0,0x5D,0x00,Read,ACK
1.684395620000000,0,0x5D,0x00,Read,ACK
1.684417060000000,0,0x5D,0x00,Read,ACK
1.684438700000000,0,0x5D,0x00,Read,ACK
1.684460160000000,0,0x5D,0x00,Read,ACK
1.684481660000000,0,0x5D,0x00,Read,ACK
1.684504280000000,0,0x5D,0x00,Read,ACK
1.684525800000000,0,0x5D,0x00,Read,ACK
1.684548160000000,0,0x5D,0x00,Read,ACK
1.684569640000000,0,0x5D,0x00,Read,ACK
1.684591380000000,0,0x5D,0x00,Read,ACK
1.684613020000000,0,0x5D,0x00,Read,ACK
1.684634580000000,0,0x5D,0x00,Read,ACK
1.684657240000000,0,0x5D,0x00,Read,ACK
1.684678740000000,0,0x5D,0x00,Read,ACK
1.684700200000000,0,0x5D,0x00,Read,ACK
1.684721660000000,0,0x5D,0x00,Read,ACK
1.684743120000000,0,0x5D,0x00,Read,ACK
1.684764580000000,0,0x5D,0x00,Read,ACK
1.684786100000000,0,0x5D,0x00,Read,ACK
1.684807620000000,0,0x5D,0x00,Read,ACK
1.684829460000000,0,0x5D,0x00,Read,ACK
1.684850960000000,0,0x5D,0x00,Read,ACK
1.684872400000000,0,0x5D,0x00,Read,ACK
1.684893860000000,0,0x5D,0x00,Read,ACK
1.684915320000000,0,0x5D,0x00,Read,ACK
1.684936880000000,0,0x5D,0x00,Read,ACK
1.684958380000000,0,0x5D,0x00,Read,ACK
1.684979880000000,0,0x5D,0x00,Read,ACK
1.685001380000000,0,0x5D,0xA0,Read,ACK
1.685022840000000,0,0x5D,0x13,Read,ACK
1.685044300000000,0,0x5D,0x01,Read,ACK
1.685065760000000,0,0x5D,0x00,Read,ACK
1.685087260000000,0,0x5D,0x00,Read,ACK
1.685108720000000,0,0x5D,0x00,Read,ACK
1.685130180000000,0,0x5D,0x00,Read,ACK
1.685151640000000,0,0x5D,0x00,Read,ACK
1.685173140000000,0,0x5D,0x00,Read,ACK
1.685194620000000,0,0x5D,0x00,Read,ACK
1.685216540000000,0,0x5D,0x00,Read,ACK
1.685238000000000,0,0x5D,0x00,Read,ACK
1.685259460000000,0,0x5D,0x00,Read,ACK
1.685280920000000,0,0x5D,0x00,Read,ACK
1.685302360000000,0,0x5D,0x00,Read,ACK
1.685323840000000,0,0x5D,0x00,Read,ACK
1.685345740000000,0,0x5D,0x00,Read,ACK
1.685368100000000,0,0x5D,0x00,Read,ACK
1.685390920000000,0,0x5D,0x00,Read,ACK
1.685412600000000,0,0x5D,0x00,Read,ACK
1.685434100000000,0,0x5D,0x00,Read,NAK
1.691206900000000,0,0x5D,0x2F,Read,ACK
1.691232100000000,0,0x5D,0x00,Read,ACK
1.691254520000000,0,0x5D,0x04,Read,ACK
1.691276920000000,0,0x5D,0x03,Read,ACK
1.691300080000000,0,0x5D,0xA6,Read,ACK
1.691321600000000,0,0x5D,0x02,Read,ACK
1.691343080000000,0,0x5D,0x8F,Read,ACK
1.691364540000000,0,0x5D,0x05,Read,ACK
1.691386000000000,0,0x5D,0x02,Read,ACK
1.691407460000000,0,0x5D,0x02,Read,ACK
1.691428900000000,0,0x5D,0x20,Read,ACK
1.691450360000000,0,0x5D,0x00,Read,ACK
1.691471820000000,0,0x5D,0x00,Read,ACK
1.691493280000000,0,0x5D,0x00,Read,ACK
1.691514740000000,0,0x5D,0x00,Read,ACK
1.691537840000000,0,0x5D,0x00,Read,ACK
1.691560080000000,0,0x5D,0x00,Read,ACK
1.691581580000000,0,0x5D,0x00,Read,ACK
1.691604260000000,0,0x5D,0x00,Read,ACK
1.691625740000000,0,0x5D,0x00,Read,ACK
1.691647220000000,0,0x5D,0x00,Read,ACK
1.691668700000000,0,0x5D,0x00,Read,ACK
1.691690160000000,0,0x5D,0x00,Read,ACK
1.691711720000000,0,0x5D,0x00,Read,ACK
1.691733180000000,0,0x5D,0x00,Read,ACK
1.691754660000000,0,0x5D,0x00,Read,ACK
1.691776700000000,0,0x5D,0x00,Read,ACK
1.691798180000000,0,0x5D,0x00,Read,ACK
1.691819640000000,0,0x5D,0x00,Read,ACK
1.691841100000000,0,0x5D,0x00,Read,ACK
1.691862760000000,0,0x5D,0x00,Read,ACK
1.691884280000000,0,0x5D,0x00,Read,ACK
1.691905780000000,0,0x5D,0x00,Read,ACK
1.691927300000000,0,0x5D,0x00,Read,ACK
1.691948800000000,0,0x5D,0x00,Read,ACK
1.691970260000000,0,0x5D,0x00,Read,ACK
1.691991720000000,0,0x5D,0x00,Read,ACK
1.692013520000000,0,0x5D,0x00,Read,ACK
1.692035080000000,0,0x5D,0x00,Read,ACK
1.692056580000000,0,0x5D,0x00,Read,ACK
1.692078120000000,0,0x5D,0x00,Read,ACK
1.692099620000000,0,0x5D,0x00,Read,ACK
1.692121380000000,0,0x5D,0x00,Read,ACK
1.692142840000000,0,0x5D,0xE6,Read,ACK
1.692164300000000,0,0x5D,0x13,Read,ACK
1.692186060000000,0,0x5D,0x01,Read,ACK
1.692207560000000,0,0x5D,0x00,Read,ACK
1.692229020000000,0,0x5D,0x00,Read,ACK
1.692250940000000,0,0x5D,0x00,Read,ACK
1.692273300000000,0,0x5D,0x00,Read,ACK
1.692295200000000,0,0x5D,0x00,Read,ACK
1.692316640000000,0,0x5D,0x00,Read,ACK
1.692338560000000,0,0x5D,0x00,Read,ACK
1.692360940000000,0,0x5D,0x00,Read,ACK
1.692382400000000,0,0x5D,0x00,Read,ACK
1.692403920000000,0,0x5D,0x00,Read,ACK
1.692425440000000,0,0x5D,0x00,Read,ACK
1.692447160000000,0,0x5D,0x00,Read,ACK
1.692468700000000,0,0x5D,0x00,Read,ACK
1.692490180000000,0,0x5D,0x00,Read,ACK
1.692513280000000,0,0x5D,0x00,Read,ACK
1.692534800000000,0,0x5D,0x00,Read,ACK
1.692556280000000,0,0x5D,0x00,Read,ACK
1.692577720000000,0,0x5D,0x00,Read,NAK
1.698338540000000,0,0x5D,0x2F,Read,ACK
1.698362920000000,0,0x5D,0x00,Read,ACK
1.698384400000000,0,0x5D,0x04,Read,ACK
1.698406060000000,0,0x5D,0x03,Read,ACK
1.698427580000000,0,0x5D,0xA6,Read,ACK
1.698449000000000,0,0x5D,0x02,Read,ACK
1.698470480000000,0,0x5D,0x8F,Read,ACK
1.698492000000000,0,0x5D,0x05,Read,ACK
1.698513520000000,0,0x5D,0x02,Read,ACK
1.698534960000000,0,0x5D,0x02,Read,ACK
1.698556400000000,0,0x5D,0x20,Read,ACK
1.698577860000000,0,0x5D,0x00,Read,ACK
1.698599320000000,0,0x5D,0x00,Read,ACK
1.698620760000000,0,0x5D,0x00,Read,ACK
1.698642220000000,0,0x5D,0x00,Read,ACK
1.698663680000000,0,0x5D,0x00,Read,ACK
1.698686560000000,0,0x5D,0x00,Read,ACK
1.698708020000000,0,0x5D,0x00,Read,ACK
1.698729460000000,0,0x5D,0x00,Read,ACK
1.698750940000000,0,0x5D,0x00,Read,ACK
1.698772380000000,0,0x5D,0x00,Read,ACK
1.698794200000000,0,0x5D,0x00,Read,ACK
1.698815760000000,0,0x5D,0x00,Read,ACK
1.698837260000000,0,0x5D,0x00,Read,ACK
1.698858760000000,0,0x5D,0x00,Read,ACK
1.698880220000000,0,0x5D,0x00,Read,ACK
1.698902600000000,0,0x5D,0x00,Read,ACK
1.698924040000000,0,0x5D,0x00,Read,ACK
1.698946720000000,0,0x5D,0x00,Read,ACK
1.698968200000000,0,0x5D,0x00,Read,ACK
1.698989660000000,0,0x5D,0x00,Read,ACK
1.699011120000000,0,0x5D,0x00,Read,ACK
1.699033260000000,0,0x5D,0x00,Read,ACK
1.699055720000000,0,0x5D,0x00,Read,ACK
1.699077220000000,0,0x5D,0x00,Read,ACK
1.699098680000000,0,0x5D,0x00,Read,ACK
1.699120180000000,0,0x5D,0x00,Read,ACK
1.699141640000000,0,0x5D,0x00,Read,ACK
1.699163080000000,0,0x5D,0x00,Read,ACK
1.699184580000000,0,0x5D,0x00,Read,ACK
1.699206060000000,0,0x5D,0x00,Read,ACK
1.699227520000000,0,0x5D,0x00,Read,ACK
1.699249000000000,0,0x5D,0x00,Read,ACK
1.699270480000000,0,0x5D,0x2C,Read,ACK
1.699291940000000,0,0x5D,0x14,Read,ACK
1.699313860000000,0,0x5D,0x01,Read,ACK
1.699337280000000,0,0x5D,0x00,Read,ACK
1.699358740000000,0,0x5D,0x00,Read,ACK
1.699380620000000,0,0x5D,0x00,Read,ACK
1.699403220000000,0,0x5D,0x00,Read,ACK
1.699424720000000,0,0x5D,0x00,Read,ACK
1.699446180000000,0,0x5D,0x00,Read,ACK
1.699467620000000,0,0x5D,0x00,Read,ACK
1.699489100000000,0,0x5D,0x00,Read,ACK
1.699510540000000,0,0x5D,0x00,Read,ACK
1.699534960000000,0,0x5D,0x00,Read,ACK
1.699558120000000,0,0x5D,0x00,Read,ACK
1.699580080000000,0,0x5D,0x00,Read,ACK
1.699601580000000,0,0x5D,0x00,Read,ACK
1.699623260000000,0,0x5D,0x00,Read,ACK
1.699644740000000,0,0x5D,0x00,Read,ACK
1.699668360000000,0,0x5D,0x00,Read,ACK
1.699691980000000,0,0x5D,0x00,Read,ACK
1.699713660000000,0,0x5D,0x00,Read,NAK
1.705542860000000,0,0x5D,0x2F,Read,ACK
1.705566080000000,0,0x5D,0x00,Read,ACK
1.705587560000000,0,0x5D,0x04,Read,ACK
1.705609000000000,0,0x5D,0x03,Read,ACK
1.705630480000000,0,0x5D,0xA6,Read,ACK
1.705651980000000,0,0x5D,0x02,Read,ACK
1.705673440000000,0,0x5D,0x8F,Read,ACK
1.705694940000000,0,0x5D,0x05,Read,ACK
1.705716400000000,0,0x5D,0x02,Read,ACK
1.705737840000000,0,0x5D,0x02,Read,ACK
1.705759300000000,0,0x5D,0x20,Read,ACK
1.705780760000000,0,0x5D,0x00,Read,ACK
1.705802220000000,0,0x5D,0x00,Read,ACK
1.705824000000000,0,0x5D,0x00,Read,ACK
1.705846120000000,0,0x5D,0x00,Read,ACK
1.705867580000000,0,0x5D,0x00,Read,ACK
1.705889020000000,0,0x5D,0x00,Read,ACK
1.705910500000000,0,0x5D,0x00,Read,ACK
1.705932000000000,0,0x5D,0x00,Read,ACK
1.705953500000000,0,0x5D,0x00,Read,ACK
1.705974980000000,0,0x5D,0x00,Read,ACK
1.705997680000000,0,0x5D,0x00,Read,ACK
1.706019360000000,0,0x5D,0x00,Read,ACK
1.706040820000000,0,0x5D,0x00,Read,ACK
1.706062340000000,0,0x5D,0x00,Read,ACK
1.706083940000000,0,0x5D,0x00,Read,ACK
1.706105680000000,0,0x5D,0x00,Read,ACK
1.706127140000000,0,0x5D,0x00,Read,ACK
1.706148640000000,0,0x5D,0x00,Read,ACK
1.706170380000000,0,0x5D,0x00,Read,ACK
1.706192000000000,0,0x5D,0x00,Read,ACK
1.706213440000000,0,0x5D,0x00,Read,ACK
1.706234900000000,0,0x5D,0x00,Read,ACK
1.706257960000000,0,0x5D,0x00,Read,ACK
1.706279440000000,0,0x5D,0x00,Read,ACK
1.706300940000000,0,0x5D,0x00,Read,ACK
1.706322400000000,0,0x5D,0x00,Read,ACK
1.706343860000000,0,0x5D,0x00,Read,ACK
1.706365320000000,0,0x5D,0x00,Read,ACK
1.706386840000000,0,0x5D,0x00,Read,ACK
1.706408340000000,0,0x5D,0x00,Read,ACK
1.706429800000000,0,0x5D,0x00,Read,ACK
1.706451260000000,0,0x5D,0x00,Read,ACK
1.706472860000000,0,0x5D,0x72,Read,ACK
1.706498120000000,0,0x5D,0x14,Read,ACK
1.706519600000000,0,0x5D,0x01,Read,ACK
1.706541380000000,0,0x5D,0x00,Read,ACK
1.706563020000000,0,0x5D,0x00,Read,ACK
1.706584800000000,0,0x5D,0x00,Read,ACK
1.706607820000000,0,0x5D,0x00,Read,ACK
1.706629300000000,0,0x5D,0x00,Read,ACK
1.706650740000000,0,0x5D,0x00,Read,ACK
1.706672220000000,0,0x5D,0x00,Read,ACK
1.706694340000000,0,0x5D,0x00,Read,ACK
1.706716720000000,0,0x5D,0x00,Read,ACK
1.706739800000000,0,0x5D,0x00,Read,ACK
1.706761980000000,0,0x5D,0x00,Read,ACK
1.706783940000000,0,0x5D,0x00,Read,ACK
1.706806540000000,0,0x5D,0x00,Read,ACK
1.706828720000000,0,0x5D,0x00,Read,ACK
1.706850720000000,0,0x5D,0x00,Read,ACK
1.706872220000000,0,0x5D,0x00,Read,ACK
1.706893860000000,0,0x5D,0x00,Read,ACK
1.706915380000000,0,0x5D,0x00,Read,NAK
1.712540880000000,0,0x5D,0x2F,Read,ACK
1.712566400000000,0,0x5D,0x00,Read,ACK
1.712587900000000,0,0x5D,0x04,Read,ACK
1.712609400000000,0,0x5D,0x03,Read,ACK
1.712630980000000,0,0x5D,0xA6,Read,ACK
1.712652480000000,0,0x5D,0x02,Read,ACK
1.712674200000000,0,0x5D,0x8F,Read,ACK
1.712696600000000,0,0x5D,0x05,Read,ACK
1.712718940000000,0,0x5D,0x02,Read,ACK
1.712742060000000,0,0x5D,0x02,Read,ACK
1.712763560000000,0,0x5D,0x20,Read,ACK
1.712785020000000,0,0x5D,0x00,Read,ACK
1.712806480000000,0,0x5D,0x00,Read,ACK
1.712827980000000,0,0x5D,0x00,Read,ACK
1.712849440000000,0,0x5D,0x00,Read,ACK
1.712870900000000,0,0x5D,0x00,Read,ACK
1.712892360000000,0,0x5D,0x00,Read,ACK
1.712913820000000,0,0x5D,0x00,Read,ACK
1.712935260000000,0,0x5D,0x00,Read,ACK
1.712956720000000,0,0x5D,0x00,Read,ACK
1.712978180000000,0,0x5D,0x00,Read,ACK
1.713000940000000,0,0x5D,0x00,Read,ACK
1.713022420000000,0,0x5D,0x00,Read,ACK
1.713043900000000,0,0x5D,0x00,Read,ACK
1.713065360000000,0,0x5D,0x00,Read,ACK
1.713086840000000,0,0x5D,0x00,Read,ACK
1.713108340000000,0,0x5D,0x00,Read,ACK
1.713130240000000,0,0x5D,0x00,Read,ACK
1.713151760000000,0,0x5D,0x00,Read,ACK
1.713173460000000,0,0x5D,0x00,Read,ACK
1.713195000000000,0,0x5D,0x00,Read,ACK
1.713216500000000,0,0x5D,0x00,Read,ACK
1.713238740000000,0,0x5D,0x00,Read,ACK
1.713261480000000,0,0x5D,0x00,Read,ACK
1.713283360000000,0,0x5D,0x00,Read,ACK
1.713304880000000,0,0x5D,0x00,Read,ACK
1.713326400000000,0,0x5D,0x00,Read,ACK
1.713347900000000,0,0x5D,0x00,Read,ACK
1.713369340000000,0,0x5D,0x00,Read,ACK
1.713391020000000,0,0x5D,0x00,Read,ACK
1.713412500000000,0,0x5D,0x00,Read,ACK
1.713433960000000,0,0x5D,0x00,Read,ACK
1.713455400000000,0,0x5D,0x00,Read,ACK
1.713476880000000,0,0x5D,0xB8,Read,ACK
1.713498640000000,0,0x5D,0x14,Read,ACK
1.713520140000000,0,0x5D,0x01,Read,ACK
1.713541620000000,0,0x5D,0x00,Read,ACK
1.713563100000000,0,0x5D,0x00,Read,ACK
1.713584580000000,0,0x5D,0x00,Read,ACK
1.713606020000000,0,0x5D,0x00,Read,ACK
1.713627480000000,0,0x5D,0x00,Read,ACK
1.713650380000000,0,0x5D,0x00,Read,ACK
1.713671880000000,0,0x5D,0x00,Read,ACK
1.713694840000000,0,0x5D,0x00,Read,ACK
1.713716600000000,0,0x5D,0x00,Read,ACK
1.713738140000000,0,0x5D,0x00,Read,ACK
1.713759740000000,0,0x5D,0x00,Read,ACK
1.713781200000000,0,0x5D,0x00,Read,ACK
1.713802680000000,0,0x5D,0x00,Read,ACK
1.713824120000000,0,0x5D,0x00,Read,ACK
1.713846660000000,0,0x5D,0x00,Read,ACK
1.713868240000000,0,0x5D,0x00,Read,ACK
1.713891760000000,0,0x5D,0x00,Read,ACK
1.713914440000000,0,0x5D,0x00,Read,NAK
1.719749380000000,0,0x5D,0x2F,Read,ACK
1.719774380000000,0,0x5D,0x00,Read,ACK
1.719795860000000,0,0x5D,0x04,Read,ACK
1.719819100000000,0,0x5D,0x03,Read,ACK
1.719840700000000,0,0x5D,0xA6,Read,ACK
1.719864000000000,0,0x5D,0x02,Read,ACK
1.719885480000000,0,0x5D,0x8F,Read,ACK
1.719907000000000,0,0x5D,0x05,Read,ACK
1.719928440000000,0,0x5D,0x02,Read,ACK
1.719949900000000,0,0x5D,0x02,Read,ACK
1.719971360000000,0,0x5D,0x20,Read,ACK
1.719992820000000,0,0x5D,0x00,Read,ACK
1.720014280000000,0,0x5D,0x00,Read,ACK
1.720035740000000,0,0x5D,0x00,Read,ACK
1.720057180000000,0,0x5D,0x00,Read,ACK
1.720078640000000,0,0x5D,0x00,Read,ACK
1.720100100000000,0,0x5D,0x00,Read,ACK
1.720121560000000,0,0x5D,0x00,Read,ACK
1.720143020000000,0,0x5D,0x00,Read,ACK
1.720165800000000,0,0x5D,0x00,Read,ACK
1.720187300000000,0,0x5D,0x00,Read,ACK
1.720209480000000,0,0x5D,0x00,Read,ACK
1.720230960000000,0,0x5D,0x00,Read,ACK
1.720252440000000,0,0x5D,0x00,Read,ACK
1.720273940000000,0,0x5D,0x00,Read,ACK
1.720295460000000,0,0x5D,0x00,Read,ACK
1.720316900000000,0,0x5D,0x00,Read,ACK
1.720338360000000,0,0x5D,0x00,Read,ACK
1.720359820000000,0,0x5D,0x00,Read,ACK
1.720381280000000,0,0x5D,0x00,Read,ACK
1.720402740000000,0,0x5D,0x00,Read,ACK
1.720425100000000,0,0x5D,0x00,Read,ACK
1.720446600000000,0,0x5D,0x00,Read,ACK
1.720468100000000,0,0x5D,0x00,Read,ACK
1.720489560000000,0,0x5D,0x00,Read,ACK
1.720511620000000,0,0x5D,0x00,Read,ACK
1.720533300000000,0,0x5D,0x00,Read,ACK
1.720554800000000,0,0x5D,0x00,Read,ACK
1.720576300000000,0,0x5D,0x00,Read,ACK
1.720597760000000,0,0x5D,0x00,Read,ACK
1.720619280000000,0,0x5D,0x00,Read,ACK
1.720640780000000,0,0x5D,0x00,Read,ACK
1.720662240000000,0,0x5D,0x00,Read,ACK
1.720683940000000,0,0x5D,0xFE,Read,ACK
1.720705540000000,0,0x5D,0x14,Read,ACK
1.720727040000000,0,0x5D,0x01,Read,ACK
1.720748520000000,0,0x5D,0x00,Read,ACK
1.720770020000000,0,0x5D,0x00,Read,ACK
1.720791480000000,0,0x5D,0x00,Read,ACK
1.720812980000000,0,0x5D,0x00,Read,ACK
1.720835520000000,0,0x5D,0x00,Read,ACK
1.720858000000000,0,0x5D,0x00,Read,ACK
1.720880280000000,0,0x5D,0x00,Read,ACK
1.720902900000000,0,0x5D,0x00,Read,ACK
1.720924400000000,0,0x5D,0x00,Read,ACK
1.720945860000000,0,0x5D,0x00,Read,ACK
1.720969140000000,0,0x5D,0x00,Read,ACK
1.720990860000000,0,0x5D,0x00,Read,ACK
1.721013260000000,0,0x5D,0x00,Read,ACK
1.721034760000000,0,0x5D,0x00,Read,ACK
1.721056260000000,0,0x5D,0x00,Read,ACK
1.721077960000000,0,0x5D,0x00,Read,ACK
1.721099460000000,0,0x5D,0x00,Read,ACK
1.721122800000000,0,0x5D,0x00,Read,NAK
1.726953300000000,0,0x5D,0x2F,Read,ACK
1.726977780000000,0,0x5D,0x00,Read,ACK
1.726999220000000,0,0x5D,0x04,Read,ACK
1.727022260000000,0,0x5D,0x03,Read,ACK
1.727044200000000,0,0x5D,0xA6,Read,ACK
1.727067880000000,0,0x5D,0x02,Read,ACK
1.727089340000000,0,0x5D,0x8F,Read,ACK
1.727110800000000,0,0x5D,0x05,Read,ACK
1.727132320000000,0,0x5D,0x02,Read,ACK
1.727153760000000,0,0x5D,0x02,Read,ACK
1.727175220000000,0,0x5D,0x20,Read,ACK
1.727196680000000,0,0x5D,0x00,Read,ACK
1.727218140000000,0,0x5D,0x00,Read,ACK
1.727239660000000,0,0x5D,0x00,Read,ACK
1.727262540000000,0,0x5D,0x00,Read,ACK
1.727284440000000,0,0x5D,0x00,Read,ACK
1.727305920000000,0,0x5D,0x00,Read,ACK
1.727327380000000,0,0x5D,0x00,Read,ACK
1.727348840000000,0,0x5D,0x00,Read,ACK
1.727370480000000,0,0x5D,0x00,Read,ACK
1.727392660000000,0,0x5D,0x00,Read,ACK
1.727414160000000,0,0x5D,0x00,Read,ACK
1.727436320000000,0,0x5D,0x00,Read,ACK
1.727457780000000,0,0x5D,0x00,Read,ACK
1.727479240000000,0,0x5D,0x00,Read,ACK
1.727500780000000,0,0x5D,0x00,Read,ACK
1.727523560000000,0,0x5D,0x00,Read,ACK
1.727545020000000,0,0x5D,0x00,Read,ACK
1.727566520000000,0,0x5D,0x00,Read,ACK
1.727588000000000,0,0x5D,0x00,Read,ACK
1.727609460000000,0,0x5D,0x00,Read,ACK
1.727630900000000,0,0x5D,0x00,Read,ACK
1.727652360000000,0,0x5D,0x00,Read,ACK
1.727673800000000,0,0x5D,0x00,Read,ACK
1.727695260000000,0,0x5D,0x00,Read,ACK
1.727716720000000,0,0x5D,0x00,Read,ACK
1.727738160000000,0,0x5D,0x00,Read,ACK
1.727759620000000,0,0x5D,0x00,Read,ACK
1.727781140000000,0,0x5D,0x00,Read,ACK
1.727802600000000,0,0x5D,0x00,Read,ACK
1.727824100000000,0,0x5D,0x00,Read,ACK
1.727845560000000,0,0x5D,0x00,Read,ACK
1.727867000000000,0,0x5D,0x00,Read,ACK
1.727888520000000,0,0x5D,0x44,Read,ACK
1.727909960000000,0,0x5D,0x15,Read,ACK
1.727931420000000,0,0x5D,0x01,Read,ACK
1.727952880000000,0,0x5D,0x00,Read,ACK
1.727974320000000,0,0x5D,0x00,Read,ACK
1.727995800000000,0,0x5D,0x00,Read,ACK
1.728017300000000,0,0x5D,0x00,Read,ACK
