Time [s],Packet ID,Address,Data,Read/Write,ACK/NAK
2.952331640000000,0,0x5D,0x2F,Read,ACK
2.952360360000000,0,0x5D,0x00,Read,ACK
2.952381820000000,0,0x5D,0x04,Read,ACK
2.952403280000000,0,0x5D,0x03,Read,ACK
2.952426040000000,0,0x5D,0x29,Read,ACK
2.952448300000000,0,0x5D,0x04,Read,ACK
2.952469780000000,0,0x5D,0xDC,Read,ACK
2.952491320000000,0,0x5D,0x05,Read,ACK
2.952512780000000,0,0x5D,0x03,Read,ACK
2.952534240000000,0,0x5D,0x03,Read,ACK
2.952555740000000,0,0x5D,0x20,Read,ACK
2.952577260000000,0,0x5D,0x00,Read,ACK
2.952598740000000,0,0x5D,0x00,Read,ACK
2.952620200000000,0,0x5D,0x00,Read,ACK
2.952641640000000,0,0x5D,0x00,Read,ACK
2.952664420000000,0,0x5D,0x00,Read,ACK
2.952686040000000,0,0x5D,0x00,Read,ACK
2.952707520000000,0,0x5D,0x00,Read,ACK
2.952728980000000,0,0x5D,0x00,Read,ACK
2.952750420000000,0,0x5D,0x00,Read,ACK
2.952771880000000,0,0x5D,0x00,Read,ACK
2.952793340000000,0,0x5D,0x00,Read,ACK
2.952814800000000,0,0x5D,0x00,Read,ACK
2.952836260000000,0,0x5D,0x00,Read,ACK
2.952857700000000,0,0x5D,0x00,Read,ACK
2.952879200000000,0,0x5D,0x00,Read,ACK
2.952901100000000,0,0x5D,0x00,Read,ACK
2.952922560000000,0,0x5D,0x00,Read,ACK
2.952944040000000,0,0x5D,0x00,Read,ACK
2.952965520000000,0,0x5D,0x00,Read,ACK
2.952987000000000,0,0x5D,0x00,Read,ACK
2.953008460000000,0,0x5D,0x00,Read,ACK
2.953029920000000,0,0x5D,0x00,Read,ACK
2.953051380000000,0,0x5D,0x00,Read,ACK
2.953073900000000,0,0x5D,0x00,Read,ACK
2.953095400000000,0,0x5D,0x00,Read,ACK
2.953116860000000,0,0x5D,0x00,Read,ACK
2.953138300000000,0,0x5D,0x00,Read,ACK
2.953159940000000,0,0x5D,0x00,Read,ACK
2.953181420000000,0,0x5D,0x00,Read,ACK
2.953202880000000,0,0x5D,0x00,Read,ACK
2.953224380000000,0,0x5D,0x00,Read,ACK
2.953245860000000,0,0x5D,0x00,Read,ACK
2.953267420000000,0,0x5D,0xB6,Read,ACK
2.953288940000000,0,0x5D,0xAB,Read,ACK
2.953313500000000,0,0x5D,0x01,Read,ACK
2.953335060000000,0,0x5D,0x00,Read,ACK
2.953357060000000,0,0x5D,0x00,Read,ACK
2.953378920000000,0,0x5D,0x00,Read,ACK
2.953401140000000,0,0x5D,0x00,Read,ACK
2.953422600000000,0,0x5D,0x00,Read,ACK
2.953444060000000,0,0x5D,0x00,Read,ACK
2.953466640000000,0,0x5D,0x00,Read,ACK
2.953488860000000,0,0x5D,0x00,Read,ACK
2.953510360000000,0,0x5D,0x00,Read,ACK
2.953533480000000,0,0x5D,0x00,Read,ACK
2.953555180000000,0,0x5D,0x00,Read,ACK
2.953578180000000,0,0x5D,0x00,Read,ACK
2.953601840000000,0,0x5D,0x00,Read,ACK
2.953623380000000,0,0x5D,0x00,Read,ACK
2.953645160000000,0,0x5D,0x00,Read,ACK
2.953666680000000,0,0x5D,0x00,Read,ACK
2.953688460000000,0,0x5D,0x00,Read,ACK
2.953709960000000,0,0x5D,0x00,Read,NAK
2.959380880000000,0,0x5D,0x2F,Read,ACK
2.959407500000000,0,0x5D,0x00,Read,ACK
2.959429000000000,0,0x5D,0x04,Read,ACK
2.959450520000000,0,0x5D,0x03,Read,ACK
2.959471980000000,0,0x5D,0x29,Read,ACK
2.959493480000000,0,0x5D,0x04,Read,ACK
2.959514940000000,0,0x5D,0xDC,Read,ACK
2.959536400000000,0,0x5D,0x05,Read,ACK
2.959557920000000,0,0x5D,0x03,Read,ACK
2.959580600000000,0,0x5D,0x03,Read,ACK
2.959603300000000,0,0x5D,0x20,Read,ACK
2.959624780000000,0,0x5D,0x00,Read,ACK
2.959646240000000,0,0x5D,0x00,Read,ACK
2.959667700000000,0,0x5D,0x00,Read,ACK
2.959689420000000,0,0x5D,0x00,Read,ACK
2.959710920000000,0,0x5D,0x00,Read,ACK
2.959733300000000,0,0x5D,0x00,Read,ACK
2.959755120000000,0,0x5D,0x00,Read,ACK
2.959776760000000,0,0x5D,0x00,Read,ACK
2.959798260000000,0,0x5D,0x00,Read,ACK
2.959819780000000,0,0x5D,0x00,Read,ACK
2.959841540000000,0,0x5D,0x00,Read,ACK
2.959863260000000,0,0x5D,0x00,Read,ACK
2.959885040000000,0,0x5D,0x00,Read,ACK
2.959906540000000,0,0x5D,0x00,Read,ACK
2.959928040000000,0,0x5D,0x00,Read,ACK
2.959949520000000,0,0x5D,0x00,Read,ACK
2.959971020000000,0,0x5D,0x00,Read,ACK
2.959992520000000,0,0x5D,0x00,Read,ACK
2.960013980000000,0,0x5D,0x00,Read,ACK
2.960035440000000,0,0x5D,0x00,Read,ACK
2.960057940000000,0,0x5D,0x00,Read,ACK
2.960079420000000,0,0x5D,0x00,Read,ACK
2.960100920000000,0,0x5D,0x00,Read,ACK
2.960122380000000,0,0x5D,0x00,Read,ACK
2.960143840000000,0,0x5D,0x00,Read,ACK
2.960165300000000,0,0x5D,0x00,Read,ACK
2.960186800000000,0,0x5D,0x00,Read,ACK
2.960208280000000,0,0x5D,0x00,Read,ACK
2.960229800000000,0,0x5D,0x00,Read,ACK
2.960251300000000,0,0x5D,0x00,Read,ACK
2.960272760000000,0,0x5D,0x00,Read,ACK
2.960294220000000,0,0x5D,0x00,Read,ACK
2.960317260000000,0,0x5D,0xFC,Read,ACK
2.960338740000000,0,0x5D,0xAB,Read,ACK
2.960360200000000,0,0x5D,0x01,Read,ACK
2.960381680000000,0,0x5D,0x00,Read,ACK
2.960403180000000,0,0x5D,0x00,Read,ACK
2.960424660000000,0,0x5D,0x00,Read,ACK
2.960446160000000,0,0x5D,0x00,Read,ACK
2.960467620000000,0,0x5D,0x00,Read,ACK
2.960489080000000,0,0x5D,0x00,Read,ACK
2.960510540000000,0,0x5D,0x00,Read,ACK
2.960531980000000,0,0x5D,0x00,Read,ACK
2.960553460000000,0,0x5D,0x00,Read,ACK
2.960574960000000,0,0x5D,0x00,Read,ACK
2.960596420000000,0,0x5D,0x00,Read,ACK
2.960617880000000,0,0x5D,0x00,Read,ACK
2.960639340000000,0,0x5D,0x00,Read,ACK
2.960661040000000,0,0x5D,0x00,Read,ACK
2.960683700000000,0,0x5D,0x00,Read,ACK
2.960706000000000,0,0x5D,0x00,Read,ACK
2.960727460000000,0,0x5D,0x00,Read,ACK
2.960748920000000,0,0x5D,0x00,Read,NAK
2.966344700000000,0,0x5D,0x2F,Read,ACK
2.966369080000000,0,0x5D,0x00,Read,ACK
2.966390560000000,0,0x5D,0x04,Read,ACK
2.966412040000000,0,0x5D,0x03,Read,ACK
2.966433500000000,0,0x5D,0x29,Read,ACK
2.966456020000000,0,0x5D,0x04,Read,ACK
2.966477480000000,0,0x5D,0xDC,Read,ACK
2.966498940000000,0,0x5D,0x05,Read,ACK
2.966520960000000,0,0x5D,0x03,Read,ACK
2.966542980000000,0,0x5D,0x03,Read,ACK
2.966567300000000,0,0x5D,0x20,Read,ACK
2.966588760000000,0,0x5D,0x00,Read,ACK
2.966610260000000,0,0x5D,0x00,Read,ACK
2.966631720000000,0,0x5D,0x00,Read,ACK
2.966653200000000,0,0x5D,0x00,Read,ACK
2.966674640000000,0,0x5D,0x00,Read,ACK
2.966696180000000,0,0x5D,0x00,Read,ACK
2.966717680000000,0,0x5D,0x00,Read,ACK
2.966739280000000,0,0x5D,0x00,Read,ACK
2.966761220000000,0,0x5D,0x00,Read,ACK
2.966783000000000,0,0x5D,0x00,Read,ACK
2.966805220000000,0,0x5D,0x00,Read,ACK
2.966826720000000,0,0x5D,0x00,Read,ACK
2.966849120000000,0,0x5D,0x00,Read,ACK
2.966870920000000,0,0x5D,0x00,Read,ACK
2.966892380000000,0,0x5D,0x00,Read,ACK
2.966913840000000,0,0x5D,0x00,Read,ACK
2.966935280000000,0,0x5D,0x00,Read,ACK
2.966956760000000,0,0x5D,0x00,Read,ACK
2.966978240000000,0,0x5D,0x00,Read,ACK
2.966999740000000,0,0x5D,0x00,Read,ACK
2.967021660000000,0,0x5D,0x00,Read,ACK
2.967043140000000,0,0x5D,0x00,Read,ACK
2.967065260000000,0,0x5D,0x00,Read,ACK
2.967086740000000,0,0x5D,0x00,Read,ACK
2.967108260000000,0,0x5D,0x00,Read,ACK
2.967129760000000,0,0x5D,0x00,Read,ACK
2.967151280000000,0,0x5D,0x00,Read,ACK
2.967172740000000,0,0x5D,0x00,Read,ACK
2.967194200000000,0,0x5D,0x00,Read,ACK
2.967215660000000,0,0x5D,0x00,Read,ACK
2.967237120000000,0,0x5D,0x00,Read,ACK
2.967258860000000,0,0x5D,0x00,Read,ACK
2.967282040000000,0,0x5D,0x42,Read,ACK
2.967303540000000,0,0x5D,0xAC,Read,ACK
2.967325000000000,0,0x5D,0x01,Read,ACK
2.967346500000000,0,0x5D,0x00,Read,ACK
2.967367960000000,0,0x5D,0x00,Read,ACK
2.967389420000000,0,0x5D,0x00,Read,ACK
2.967410880000000,0,0x5D,0x00,Read,ACK
2.967432340000000,0,0x5D,0x00,Read,ACK
2.967453780000000,0,0x5D,0x00,Read,ACK
2.967475260000000,0,0x5D,0x00,Read,ACK
2.967496780000000,0,0x5D,0x00,Read,ACK
2.967518220000000,0,0x5D,0x00,Read,ACK
2.967539680000000,0,0x5D,0x00,Read,ACK
2.967561140000000,0,0x5D,0x00,Read,ACK
2.967585780000000,0,0x5D,0x00,Read,ACK
2.967608360000000,0,0x5D,0x00,Read,ACK
2.967630140000000,0,0x5D,0x00,Read,ACK
2.967652020000000,0,0x5D,0x00,Read,ACK
2.967673780000000,0,0x5D,0x00,Read,ACK
2.967695300000000,0,0x5D,0x00,Read,ACK
2.967716740000000,0,0x5D,0x00,Read,NAK
2.973507600000000,0,0x5D,0x2F,Read,ACK
2.973533080000000,0,0x5D,0x00,Read,ACK
2.973554540000000,0,0x5D,0x04,Read,ACK
2.973576020000000,0,0x5D,0x03,Read,ACK
2.973597520000000,0,0x5D,0x29,Read,ACK
2.973618980000000,0,0x5D,0x04,Read,ACK
2.973640500000000,0,0x5D,0xDC,Read,ACK
2.973662220000000,0,0x5D,0x05,Read,ACK
2.973684780000000,0,0x5D,0x03,Read,ACK
2.973706400000000,0,0x5D,0x02,Read,ACK
2.973730720000000,0,0x5D,0x20,Read,ACK
2.973752200000000,0,0x5D,0x00,Read,ACK
2.973773700000000,0,0x5D,0x00,Read,ACK
2.973795160000000,0,0x5D,0x00,Read,ACK
2.973816600000000,0,0x5D,0x00,Read,ACK
2.973838060000000,0,0x5D,0x00,Read,ACK
2.973859520000000,0,0x5D,0x00,Read,ACK
2.973880980000000,0,0x5D,0x00,Read,ACK
2.973903260000000,0,0x5D,0x00,Read,ACK
2.973925840000000,0,0x5D,0x00,Read,ACK
2.973947340000000,0,0x5D,0x00,Read,ACK
2.973968800000000,0,0x5D,0x00,Read,ACK
2.973990240000000,0,0x5D,0x00,Read,ACK
2.974012940000000,0,0x5D,0x00,Read,ACK
2.974034420000000,0,0x5D,0x00,Read,ACK
2.974055940000000,0,0x5D,0x00,Read,ACK
2.974077600000000,0,0x5D,0x00,Read,ACK
2.974099080000000,0,0x5D,0x00,Read,ACK
2.974120560000000,0,0x5D,0x00,Read,ACK
2.974142060000000,0,0x5D,0x00,Read,ACK
2.974163960000000,0,0x5D,0x00,Read,ACK
2.974186440000000,0,0x5D,0x00,Read,ACK
2.974207920000000,0,0x5D,0x00,Read,ACK
2.974229380000000,0,0x5D,0x00,Read,ACK
2.974250820000000,0,0x5D,0x00,Read,ACK
2.974272300000000,0,0x5D,0x00,Read,ACK
2.974293780000000,0,0x5D,0x00,Read,ACK
2.974315240000000,0,0x5D,0x00,Read,ACK
2.974339540000000,0,0x5D,0x00,Read,ACK
2.974361040000000,0,0x5D,0x00,Read,ACK
2.974382540000000,0,0x5D,0x00,Read,ACK
2.974404240000000,0,0x5D,0x00,Read,ACK
2.974425700000000,0,0x5D,0x00,Read,ACK
2.974447240000000,0,0x5D,0x88,Read,ACK
2.974468740000000,0,0x5D,0xAC,Read,ACK
2.974490240000000,0,0x5D,0x01,Read,ACK
2.974511700000000,0,0x5D,0x00,Read,ACK
2.974533160000000,0,0x5D,0x00,Read,ACK
2.974554660000000,0,0x5D,0x00,Read,ACK
2.974576120000000,0,0x5D,0x00,Read,ACK
2.974597580000000,0,0x5D,0x00,Read,ACK
2.974619020000000,0,0x5D,0x00,Read,ACK
2.974640480000000,0,0x5D,0x00,Read,ACK
2.974661940000000,0,0x5D,0x00,Read,ACK
2.974684220000000,0,0x5D,0x00,Read,ACK
2.974712420000000,0,0x5D,0x00,Read,ACK
2.974734420000000,0,0x5D,0x00,Read,ACK
2.974755920000000,0,0x5D,0x00,Read,ACK
2.974777460000000,0,0x5D,0x00,Read,ACK
2.974799860000000,0,0x5D,0x00,Read,ACK
2.974821340000000,0,0x5D,0x00,Read,ACK
2.974842980000000,0,0x5D,0x00,Read,ACK
2.974864440000000,0,0x5D,0x00,Read,ACK
2.974885960000000,0,0x5D,0x00,Read,NAK
2.980666600000000,0,0x5D,0x2F,Read,ACK
2.980692740000000,0,0x5D,0x00,Read,ACK
2.980714240000000,0,0x5D,0x04,Read,ACK
2.980735680000000,0,0x5D,0x03,Read,ACK
2.980757140000000,0,0x5D,0x29,Read,ACK
2.980778580000000,0,0x5D,0x04,Read,ACK
2.980800040000000,0,0x5D,0xDC,Read,ACK
2.980824220000000,0,0x5D,0x05,Read,ACK
2.980846080000000,0,0x5D,0x02,Read,ACK
2.980867680000000,0,0x5D,0x02,Read,ACK
2.980891780000000,0,0x5D,0x20,Read,ACK
2.980913260000000,0,0x5D,0x00,Read,ACK
2.980934720000000,0,0x5D,0x00,Read,ACK
2.980956220000000,0,0x5D,0x00,Read,ACK
2.980977700000000,0,0x5D,0x00,Read,ACK
2.980999220000000,0,0x5D,0x00,Read,ACK
2.981020700000000,0,0x5D,0x00,Read,ACK
2.981042340000000,0,0x5D,0x00,Read,ACK
2.981063800000000,0,0x5D,0x00,Read,ACK
2.981085260000000,0,0x5D,0x00,Read,ACK
2.981106720000000,0,0x5D,0x00,Read,ACK
2.981128180000000,0,0x5D,0x00,Read,ACK
2.981149700000000,0,0x5D,0x00,Read,ACK
2.981171200000000,0,0x5D,0x00,Read,ACK
2.981192660000000,0,0x5D,0x00,Read,ACK
2.981214160000000,0,0x5D,0x00,Read,ACK
2.981235620000000,0,0x5D,0x00,Read,ACK
2.981257080000000,0,0x5D,0x00,Read,ACK
2.981279780000000,0,0x5D,0x00,Read,ACK
2.981301680000000,0,0x5D,0x00,Read,ACK
2.981325740000000,0,0x5D,0x00,Read,ACK
2.981347200000000,0,0x5D,0x00,Read,ACK
2.981368740000000,0,0x5D,0x00,Read,ACK
2.981390220000000,0,0x5D,0x00,Read,ACK
2.981411700000000,0,0x5D,0x00,Read,ACK
2.981433200000000,0,0x5D,0x00,Read,ACK
2.981454640000000,0,0x5D,0x00,Read,ACK
2.981476100000000,0,0x5D,0x00,Read,ACK
2.981497540000000,0,0x5D,0x00,Read,ACK
2.981519040000000,0,0x5D,0x00,Read,ACK
2.981540720000000,0,0x5D,0x00,Read,ACK
2.981562240000000,0,0x5D,0x00,Read,ACK
2.981583760000000,0,0x5D,0x00,Read,ACK
2.981605420000000,0,0x5D,0xCE,Read,ACK
2.981626900000000,0,0x5D,0xAC,Read,ACK
2.981648420000000,0,0x5D,0x01,Read,ACK
2.981669880000000,0,0x5D,0x00,Read,ACK
2.981691320000000,0,0x5D,0x00,Read,ACK
2.981712960000000,0,0x5D,0x00,Read,ACK
2.981734420000000,0,0x5D,0x00,Read,ACK
2.981755880000000,0,0x5D,0x00,Read,ACK
2.981777340000000,0,0x5D,0x00,Read,ACK
2.981798880000000,0,0x5D,0x00,Read,ACK
2.981820360000000,0,0x5D,0x00,Read,ACK
2.981841820000000,0,0x5D,0x00,Read,ACK
2.981863460000000,0,0x5D,0x00,Read,ACK
2.981887700000000,0,0x5D,0x00,Read,ACK
2.981909540000000,0,0x5D,0x00,Read,ACK
2.981931960000000,0,0x5D,0x00,Read,ACK
2.981953560000000,0,0x5D,0x00,Read,ACK
2.981975300000000,0,0x5D,0x00,Read,ACK
2.981996800000000,0,0x5D,0x00,Read,ACK
2.982018260000000,0,0x5D,0x00,Read,ACK
2.982039720000000,0,0x5D,0x00,Read,NAK
2.987840200000000,0,0x5D,0x2F,Read,ACK
2.987865340000000,0,0x5D,0x00,Read,ACK
2.987886780000000,0,0x5D,0x04,Read,ACK
2.987908240000000,0,0x5D,0x03,Read,ACK
2.987929700000000,0,0x5D,0x29,Read,ACK
2.987951920000000,0,0x5D,0x04,Read,ACK
2.987973600000000,0,0x5D,0xDC,Read,ACK
2.987996260000000,0,0x5D,0x05,Read,ACK
2.988017760000000,0,0x5D,0x02,Read,ACK
2.988039220000000,0,0x5D,0x02,Read,ACK
2.988060660000000,0,0x5D,0x20,Read,ACK
2.988082120000000,0,0x5D,0x13,Read,ACK
2.988103580000000,0,0x5D,0xAF,Read,ACK
2.988125020000000,0,0x5D,0x03,Read,ACK
2.988146500000000,0,0x5D,0x71,Read,ACK
2.988168680000000,0,0x5D,0x03,Read,ACK
2.988190120000000,0,0x5D,0x03,Read,ACK
2.988211620000000,0,0x5D,0x02,Read,ACK
2.988233180000000,0,0x5D,0x20,Read,ACK
2.988254680000000,0,0x5D,0x00,Read,ACK
2.988276120000000,0,0x5D,0x00,Read,ACK
2.988297580000000,0,0x5D,0x00,Read,ACK
2.988319060000000,0,0x5D,0x00,Read,ACK
2.988341300000000,0,0x5D,0x00,Read,ACK
2.988362760000000,0,0x5D,0x00,Read,ACK
2.988384240000000,0,0x5D,0x00,Read,ACK
2.988405900000000,0,0x5D,0x00,Read,ACK
2.988427480000000,0,0x5D,0x00,Read,ACK
2.988448960000000,0,0x5D,0x00,Read,ACK
2.988473480000000,0,0x5D,0x00,Read,ACK
2.988495420000000,0,0x5D,0x00,Read,ACK
2.988516920000000,0,0x5D,0x00,Read,ACK
2.988538580000000,0,0x5D,0x00,Read,ACK
2.988560020000000,0,0x5D,0x00,Read,ACK
2.988581480000000,0,0x5D,0x00,Read,ACK
2.988602920000000,0,0x5D,0x00,Read,ACK
2.988624380000000,0,0x5D,0x00,Read,ACK
2.988645840000000,0,0x5D,0x00,Read,ACK
2.988667300000000,0,0x5D,0x00,Read,ACK
2.988688760000000,0,0x5D,0x00,Read,ACK
2.988710220000000,0,0x5D,0x00,Read,ACK
2.988733140000000,0,0x5D,0x00,Read,ACK
2.988754720000000,0,0x5D,0x00,Read,ACK
2.988776200000000,0,0x5D,0x14,Read,ACK
2.988797700000000,0,0x5D,0xAD,Read,ACK
2.988819160000000,0,0x5D,0x02,Read,ACK
2.988840620000000,0,0x5D,0x00,Read,ACK
2.988862120000000,0,0x5D,0x00,Read,ACK
2.988883580000000,0,0x5D,0x00,Read,ACK
2.988905040000000,0,0x5D,0x00,Read,ACK
2.988926500000000,0,0x5D,0x00,Read,ACK
2.988947960000000,0,0x5D,0x00,Read,ACK
2.988969420000000,0,0x5D,0x00,Read,ACK
2.988994580000000,0,0x5D,0x00,Read,ACK
2.989016080000000,0,0x5D,0x00,Read,ACK
2.989039380000000,0,0x5D,0x00,Read,ACK
2.989061100000000,0,0x5D,0x00,Read,ACK
2.989082900000000,0,0x5D,0x00,Read,ACK
2.989104680000000,0,0x5D,0x00,Read,ACK
2.989127340000000,0,0x5D,0x00,Read,ACK
2.989148780000000,0,0x5D,0x00,Read,ACK
2.989170240000000,0,0x5D,0x00,Read,ACK
2.989191680000000,0,0x5D,0x00,Read,ACK
2.989213140000000,0,0x5D,0x00,Read,NAK
2.995052420000000,0,0x5D,0x2F,Read,ACK
2.995077340000000,0,0x5D,0x00,Read,ACK
2.995099740000000,0,0x5D,0x04,Read,ACK
2.995121760000000,0,0x5D,0x03,Read,ACK
2.995143260000000,0,0x5D,0x29,Read,ACK
2.995164760000000,0,0x5D,0x04,Read,ACK
2.995186200000000,0,0x5D,0xDC,Read,ACK
2.995207680000000,0,0x5D,0x05,Read,ACK
2.995229180000000,0,0x5D,0x02,Read,ACK
2.995250640000000,0,0x5D,0x02,Read,ACK
2.995272100000000,0,0x5D,0x20,Read,ACK
2.995294400000000,0,0x5D,0x13,Read,ACK
2.995315880000000,0,0x5D,0xAF,Read,ACK
2.995337320000000,0,0x5D,0x03,Read,ACK
2.995358780000000,0,0x5D,0x71,Read,ACK
2.995380240000000,0,0x5D,0x03,Read,ACK
2.995401720000000,0,0x5D,0x03,Read,ACK
2.995424400000000,0,0x5D,0x02,Read,ACK
2.995445940000000,0,0x5D,0x20,Read,ACK
2.995467660000000,0,0x5D,0x00,Read,ACK
2.995489180000000,0,0x5D,0x00,Read,ACK
2.995510660000000,0,0x5D,0x00,Read,ACK
2.995532120000000,0,0x5D,0x00,Read,ACK
2.995553740000000,0,0x5D,0x00,Read,ACK
2.995575220000000,0,0x5D,0x00,Read,ACK
2.995596720000000,0,0x5D,0x00,Read,ACK
2.995618180000000,0,0x5D,0x00,Read,ACK
2.995639640000000,0,0x5D,0x00,Read,ACK
2.995661080000000,0,0x5D,0x00,Read,ACK
2.995682540000000,0,0x5D,0x00,Read,ACK
2.995704040000000,0,0x5D,0x00,Read,ACK
2.995725520000000,0,0x5D,0x00,Read,ACK
2.995746980000000,0,0x5D,0x00,Read,ACK
2.995768620000000,0,0x5D,0x00,Read,ACK
2.995790100000000,0,0x5D,0x00,Read,ACK
2.995811600000000,0,0x5D,0x00,Read,ACK
2.995833100000000,0,0x5D,0x00,Read,ACK
2.995854580000000,0,0x5D,0x00,Read,ACK
2.995876260000000,0,0x5D,0x00,Read,ACK
2.995897720000000,0,0x5D,0x00,Read,ACK
2.995919180000000,0,0x5D,0x00,Read,ACK
2.995940700000000,0,0x5D,0x00,Read,ACK
2.995962220000000,0,0x5D,0x00,Read,ACK
2.995983680000000,0,0x5D,0x5A,Read,ACK
2.996005120000000,0,0x5D,0xAD,Read,ACK
2.996026580000000,0,0x5D,0x02,Read,ACK
2.996048040000000,0,0x5D,0x00,Read,ACK
2.996069480000000,0,0x5D,0x00,Read,ACK
2.996090940000000,0,0x5D,0x00,Read,ACK
2.996113200000000,0,0x5D,0x00,Read,ACK
2.996134660000000,0,0x5D,0x00,Read,ACK
2.996156200000000,0,0x5D,0x00,Read,ACK
2.996177780000000,0,0x5D,0x00,Read,ACK
2.996199760000000,0,0x5D,0x00,Read,ACK
2.996221240000000,0,0x5D,0x00,Read,ACK
2.996242680000000,0,0x5D,0x00,Read,ACK
2.996264140000000,0,0x5D,0x00,Read,ACK
2.996285600000000,0,0x5D,0x00,Read,ACK
2.996307060000000,0,0x5D,0x00,Read,ACK
2.996328600000000,0,0x5D,0x00,Read,ACK
2.996350240000000,0,0x5D,0x00,Read,ACK
2.996371740000000,0,0x5D,0x00,Read,ACK
2.996393380000000,0,0x5D,0x00,Read,ACK
2.996417020000000,0,0x5D,0x00,Read,NAK
3.002353200000000,0,0x5D,0x2F,Read,ACK
3.002375900000000,0,0x5D,0x00,Read,ACK
3.002397380000000,0,0x5D,0x04,Read,ACK
3.002418840000000,0,0x5D,0x03,Read,ACK
3.002440300000000,0,0x5D,0x29,Read,ACK
3.002462100000000,0,0x5D,0x04,Read,ACK
3.002483640000000,0,0x5D,0xDC,Read,ACK
3.002505120000000,0,0x5D,0x05,Read,ACK
3.002526640000000,0,0x5D,0x02,Read,ACK
3.002548160000000,0,0x5D,0x02,Read,ACK
3.002571380000000,0,0x5D,0x20,Read,ACK
3.002592880000000,0,0x5D,0x13,Read,ACK
3.002614360000000,0,0x5D,0xAF,Read,ACK
3.002636140000000,0,0x5D,0x03,Read,ACK
3.002657580000000,0,0x5D,0x71,Read,ACK
3.002679040000000,0,0x5D,0x03,Read,ACK
3.002701100000000,0,0x5D,0x03,Read,ACK
3.002722680000000,0,0x5D,0x02,Read,ACK
3.002744540000000,0,0x5D,0x20,Read,ACK
3.002766860000000,0,0x5D,0x00,Read,ACK
3.002788320000000,0,0x5D,0x00,Read,ACK
3.002809820000000,0,0x5D,0x00,Read,ACK
3.002831280000000,0,0x5D,0x00,Read,ACK
3.002852740000000,0,0x5D,0x00,Read,ACK
3.002874220000000,0,0x5D,0x00,Read,ACK
3.002895700000000,0,0x5D,0x00,Read,ACK
3.002917160000000,0,0x5D,0x00,Read,ACK
3.002938700000000,0,0x5D,0x00,Read,ACK
3.002960220000000,0,0x5D,0x00,Read,ACK
3.002981700000000,0,0x5D,0x00,Read,ACK
3.003003180000000,0,0x5D,0x00,Read,ACK
3.003024680000000,0,0x5D,0x00,Read,ACK
3.003046120000000,0,0x5D,0x00,Read,ACK
3.003067580000000,0,0x5D,0x00,Read,ACK
3.003089040000000,0,0x5D,0x00,Read,ACK
3.003110680000000,0,0x5D,0x00,Read,ACK
3.003132120000000,0,0x5D,0x00,Read,ACK
3.003153580000000,0,0x5D,0x00,Read,ACK
3.003175040000000,0,0x5D,0x00,Read,ACK
3.003196480000000,0,0x5D,0x00,Read,ACK
3.003218060000000,0,0x5D,0x00,Read,ACK
3.003239520000000,0,0x5D,0x00,Read,ACK
3.003265640000000,0,0x5D,0x00,Read,ACK
3.003288980000000,0,0x5D,0xA0,Read,ACK
3.003310420000000,0,0x5D,0xAD,Read,ACK
3.003332380000000,0,0x5D,0x02,Read,ACK
3.003355820000000,0,0x5D,0x00,Read,ACK
3.003377280000000,0,0x5D,0x00,Read,ACK
3.003398760000000,0,0x5D,0x00,Read,ACK
3.003420360000000,0,0x5D,0x00,Read,ACK
3.003441840000000,0,0x5D,0x00,Read,ACK
3.003464560000000,0,0x5D,0x00,Read,ACK
3.003486080000000,0,0x5D,0x00,Read,ACK
3.003507580000000,0,0x5D,0x00,Read,ACK
3.003529180000000,0,0x5D,0x00,Read,ACK
3.003551760000000,0,0x5D,0x00,Read,ACK
3.003573560000000,0,0x5D,0x00,Read,ACK
3.003596060000000,0,0x5D,0x00,Read,ACK
3.003617520000000,0,0x5D,0x00,Read,ACK
3.003638960000000,0,0x5D,0x00,Read,ACK
3.003661060000000,0,0x5D,0x00,Read,ACK
3.003683200000000,0,0x5D,0x00,Read,ACK
3.003706140000000,0,0x5D,0x00,Read,ACK
3.003729820000000,0,0x5D,0x00,Read,NAK
3.009440720000000,0,0x5D,0x2F,Read,ACK
3.009462220000000,0,0x5D,0x00,Read,ACK
3.009483680000000,0,0x5D,0x04,Read,ACK
3.009505160000000,0,0x5D,0x03,Read,ACK
3.009526660000000,0,0x5D,0x29,Read,ACK
3.009548100000000,0,0x5D,0x04,Read,ACK
3.009569560000000,0,0x5D,0xDC,Read,ACK
3.009592200000000,0,0x5D,0x05,Read,ACK
3.009614720000000,0,0x5D,0x03,Read,ACK
3.009637320000000,0,0x5D,0x02,Read,ACK
3.009658860000000,0,0x5D,0x20,Read,ACK
3.009680340000000,0,0x5D,0x13,Read,ACK
3.009703780000000,0,0x5D,0xAF,Read,ACK
3.009725500000000,0,0x5D,0x03,Read,ACK
3.009747000000000,0,0x5D,0x71,Read,ACK
3.009768480000000,0,0x5D,0x03,Read,ACK
3.009789960000000,0,0x5D,0x03,Read,ACK
3.009811820000000,0,0x5D,0x02,Read,ACK
3.009833340000000,0,0x5D,0x20,Read,ACK
3.009855120000000,0,0x5D,0x00,Read,ACK
3.009878300000000,0,0x5D,0x00,Read,ACK
3.009899740000000,0,0x5D,0x00,Read,ACK
3.009921200000000,0,0x5D,0x00,Read,ACK
3.009942680000000,0,0x5D,0x00,Read,ACK
3.009964180000000,0,0x5D,0x00,Read,ACK
3.009985640000000,0,0x5D,0x00,Read,ACK
3.010007140000000,0,0x5D,0x00,Read,ACK
3.010028600000000,0,0x5D,0x00,Read,ACK
3.010050060000000,0,0x5D,0x00,Read,ACK
3.010071520000000,0,0x5D,0x00,Read,ACK
3.010092960000000,0,0x5D,0x00,Read,ACK
3.010114420000000,0,0x5D,0x00,Read,ACK
3.010135900000000,0,0x5D,0x00,Read,ACK
3.010158580000000,0,0x5D,0x00,Read,ACK
3.010180540000000,0,0x5D,0x00,Read,ACK
3.010202000000000,0,0x5D,0x00,Read,ACK
3.010223500000000,0,0x5D,0x00,Read,ACK
3.010244960000000,0,0x5D,0x00,Read,ACK
3.010266420000000,0,0x5D,0x00,Read,ACK
3.010287880000000,0,0x5D,0x00,Read,ACK
3.010309340000000,0,0x5D,0x00,Read,ACK
3.010330800000000,0,0x5D,0x00,Read,ACK
3.010352300000000,0,0x5D,0x00,Read,ACK
3.010373760000000,0,0x5D,0xE6,Read,ACK
3.010395220000000,0,0x5D,0xAD,Read,ACK
3.010421660000000,0,0x5D,0x02,Read,ACK
3.010443100000000,0,0x5D,0x00,Read,ACK
3.010464560000000,0,0x5D,0x00,Read,ACK
3.010486240000000,0,0x5D,0x00,Read,ACK
3.010507860000000,0,0x5D,0x00,Read,ACK
3.010529440000000,0,0x5D,0x00,Read,ACK
3.010551100000000,0,0x5D,0x00,Read,ACK
3.010572580000000,0,0x5D,0x00,Read,ACK
3.010594040000000,0,0x5D,0x00,Read,ACK
3.010615500000000,0,0x5D,0x00,Read,ACK
3.010638420000000,0,0x5D,0x00,Read,ACK
3.010659920000000,0,0x5D,0x00,Read,ACK
3.010681360000000,0,0x5D,0x00,Read,ACK
3.010702900000000,0,0x5D,0x00,Read,ACK
3.010724520000000,0,0x5D,0x00,Read,ACK
3.010746400000000,0,0x5D,0x00,Read,ACK
3.010767980000000,0,0x5D,0x00,Read,ACK
3.010790480000000,0,0x5D,0x00,Read,ACK
3.010814060000000,0,0x5D,0x00,Read,NAK
3.016331120000000,0,0x5D,0x2F,Read,ACK
3.016355940000000,0,0x5D,0x00,Read,ACK
3.016378300000000,0,0x5D,0x04,Read,ACK
3.016400700000000,0,0x5D,0x03,Read,ACK
3.016422200000000,0,0x5D,0x29,Read,ACK
3.016443700000000,0,0x5D,0x04,Read,ACK
3.016465140000000,0,0x5D,0xDC,Read,ACK
3.016486600000000,0,0x5D,0x05,Read,ACK
3.016508620000000,0,0x5D,0x03,Read,ACK
3.016531000000000,0,0x5D,0x02,Read,ACK
3.016552720000000,0,0x5D,0x20,Read,ACK
3.016574180000000,0,0x5D,0x13,Read,ACK
3.016595640000000,0,0x5D,0xAF,Read,ACK
3.016617080000000,0,0x5D,0x03,Read,ACK
3.016638540000000,0,0x5D,0x71,Read,ACK
3.016660020000000,0,0x5D,0x03,Read,ACK
3.016681520000000,0,0x5D,0x03,Read,ACK
3.016703000000000,0,0x5D,0x02,Read,ACK
3.016724500000000,0,0x5D,0x20,Read,ACK
3.016746020000000,0,0x5D,0x00,Read,ACK
3.016768300000000,0,0x5D,0x00,Read,ACK
3.016789800000000,0,0x5D,0x00,Read,ACK
3.016811280000000,0,0x5D,0x00,Read,ACK
3.016832760000000,0,0x5D,0x00,Read,ACK
3.016854240000000,0,0x5D,0x00,Read,ACK
3.016875740000000,0,0x5D,0x00,Read,ACK
3.016898100000000,0,0x5D,0x00,Read,ACK
3.016920180000000,0,0x5D,0x00,Read,ACK
3.016942360000000,0,0x5D,0x00,Read,ACK
3.016963880000000,0,0x5D,0x00,Read,ACK
3.016985340000000,0,0x5D,0x00,Read,ACK
3.017006960000000,0,0x5D,0x00,Read,ACK
3.017028540000000,0,0x5D,0x00,Read,ACK
3.017050940000000,0,0x5D,0x00,Read,ACK
3.017072400000000,0,0x5D,0x00,Read,ACK
3.017093880000000,0,0x5D,0x00,Read,ACK
3.017115380000000,0,0x5D,0x00,Read,ACK
3.017136820000000,0,0x5D,0x00,Read,ACK
3.017158280000000,0,0x5D,0x00,Read,ACK
3.017179740000000,0,0x5D,0x00,Read,ACK
3.017201200000000,0,0x5D,0x00,Read,ACK
3.017222640000000,0,0x5D,0x00,Read,ACK
3.017245000000000,0,0x5D,0x00,Read,ACK
3.017267560000000,0,0x5D,0x2C,Read,ACK
3.017289020000000,0,0x5D,0xAE,Read,ACK
3.017310460000000,0,0x5D,0x02,Read,ACK
3.017332180000000,0,0x5D,0x00,Read,ACK
