Time [s],Packet ID,Address,Data,Read/Write,ACK/NAK
11.030706900000000,0,0x5D,0x2F,Read,ACK
11.030731380000001,0,0x5D,0x00,Read,ACK
11.030752860000000,0,0x5D,0x04,Read,ACK
11.030774360000001,0,0x5D,0x03,Read,ACK
11.030795820000000,0,0x5D,0xB4,Read,ACK
11.030818999999999,0,0x5D,0x01,Read,ACK
11.030840960000001,0,0x5D,0x5D,Read,ACK
11.030862400000000,0,0x5D,0x01,Read,ACK
11.030883859999999,0,0x5D,0x03,Read,ACK
11.030905320000000,0,0x5D,0x03,Read,ACK
11.030926780000000,0,0x5D,0x20,Read,ACK
11.030948280000000,0,0x5D,0x00,Read,ACK
11.030969740000000,0,0x5D,0x00,Read,ACK
11.030991200000001,0,0x5D,0x00,Read,ACK
11.031012640000000,0,0x5D,0x00,Read,ACK
11.031034099999999,0,0x5D,0x00,Read,ACK
11.031055560000000,0,0x5D,0x00,Read,ACK
11.031078020000001,0,0x5D,0x00,Read,ACK
11.031099559999999,0,0x5D,0x00,Read,ACK
11.031121040000000,0,0x5D,0x00,Read,ACK
11.031142500000000,0,0x5D,0x00,Read,ACK
11.031164000000000,0,0x5D,0x00,Read,ACK
11.031185560000001,0,0x5D,0x00,Read,ACK
11.031208280000000,0,0x5D,0x00,Read,ACK
11.031229740000001,0,0x5D,0x00,Read,ACK
11.031251859999999,0,0x5D,0x00,Read,ACK
11.031273320000000,0,0x5D,0x00,Read,ACK
11.031294780000000,0,0x5D,0x00,Read,ACK
11.031316660000000,0,0x5D,0x00,Read,ACK
11.031338160000001,0,0x5D,0x00,Read,ACK
11.031359840000000,0,0x5D,0x00,Read,ACK
11.031381280000000,0,0x5D,0x00,Read,ACK
11.031402740000001,0,0x5D,0x00,Read,ACK
11.031424260000000,0,0x5D,0x00,Read,ACK
11.031445800000000,0,0x5D,0x00,Read,ACK
11.031467279999999,0,0x5D,0x00,Read,ACK
11.031488919999999,0,0x5D,0x00,Read,ACK
11.031510380000000,0,0x5D,0x00,Read,ACK
11.031531840000000,0,0x5D,0x00,Read,ACK
11.031553300000001,0,0x5D,0x00,Read,ACK
11.031574740000000,0,0x5D,0x00,Read,ACK
11.031596199999999,0,0x5D,0x00,Read,ACK
11.031617660000000,0,0x5D,0x00,Read,ACK
11.031639100000000,0,0x5D,0xA6,Read,ACK
11.031660560000001,0,0x5D,0xB3,Read,ACK
11.031682000000000,0,0x5D,0x01,Read,ACK
11.031703479999999,0,0x5D,0x00,Read,ACK
11.031724980000000,0,0x5D,0x00,Read,ACK
11.031746439999999,0,0x5D,0x00,Read,ACK
11.031767920000000,0,0x5D,0x00,Read,ACK
11.031789420000001,0,0x5D,0x00,Read,ACK
11.031810920000000,0,0x5D,0x00,Read,ACK
11.031832359999999,0,0x5D,0x00,Read,ACK
11.031854220000000,0,0x5D,0x00,Read,ACK
11.031875740000000,0,0x5D,0x00,Read,ACK
11.031897239999999,0,0x5D,0x00,Read,ACK
11.031918859999999,0,0x5D,0x00,Read,ACK
11.031940320000000,0,0x5D,0x00,Read,ACK
11.031961780000000,0,0x5D,0x00,Read,ACK
11.031983240000001,0,0x5D,0x00,Read,ACK
11.032004680000000,0,0x5D,0x00,Read,ACK
11.032026139999999,0,0x5D,0x00,Read,ACK
11.032047600000000,0,0x5D,0x00,Read,ACK
11.032069060000000,0,0x5D,0x00,Read,NAK
11.037797260000000,0,0x5D,0x2F,Read,ACK
11.037822120000000,0,0x5D,0x00,Read,ACK
11.037843620000000,0,0x5D,0x04,Read,ACK
11.037865119999999,0,0x5D,0x03,Read,ACK
11.037886600000000,0,0x5D,0xB4,Read,ACK
11.037908099999999,0,0x5D,0x01,Read,ACK
11.037929560000000,0,0x5D,0x5D,Read,ACK
11.037951039999999,0,0x5D,0x01,Read,ACK
11.037974100000000,0,0x5D,0x03,Read,ACK
11.037995620000000,0,0x5D,0x02,Read,ACK
11.038017060000000,0,0x5D,0x20,Read,ACK
11.038039840000000,0,0x5D,0x00,Read,ACK
11.038061360000000,0,0x5D,0x00,Read,ACK
11.038084300000000,0,0x5D,0x00,Read,ACK
11.038107399999999,0,0x5D,0x00,Read,ACK
11.038128900000000,0,0x5D,0x00,Read,ACK
11.038150399999999,0,0x5D,0x00,Read,ACK
11.038171840000000,0,0x5D,0x00,Read,ACK
11.038193300000000,0,0x5D,0x00,Read,ACK
11.038214800000000,0,0x5D,0x00,Read,ACK
11.038237759999999,0,0x5D,0x00,Read,ACK
11.038259220000000,0,0x5D,0x00,Read,ACK
11.038282140000000,0,0x5D,0x00,Read,ACK
11.038303620000001,0,0x5D,0x00,Read,ACK
11.038325100000000,0,0x5D,0x00,Read,ACK
11.038347220000000,0,0x5D,0x00,Read,ACK
11.038371379999999,0,0x5D,0x00,Read,ACK
11.038392860000000,0,0x5D,0x00,Read,ACK
11.038414319999999,0,0x5D,0x00,Read,ACK
11.038436080000000,0,0x5D,0x00,Read,ACK
11.038457520000000,0,0x5D,0x00,Read,ACK
11.038479000000001,0,0x5D,0x00,Read,ACK
11.038501800000001,0,0x5D,0x00,Read,ACK
11.038523300000000,0,0x5D,0x00,Read,ACK
11.038544780000001,0,0x5D,0x00,Read,ACK
11.038566220000000,0,0x5D,0x00,Read,ACK
11.038587679999999,0,0x5D,0x00,Read,ACK
11.038609180000000,0,0x5D,0x00,Read,ACK
11.038630639999999,0,0x5D,0x00,Read,ACK
11.038652100000000,0,0x5D,0x00,Read,ACK
11.038673540000000,0,0x5D,0x00,Read,ACK
11.038695000000001,0,0x5D,0x00,Read,ACK
11.038716460000000,0,0x5D,0x00,Read,ACK
11.038737920000001,0,0x5D,0xEC,Read,ACK
11.038759620000000,0,0x5D,0xB3,Read,ACK
11.038781119999999,0,0x5D,0x01,Read,ACK
11.038802759999999,0,0x5D,0x00,Read,ACK
11.038824399999999,0,0x5D,0x00,Read,ACK
11.038845840000000,0,0x5D,0x00,Read,ACK
11.038867320000000,0,0x5D,0x00,Read,ACK
11.038888760000001,0,0x5D,0x00,Read,ACK
11.038910240000000,0,0x5D,0x00,Read,ACK
11.038931720000001,0,0x5D,0x00,Read,ACK
11.038953200000000,0,0x5D,0x00,Read,ACK
11.038974720000001,0,0x5D,0x00,Read,ACK
11.038996340000001,0,0x5D,0x00,Read,ACK
11.039017800000000,0,0x5D,0x00,Read,ACK
11.039039680000000,0,0x5D,0x00,Read,ACK
11.039061200000001,0,0x5D,0x00,Read,ACK
11.039082720000000,0,0x5D,0x00,Read,ACK
11.039104660000000,0,0x5D,0x00,Read,ACK
11.039126120000001,0,0x5D,0x00,Read,ACK
11.039147560000000,0,0x5D,0x00,Read,ACK
11.039170280000000,0,0x5D,0x00,Read,NAK
11.045084780000000,0,0x5D,0x2F,Read,ACK
11.045106380000000,0,0x5D,0x00,Read,ACK
11.045127880000001,0,0x5D,0x04,Read,ACK
11.045149340000000,0,0x5D,0x03,Read,ACK
11.045172760000000,0,0x5D,0xB4,Read,ACK
11.045195460000000,0,0x5D,0x01,Read,ACK
11.045219339999999,0,0x5D,0x5D,Read,ACK
11.045240840000000,0,0x5D,0x01,Read,ACK
11.045262340000001,0,0x5D,0x03,Read,ACK
11.045283840000000,0,0x5D,0x02,Read,ACK
11.045305320000001,0,0x5D,0x20,Read,ACK
11.045326760000000,0,0x5D,0x13,Read,ACK
11.045348280000001,0,0x5D,0x6D,Read,ACK
11.045371039999999,0,0x5D,0x0C,Read,ACK
11.045392520000000,0,0x5D,0xD9,Read,ACK
11.045414020000001,0,0x5D,0x08,Read,ACK
11.045435520000000,0,0x5D,0x02,Read,ACK
11.045456980000001,0,0x5D,0x03,Read,ACK
11.045478420000000,0,0x5D,0x20,Read,ACK
11.045499879999999,0,0x5D,0x00,Read,ACK
11.045523579999999,0,0x5D,0x00,Read,ACK
11.045545120000000,0,0x5D,0x00,Read,ACK
11.045566620000001,0,0x5D,0x00,Read,ACK
11.045590140000000,0,0x5D,0x00,Read,ACK
11.045611780000000,0,0x5D,0x00,Read,ACK
11.045633840000001,0,0x5D,0x00,Read,ACK
11.045655399999999,0,0x5D,0x00,Read,ACK
11.045676860000000,0,0x5D,0x00,Read,ACK
11.045698320000000,0,0x5D,0x00,Read,ACK
11.045719820000000,0,0x5D,0x00,Read,ACK
11.045741280000000,0,0x5D,0x00,Read,ACK
11.045762720000001,0,0x5D,0x00,Read,ACK
11.045784240000000,0,0x5D,0x00,Read,ACK
11.045805700000001,0,0x5D,0x00,Read,ACK
11.045827140000000,0,0x5D,0x00,Read,ACK
11.045849040000000,0,0x5D,0x00,Read,ACK
11.045870559999999,0,0x5D,0x00,Read,ACK
11.045892000000000,0,0x5D,0x00,Read,ACK
11.045913460000000,0,0x5D,0x00,Read,ACK
11.045934920000001,0,0x5D,0x00,Read,ACK
11.045956439999999,0,0x5D,0x00,Read,ACK
11.045977900000000,0,0x5D,0x00,Read,ACK
11.045999399999999,0,0x5D,0x00,Read,ACK
11.046020840000001,0,0x5D,0x32,Read,ACK
11.046042300000000,0,0x5D,0xB4,Read,ACK
11.046063759999999,0,0x5D,0x02,Read,ACK
11.046085220000000,0,0x5D,0x00,Read,ACK
11.046106760000001,0,0x5D,0x00,Read,ACK
11.046128280000000,0,0x5D,0x00,Read,ACK
11.046149760000000,0,0x5D,0x00,Read,ACK
11.046171220000000,0,0x5D,0x00,Read,ACK
11.046192760000000,0,0x5D,0x00,Read,ACK
11.046214239999999,0,0x5D,0x00,Read,ACK
11.046235700000000,0,0x5D,0x00,Read,ACK
11.046257140000000,0,0x5D,0x00,Read,ACK
11.046278600000001,0,0x5D,0x00,Read,ACK
11.046300060000000,0,0x5D,0x00,Read,ACK
11.046321499999999,0,0x5D,0x00,Read,ACK
11.046342960000000,0,0x5D,0x00,Read,ACK
11.046364420000000,0,0x5D,0x00,Read,ACK
11.046385940000000,0,0x5D,0x00,Read,ACK
11.046407380000000,0,0x5D,0x00,Read,ACK
11.046428840000001,0,0x5D,0x00,Read,ACK
11.046450280000000,0,0x5D,0x00,Read,NAK
11.052161720000001,0,0x5D,0x2F,Read,ACK
11.052187119999999,0,0x5D,0x00,Read,ACK
11.052208580000000,0,0x5D,0x04,Read,ACK
11.052230079999999,0,0x5D,0x03,Read,ACK
11.052251540000000,0,0x5D,0xB4,Read,ACK
11.052272980000000,0,0x5D,0x01,Read,ACK
11.052294440000001,0,0x5D,0x5D,Read,ACK
11.052315880000000,0,0x5D,0x01,Read,ACK
11.052337339999999,0,0x5D,0x03,Read,ACK
11.052360459999999,0,0x5D,0x02,Read,ACK
11.052382900000000,0,0x5D,0x20,Read,ACK
11.052406700000001,0,0x5D,0x13,Read,ACK
11.052428200000000,0,0x5D,0x6D,Read,ACK
11.052449660000001,0,0x5D,0x0C,Read,ACK
11.052471100000000,0,0x5D,0xD9,Read,ACK
11.052492579999999,0,0x5D,0x08,Read,ACK
11.052514080000000,0,0x5D,0x02,Read,ACK
11.052535539999999,0,0x5D,0x03,Read,ACK
11.052557080000000,0,0x5D,0x20,Read,ACK
11.052579939999999,0,0x5D,0x00,Read,ACK
11.052601380000000,0,0x5D,0x00,Read,ACK
11.052622840000000,0,0x5D,0x00,Read,ACK
11.052644300000001,0,0x5D,0x00,Read,ACK
11.052665800000000,0,0x5D,0x00,Read,ACK
11.052688099999999,0,0x5D,0x00,Read,ACK
11.052709580000000,0,0x5D,0x00,Read,ACK
11.052732020000001,0,0x5D,0x00,Read,ACK
11.052753480000000,0,0x5D,0x00,Read,ACK
11.052774919999999,0,0x5D,0x00,Read,ACK
11.052796400000000,0,0x5D,0x00,Read,ACK
11.052817920000001,0,0x5D,0x00,Read,ACK
11.052839420000000,0,0x5D,0x00,Read,ACK
11.052860900000001,0,0x5D,0x00,Read,ACK
11.052882380000000,0,0x5D,0x00,Read,ACK
11.052903840000001,0,0x5D,0x00,Read,ACK
11.052925300000000,0,0x5D,0x00,Read,ACK
11.052946820000001,0,0x5D,0x00,Read,ACK
11.052968260000000,0,0x5D,0x00,Read,ACK
11.052989719999999,0,0x5D,0x00,Read,ACK
11.053011160000001,0,0x5D,0x00,Read,ACK
11.053032640000000,0,0x5D,0x00,Read,ACK
11.053054140000000,0,0x5D,0x00,Read,ACK
11.053075600000000,0,0x5D,0x00,Read,ACK
11.053097040000001,0,0x5D,0x78,Read,ACK
11.053118520000000,0,0x5D,0xB4,Read,ACK
11.053140020000001,0,0x5D,0x02,Read,ACK
11.053161520000000,0,0x5D,0x00,Read,ACK
11.053183560000001,0,0x5D,0x00,Read,ACK
11.053207459999999,0,0x5D,0x00,Read,ACK
11.053228960000000,0,0x5D,0x00,Read,ACK
11.053250459999999,0,0x5D,0x00,Read,ACK
11.053271960000000,0,0x5D,0x00,Read,ACK
11.053293419999999,0,0x5D,0x00,Read,ACK
11.053314880000000,0,0x5D,0x00,Read,ACK
11.053336320000000,0,0x5D,0x00,Read,ACK
11.053357780000001,0,0x5D,0x00,Read,ACK
11.053379359999999,0,0x5D,0x00,Read,ACK
11.053400840000000,0,0x5D,0x00,Read,ACK
11.053422339999999,0,0x5D,0x00,Read,ACK
11.053443860000000,0,0x5D,0x00,Read,ACK
11.053465400000000,0,0x5D,0x00,Read,ACK
11.053486860000000,0,0x5D,0x00,Read,ACK
11.053508320000001,0,0x5D,0x00,Read,ACK
11.053529820000000,0,0x5D,0x00,Read,NAK
11.059410160000001,0,0x5D,0x2F,Read,ACK
11.059438699999999,0,0x5D,0x00,Read,ACK
11.059460400000001,0,0x5D,0x04,Read,ACK
11.059482100000000,0,0x5D,0x03,Read,ACK
11.059504820000001,0,0x5D,0xB4,Read,ACK
11.059526340000000,0,0x5D,0x01,Read,ACK
11.059547860000000,0,0x5D,0x5D,Read,ACK
11.059569339999999,0,0x5D,0x01,Read,ACK
11.059590800000000,0,0x5D,0x03,Read,ACK
11.059612260000000,0,0x5D,0x02,Read,ACK
11.059633699999999,0,0x5D,0x20,Read,ACK
11.059655200000000,0,0x5D,0x13,Read,ACK
11.059676820000000,0,0x5D,0x6D,Read,ACK
11.059698320000001,0,0x5D,0x0C,Read,ACK
11.059719899999999,0,0x5D,0xD9,Read,ACK
11.059741420000000,0,0x5D,0x08,Read,ACK
11.059762859999999,0,0x5D,0x02,Read,ACK
11.059784360000000,0,0x5D,0x03,Read,ACK
11.059805839999999,0,0x5D,0x20,Read,ACK
11.059827759999999,0,0x5D,0x00,Read,ACK
11.059849240000000,0,0x5D,0x00,Read,ACK
11.059870699999999,0,0x5D,0x00,Read,ACK
11.059892160000000,0,0x5D,0x00,Read,ACK
11.059913699999999,0,0x5D,0x00,Read,ACK
11.059935200000000,0,0x5D,0x00,Read,ACK
11.059956639999999,0,0x5D,0x00,Read,ACK
11.059978100000000,0,0x5D,0x00,Read,ACK
11.059999619999999,0,0x5D,0x00,Read,ACK
11.060021060000000,0,0x5D,0x00,Read,ACK
11.060042520000000,0,0x5D,0x00,Read,ACK
11.060063980000001,0,0x5D,0x00,Read,ACK
11.060085500000000,0,0x5D,0x00,Read,ACK
11.060106940000001,0,0x5D,0x00,Read,ACK
11.060128420000000,0,0x5D,0x00,Read,ACK
11.060149940000001,0,0x5D,0x00,Read,ACK
11.060171459999999,0,0x5D,0x00,Read,ACK
11.060192980000000,0,0x5D,0x00,Read,ACK
11.060214480000001,0,0x5D,0x00,Read,ACK
11.060236200000000,0,0x5D,0x00,Read,ACK
11.060257719999999,0,0x5D,0x00,Read,ACK
11.060279220000000,0,0x5D,0x00,Read,ACK
11.060300659999999,0,0x5D,0x00,Read,ACK
11.060322140000000,0,0x5D,0x00,Read,ACK
11.060343639999999,0,0x5D,0xBE,Read,ACK
11.060365120000000,0,0x5D,0xB4,Read,ACK
11.060386619999999,0,0x5D,0x02,Read,ACK
11.060408080000000,0,0x5D,0x00,Read,ACK
11.060429600000001,0,0x5D,0x00,Read,ACK
11.060451060000000,0,0x5D,0x00,Read,ACK
11.060472559999999,0,0x5D,0x00,Read,ACK
11.060494459999999,0,0x5D,0x00,Read,ACK
11.060516059999999,0,0x5D,0x00,Read,ACK
11.060537540000000,0,0x5D,0x00,Read,ACK
11.060560779999999,0,0x5D,0x00,Read,ACK
11.060582480000001,0,0x5D,0x00,Read,ACK
11.060604840000000,0,0x5D,0x00,Read,ACK
11.060626299999999,0,0x5D,0x00,Read,ACK
11.060647820000000,0,0x5D,0x00,Read,ACK
11.060669380000000,0,0x5D,0x00,Read,ACK
11.060690859999999,0,0x5D,0x00,Read,ACK
11.060712519999999,0,0x5D,0x00,Read,ACK
11.060734600000000,0,0x5D,0x00,Read,ACK
11.060756100000001,0,0x5D,0x00,Read,ACK
11.060778579999999,0,0x5D,0x00,Read,NAK
11.066583919999999,0,0x5D,0x2F,Read,ACK
11.066609980000001,0,0x5D,0x00,Read,ACK
11.066631660000001,0,0x5D,0x04,Read,ACK
11.066653260000001,0,0x5D,0x03,Read,ACK
11.066677040000000,0,0x5D,0xB4,Read,ACK
11.066698499999999,0,0x5D,0x01,Read,ACK
11.066720000000000,0,0x5D,0x5D,Read,ACK
11.066741479999999,0,0x5D,0x01,Read,ACK
11.066762980000000,0,0x5D,0x03,Read,ACK
11.066784419999999,0,0x5D,0x02,Read,ACK
11.066807000000001,0,0x5D,0x20,Read,ACK
11.066828460000000,0,0x5D,0x13,Read,ACK
11.066849899999999,0,0x5D,0x6D,Read,ACK
11.066871360000000,0,0x5D,0x0C,Read,ACK
11.066894019999999,0,0x5D,0xD9,Read,ACK
11.066915679999999,0,0x5D,0x08,Read,ACK
11.066937380000001,0,0x5D,0x02,Read,ACK
11.066958860000000,0,0x5D,0x04,Read,ACK
11.066980760000000,0,0x5D,0x20,Read,ACK
11.067002260000001,0,0x5D,0x00,Read,ACK
11.067024280000000,0,0x5D,0x00,Read,ACK
11.067045739999999,0,0x5D,0x00,Read,ACK
11.067067560000000,0,0x5D,0x00,Read,ACK
11.067089080000001,0,0x5D,0x00,Read,ACK
11.067110540000000,0,0x5D,0x00,Read,ACK
11.067132000000001,0,0x5D,0x00,Read,ACK
11.067153520000000,0,0x5D,0x00,Read,ACK
11.067175020000001,0,0x5D,0x00,Read,ACK
11.067196460000000,0,0x5D,0x00,Read,ACK
11.067217919999999,0,0x5D,0x00,Read,ACK
11.067239380000000,0,0x5D,0x00,Read,ACK
11.067260859999999,0,0x5D,0x00,Read,ACK
11.067282360000000,0,0x5D,0x00,Read,ACK
11.067303799999999,0,0x5D,0x00,Read,ACK
11.067325260000000,0,0x5D,0x00,Read,ACK
11.067346720000000,0,0x5D,0x00,Read,ACK
11.067368260000000,0,0x5D,0x00,Read,ACK
11.067389759999999,0,0x5D,0x00,Read,ACK
11.067411220000000,0,0x5D,0x00,Read,ACK
11.067432660000000,0,0x5D,0x00,Read,ACK
11.067454140000001,0,0x5D,0x00,Read,ACK
11.067475640000000,0,0x5D,0x00,Read,ACK
11.067497080000001,0,0x5D,0x00,Read,ACK
11.067518540000000,0,0x5D,0x04,Read,ACK
11.067540180000000,0,0x5D,0xB5,Read,ACK
11.067561639999999,0,0x5D,0x02,Read,ACK
11.067583080000000,0,0x5D,0x00,Read,ACK
11.067604540000000,0,0x5D,0x00,Read,ACK
11.067626000000001,0,0x5D,0x00,Read,ACK
11.067647620000001,0,0x5D,0x00,Read,ACK
11.067669100000000,0,0x5D,0x00,Read,ACK
11.067694299999999,0,0x5D,0x00,Read,ACK
11.067716660000000,0,0x5D,0x00,Read,ACK
11.067738139999999,0,0x5D,0x00,Read,ACK
11.067759620000000,0,0x5D,0x00,Read,ACK
11.067781419999999,0,0x5D,0x00,Read,ACK
11.067802880000000,0,0x5D,0x00,Read,ACK
11.067824340000000,0,0x5D,0x00,Read,ACK
11.067846579999999,0,0x5D,0x00,Read,ACK
11.067868040000000,0,0x5D,0x00,Read,ACK
11.067891960000001,0,0x5D,0x00,Read,ACK
11.067913460000000,0,0x5D,0x00,Read,ACK
11.067935380000000,0,0x5D,0x00,Read,ACK
11.067958300000001,0,0x5D,0x00,Read,NAK
11.073624860000001,0,0x5D,0x2F,Read,ACK
11.073648020000000,0,0x5D,0x00,Read,ACK
11.073669499999999,0,0x5D,0x04,Read,ACK
11.073690960000000,0,0x5D,0x03,Read,ACK
11.073712420000000,0,0x5D,0xB4,Read,ACK
11.073733880000001,0,0x5D,0x01,Read,ACK
11.073755340000000,0,0x5D,0x5D,Read,ACK
11.073776860000001,0,0x5D,0x01,Read,ACK
11.073799840000000,0,0x5D,0x03,Read,ACK
11.073822720000001,0,0x5D,0x02,Read,ACK
11.073844400000000,0,0x5D,0x20,Read,ACK
11.073865919999999,0,0x5D,0x13,Read,ACK
11.073887360000001,0,0x5D,0x6D,Read,ACK
11.073908879999999,0,0x5D,0x0C,Read,ACK
11.073930340000000,0,0x5D,0xD9,Read,ACK
11.073951960000000,0,0x5D,0x08,Read,ACK
11.073974840000000,0,0x5D,0x02,Read,ACK
11.073996319999999,0,0x5D,0x04,Read,ACK
11.074018340000000,0,0x5D,0x20,Read,ACK
11.074039839999999,0,0x5D,0x00,Read,ACK
11.074062520000000,0,0x5D,0x00,Read,ACK
11.074085620000000,0,0x5D,0x00,Read,ACK
11.074107079999999,0,0x5D,0x00,Read,ACK
11.074128580000000,0,0x5D,0x00,Read,ACK
11.074150059999999,0,0x5D,0x00,Read,ACK
11.074171500000000,0,0x5D,0x00,Read,ACK
11.074192960000000,0,0x5D,0x00,Read,ACK
11.074214540000000,0,0x5D,0x00,Read,ACK
11.074236800000000,0,0x5D,0x00,Read,ACK
11.074258260000001,0,0x5D,0x00,Read,ACK
11.074279700000000,0,0x5D,0x00,Read,ACK
11.074301159999999,0,0x5D,0x00,Read,ACK
11.074322620000000,0,0x5D,0x00,Read,ACK
11.074344079999999,0,0x5D,0x00,Read,ACK
11.074365520000001,0,0x5D,0x00,Read,ACK
11.074386980000000,0,0x5D,0x00,Read,ACK
11.074408419999999,0,0x5D,0x00,Read,ACK
11.074429880000000,0,0x5D,0x00,Read,ACK
11.074451340000000,0,0x5D,0x00,Read,ACK
11.074472800000001,0,0x5D,0x00,Read,ACK
11.074494240000000,0,0x5D,0x00,Read,ACK
11.074515699999999,0,0x5D,0x00,Read,ACK
11.074537200000000,0,0x5D,0x00,Read,ACK
11.074558659999999,0,0x5D,0x4A,Read,ACK
11.074580120000000,0,0x5D,0xB5,Read,ACK
11.074601580000000,0,0x5D,0x02,Read,ACK
11.074624200000001,0,0x5D,0x00,Read,ACK
11.074645680000000,0,0x5D,0x00,Read,ACK
11.074667200000000,0,0x5D,0x00,Read,ACK
11.074688699999999,0,0x5D,0x00,Read,ACK
11.074710220000000,0,0x5D,0x00,Read,ACK
11.074731679999999,0,0x5D,0x00,Read,ACK
11.074753180000000,0,0x5D,0x00,Read,ACK
11.074774639999999,0,0x5D,0x00,Read,ACK
11.074796100000000,0,0x5D,0x00,Read,ACK
11.074817840000000,0,0x5D,0x00,Read,ACK
11.074839320000001,0,0x5D,0x00,Read,ACK
11.074862639999999,0,0x5D,0x00,Read,ACK
11.074885840000000,0,0x5D,0x00,Read,ACK
11.074907319999999,0,0x5D,0x00,Read,ACK
11.074929520000000,0,0x5D,0x00,Read,ACK
11.074952280000000,0,0x5D,0x00,Read,ACK
11.074973959999999,0,0x5D,0x00,Read,ACK
11.074995460000000,0,0x5D,0x00,Read,NAK
11.080674000000000,0,0x5D,0x2F,Read,ACK
11.080699520000000,0,0x5D,0x00,Read,ACK
11.080722379999999,0,0x5D,0x04,Read,ACK
11.080743840000000,0,0x5D,0x03,Read,ACK
11.080765339999999,0,0x5D,0xB4,Read,ACK
11.080786800000000,0,0x5D,0x01,Read,ACK
11.080808319999999,0,0x5D,0x5D,Read,ACK
11.080829820000000,0,0x5D,0x01,Read,ACK
11.080851300000001,0,0x5D,0x03,Read,ACK
11.080872740000000,0,0x5D,0x02,Read,ACK
11.080894199999999,0,0x5D,0x20,Read,ACK
11.080915700000000,0,0x5D,0x13,Read,ACK
11.080938280000000,0,0x5D,0x6D,Read,ACK
11.080960320000001,0,0x5D,0x0C,Read,ACK
11.080981820000000,0,0x5D,0xD9,Read,ACK
11.081003360000000,0,0x5D,0x08,Read,ACK
11.081024859999999,0,0x5D,0x02,Read,ACK
11.081046300000001,0,0x5D,0x04,Read,ACK
11.081067780000000,0,0x5D,0x20,Read,ACK
11.081089280000000,0,0x5D,0x00,Read,ACK
11.081110740000000,0,0x5D,0x00,Read,ACK
11.081132700000000,0,0x5D,0x00,Read,ACK
11.081154560000000,0,0x5D,0x00,Read,ACK
11.081176800000000,0,0x5D,0x00,Read,ACK
11.081198300000001,0,0x5D,0x00,Read,ACK
11.081219800000000,0,0x5D,0x00,Read,ACK
11.081241300000000,0,0x5D,0x00,Read,ACK
11.081264239999999,0,0x5D,0x00,Read,ACK
11.081285720000000,0,0x5D,0x00,Read,ACK
11.081307199999999,0,0x5D,0x00,Read,ACK
11.081328640000001,0,0x5D,0x00,Read,ACK
11.081350100000000,0,0x5D,0x00,Read,ACK
11.081371559999999,0,0x5D,0x00,Read,ACK
11.081393360000000,0,0x5D,0x00,Read,ACK
11.081414840000001,0,0x5D,0x00,Read,ACK
11.081438139999999,0,0x5D,0x00,Read,ACK
11.081460040000000,0,0x5D,0x00,Read,ACK
11.081481500000001,0,0x5D,0x00,Read,ACK
11.081502960000000,0,0x5D,0x00,Read,ACK
11.081524419999999,0,0x5D,0x00,Read,ACK
11.081545860000000,0,0x5D,0x00,Read,ACK
11.081567320000000,0,0x5D,0x00,Read,ACK
11.081588780000001,0,0x5D,0x00,Read,ACK
11.081610240000000,0,0x5D,0x90,Read,ACK
11.081631679999999,0,0x5D,0xB5,Read,ACK
11.081653140000000,0,0x5D,0x02,Read,ACK
11.081674599999999,0,0x5D,0x00,Read,ACK
11.081696040000001,0,0x5D,0x00,Read,ACK
11.081717840000000,0,0x5D,0x00,Read,ACK
11.081739320000001,0,0x5D,0x00,Read,ACK
11.081760800000000,0,0x5D,0x00,Read,ACK
11.081782320000000,0,0x5D,0x00,Read,ACK
11.081803819999999,0,0x5D,0x00,Read,ACK
11.081825260000000,0,0x5D,0x00,Read,ACK
11.081846720000000,0,0x5D,0x00,Read,ACK
11.081868180000001,0,0x5D,0x00,Read,ACK
11.081889640000000,0,0x5D,0x00,Read,ACK
11.081911079999999,0,0x5D,0x00,Read,ACK
11.081932560000000,0,0x5D,0x00,Read,ACK
11.081954079999999,0,0x5D,0x00,Read,ACK
11.081975640000000,0,0x5D,0x00,Read,ACK
11.081997100000001,0,0x5D,0x00,Read,ACK
11.082020480000001,0,0x5D,0x00,Read,ACK
11.082042440000000,0,0x5D,0x00,Read,NAK
11.087842400000000,0,0x5D,0x2F,Read,ACK
11.087867040000001,0,0x5D,0x00,Read,ACK
11.087889640000000,0,0x5D,0x04,Read,ACK
11.087911080000000,0,0x5D,0x03,Read,ACK
11.087932540000001,0,0x5D,0xB4,Read,ACK
11.087954000000000,0,0x5D,0x01,Read,ACK
11.087975459999999,0,0x5D,0x5D,Read,ACK
11.087996900000000,0,0x5D,0x01,Read,ACK
11.088019120000000,0,0x5D,0x03,Read,ACK
11.088040560000000,0,0x5D,0x02,Read,ACK
11.088062080000000,0,0x5D,0x20,Read,ACK
11.088084719999999,0,0x5D,0x13,Read,ACK
11.088106240000000,0,0x5D,0x6D,Read,ACK
11.088130220000000,0,0x5D,0x0C,Read,ACK
11.088151740000001,0,0x5D,0xD9,Read,ACK
11.088173220000000,0,0x5D,0x08,Read,ACK
11.088194659999999,0,0x5D,0x02,Read,ACK
11.088216140000000,0,0x5D,0x04,Read,ACK
11.088237579999999,0,0x5D,0x20,Read,ACK
11.088259539999999,0,0x5D,0x00,Read,ACK
11.088280980000000,0,0x5D,0x00,Read,ACK
11.088302440000000,0,0x5D,0x00,Read,ACK
11.088323920000001,0,0x5D,0x00,Read,ACK
11.088345420000000,0,0x5D,0x00,Read,ACK
11.088367000000000,0,0x5D,0x00,Read,ACK
11.088388780000001,0,0x5D,0x00,Read,ACK
11.088410240000000,0,0x5D,0x00,Read,ACK
11.088432839999999,0,0x5D,0x00,Read,ACK
11.088454320000000,0,0x5D,0x00,Read,ACK
11.088475819999999,0,0x5D,0x00,Read,ACK
11.088497320000000,0,0x5D,0x00,Read,ACK
11.088521520000000,0,0x5D,0x00,Read,ACK
11.088543000000000,0,0x5D,0x00,Read,ACK
11.088564720000001,0,0x5D,0x00,Read,ACK
11.088586340000001,0,0x5D,0x00,Read,ACK
11.088607800000000,0,0x5D,0x00,Read,ACK
11.088629320000001,0,0x5D,0x00,Read,ACK
11.088650780000000,0,0x5D,0x00,Read,ACK
11.088672219999999,0,0x5D,0x00,Read,ACK
11.088693680000000,0,0x5D,0x00,Read,ACK
11.088715140000000,0,0x5D,0x00,Read,ACK
11.088736580000001,0,0x5D,0x00,Read,ACK
11.088758040000000,0,0x5D,0x00,Read,ACK
11.088779479999999,0,0x5D,0xD6,Read,ACK
11.088800960000000,0,0x5D,0xB5,Read,ACK
11.088822459999999,0,0x5D,0x02,Read,ACK
11.088843900000001,0,0x5D,0x00,Read,ACK
11.088865360000000,0,0x5D,0x00,Read,ACK
11.088886820000001,0,0x5D,0x00,Read,ACK
11.088908280000000,0,0x5D,0x00,Read,ACK
11.088929900000000,0,0x5D,0x00,Read,ACK
11.088951379999999,0,0x5D,0x00,Read,ACK
11.088972880000000,0,0x5D,0x00,Read,ACK
11.088994339999999,0,0x5D,0x00,Read,ACK
11.089015800000000,0,0x5D,0x00,Read,ACK
11.089037240000000,0,0x5D,0x00,Read,ACK
11.089058720000001,0,0x5D,0x00,Read,ACK
11.089080160000000,0,0x5D,0x00,Read,ACK
11.089101619999999,0,0x5D,0x00,Read,ACK
11.089123060000000,0,0x5D,0x00,Read,ACK
11.089147020000000,0,0x5D,0x00,Read,ACK
11.089168720000000,0,0x5D,0x00,Read,ACK
11.089190300000000,0,0x5D,0x00,Read,ACK
11.089211760000000,0,0x5D,0x00,Read,NAK
11.095100600000000,0,0x5D,0x2F,Read,ACK
11.095123259999999,0,0x5D,0x00,Read,ACK
11.095144760000000,0,0x5D,0x04,Read,ACK
11.095166200000000,0,0x5D,0x03,Read,ACK
11.095187680000000,0,0x5D,0xB4,Read,ACK
11.095209759999999,0,0x5D,0x01,Read,ACK
11.095231979999999,0,0x5D,0x5D,Read,ACK
11.095257940000000,0,0x5D,0x01,Read,ACK
11.095279420000001,0,0x5D,0x03,Read,ACK
11.095300860000000,0,0x5D,0x02,Read,ACK
11.095322319999999,0,0x5D,0x20,Read,ACK
11.095343780000000,0,0x5D,0x13,Read,ACK
11.095365220000000,0,0x5D,0x6D,Read,ACK
11.095387020000000,0,0x5D,0x0C,Read,ACK
11.095408640000000,0,0x5D,0xD9,Read,ACK
11.095430159999999,0,0x5D,0x08,Read,ACK
11.095451600000001,0,0x5D,0x02,Read,ACK
11.095473760000001,0,0x5D,0x04,Read,ACK
11.095495260000000,0,0x5D,0x20,Read,ACK
11.095516720000001,0,0x5D,0x00,Read,ACK
11.095538180000000,0,0x5D,0x00,Read,ACK
11.095561000000000,0,0x5D,0x00,Read,ACK
11.095582500000001,0,0x5D,0x00,Read,ACK
11.095604000000000,0,0x5D,0x00,Read,ACK
11.095625480000001,0,0x5D,0x00,Read,ACK
11.095647120000001,0,0x5D,0x00,Read,ACK
11.095668620000000,0,0x5D,0x00,Read,ACK
11.095690120000000,0,0x5D,0x00,Read,ACK
11.095711639999999,0,0x5D,0x00,Read,ACK
11.095733160000000,0,0x5D,0x00,Read,ACK
11.095754660000001,0,0x5D,0x00,Read,ACK
11.095776120000000,0,0x5D,0x00,Read,ACK
11.095797559999999,0,0x5D,0x00,Read,ACK
11.095819020000000,0,0x5D,0x00,Read,ACK
11.095840460000000,0,0x5D,0x00,Read,ACK
11.095861940000001,0,0x5D,0x00,Read,ACK
11.095883380000000,0,0x5D,0x00,Read,ACK
11.095904839999999,0,0x5D,0x00,Read,ACK
11.095926300000000,0,0x5D,0x00,Read,ACK
11.095947760000000,0,0x5D,0x00,Read,ACK
11.095969520000001,0,0x5D,0x00,Read,ACK
11.095991039999999,0,0x5D,0x00,Read,ACK
11.096013660000001,0,0x5D,0x00,Read,ACK
11.096035120000000,0,0x5D,0x1C,Read,ACK
11.096056580000001,0,0x5D,0xB6,Read,ACK
11.096078040000000,0,0x5D,0x02,Read,ACK
11.096099499999999,0,0x5D,0x00,Read,ACK
11.096120980000000,0,0x5D,0x00,Read,ACK
11.096142459999999,0,0x5D,0x00,Read,ACK
11.096163940000000,0,0x5D,0x00,Read,ACK
11.096185439999999,0,0x5D,0x00,Read,ACK
11.096206900000000,0,0x5D,0x00,Read,ACK
11.096228379999999,0,0x5D,0x00,Read,ACK
11.096249880000000,0,0x5D,0x00,Read,ACK
11.096272180000000,0,0x5D,0x00,Read,ACK
11.096294520000001,0,0x5D,0x00,Read,ACK
11.096316200000000,0,0x5D,0x00,Read,ACK
11.096339459999999,0,0x5D,0x00,Read,ACK
11.096361340000000,0,0x5D,0x00,Read,ACK
11.096382840000000,0,0x5D,0x00,Read,ACK
11.096404300000000,0,0x5D,0x00,Read,ACK
11.096425760000001,0,0x5D,0x00,Read,ACK
11.096447200000000,0,0x5D,0x00,Read,ACK
11.096470280000000,0,0x5D,0x00,Read,NAK
11.102153879999999,0,0x5D,0x2F,Read,ACK
11.102180760000000,0,0x5D,0x00,Read,ACK
11.102202200000001,0,0x5D,0x04,Read,ACK
11.102223660000000,0,0x5D,0x03,Read,ACK
11.102245119999999,0,0x5D,0xB4,Read,ACK
11.102266580000000,0,0x5D,0x01,Read,ACK
11.102288039999999,0,0x5D,0x5D,Read,ACK
11.102309540000000,0,0x5D,0x01,Read,ACK
11.102331000000000,0,0x5D,0x03,Read,ACK
11.102353780000000,0,0x5D,0x02,Read,ACK
11.102375340000000,0,0x5D,0x20,Read,ACK
11.102397379999999,0,0x5D,0x13,Read,ACK
11.102418900000000,0,0x5D,0x6D,Read,ACK
11.102440400000001,0,0x5D,0x0C,Read,ACK
11.102461860000000,0,0x5D,0xD9,Read,ACK
11.102483360000001,0,0x5D,0x08,Read,ACK
11.102504820000000,0,0x5D,0x02,Read,ACK
11.102526780000000,0,0x5D,0x04,Read,ACK
11.102548680000000,0,0x5D,0x20,Read,ACK
11.102570180000001,0,0x5D,0x00,Read,ACK
11.102591640000000,0,0x5D,0x00,Read,ACK
11.102613119999999,0,0x5D,0x00,Read,ACK
11.102634620000000,0,0x5D,0x00,Read,ACK
11.102656359999999,0,0x5D,0x00,Read,ACK
11.102677820000000,0,0x5D,0x00,Read,ACK
11.102699360000001,0,0x5D,0x00,Read,ACK
11.102720860000000,0,0x5D,0x00,Read,ACK
11.102742360000001,0,0x5D,0x00,Read,ACK
11.102765440000001,0,0x5D,0x00,Read,ACK
11.102788380000000,0,0x5D,0x00,Read,ACK
11.102810860000000,0,0x5D,0x00,Read,ACK
11.102832319999999,0,0x5D,0x00,Read,ACK
11.102853780000000,0,0x5D,0x00,Read,ACK
11.102875220000000,0,0x5D,0x00,Read,ACK
11.102896680000001,0,0x5D,0x00,Read,ACK
11.102918140000000,0,0x5D,0x00,Read,ACK
11.102939599999999,0,0x5D,0x00,Read,ACK
11.102961060000000,0,0x5D,0x00,Read,ACK
11.102982580000001,0,0x5D,0x00,Read,ACK
11.103004080000000,0,0x5D,0x00,Read,ACK
11.103025540000001,0,0x5D,0x00,Read,ACK
11.103047000000000,0,0x5D,0x00,Read,ACK
11.103068439999999,0,0x5D,0x00,Read,ACK
11.103089920000000,0,0x5D,0x62,Read,ACK
11.103111419999999,0,0x5D,0xB6,Read,ACK
11.103133520000000,0,0x5D,0x02,Read,ACK
11.103154999999999,0,0x5D,0x00,Read,ACK
11.103176480000000,0,0x5D,0x00,Read,ACK
11.103198000000001,0,0x5D,0x00,Read,ACK
11.103219520000000,0,0x5D,0x00,Read,ACK
11.103241000000001,0,0x5D,0x00,Read,ACK
11.103262480000000,0,0x5D,0x00,Read,ACK
11.103283980000000,0,0x5D,0x00,Read,ACK
11.103305440000000,0,0x5D,0x00,Read,ACK
11.103326900000001,0,0x5D,0x00,Read,ACK
11.103348340000000,0,0x5D,0x00,Read,ACK
11.103369880000001,0,0x5D,0x00,Read,ACK
11.103392180000000,0,0x5D,0x00,Read,ACK
11.103414559999999,0,0x5D,0x00,Read,ACK
11.103436040000000,0,0x5D,0x00,Read,ACK
11.103457519999999,0,0x5D,0x00,Read,ACK
11.103479300000000,0,0x5D,0x00,Read,ACK
11.103500800000001,0,0x5D,0x00,Read,ACK
11.103522300000000,0,0x5D,0x00,Read,NAK
11.109668320000001,0,0x5D,0x2F,Read,ACK
11.109695580000000,0,0x5D,0x00,Read,ACK
11.109717099999999,0,0x5D,0x04,Read,ACK
11.109739720000000,0,0x5D,0x03,Read,ACK
11.109761180000000,0,0x5D,0xB4,Read,ACK
11.109782620000001,0,0x5D,0x01,Read,ACK
11.109806720000000,0,0x5D,0x5D,Read,ACK
11.109828220000001,0,0x5D,0x01,Read,ACK
11.109850460000001,0,0x5D,0x03,Read,ACK
11.109872599999999,0,0x5D,0x02,Read,ACK
11.109894080000000,0,0x5D,0x20,Read,ACK
11.109915600000001,0,0x5D,0x13,Read,ACK
11.109937580000000,0,0x5D,0x6D,Read,ACK
11.109959079999999,0,0x5D,0x0C,Read,ACK
11.109980580000000,0,0x5D,0xD9,Read,ACK
11.110002039999999,0,0x5D,0x08,Read,ACK
11.110023480000001,0,0x5D,0x02,Read,ACK
11.110044940000000,0,0x5D,0x04,Read,ACK
11.110066700000001,0,0x5D,0x20,Read,ACK
11.110088160000000,0,0x5D,0x00,Read,ACK
11.110109660000001,0,0x5D,0x00,Read,ACK
11.110131140000000,0,0x5D,0x00,Read,ACK
11.110152680000001,0,0x5D,0x00,Read,ACK
11.110174160000000,0,0x5D,0x00,Read,ACK
11.110195620000001,0,0x5D,0x00,Read,ACK
11.110217060000000,0,0x5D,0x00,Read,ACK
11.110238519999999,0,0x5D,0x00,Read,ACK
11.110259960000000,0,0x5D,0x00,Read,ACK
11.110281420000000,0,0x5D,0x00,Read,ACK
11.110302880000001,0,0x5D,0x00,Read,ACK
11.110324360000000,0,0x5D,0x00,Read,ACK
11.110345840000001,0,0x5D,0x00,Read,ACK
11.110367300000000,0,0x5D,0x00,Read,ACK
11.110388759999999,0,0x5D,0x00,Read,ACK
11.110410200000000,0,0x5D,0x00,Read,ACK
11.110431660000000,0,0x5D,0x00,Read,ACK
11.110453120000001,0,0x5D,0x00,Read,ACK
11.110474560000000,0,0x5D,0x00,Read,ACK
11.110496080000001,0,0x5D,0x00,Read,ACK
11.110519439999999,0,0x5D,0x00,Read,ACK
11.110540920000000,0,0x5D,0x00,Read,ACK
11.110562740000001,0,0x5D,0x00,Read,ACK
11.110584720000000,0,0x5D,0x00,Read,ACK
11.110606499999999,0,0x5D,0xA8,Read,ACK
11.110627980000000,0,0x5D,0xB6,Read,ACK
11.110649440000000,0,0x5D,0x02,Read,ACK
11.110672040000001,0,0x5D,0x00,Read,ACK
11.110693540000000,0,0x5D,0x00,Read,ACK
11.110716580000000,0,0x5D,0x00,Read,ACK
11.110738300000000,0,0x5D,0x00,Read,ACK
11.110759780000000,0,0x5D,0x00,Read,ACK
11.110781500000000,0,0x5D,0x00,Read,ACK
11.110804520000000,0,0x5D,0x00,Read,ACK
11.110826019999999,0,0x5D,0x00,Read,ACK
11.110848560000001,0,0x5D,0x00,Read,ACK
11.110870020000000,0,0x5D,0x00,Read,ACK
11.110891499999999,0,0x5D,0x00,Read,ACK
11.110913000000000,0,0x5D,0x00,Read,ACK
11.110934459999999,0,0x5D,0x00,Read,ACK
11.110955980000000,0,0x5D,0x00,Read,ACK
11.110977419999999,0,0x5D,0x00,Read,ACK
11.110998880000000,0,0x5D,0x00,Read,ACK
11.111020979999999,0,0x5D,0x00,Read,ACK
11.111042480000000,0,0x5D,0x00,Read,NAK
11.116714780000001,0,0x5D,0x2F,Read,ACK
11.116741400000000,0,0x5D,0x00,Read,ACK
11.116762880000000,0,0x5D,0x04,Read,ACK
11.116784320000001,0,0x5D,0x03,Read,ACK
11.116805780000000,0,0x5D,0xB4,Read,ACK
11.116828240000000,0,0x5D,0x01,Read,ACK
11.116849739999999,0,0x5D,0x5D,Read,ACK
11.116871220000000,0,0x5D,0x01,Read,ACK
11.116892740000001,0,0x5D,0x03,Read,ACK
11.116914220000000,0,0x5D,0x02,Read,ACK
11.116935720000001,0,0x5D,0x20,Read,ACK
11.116957879999999,0,0x5D,0x13,Read,ACK
11.116979340000000,0,0x5D,0x6D,Read,ACK
11.117001520000001,0,0x5D,0x0C,Read,ACK
11.117023000000000,0,0x5D,0xD9,Read,ACK
11.117044640000000,0,0x5D,0x08,Read,ACK
11.117066460000000,0,0x5D,0x02,Read,ACK
11.117088120000000,0,0x5D,0x04,Read,ACK
11.117110620000000,0,0x5D,0x20,Read,ACK
11.117132099999999,0,0x5D,0x00,Read,ACK
11.117153760000001,0,0x5D,0x00,Read,ACK
11.117175260000000,0,0x5D,0x00,Read,ACK
11.117196699999999,0,0x5D,0x00,Read,ACK
11.117218200000000,0,0x5D,0x00,Read,ACK
11.117239680000001,0,0x5D,0x00,Read,ACK
11.117261140000000,0,0x5D,0x00,Read,ACK
11.117282660000001,0,0x5D,0x00,Read,ACK
11.117304100000000,0,0x5D,0x00,Read,ACK
11.117325559999999,0,0x5D,0x00,Read,ACK
11.117347020000000,0,0x5D,0x00,Read,ACK
11.117368500000000,0,0x5D,0x00,Read,ACK
11.117389980000000,0,0x5D,0x00,Read,ACK
11.117411440000000,0,0x5D,0x00,Read,ACK
11.117432900000001,0,0x5D,0x00,Read,ACK
11.117454360000000,0,0x5D,0x00,Read,ACK
11.117475799999999,0,0x5D,0x00,Read,ACK
11.117497260000000,0,0x5D,0x00,Read,ACK
11.117518740000000,0,0x5D,0x00,Read,ACK
11.117540220000000,0,0x5D,0x00,Read,ACK
11.117561680000000,0,0x5D,0x00,Read,ACK
11.117583160000001,0,0x5D,0x00,Read,ACK
11.117604660000000,0,0x5D,0x00,Read,ACK
11.117626120000001,0,0x5D,0x00,Read,ACK
11.117647580000000,0,0x5D,0xEE,Read,ACK
11.117669019999999,0,0x5D,0xB6,Read,ACK
11.117690480000000,0,0x5D,0x02,Read,ACK
11.117711959999999,0,0x5D,0x00,Read,ACK
11.117734240000001,0,0x5D,0x00,Read,ACK
11.117756500000000,0,0x5D,0x00,Read,ACK
11.117777980000000,0,0x5D,0x00,Read,ACK
11.117799500000000,0,0x5D,0x00,Read,ACK
11.117822360000000,0,0x5D,0x00,Read,ACK
11.117843840000001,0,0x5D,0x00,Read,ACK
11.117865360000000,0,0x5D,0x00,Read,ACK
11.117886940000000,0,0x5D,0x00,Read,ACK
11.117908659999999,0,0x5D,0x00,Read,ACK
11.117931400000000,0,0x5D,0x00,Read,ACK
11.117954180000000,0,0x5D,0x00,Read,ACK
11.117975980000001,0,0x5D,0x00,Read,ACK
11.117999520000000,0,0x5D,0x00,Read,ACK
11.118023259999999,0,0x5D,0x00,Read,ACK
11.118044760000000,0,0x5D,0x00,Read,ACK
11.118066280000001,0,0x5D,0x00,Read,ACK
11.118087740000000,0,0x5D,0x00,Read,NAK
11.123606819999999,0,0x5D,0x2F,Read,ACK
11.123632980000000,0,0x5D,0x00,Read,ACK
11.123654439999999,0,0x5D,0x04,Read,ACK
11.123675900000000,0,0x5D,0x03,Read,ACK
11.123697340000000,0,0x5D,0xB4,Read,ACK
11.123718820000001,0,0x5D,0x01,Read,ACK
11.123740260000000,0,0x5D,0x5D,Read,ACK
11.123762620000001,0,0x5D,0x01,Read,ACK
11.123784759999999,0,0x5D,0x03,Read,ACK
11.123806820000000,0,0x5D,0x02,Read,ACK
11.123828319999999,0,0x5D,0x20,Read,ACK
11.123849780000000,0,0x5D,0x13,Read,ACK
11.123871220000000,0,0x5D,0x6D,Read,ACK
11.123892680000001,0,0x5D,0x0C,Read,ACK
11.123914140000000,0,0x5D,0xD9,Read,ACK
11.123935579999999,0,0x5D,0x08,Read,ACK
11.123957760000000,0,0x5D,0x02,Read,ACK
11.123980100000001,0,0x5D,0x04,Read,ACK
11.124001580000000,0,0x5D,0x20,Read,ACK
11.124023019999999,0,0x5D,0x00,Read,ACK
11.124044480000000,0,0x5D,0x00,Read,ACK
11.124065979999999,0,0x5D,0x00,Read,ACK
11.124087480000000,0,0x5D,0x00,Read,ACK
11.124108980000001,0,0x5D,0x00,Read,ACK
11.124130420000000,0,0x5D,0x00,Read,ACK
11.124151879999999,0,0x5D,0x00,Read,ACK
11.124174160000001,0,0x5D,0x00,Read,ACK
11.124195700000000,0,0x5D,0x00,Read,ACK
11.124217180000000,0,0x5D,0x00,Read,ACK
11.124238640000000,0,0x5D,0x00,Read,ACK
11.124260100000001,0,0x5D,0x00,Read,ACK
11.124281560000000,0,0x5D,0x00,Read,ACK
11.124303060000001,0,0x5D,0x00,Read,ACK
11.124324639999999,0,0x5D,0x00,Read,ACK
11.124346100000000,0,0x5D,0x00,Read,ACK
11.124367579999999,0,0x5D,0x00,Read,ACK
11.124389080000000,0,0x5D,0x00,Read,ACK
11.124410520000000,0,0x5D,0x00,Read,ACK
11.124431980000001,0,0x5D,0x00,Read,ACK
11.124453500000000,0,0x5D,0x00,Read,ACK
11.124474940000001,0,0x5D,0x00,Read,ACK
11.124496380000000,0,0x5D,0x00,Read,ACK
11.124517880000001,0,0x5D,0x00,Read,ACK
11.124539620000000,0,0x5D,0x34,Read,ACK
11.124561079999999,0,0x5D,0xB7,Read,ACK
11.124582520000001,0,0x5D,0x02,Read,ACK
11.124603980000000,0,0x5D,0x00,Read,ACK
11.124625440000001,0,0x5D,0x00,Read,ACK
11.124646880000000,0,0x5D,0x00,Read,ACK
11.124668339999999,0,0x5D,0x00,Read,ACK
11.124689800000001,0,0x5D,0x00,Read,ACK
11.124711440000000,0,0x5D,0x00,Read,ACK
11.124732880000000,0,0x5D,0x00,Read,ACK
11.124754360000001,0,0x5D,0x00,Read,ACK
11.124777200000000,0,0x5D,0x00,Read,ACK
11.124798699999999,0,0x5D,0x00,Read,ACK
11.124820140000001,0,0x5D,0x00,Read,ACK
11.124842460000000,0,0x5D,0x00,Read,ACK
11.124864240000001,0,0x5D,0x00,Read,ACK
11.124885880000001,0,0x5D,0x00,Read,ACK
11.124908500000000,0,0x5D,0x00,Read,ACK
11.124929979999999,0,0x5D,0x00,Read,ACK
11.124951440000000,0,0x5D,0x00,Read,ACK
11.124973060000000,0,0x5D,0x00,Read,NAK
11.130712160000000,0,0x5D,0x2F,Read,ACK
11.130738180000000,0,0x5D,0x00,Read,ACK
11.130759940000001,0,0x5D,0x04,Read,ACK
11.130781440000000,0,0x5D,0x03,Read,ACK
11.130802879999999,0,0x5D,0xB4,Read,ACK
11.130824340000000,0,0x5D,0x01,Read,ACK
11.130845799999999,0,0x5D,0x5D,Read,ACK
11.130867280000000,0,0x5D,0x01,Read,ACK
11.130888779999999,0,0x5D,0x03,Read,ACK
11.130910280000000,0,0x5D,0x02,Read,ACK
11.130932220000000,0,0x5D,0x20,Read,ACK
11.130955320000000,0,0x5D,0x13,Read,ACK
11.130977359999999,0,0x5D,0x6D,Read,ACK
11.131001700000001,0,0x5D,0x0C,Read,ACK
11.131023160000000,0,0x5D,0xD9,Read,ACK
11.131044620000001,0,0x5D,0x08,Read,ACK
11.131066080000000,0,0x5D,0x02,Read,ACK
11.131087539999999,0,0x5D,0x04,Read,ACK
11.131109040000000,0,0x5D,0x20,Read,ACK
11.131130940000000,0,0x5D,0x00,Read,ACK
11.131153260000000,0,0x5D,0x00,Read,ACK
11.131174720000001,0,0x5D,0x00,Read,ACK
11.131196200000000,0,0x5D,0x00,Read,ACK
11.131217980000001,0,0x5D,0x00,Read,ACK
11.131240699999999,0,0x5D,0x00,Read,ACK
11.131262200000000,0,0x5D,0x00,Read,ACK
11.131283920000000,0,0x5D,0x00,Read,ACK
11.131306000000000,0,0x5D,0x00,Read,ACK
11.131327460000000,0,0x5D,0x00,Read,ACK
11.131349739999999,0,0x5D,0x00,Read,ACK
11.131372600000001,0,0x5D,0x00,Read,ACK
11.131394080000000,0,0x5D,0x00,Read,ACK
11.131415519999999,0,0x5D,0x00,Read,ACK
11.131437000000000,0,0x5D,0x00,Read,ACK
11.131458580000000,0,0x5D,0x00,Read,ACK
11.131480079999999,0,0x5D,0x00,Read,ACK
11.131501620000000,0,0x5D,0x00,Read,ACK
11.131523120000001,0,0x5D,0x00,Read,ACK
11.131544620000000,0,0x5D,0x00,Read,ACK
11.131566080000001,0,0x5D,0x00,Read,ACK
11.131587540000000,0,0x5D,0x00,Read,ACK
11.131609040000001,0,0x5D,0x00,Read,ACK
11.131630520000000,0,0x5D,0x00,Read,ACK
11.131652020000001,0,0x5D,0x7A,Read,ACK
11.131673480000000,0,0x5D,0xB7,Read,ACK
11.131694919999999,0,0x5D,0x02,Read,ACK
11.131717680000000,0,0x5D,0x00,Read,ACK
11.131739140000001,0,0x5D,0x00,Read,ACK
11.131760600000000,0,0x5D,0x00,Read,ACK
11.131782039999999,0,0x5D,0x00,Read,ACK
11.131803500000000,0,0x5D,0x00,Read,ACK
11.131824959999999,0,0x5D,0x00,Read,ACK
11.131846420000000,0,0x5D,0x00,Read,ACK
11.131867939999999,0,0x5D,0x00,Read,ACK
11.131889380000001,0,0x5D,0x00,Read,ACK
11.131910860000000,0,0x5D,0x00,Read,ACK
11.131932340000001,0,0x5D,0x00,Read,ACK
11.131953820000000,0,0x5D,0x00,Read,ACK
11.131975499999999,0,0x5D,0x00,Read,ACK
11.131996960000000,0,0x5D,0x00,Read,ACK
11.132019000000000,0,0x5D,0x00,Read,ACK
11.132040640000000,0,0x5D,0x00,Read,ACK
11.132062360000001,0,0x5D,0x00,Read,ACK
11.132083860000000,0,0x5D,0x00,Read,NAK
11.137920360000001,0,0x5D,0x2F,Read,ACK
11.137946500000000,0,0x5D,0x00,Read,ACK
11.137967959999999,0,0x5D,0x04,Read,ACK
11.137989480000000,0,0x5D,0x03,Read,ACK
11.138010919999999,0,0x5D,0xB4,Read,ACK
11.138032380000000,0,0x5D,0x01,Read,ACK
11.138053840000000,0,0x5D,0x5D,Read,ACK
11.138076820000000,0,0x5D,0x01,Read,ACK
11.138099400000000,0,0x5D,0x03,Read,ACK
11.138120880000001,0,0x5D,0x02,Read,ACK
11.138142340000000,0,0x5D,0x20,Read,ACK
11.138163799999999,0,0x5D,0x13,Read,ACK
11.138185240000000,0,0x5D,0x6D,Read,ACK
11.138206700000000,0,0x5D,0x0C,Read,ACK
11.138228300000000,0,0x5D,0xD9,Read,ACK
11.138250440000000,0,0x5D,0x08,Read,ACK
11.138272320000000,0,0x5D,0x02,Read,ACK
11.138293800000000,0,0x5D,0x04,Read,ACK
11.138315260000001,0,0x5D,0x20,Read,ACK
11.138338140000000,0,0x5D,0x00,Read,ACK
11.138360320000000,0,0x5D,0x00,Read,ACK
11.138381799999999,0,0x5D,0x00,Read,ACK
11.138403260000000,0,0x5D,0x00,Read,ACK
11.138425379999999,0,0x5D,0x00,Read,ACK
11.138446840000000,0,0x5D,0x00,Read,ACK
11.138468319999999,0,0x5D,0x00,Read,ACK
11.138489939999999,0,0x5D,0x00,Read,ACK
11.138512000000000,0,0x5D,0x00,Read,ACK
11.138533499999999,0,0x5D,0x00,Read,ACK
11.138555000000000,0,0x5D,0x00,Read,ACK
11.138576499999999,0,0x5D,0x00,Read,ACK
11.138597960000000,0,0x5D,0x00,Read,ACK
11.138619419999999,0,0x5D,0x00,Read,ACK
11.138641000000000,0,0x5D,0x00,Read,ACK
11.138662460000001,0,0x5D,0x00,Read,ACK
11.138683900000000,0,0x5D,0x00,Read,ACK
11.138705340000000,0,0x5D,0x00,Read,ACK
11.138726800000001,0,0x5D,0x00,Read,ACK
11.138748280000000,0,0x5D,0x00,Read,ACK
11.138769780000001,0,0x5D,0x00,Read,ACK
11.138791319999999,0,0x5D,0x00,Read,ACK
11.138812800000000,0,0x5D,0x00,Read,ACK
11.138834240000000,0,0x5D,0x00,Read,ACK
11.138855700000001,0,0x5D,0xC0,Read,ACK
11.138877180000000,0,0x5D,0xB7,Read,ACK
11.138898700000000,0,0x5D,0x02,Read,ACK
11.138920180000000,0,0x5D,0x00,Read,ACK
11.138941660000000,0,0x5D,0x00,Read,ACK
11.138963140000000,0,0x5D,0x00,Read,ACK
11.138984600000001,0,0x5D,0x00,Read,ACK
11.139006060000000,0,0x5D,0x00,Read,ACK
11.139027499999999,0,0x5D,0x00,Read,ACK
11.139048980000000,0,0x5D,0x00,Read,ACK
11.139070480000001,0,0x5D,0x00,Read,ACK
11.139091920000000,0,0x5D,0x00,Read,ACK
11.139113380000000,0,0x5D,0x00,Read,ACK
11.139134840000001,0,0x5D,0x00,Read,ACK
11.139158080000000,0,0x5D,0x00,Read,ACK
11.139179560000001,0,0x5D,0x00,Read,ACK
11.139201379999999,0,0x5D,0x00,Read,ACK
11.139222840000000,0,0x5D,0x00,Read,ACK
11.139244300000000,0,0x5D,0x00,Read,ACK
11.139267060000000,0,0x5D,0x00,Read,ACK
11.139288740000000,0,0x5D,0x00,Read,NAK
11.145133660000001,0,0x5D,0x2F,Read,ACK
11.145159760000000,0,0x5D,0x00,Read,ACK
11.145181239999999,0,0x5D,0x04,Read,ACK
11.145202700000000,0,0x5D,0x03,Read,ACK
11.145224160000000,0,0x5D,0xB4,Read,ACK
11.145246520000001,0,0x5D,0x01,Read,ACK
11.145268260000000,0,0x5D,0x5D,Read,ACK
11.145289860000000,0,0x5D,0x01,Read,ACK
11.145311339999999,0,0x5D,0x03,Read,ACK
11.145332800000000,0,0x5D,0x02,Read,ACK
11.145354260000000,0,0x5D,0x20,Read,ACK
11.145375700000001,0,0x5D,0x13,Read,ACK
11.145398600000000,0,0x5D,0x69,Read,ACK
11.145420319999999,0,0x5D,0x0C,Read,ACK
11.145441820000000,0,0x5D,0xCF,Read,ACK
11.145463280000000,0,0x5D,0x08,Read,ACK
11.145485460000000,0,0x5D,0x02,Read,ACK
11.145506940000001,0,0x5D,0x04,Read,ACK
11.145528440000000,0,0x5D,0x20,Read,ACK
11.145549900000001,0,0x5D,0x00,Read,ACK
11.145571660000000,0,0x5D,0x00,Read,ACK
11.145593119999999,0,0x5D,0x00,Read,ACK
11.145614580000000,0,0x5D,0x00,Read,ACK
11.145636079999999,0,0x5D,0x00,Read,ACK
11.145658720000000,0,0x5D,0x00,Read,ACK
11.145680680000000,0,0x5D,0x00,Read,ACK
11.145702119999999,0,0x5D,0x00,Read,ACK
11.145723560000000,0,0x5D,0x00,Read,ACK
11.145745020000000,0,0x5D,0x00,Read,ACK
11.145766500000001,0,0x5D,0x00,Read,ACK
11.145787960000000,0,0x5D,0x00,Read,ACK
11.145809460000001,0,0x5D,0x00,Read,ACK
11.145830900000000,0,0x5D,0x00,Read,ACK
11.145852359999999,0,0x5D,0x00,Read,ACK
11.145873820000000,0,0x5D,0x00,Read,ACK
11.145895280000000,0,0x5D,0x00,Read,ACK
11.145916720000001,0,0x5D,0x00,Read,ACK
11.145938180000000,0,0x5D,0x00,Read,ACK
11.145959660000001,0,0x5D,0x00,Read,ACK
11.145981219999999,0,0x5D,0x00,Read,ACK
11.146002720000000,0,0x5D,0x00,Read,ACK
11.146024180000000,0,0x5D,0x00,Read,ACK
11.146046159999999,0,0x5D,0x00,Read,ACK
11.146067660000000,0,0x5D,0x06,Read,ACK
11.146089099999999,0,0x5D,0xB8,Read,ACK
11.146110560000000,0,0x5D,0x02,Read,ACK
11.146132020000000,0,0x5D,0x00,Read,ACK
11.146153800000000,0,0x5D,0x00,Read,ACK
11.146175240000000,0,0x5D,0x00,Read,ACK
11.146196700000001,0,0x5D,0x00,Read,ACK
11.146218220000000,0,0x5D,0x00,Read,ACK
11.146239800000000,0,0x5D,0x00,Read,ACK
11.146261239999999,0,0x5D,0x00,Read,ACK
11.146282700000000,0,0x5D,0x00,Read,ACK
11.146305520000000,0,0x5D,0x00,Read,ACK
11.146328300000000,0,0x5D,0x00,Read,ACK
11.146350240000000,0,0x5D,0x00,Read,ACK
11.146372720000000,0,0x5D,0x00,Read,ACK
11.146395540000000,0,0x5D,0x00,Read,ACK
11.146417160000000,0,0x5D,0x00,Read,ACK
11.146439060000001,0,0x5D,0x00,Read,ACK
11.146460599999999,0,0x5D,0x00,Read,ACK
11.146482239999999,0,0x5D,0x00,Read,ACK
11.146503740000000,0,0x5D,0x00,Read,NAK
11.152179880000000,0,0x5D,0x2F,Read,ACK
11.152204360000001,0,0x5D,0x00,Read,ACK
11.152225820000000,0,0x5D,0x04,Read,ACK
11.152247279999999,0,0x5D,0x03,Read,ACK
11.152268760000000,0,0x5D,0xB5,Read,ACK
11.152290239999999,0,0x5D,0x01,Read,ACK
11.152311700000000,0,0x5D,0x5E,Read,ACK
11.152333160000000,0,0x5D,0x01,Read,ACK
11.152354620000001,0,0x5D,0x03,Read,ACK
11.152376060000000,0,0x5D,0x02,Read,ACK
11.152397779999999,0,0x5D,0x20,Read,ACK
11.152419480000001,0,0x5D,0x13,Read,ACK
11.152440980000000,0,0x5D,0x63,Read,ACK
11.152462460000001,0,0x5D,0x0C,Read,ACK
11.152483880000000,0,0x5D,0xC1,Read,ACK
11.152505359999999,0,0x5D,0x08,Read,ACK
11.152527600000001,0,0x5D,0x02,Read,ACK
11.152549120000000,0,0x5D,0x04,Read,ACK
11.152570620000001,0,0x5D,0x20,Read,ACK
11.152592139999999,0,0x5D,0x00,Read,ACK
11.152613620000000,0,0x5D,0x00,Read,ACK
11.152635880000000,0,0x5D,0x00,Read,ACK
11.152658100000000,0,0x5D,0x00,Read,ACK
11.152679620000001,0,0x5D,0x00,Read,ACK
11.152701280000000,0,0x5D,0x00,Read,ACK
11.152722780000000,0,0x5D,0x00,Read,ACK
11.152744400000000,0,0x5D,0x00,Read,ACK
11.152766460000000,0,0x5D,0x00,Read,ACK
11.152789120000000,0,0x5D,0x00,Read,ACK
11.152810580000001,0,0x5D,0x00,Read,ACK
11.152832080000000,0,0x5D,0x00,Read,ACK
11.152853960000000,0,0x5D,0x00,Read,ACK
11.152875440000001,0,0x5D,0x00,Read,ACK
11.152896880000000,0,0x5D,0x00,Read,ACK
11.152918460000000,0,0x5D,0x00,Read,ACK
11.152939920000000,0,0x5D,0x00,Read,ACK
11.152961360000001,0,0x5D,0x00,Read,ACK
11.152982820000000,0,0x5D,0x00,Read,ACK
11.153004279999999,0,0x5D,0x00,Read,ACK
11.153025800000000,0,0x5D,0x00,Read,ACK
11.153047239999999,0,0x5D,0x00,Read,ACK
11.153068700000000,0,0x5D,0x00,Read,ACK
11.153090160000000,0,0x5D,0x00,Read,ACK
11.153111680000000,0,0x5D,0x4C,Read,ACK
11.153133120000000,0,0x5D,0xB8,Read,ACK
11.153154580000001,0,0x5D,0x02,Read,ACK
11.153177420000000,0,0x5D,0x00,Read,ACK
11.153198939999999,0,0x5D,0x00,Read,ACK
11.153220460000000,0,0x5D,0x00,Read,ACK
11.153241960000001,0,0x5D,0x00,Read,ACK
11.153263480000000,0,0x5D,0x00,Read,ACK
11.153285120000000,0,0x5D,0x00,Read,ACK
11.153306580000001,0,0x5D,0x00,Read,ACK
11.153328020000000,0,0x5D,0x00,Read,ACK
11.153349479999999,0,0x5D,0x00,Read,ACK
11.153371079999999,0,0x5D,0x00,Read,ACK
11.153392560000000,0,0x5D,0x00,Read,ACK
11.153414860000000,0,0x5D,0x00,Read,ACK
11.153439720000000,0,0x5D,0x00,Read,ACK
11.153462220000000,0,0x5D,0x00,Read,ACK
11.153483680000001,0,0x5D,0x00,Read,ACK
11.153506240000000,0,0x5D,0x00,Read,ACK
11.153527960000000,0,0x5D,0x00,Read,ACK
11.153549419999999,0,0x5D,0x00,Read,NAK
11.159552359999999,0,0x5D,0x2F,Read,ACK
11.159576820000000,0,0x5D,0x00,Read,ACK
11.159598280000001,0,0x5D,0x04,Read,ACK
11.159619740000000,0,0x5D,0x03,Read,ACK
11.159641199999999,0,0x5D,0xB8,Read,ACK
11.159662640000001,0,0x5D,0x01,Read,ACK
11.159684499999999,0,0x5D,0x60,Read,ACK
11.159705980000000,0,0x5D,0x01,Read,ACK
11.159727439999999,0,0x5D,0x03,Read,ACK
11.159748920000000,0,0x5D,0x02,Read,ACK
11.159770399999999,0,0x5D,0x20,Read,ACK
11.159791860000000,0,0x5D,0x13,Read,ACK
11.159814180000000,0,0x5D,0x5B,Read,ACK
11.159835660000001,0,0x5D,0x0C,Read,ACK
11.159857620000000,0,0x5D,0xB0,Read,ACK
11.159879119999999,0,0x5D,0x08,Read,ACK
11.159900560000001,0,0x5D,0x03,Read,ACK
11.159922140000001,0,0x5D,0x04,Read,ACK
11.159943600000000,0,0x5D,0x20,Read,ACK
11.159965460000000,0,0x5D,0x00,Read,ACK
11.159987960000000,0,0x5D,0x00,Read,ACK
11.160009440000000,0,0x5D,0x00,Read,ACK
11.160030920000001,0,0x5D,0x00,Read,ACK
11.160052459999999,0,0x5D,0x00,Read,ACK
11.160073980000000,0,0x5D,0x00,Read,ACK
11.160095480000001,0,0x5D,0x00,Read,ACK
11.160116940000000,0,0x5D,0x00,Read,ACK
11.160138399999999,0,0x5D,0x00,Read,ACK
11.160159860000000,0,0x5D,0x00,Read,ACK
11.160181540000000,0,0x5D,0x00,Read,ACK
11.160202999999999,0,0x5D,0x00,Read,ACK
11.160224440000000,0,0x5D,0x00,Read,ACK
11.160246160000000,0,0x5D,0x00,Read,ACK
11.160267660000001,0,0x5D,0x00,Read,ACK
11.160289120000000,0,0x5D,0x00,Read,ACK
11.160311380000000,0,0x5D,0x00,Read,ACK
11.160332840000001,0,0x5D,0x00,Read,ACK
11.160354340000000,0,0x5D,0x00,Read,ACK
11.160375800000001,0,0x5D,0x00,Read,ACK
11.160397320000000,0,0x5D,0x00,Read,ACK
11.160418840000000,0,0x5D,0x00,Read,ACK
11.160440360000001,0,0x5D,0x00,Read,ACK
11.160461800000000,0,0x5D,0x00,Read,ACK
11.160483259999999,0,0x5D,0x92,Read,ACK
11.160504740000000,0,0x5D,0xB8,Read,ACK
11.160526239999999,0,0x5D,0x02,Read,ACK
11.160547740000000,0,0x5D,0x00,Read,ACK
11.160571020000001,0,0x5D,0x00,Read,ACK
11.160595280000001,0,0x5D,0x00,Read,ACK
11.160616780000000,0,0x5D,0x00,Read,ACK
11.160638640000000,0,0x5D,0x00,Read,ACK
11.160660240000000,0,0x5D,0x00,Read,ACK
11.160682639999999,0,0x5D,0x00,Read,ACK
11.160704259999999,0,0x5D,0x00,Read,ACK
11.160725720000000,0,0x5D,0x00,Read,ACK
11.160748180000001,0,0x5D,0x00,Read,ACK
11.160769640000000,0,0x5D,0x00,Read,ACK
11.160791260000000,0,0x5D,0x00,Read,ACK
11.160812959999999,0,0x5D,0x00,Read,ACK
11.160835880000000,0,0x5D,0x00,Read,ACK
11.160858259999999,0,0x5D,0x00,Read,ACK
11.160880360000000,0,0x5D,0x00,Read,ACK
11.160901839999999,0,0x5D,0x00,Read,ACK
11.160923300000000,0,0x5D,0x00,Read,NAK
11.166649100000001,0,0x5D,0x2F,Read,ACK
11.166674340000000,0,0x5D,0x00,Read,ACK
11.166695960000000,0,0x5D,0x04,Read,ACK
11.166717459999999,0,0x5D,0x03,Read,ACK
11.166738960000000,0,0x5D,0xBB,Read,ACK
11.166760419999999,0,0x5D,0x01,Read,ACK
11.166781880000000,0,0x5D,0x64,Read,ACK
11.166803359999999,0,0x5D,0x01,Read,ACK
11.166824860000000,0,0x5D,0x03,Read,ACK
11.166847340000000,0,0x5D,0x02,Read,ACK
11.166868819999999,0,0x5D,0x20,Read,ACK
11.166890280000001,0,0x5D,0x13,Read,ACK
11.166911799999999,0,0x5D,0x56,Read,ACK
11.166933260000000,0,0x5D,0x0C,Read,ACK
11.166954720000000,0,0x5D,0xA9,Read,ACK
11.166976220000000,0,0x5D,0x08,Read,ACK
11.166997680000000,0,0x5D,0x03,Read,ACK
11.167019240000000,0,0x5D,0x04,Read,ACK
11.167041299999999,0,0x5D,0x20,Read,ACK
11.167062780000000,0,0x5D,0x00,Read,ACK
11.167085300000000,0,0x5D,0x00,Read,ACK
11.167106759999999,0,0x5D,0x00,Read,ACK
11.167128560000000,0,0x5D,0x00,Read,ACK
11.167150039999999,0,0x5D,0x00,Read,ACK
11.167171500000000,0,0x5D,0x00,Read,ACK
11.167192999999999,0,0x5D,0x00,Read,ACK
11.167214460000000,0,0x5D,0x00,Read,ACK
11.167235920000000,0,0x5D,0x00,Read,ACK
11.167257360000001,0,0x5D,0x00,Read,ACK
11.167278840000000,0,0x5D,0x00,Read,ACK
11.167300279999999,0,0x5D,0x00,Read,ACK
11.167321720000000,0,0x5D,0x00,Read,ACK
11.167343180000000,0,0x5D,0x00,Read,ACK
11.167364640000001,0,0x5D,0x00,Read,ACK
11.167386100000000,0,0x5D,0x00,Read,ACK
11.167407539999999,0,0x5D,0x00,Read,ACK
11.167429000000000,0,0x5D,0x00,Read,ACK
11.167450460000000,0,0x5D,0x00,Read,ACK
11.167471900000001,0,0x5D,0x00,Read,ACK
11.167493360000000,0,0x5D,0x00,Read,ACK
11.167514840000001,0,0x5D,0x00,Read,ACK
11.167536320000000,0,0x5D,0x00,Read,ACK
11.167557800000001,0,0x5D,0x00,Read,ACK
11.167579260000000,0,0x5D,0xD8,Read,ACK
11.167600759999999,0,0x5D,0xB8,Read,ACK
11.167622220000000,0,0x5D,0x02,Read,ACK
11.167643800000000,0,0x5D,0x00,Read,ACK
11.167665240000000,0,0x5D,0x00,Read,ACK
11.167686700000001,0,0x5D,0x00,Read,ACK
11.167710520000000,0,0x5D,0x00,Read,ACK
11.167732839999999,0,0x5D,0x00,Read,ACK
11.167755840000000,0,0x5D,0x00,Read,ACK
11.167777680000000,0,0x5D,0x00,Read,ACK
11.167799880000000,0,0x5D,0x00,Read,ACK
11.167821340000000,0,0x5D,0x00,Read,ACK
11.167842800000001,0,0x5D,0x00,Read,ACK
11.167865080000000,0,0x5D,0x00,Read,ACK
11.167886579999999,0,0x5D,0x00,Read,ACK
11.167909200000000,0,0x5D,0x00,Read,ACK
11.167930880000000,0,0x5D,0x00,Read,ACK
11.167954860000000,0,0x5D,0x00,Read,ACK
11.167977260000001,0,0x5D,0x00,Read,ACK
11.167998799999999,0,0x5D,0x00,Read,ACK
11.168020280000000,0,0x5D,0x00,Read,NAK
11.173541680000000,0,0x5D,0x2F,Read,ACK
11.173566920000001,0,0x5D,0x00,Read,ACK
11.173588420000000,0,0x5D,0x04,Read,ACK
11.173609880000001,0,0x5D,0x03,Read,ACK
11.173631320000000,0,0x5D,0xBD,Read,ACK
11.173652819999999,0,0x5D,0x01,Read,ACK
11.173674320000000,0,0x5D,0x67,Read,ACK
11.173695840000001,0,0x5D,0x01,Read,ACK
11.173717359999999,0,0x5D,0x03,Read,ACK
11.173738840000000,0,0x5D,0x02,Read,ACK
11.173760320000000,0,0x5D,0x20,Read,ACK
11.173781820000000,0,0x5D,0x13,Read,ACK
11.173804600000000,0,0x5D,0x52,Read,ACK
11.173826119999999,0,0x5D,0x0C,Read,ACK
11.173847900000000,0,0x5D,0xA4,Read,ACK
11.173870640000001,0,0x5D,0x08,Read,ACK
11.173892159999999,0,0x5D,0x03,Read,ACK
11.173913660000000,0,0x5D,0x04,Read,ACK
11.173935139999999,0,0x5D,0x20,Read,ACK
11.173956620000000,0,0x5D,0x00,Read,ACK
11.173978099999999,0,0x5D,0x00,Read,ACK
11.174001100000000,0,0x5D,0x00,Read,ACK
11.174022559999999,0,0x5D,0x00,Read,ACK
11.174044220000001,0,0x5D,0x00,Read,ACK
11.174065700000000,0,0x5D,0x00,Read,ACK
11.174087419999999,0,0x5D,0x00,Read,ACK
11.174110440000000,0,0x5D,0x00,Read,ACK
11.174131900000001,0,0x5D,0x00,Read,ACK
11.174153560000001,0,0x5D,0x00,Read,ACK
11.174175040000000,0,0x5D,0x00,Read,ACK
11.174196520000001,0,0x5D,0x00,Read,ACK
11.174218959999999,0,0x5D,0x00,Read,ACK
11.174241880000000,0,0x5D,0x00,Read,ACK
11.174264279999999,0,0x5D,0x00,Read,ACK
11.174285780000000,0,0x5D,0x00,Read,ACK
11.174307260000001,0,0x5D,0x00,Read,ACK
11.174328720000000,0,0x5D,0x00,Read,ACK
11.174350159999999,0,0x5D,0x00,Read,ACK
11.174371740000000,0,0x5D,0x00,Read,ACK
11.174393200000001,0,0x5D,0x00,Read,ACK
11.174414660000000,0,0x5D,0x00,Read,ACK
11.174436099999999,0,0x5D,0x00,Read,ACK
11.174457560000000,0,0x5D,0x00,Read,ACK
11.174479020000000,0,0x5D,0x1E,Read,ACK
11.174500460000001,0,0x5D,0xB9,Read,ACK
11.174521920000000,0,0x5D,0x02,Read,ACK
11.174543379999999,0,0x5D,0x00,Read,ACK
11.174564840000000,0,0x5D,0x00,Read,ACK
11.174586359999999,0,0x5D,0x00,Read,ACK
11.174607860000000,0,0x5D,0x00,Read,ACK
11.174629740000000,0,0x5D,0x00,Read,ACK
11.174651200000000,0,0x5D,0x00,Read,ACK
11.174672660000001,0,0x5D,0x00,Read,ACK
11.174694120000000,0,0x5D,0x00,Read,ACK
11.174715700000000,0,0x5D,0x00,Read,ACK
11.174737340000000,0,0x5D,0x00,Read,ACK
11.174758779999999,0,0x5D,0x00,Read,ACK
11.174780240000000,0,0x5D,0x00,Read,ACK
11.174801700000000,0,0x5D,0x00,Read,ACK
11.174823160000001,0,0x5D,0x00,Read,ACK
11.174844600000000,0,0x5D,0x00,Read,ACK
11.174867460000000,0,0x5D,0x00,Read,ACK
11.174888960000001,0,0x5D,0x00,Read,ACK
11.174910400000000,0,0x5D,0x00,Read,NAK
11.180726220000000,0,0x5D,0x2F,Read,ACK
11.180751480000000,0,0x5D,0x00,Read,ACK
11.180772980000000,0,0x5D,0x04,Read,ACK
11.180794440000000,0,0x5D,0x03,Read,ACK
11.180815900000001,0,0x5D,0xBF,Read,ACK
11.180837439999999,0,0x5D,0x01,Read,ACK
11.180858920000000,0,0x5D,0x6A,Read,ACK
11.180880380000000,0,0x5D,0x01,Read,ACK
11.180901840000001,0,0x5D,0x03,Read,ACK
11.180923280000000,0,0x5D,0x02,Read,ACK
11.180944759999999,0,0x5D,0x20,Read,ACK
11.180967640000000,0,0x5D,0x13,Read,ACK
11.180989340000000,0,0x5D,0x4E,Read,ACK
11.181011020000000,0,0x5D,0x0C,Read,ACK
11.181032500000001,0,0x5D,0x9F,Read,ACK
11.181053960000000,0,0x5D,0x08,Read,ACK
11.181075440000001,0,0x5D,0x03,Read,ACK
11.181096920000000,0,0x5D,0x04,Read,ACK
11.181118860000000,0,0x5D,0x20,Read,ACK
11.181140760000000,0,0x5D,0x00,Read,ACK
11.181163339999999,0,0x5D,0x00,Read,ACK
11.181184800000000,0,0x5D,0x00,Read,ACK
11.181206240000000,0,0x5D,0x00,Read,ACK
11.181227700000001,0,0x5D,0x00,Read,ACK
11.181249140000000,0,0x5D,0x00,Read,ACK
11.181270600000000,0,0x5D,0x00,Read,ACK
11.181292060000001,0,0x5D,0x00,Read,ACK
11.181313520000000,0,0x5D,0x00,Read,ACK
11.181334980000001,0,0x5D,0x00,Read,ACK
11.181356480000000,0,0x5D,0x00,Read,ACK
11.181378020000000,0,0x5D,0x00,Read,ACK
11.181401060000001,0,0x5D,0x00,Read,ACK
11.181422760000000,0,0x5D,0x00,Read,ACK
11.181444219999999,0,0x5D,0x00,Read,ACK
11.181465680000001,0,0x5D,0x00,Read,ACK
11.181487140000000,0,0x5D,0x00,Read,ACK
11.181508579999999,0,0x5D,0x00,Read,ACK
11.181530040000000,0,0x5D,0x00,Read,ACK
11.181551499999999,0,0x5D,0x00,Read,ACK
11.181572940000001,0,0x5D,0x00,Read,ACK
11.181594440000000,0,0x5D,0x00,Read,ACK
11.181615940000000,0,0x5D,0x00,Read,ACK
11.181637439999999,0,0x5D,0x00,Read,ACK
11.181658880000001,0,0x5D,0x64,Read,ACK
11.181680340000000,0,0x5D,0xB9,Read,ACK
11.181701800000001,0,0x5D,0x02,Read,ACK
11.181725380000000,0,0x5D,0x00,Read,ACK
11.181746880000000,0,0x5D,0x00,Read,ACK
11.181768340000000,0,0x5D,0x00,Read,ACK
11.181789800000001,0,0x5D,0x00,Read,ACK
11.181811240000000,0,0x5D,0x00,Read,ACK
11.181832699999999,0,0x5D,0x00,Read,ACK
11.181854160000000,0,0x5D,0x00,Read,ACK
11.181875659999999,0,0x5D,0x00,Read,ACK
11.181897160000000,0,0x5D,0x00,Read,ACK
11.181918639999999,0,0x5D,0x00,Read,ACK
11.181940100000000,0,0x5D,0x00,Read,ACK
11.181961540000000,0,0x5D,0x00,Read,ACK
11.181983000000001,0,0x5D,0x00,Read,ACK
11.182004460000000,0,0x5D,0x00,Read,ACK
11.182026280000001,0,0x5D,0x00,Read,ACK
11.182047799999999,0,0x5D,0x00,Read,ACK
11.182069260000000,0,0x5D,0x00,Read,ACK
11.182092500000000,0,0x5D,0x00,Read,NAK
11.187908400000000,0,0x5D,0x2F,Read,ACK
11.187932320000000,0,0x5D,0x00,Read,ACK
11.187953820000001,0,0x5D,0x04,Read,ACK
11.187975280000000,0,0x5D,0x03,Read,ACK
11.187996800000001,0,0x5D,0xC1,Read,ACK
11.188018240000000,0,0x5D,0x01,Read,ACK
11.188039699999999,0,0x5D,0x6D,Read,ACK
11.188061160000000,0,0x5D,0x01,Read,ACK
11.188082659999999,0,0x5D,0x03,Read,ACK
11.188104859999999,0,0x5D,0x02,Read,ACK
11.188126720000000,0,0x5D,0x20,Read,ACK
11.188148399999999,0,0x5D,0x13,Read,ACK
11.188169900000000,0,0x5D,0x4A,Read,ACK
11.188191359999999,0,0x5D,0x0C,Read,ACK
11.188212860000000,0,0x5D,0x9B,Read,ACK
11.188234319999999,0,0x5D,0x08,Read,ACK
11.188256040000001,0,0x5D,0x03,Read,ACK
11.188277640000001,0,0x5D,0x04,Read,ACK
11.188299440000000,0,0x5D,0x20,Read,ACK
11.188320920000001,0,0x5D,0x00,Read,ACK
11.188342380000000,0,0x5D,0x00,Read,ACK
11.188363839999999,0,0x5D,0x00,Read,ACK
11.188385280000000,0,0x5D,0x00,Read,ACK
11.188406740000000,0,0x5D,0x00,Read,ACK
11.188428260000000,0,0x5D,0x00,Read,ACK
11.188450000000000,0,0x5D,0x00,Read,ACK
11.188471480000000,0,0x5D,0x00,Read,ACK
11.188493640000001,0,0x5D,0x00,Read,ACK
11.188515140000000,0,0x5D,0x00,Read,ACK
11.188536579999999,0,0x5D,0x00,Read,ACK
11.188558040000000,0,0x5D,0x00,Read,ACK
11.188579480000000,0,0x5D,0x00,Read,ACK
11.188600940000001,0,0x5D,0x00,Read,ACK
11.188622380000000,0,0x5D,0x00,Read,ACK
11.188643839999999,0,0x5D,0x00,Read,ACK
11.188665300000000,0,0x5D,0x00,Read,ACK
11.188686740000000,0,0x5D,0x00,Read,ACK
11.188708220000001,0,0x5D,0x00,Read,ACK
11.188729739999999,0,0x5D,0x00,Read,ACK
11.188751240000000,0,0x5D,0x00,Read,ACK
11.188772680000000,0,0x5D,0x00,Read,ACK
11.188794160000000,0,0x5D,0x00,Read,ACK
11.188815679999999,0,0x5D,0x00,Read,ACK
11.188837180000000,0,0x5D,0xAA,Read,ACK
11.188858639999999,0,0x5D,0xB9,Read,ACK
11.188880100000000,0,0x5D,0x02,Read,ACK
11.188901540000000,0,0x5D,0x00,Read,ACK
11.188923000000001,0,0x5D,0x00,Read,ACK
11.188944460000000,0,0x5D,0x00,Read,ACK
11.188965919999999,0,0x5D,0x00,Read,ACK
11.188987360000000,0,0x5D,0x00,Read,ACK
11.189008820000000,0,0x5D,0x00,Read,ACK
11.189030280000001,0,0x5D,0x00,Read,ACK
11.189051740000000,0,0x5D,0x00,Read,ACK
11.189073199999999,0,0x5D,0x00,Read,ACK
11.189094660000000,0,0x5D,0x00,Read,ACK
11.189116159999999,0,0x5D,0x00,Read,ACK
11.189137620000000,0,0x5D,0x00,Read,ACK
11.189160480000000,0,0x5D,0x00,Read,ACK
11.189182880000001,0,0x5D,0x00,Read,ACK
11.189204340000000,0,0x5D,0x00,Read,ACK
11.189228099999999,0,0x5D,0x00,Read,ACK
11.189250360000001,0,0x5D,0x00,Read,ACK
11.189273200000001,0,0x5D,0x00,Read,NAK
11.195087680000000,0,0x5D,0x2F,Read,ACK
11.195112160000001,0,0x5D,0x00,Read,ACK
11.195133620000000,0,0x5D,0x04,Read,ACK
11.195155099999999,0,0x5D,0x03,Read,ACK
11.195176600000000,0,0x5D,0xC2,Read,ACK
11.195198059999999,0,0x5D,0x01,Read,ACK
11.195219520000000,0,0x5D,0x70,Read,ACK
11.195242479999999,0,0x5D,0x01,Read,ACK
11.195265600000001,0,0x5D,0x03,Read,ACK
11.195288619999999,0,0x5D,0x02,Read,ACK
11.195311139999999,0,0x5D,0x20,Read,ACK
11.195332600000000,0,0x5D,0x13,Read,ACK
11.195354040000000,0,0x5D,0x46,Read,ACK
11.195375500000001,0,0x5D,0x0C,Read,ACK
11.195397420000001,0,0x5D,0x98,Read,ACK
11.195418900000000,0,0x5D,0x08,Read,ACK
11.195440359999999,0,0x5D,0x03,Read,ACK
11.195461820000000,0,0x5D,0x04,Read,ACK
11.195483279999999,0,0x5D,0x20,Read,ACK
11.195504720000001,0,0x5D,0x00,Read,ACK
11.195526240000000,0,0x5D,0x00,Read,ACK
11.195547700000001,0,0x5D,0x00,Read,ACK
11.195569300000001,0,0x5D,0x00,Read,ACK
11.195590800000000,0,0x5D,0x00,Read,ACK
11.195612260000001,0,0x5D,0x00,Read,ACK
11.195633720000000,0,0x5D,0x00,Read,ACK
11.195655240000001,0,0x5D,0x00,Read,ACK
11.195679280000000,0,0x5D,0x00,Read,ACK
11.195700759999999,0,0x5D,0x00,Read,ACK
11.195722480000001,0,0x5D,0x00,Read,ACK
11.195743980000000,0,0x5D,0x00,Read,ACK
11.195765440000001,0,0x5D,0x00,Read,ACK
11.195786940000000,0,0x5D,0x00,Read,ACK
11.195808400000001,0,0x5D,0x00,Read,ACK
11.195829860000000,0,0x5D,0x00,Read,ACK
11.195851400000000,0,0x5D,0x00,Read,ACK
11.195872880000000,0,0x5D,0x00,Read,ACK
11.195894800000000,0,0x5D,0x00,Read,ACK
11.195916300000000,0,0x5D,0x00,Read,ACK
11.195937740000000,0,0x5D,0x00,Read,ACK
11.195959200000001,0,0x5D,0x00,Read,ACK
11.195980660000000,0,0x5D,0x00,Read,ACK
11.196002119999999,0,0x5D,0x00,Read,ACK
11.196023580000000,0,0x5D,0xF0,Read,ACK
11.196045020000000,0,0x5D,0xB9,Read,ACK
11.196066960000000,0,0x5D,0x02,Read,ACK
11.196088440000000,0,0x5D,0x00,Read,ACK
11.196109959999999,0,0x5D,0x00,Read,ACK
11.196131400000001,0,0x5D,0x00,Read,ACK
11.196152860000000,0,0x5D,0x00,Read,ACK
11.196174299999999,0,0x5D,0x00,Read,ACK
11.196195760000000,0,0x5D,0x00,Read,ACK
11.196217219999999,0,0x5D,0x00,Read,ACK
11.196238680000000,0,0x5D,0x00,Read,ACK
11.196260140000000,0,0x5D,0x00,Read,ACK
11.196281640000000,0,0x5D,0x00,Read,ACK
11.196303100000000,0,0x5D,0x00,Read,ACK
11.196328220000000,0,0x5D,0x00,Read,ACK
11.196349700000001,0,0x5D,0x00,Read,ACK
11.196371200000000,0,0x5D,0x00,Read,ACK
11.196393459999999,0,0x5D,0x00,Read,ACK
11.196414920000000,0,0x5D,0x00,Read,ACK
11.196436479999999,0,0x5D,0x00,Read,ACK
11.196457940000000,0,0x5D,0x00,Read,NAK
11.202505720000000,0,0x5D,0x2F,Read,ACK
11.202531840000001,0,0x5D,0x00,Read,ACK
11.202553480000001,0,0x5D,0x04,Read,ACK
11.202576560000001,0,0x5D,0x03,Read,ACK
11.202598040000000,0,0x5D,0xC4,Read,ACK
11.202619520000001,0,0x5D,0x01,Read,ACK
11.202641000000000,0,0x5D,0x73,Read,ACK
11.202663480000000,0,0x5D,0x01,Read,ACK
11.202685680000000,0,0x5D,0x03,Read,ACK
11.202707180000001,0,0x5D,0x02,Read,ACK
11.202728640000000,0,0x5D,0x20,Read,ACK
11.202750099999999,0,0x5D,0x13,Read,ACK
11.202771620000000,0,0x5D,0x42,Read,ACK
11.202793099999999,0,0x5D,0x0C,Read,ACK
11.202815060000001,0,0x5D,0x94,Read,ACK
11.202836540000000,0,0x5D,0x08,Read,ACK
11.202858000000001,0,0x5D,0x03,Read,ACK
11.202879460000000,0,0x5D,0x04,Read,ACK
11.202901120000000,0,0x5D,0x20,Read,ACK
11.202922620000001,0,0x5D,0x00,Read,ACK
11.202944140000000,0,0x5D,0x00,Read,ACK
11.202965600000001,0,0x5D,0x00,Read,ACK
11.202987100000000,0,0x5D,0x00,Read,ACK
11.203008580000001,0,0x5D,0x00,Read,ACK
11.203030099999999,0,0x5D,0x00,Read,ACK
11.203051600000000,0,0x5D,0x00,Read,ACK
11.203073040000000,0,0x5D,0x00,Read,ACK
11.203094500000001,0,0x5D,0x00,Read,ACK
11.203115960000000,0,0x5D,0x00,Read,ACK
11.203137399999999,0,0x5D,0x00,Read,ACK
11.203158860000000,0,0x5D,0x00,Read,ACK
11.203180600000000,0,0x5D,0x00,Read,ACK
11.203202080000001,0,0x5D,0x00,Read,ACK
11.203223520000000,0,0x5D,0x00,Read,ACK
11.203245000000001,0,0x5D,0x00,Read,ACK
11.203266440000000,0,0x5D,0x00,Read,ACK
11.203287919999999,0,0x5D,0x00,Read,ACK
11.203309400000000,0,0x5D,0x00,Read,ACK
11.203330879999999,0,0x5D,0x00,Read,ACK
11.203352400000000,0,0x5D,0x00,Read,ACK
11.203373900000001,0,0x5D,0x00,Read,ACK
11.203395360000000,0,0x5D,0x00,Read,ACK
11.203417320000000,0,0x5D,0x00,Read,ACK
11.203440380000000,0,0x5D,0x36,Read,ACK
11.203461839999999,0,0x5D,0xBA,Read,ACK
11.203483940000000,0,0x5D,0x02,Read,ACK
11.203506819999999,0,0x5D,0x00,Read,ACK
11.203528580000000,0,0x5D,0x00,Read,ACK
11.203550079999999,0,0x5D,0x00,Read,ACK
11.203571540000000,0,0x5D,0x00,Read,ACK
11.203593000000000,0,0x5D,0x00,Read,ACK
11.203614440000001,0,0x5D,0x00,Read,ACK
11.203635900000000,0,0x5D,0x00,Read,ACK
11.203657900000000,0,0x5D,0x00,Read,ACK
11.203679480000000,0,0x5D,0x00,Read,ACK
11.203701340000000,0,0x5D,0x00,Read,ACK
11.203724340000001,0,0x5D,0x00,Read,ACK
11.203748160000000,0,0x5D,0x00,Read,ACK
11.203769640000001,0,0x5D,0x00,Read,ACK
11.203791140000000,0,0x5D,0x00,Read,ACK
11.203812599999999,0,0x5D,0x00,Read,ACK
11.203834040000000,0,0x5D,0x00,Read,ACK
11.203856360000000,0,0x5D,0x00,Read,ACK
11.203877920000000,0,0x5D,0x00,Read,NAK
11.209635660000000,0,0x5D,0x2F,Read,ACK
11.209661759999999,0,0x5D,0x00,Read,ACK
11.209683260000000,0,0x5D,0x04,Read,ACK
11.209705820000000,0,0x5D,0x03,Read,ACK
11.209727300000001,0,0x5D,0xC5,Read,ACK
11.209748740000000,0,0x5D,0x01,Read,ACK
11.209770280000001,0,0x5D,0x77,Read,ACK
11.209791780000000,0,0x5D,0x01,Read,ACK
11.209814200000000,0,0x5D,0x03,Read,ACK
11.209836839999999,0,0x5D,0x02,Read,ACK
11.209858340000000,0,0x5D,0x20,Read,ACK
11.209879839999999,0,0x5D,0x13,Read,ACK
11.209901340000000,0,0x5D,0x3E,Read,ACK
11.209922819999999,0,0x5D,0x0C,Read,ACK
11.209944320000000,0,0x5D,0x91,Read,ACK
11.209966240000000,0,0x5D,0x08,Read,ACK
11.209988839999999,0,0x5D,0x03,Read,ACK
11.210010300000000,0,0x5D,0x04,Read,ACK
11.210031799999999,0,0x5D,0x20,Read,ACK
11.210053280000000,0,0x5D,0x00,Read,ACK
11.210074720000000,0,0x5D,0x00,Read,ACK
11.210096200000001,0,0x5D,0x00,Read,ACK
11.210117720000000,0,0x5D,0x00,Read,ACK
11.210139220000000,0,0x5D,0x00,Read,ACK
11.210160680000000,0,0x5D,0x00,Read,ACK
11.210182140000001,0,0x5D,0x00,Read,ACK
11.210203880000000,0,0x5D,0x00,Read,ACK
11.210225360000001,0,0x5D,0x00,Read,ACK
11.210246800000000,0,0x5D,0x00,Read,ACK
11.210268259999999,0,0x5D,0x00,Read,ACK
11.210289720000000,0,0x5D,0x00,Read,ACK
11.210311239999999,0,0x5D,0x00,Read,ACK
11.210332740000000,0,0x5D,0x00,Read,ACK
11.210354199999999,0,0x5D,0x00,Read,ACK
11.210375640000001,0,0x5D,0x00,Read,ACK
11.210397120000000,0,0x5D,0x00,Read,ACK
11.210418580000001,0,0x5D,0x00,Read,ACK
11.210440060000000,0,0x5D,0x00,Read,ACK
11.210461520000001,0,0x5D,0x00,Read,ACK
11.210482980000000,0,0x5D,0x00,Read,ACK
11.210504439999999,0,0x5D,0x00,Read,ACK
11.210525900000000,0,0x5D,0x00,Read,ACK
11.210547399999999,0,0x5D,0x00,Read,ACK
11.210568860000000,0,0x5D,0x7C,Read,ACK
11.210590320000000,0,0x5D,0xBA,Read,ACK
11.210611979999999,0,0x5D,0x02,Read,ACK
11.210633480000000,0,0x5D,0x00,Read,ACK
11.210654920000000,0,0x5D,0x00,Read,ACK
11.210676380000001,0,0x5D,0x00,Read,ACK
11.210698140000000,0,0x5D,0x00,Read,ACK
11.210720540000001,0,0x5D,0x00,Read,ACK
11.210743020000001,0,0x5D,0x00,Read,ACK
11.210764500000000,0,0x5D,0x00,Read,ACK
11.210787379999999,0,0x5D,0x00,Read,ACK
11.210809780000000,0,0x5D,0x00,Read,ACK
11.210831239999999,0,0x5D,0x00,Read,ACK
11.210853139999999,0,0x5D,0x00,Read,ACK
11.210876259999999,0,0x5D,0x00,Read,ACK
11.210897720000000,0,0x5D,0x00,Read,ACK
11.210919199999999,0,0x5D,0x00,Read,ACK
11.210940720000000,0,0x5D,0x00,Read,ACK
11.210962220000001,0,0x5D,0x00,Read,ACK
11.210983660000000,0,0x5D,0x00,Read,ACK
11.211005119999999,0,0x5D,0x00,Read,NAK
11.216461940000000,0,0x5D,0x2F,Read,ACK
11.216486600000000,0,0x5D,0x00,Read,ACK
11.216508080000001,0,0x5D,0x04,Read,ACK
11.216529520000000,0,0x5D,0x03,Read,ACK
11.216550979999999,0,0x5D,0xC7,Read,ACK
11.216572440000000,0,0x5D,0x01,Read,ACK
11.216593899999999,0,0x5D,0x7B,Read,ACK
11.216615340000001,0,0x5D,0x01,Read,ACK
11.216636800000000,0,0x5D,0x03,Read,ACK
11.216658519999999,0,0x5D,0x02,Read,ACK
11.216680540000000,0,0x5D,0x20,Read,ACK
11.216702160000001,0,0x5D,0x13,Read,ACK
11.216725360000000,0,0x5D,0x3A,Read,ACK
11.216746819999999,0,0x5D,0x0C,Read,ACK
11.216768280000000,0,0x5D,0x8E,Read,ACK
11.216789739999999,0,0x5D,0x08,Read,ACK
11.216811240000000,0,0x5D,0x03,Read,ACK
11.216832719999999,0,0x5D,0x04,Read,ACK
11.216854200000000,0,0x5D,0x20,Read,ACK
11.216875999999999,0,0x5D,0x00,Read,ACK
11.216898100000000,0,0x5D,0x00,Read,ACK
11.216919600000001,0,0x5D,0x00,Read,ACK
11.216942460000000,0,0x5D,0x00,Read,ACK
11.216965139999999,0,0x5D,0x00,Read,ACK
11.216986640000000,0,0x5D,0x00,Read,ACK
11.217008079999999,0,0x5D,0x00,Read,ACK
11.217029540000000,0,0x5D,0x00,Read,ACK
11.217051000000000,0,0x5D,0x00,Read,ACK
11.217072460000001,0,0x5D,0x00,Read,ACK
11.217094280000000,0,0x5D,0x00,Read,ACK
11.217115720000001,0,0x5D,0x00,Read,ACK
11.217137180000000,0,0x5D,0x00,Read,ACK
11.217158660000001,0,0x5D,0x00,Read,ACK
11.217180160000000,0,0x5D,0x00,Read,ACK
11.217201620000001,0,0x5D,0x00,Read,ACK
11.217223060000000,0,0x5D,0x00,Read,ACK
11.217244559999999,0,0x5D,0x00,Read,ACK
11.217266040000000,0,0x5D,0x00,Read,ACK
11.217287499999999,0,0x5D,0x00,Read,ACK
11.217308960000000,0,0x5D,0x00,Read,ACK
11.217330640000000,0,0x5D,0x00,Read,ACK
11.217352160000001,0,0x5D,0x00,Read,ACK
11.217373640000000,0,0x5D,0x00,Read,ACK
11.217395120000001,0,0x5D,0xC2,Read,ACK
11.217416620000000,0,0x5D,0xBA,Read,ACK
11.217438059999999,0,0x5D,0x02,Read,ACK
11.217459540000000,0,0x5D,0x00,Read,ACK
11.217481980000001,0,0x5D,0x00,Read,ACK
11.217503499999999,0,0x5D,0x00,Read,ACK
11.217524940000001,0,0x5D,0x00,Read,ACK
11.217546400000000,0,0x5D,0x00,Read,ACK
11.217567860000001,0,0x5D,0x00,Read,ACK
11.217589580000000,0,0x5D,0x00,Read,ACK
11.217611099999999,0,0x5D,0x00,Read,ACK
11.217632600000000,0,0x5D,0x00,Read,ACK
11.217654059999999,0,0x5D,0x00,Read,ACK
11.217675540000000,0,0x5D,0x00,Read,ACK
11.217697019999999,0,0x5D,0x00,Read,ACK
11.217720480000001,0,0x5D,0x00,Read,ACK
11.217741920000000,0,0x5D,0x00,Read,ACK
11.217763600000000,0,0x5D,0x00,Read,ACK
11.217785100000000,0,0x5D,0x00,Read,ACK
11.217806980000001,0,0x5D,0x00,Read,ACK
11.217828720000000,0,0x5D,0x00,Read,NAK
11.223566659999999,0,0x5D,0x2F,Read,ACK
11.223589580000001,0,0x5D,0x00,Read,ACK
11.223611080000000,0,0x5D,0x04,Read,ACK
11.223632680000000,0,0x5D,0x03,Read,ACK
11.223654180000000,0,0x5D,0xC9,Read,ACK
11.223675640000000,0,0x5D,0x01,Read,ACK
11.223697100000001,0,0x5D,0x80,Read,ACK
11.223718620000000,0,0x5D,0x01,Read,ACK
11.223740120000000,0,0x5D,0x03,Read,ACK
11.223761580000000,0,0x5D,0x02,Read,ACK
11.223783020000001,0,0x5D,0x20,Read,ACK
11.223804480000000,0,0x5D,0x13,Read,ACK
11.223825939999999,0,0x5D,0x36,Read,ACK
11.223847680000000,0,0x5D,0x0C,Read,ACK
11.223869620000000,0,0x5D,0x8B,Read,ACK
11.223891940000000,0,0x5D,0x08,Read,ACK
11.223913460000000,0,0x5D,0x03,Read,ACK
11.223934959999999,0,0x5D,0x04,Read,ACK
11.223956420000000,0,0x5D,0x20,Read,ACK
11.223977880000000,0,0x5D,0x00,Read,ACK
11.223999420000000,0,0x5D,0x00,Read,ACK
11.224021900000000,0,0x5D,0x00,Read,ACK
11.224043360000000,0,0x5D,0x00,Read,ACK
11.224064840000000,0,0x5D,0x00,Read,ACK
11.224086320000000,0,0x5D,0x00,Read,ACK
11.224107800000001,0,0x5D,0x00,Read,ACK
11.224130140000000,0,0x5D,0x00,Read,ACK
11.224151640000001,0,0x5D,0x00,Read,ACK
11.224173100000000,0,0x5D,0x00,Read,ACK
11.224194580000001,0,0x5D,0x00,Read,ACK
11.224216080000000,0,0x5D,0x00,Read,ACK
11.224237600000000,0,0x5D,0x00,Read,ACK
11.224259419999999,0,0x5D,0x00,Read,ACK
11.224281380000001,0,0x5D,0x00,Read,ACK
11.224303020000001,0,0x5D,0x00,Read,ACK
11.224324520000000,0,0x5D,0x00,Read,ACK
11.224346000000001,0,0x5D,0x00,Read,ACK
11.224367519999999,0,0x5D,0x00,Read,ACK
11.224389000000000,0,0x5D,0x00,Read,ACK
11.224410460000000,0,0x5D,0x00,Read,ACK
11.224431940000001,0,0x5D,0x00,Read,ACK
11.224453440000000,0,0x5D,0x00,Read,ACK
11.224474900000001,0,0x5D,0x00,Read,ACK
11.224496400000000,0,0x5D,0x08,Read,ACK
11.224517860000001,0,0x5D,0xBB,Read,ACK
11.224539320000000,0,0x5D,0x02,Read,ACK
11.224560800000001,0,0x5D,0x00,Read,ACK
11.224582300000000,0,0x5D,0x00,Read,ACK
11.224603760000001,0,0x5D,0x00,Read,ACK
11.224625280000000,0,0x5D,0x00,Read,ACK
11.224646780000000,0,0x5D,0x00,Read,ACK
11.224668240000000,0,0x5D,0x00,Read,ACK
11.224689700000001,0,0x5D,0x00,Read,ACK
11.224711160000000,0,0x5D,0x00,Read,ACK
11.224732619999999,0,0x5D,0x00,Read,ACK
11.224754080000000,0,0x5D,0x00,Read,ACK
11.224775579999999,0,0x5D,0x00,Read,ACK
11.224797040000000,0,0x5D,0x00,Read,ACK
11.224818500000000,0,0x5D,0x00,Read,ACK
11.224839960000001,0,0x5D,0x00,Read,ACK
11.224861460000000,0,0x5D,0x00,Read,ACK
11.224882940000001,0,0x5D,0x00,Read,ACK
11.224907419999999,0,0x5D,0x00,Read,ACK
11.224928880000000,0,0x5D,0x00,Read,NAK
11.230718319999999,0,0x5D,0x2F,Read,ACK
11.230743940000000,0,0x5D,0x00,Read,ACK
11.230765540000000,0,0x5D,0x04,Read,ACK
11.230787060000001,0,0x5D,0x03,Read,ACK
11.230808540000000,0,0x5D,0xCA,Read,ACK
11.230829999999999,0,0x5D,0x01,Read,ACK
11.230851460000000,0,0x5D,0x84,Read,ACK
11.230872919999999,0,0x5D,0x01,Read,ACK
11.230894440000000,0,0x5D,0x03,Read,ACK
11.230917160000001,0,0x5D,0x02,Read,ACK
11.230938640000000,0,0x5D,0x20,Read,ACK
11.230960100000001,0,0x5D,0x13,Read,ACK
11.230982300000001,0,0x5D,0x30,Read,ACK
11.231004199999999,0,0x5D,0x0C,Read,ACK
11.231026000000000,0,0x5D,0x87,Read,ACK
11.231047500000001,0,0x5D,0x08,Read,ACK
11.231069000000000,0,0x5D,0x03,Read,ACK
11.231090439999999,0,0x5D,0x04,Read,ACK
11.231111900000000,0,0x5D,0x20,Read,ACK
11.231133379999999,0,0x5D,0x00,Read,ACK
11.231155160000000,0,0x5D,0x00,Read,ACK
11.231176680000001,0,0x5D,0x00,Read,ACK
11.231198160000000,0,0x5D,0x00,Read,ACK
11.231219619999999,0,0x5D,0x00,Read,ACK
11.231241140000000,0,0x5D,0x00,Read,ACK
11.231263900000000,0,0x5D,0x00,Read,ACK
11.231285620000000,0,0x5D,0x00,Read,ACK
11.231307120000000,0,0x5D,0x00,Read,ACK
11.231328580000000,0,0x5D,0x00,Read,ACK
11.231350020000001,0,0x5D,0x00,Read,ACK
11.231372720000000,0,0x5D,0x00,Read,ACK
11.231394180000001,0,0x5D,0x00,Read,ACK
11.231416039999999,0,0x5D,0x00,Read,ACK
11.231437520000000,0,0x5D,0x00,Read,ACK
11.231458979999999,0,0x5D,0x00,Read,ACK
11.231480440000000,0,0x5D,0x00,Read,ACK
11.231501900000000,0,0x5D,0x00,Read,ACK
11.231523380000001,0,0x5D,0x00,Read,ACK
11.231544860000000,0,0x5D,0x00,Read,ACK
11.231566320000001,0,0x5D,0x00,Read,ACK
11.231587800000000,0,0x5D,0x00,Read,ACK
11.231609300000001,0,0x5D,0x00,Read,ACK
11.231630760000000,0,0x5D,0x00,Read,ACK
11.231652199999999,0,0x5D,0x4E,Read,ACK
11.231673680000000,0,0x5D,0xBB,Read,ACK
11.231695220000001,0,0x5D,0x02,Read,ACK
11.231716680000000,0,0x5D,0x00,Read,ACK
11.231738480000001,0,0x5D,0x00,Read,ACK
11.231759980000000,0,0x5D,0x00,Read,ACK
11.231781460000001,0,0x5D,0x00,Read,ACK
11.231802999999999,0,0x5D,0x00,Read,ACK
11.231824500000000,0,0x5D,0x00,Read,ACK
11.231846020000001,0,0x5D,0x00,Read,ACK
11.231867500000000,0,0x5D,0x00,Read,ACK
11.231888959999999,0,0x5D,0x00,Read,ACK
11.231910420000000,0,0x5D,0x00,Read,ACK
11.231931860000000,0,0x5D,0x00,Read,ACK
11.231953340000000,0,0x5D,0x00,Read,ACK
11.231974839999999,0,0x5D,0x00,Read,ACK
11.231996280000001,0,0x5D,0x00,Read,ACK
11.232017960000000,0,0x5D,0x00,Read,ACK
11.232041060000000,0,0x5D,0x00,Read,ACK
11.232062960000000,0,0x5D,0x00,Read,ACK
11.232084440000000,0,0x5D,0x00,Read,NAK
11.237939960000000,0,0x5D,0x2F,Read,ACK
11.237963479999999,0,0x5D,0x00,Read,ACK
11.237984980000000,0,0x5D,0x04,Read,ACK
11.238006459999999,0,0x5D,0x03,Read,ACK
11.238027940000000,0,0x5D,0xCB,Read,ACK
11.238049400000000,0,0x5D,0x01,Read,ACK
11.238070860000001,0,0x5D,0x89,Read,ACK
11.238092320000000,0,0x5D,0x01,Read,ACK
11.238113800000001,0,0x5D,0x03,Read,ACK
11.238135740000001,0,0x5D,0x02,Read,ACK
11.238157520000000,0,0x5D,0x20,Read,ACK
11.238179840000001,0,0x5D,0x13,Read,ACK
11.238201340000000,0,0x5D,0x2B,Read,ACK
11.238222800000001,0,0x5D,0x0C,Read,ACK
11.238244240000000,0,0x5D,0x83,Read,ACK
11.238265760000001,0,0x5D,0x08,Read,ACK
11.238288839999999,0,0x5D,0x03,Read,ACK
11.238310840000000,0,0x5D,0x05,Read,ACK
11.238332320000000,0,0x5D,0x20,Read,ACK
11.238353780000001,0,0x5D,0x00,Read,ACK
11.238376179999999,0,0x5D,0x00,Read,ACK
11.238397700000000,0,0x5D,0x00,Read,ACK
11.238419199999999,0,0x5D,0x00,Read,ACK
11.238440680000000,0,0x5D,0x00,Read,ACK
11.238462200000001,0,0x5D,0x00,Read,ACK
11.238483680000000,0,0x5D,0x00,Read,ACK
11.238505320000000,0,0x5D,0x00,Read,ACK
11.238526780000001,0,0x5D,0x00,Read,ACK
11.238549720000000,0,0x5D,0x00,Read,ACK
11.238571179999999,0,0x5D,0x00,Read,ACK
11.238592660000000,0,0x5D,0x00,Read,ACK
11.238614159999999,0,0x5D,0x00,Read,ACK
11.238635620000000,0,0x5D,0x00,Read,ACK
11.238657079999999,0,0x5D,0x00,Read,ACK
11.238678540000000,0,0x5D,0x00,Read,ACK
11.238700039999999,0,0x5D,0x00,Read,ACK
11.238721520000000,0,0x5D,0x00,Read,ACK
11.238743019999999,0,0x5D,0x00,Read,ACK
11.238764500000000,0,0x5D,0x00,Read,ACK
11.238785979999999,0,0x5D,0x00,Read,ACK
11.238807440000000,0,0x5D,0x00,Read,ACK
11.238828920000000,0,0x5D,0x00,Read,ACK
11.238850420000000,0,0x5D,0x00,Read,ACK
11.238871880000000,0,0x5D,0x94,Read,ACK
11.238893320000001,0,0x5D,0xBB,Read,ACK
11.238914800000000,0,0x5D,0x02,Read,ACK
11.238936320000001,0,0x5D,0x00,Read,ACK
11.238957800000000,0,0x5D,0x00,Read,ACK
11.238979280000001,0,0x5D,0x00,Read,ACK
11.239000799999999,0,0x5D,0x00,Read,ACK
11.239022280000000,0,0x5D,0x00,Read,ACK
11.239043779999999,0,0x5D,0x00,Read,ACK
11.239065280000000,0,0x5D,0x00,Read,ACK
11.239086720000000,0,0x5D,0x00,Read,ACK
11.239108180000001,0,0x5D,0x00,Read,ACK
11.239129760000001,0,0x5D,0x00,Read,ACK
11.239151240000000,0,0x5D,0x00,Read,ACK
11.239172760000001,0,0x5D,0x00,Read,ACK
11.239195499999999,0,0x5D,0x00,Read,ACK
11.239216960000000,0,0x5D,0x00,Read,ACK
11.239238420000000,0,0x5D,0x00,Read,ACK
11.239260059999999,0,0x5D,0x00,Read,ACK
11.239282480000000,0,0x5D,0x00,Read,ACK
11.239304040000000,0,0x5D,0x00,Read,NAK
11.245124320000000,0,0x5D,0x2F,Read,ACK
11.245147540000000,0,0x5D,0x00,Read,ACK
11.245169000000001,0,0x5D,0x04,Read,ACK
11.245190460000000,0,0x5D,0x03,Read,ACK
11.245213300000000,0,0x5D,0xCD,Read,ACK
11.245234800000000,0,0x5D,0x01,Read,ACK
11.245256260000000,0,0x5D,0x8D,Read,ACK
11.245278160000000,0,0x5D,0x01,Read,ACK
11.245299760000000,0,0x5D,0x03,Read,ACK
11.245322240000000,0,0x5D,0x02,Read,ACK
11.245343760000001,0,0x5D,0x20,Read,ACK
11.245365220000000,0,0x5D,0x13,Read,ACK
11.245386720000001,0,0x5D,0x25,Read,ACK
11.245408279999999,0,0x5D,0x0C,Read,ACK
11.245430320000001,0,0x5D,0x7F,Read,ACK
11.245452260000000,0,0x5D,0x08,Read,ACK
11.245474939999999,0,0x5D,0x03,Read,ACK
11.245496460000000,0,0x5D,0x05,Read,ACK
11.245517960000001,0,0x5D,0x20,Read,ACK
11.245541260000000,0,0x5D,0x00,Read,ACK
11.245563519999999,0,0x5D,0x00,Read,ACK
11.245585000000000,0,0x5D,0x00,Read,ACK
11.245606459999999,0,0x5D,0x00,Read,ACK
11.245627920000000,0,0x5D,0x00,Read,ACK
11.245649380000000,0,0x5D,0x00,Read,ACK
11.245670880000000,0,0x5D,0x00,Read,ACK
11.245693160000000,0,0x5D,0x00,Read,ACK
11.245714660000001,0,0x5D,0x00,Read,ACK
11.245736120000000,0,0x5D,0x00,Read,ACK
11.245757579999999,0,0x5D,0x00,Read,ACK
11.245779040000000,0,0x5D,0x00,Read,ACK
11.245800539999999,0,0x5D,0x00,Read,ACK
11.245823000000000,0,0x5D,0x00,Read,ACK
11.245844460000001,0,0x5D,0x00,Read,ACK
11.245865920000000,0,0x5D,0x00,Read,ACK
11.245887359999999,0,0x5D,0x00,Read,ACK
11.245908840000000,0,0x5D,0x00,Read,ACK
11.245930299999999,0,0x5D,0x00,Read,ACK
11.245951820000000,0,0x5D,0x00,Read,ACK
11.245973340000001,0,0x5D,0x00,Read,ACK
11.245994840000000,0,0x5D,0x00,Read,ACK
11.246016279999999,0,0x5D,0x00,Read,ACK
11.246037760000000,0,0x5D,0x00,Read,ACK
11.246059199999999,0,0x5D,0xDA,Read,ACK
11.246080859999999,0,0x5D,0xBB,Read,ACK
11.246102360000000,0,0x5D,0x02,Read,ACK
11.246123819999999,0,0x5D,0x00,Read,ACK
11.246145280000000,0,0x5D,0x00,Read,ACK
11.246166720000000,0,0x5D,0x00,Read,ACK
11.246188200000001,0,0x5D,0x00,Read,ACK
11.246209700000000,0,0x5D,0x00,Read,ACK
11.246231220000000,0,0x5D,0x00,Read,ACK
11.246252680000000,0,0x5D,0x00,Read,ACK
11.246274120000001,0,0x5D,0x00,Read,ACK
11.246295580000000,0,0x5D,0x00,Read,ACK
11.246317039999999,0,0x5D,0x00,Read,ACK
11.246341660000001,0,0x5D,0x00,Read,ACK
11.246363120000000,0,0x5D,0x00,Read,ACK
11.246386120000000,0,0x5D,0x00,Read,ACK
11.246409440000001,0,0x5D,0x00,Read,ACK
11.246431260000000,0,0x5D,0x00,Read,ACK
11.246454099999999,0,0x5D,0x00,Read,ACK
11.246475800000001,0,0x5D,0x00,Read,ACK
11.246497280000000,0,0x5D,0x00,Read,NAK
11.252553300000001,0,0x5D,0x2F,Read,ACK
11.252579100000000,0,0x5D,0x00,Read,ACK
11.252603080000000,0,0x5D,0x04,Read,ACK
11.252624580000001,0,0x5D,0x03,Read,ACK
11.252646060000000,0,0x5D,0xCE,Read,ACK
11.252667560000001,0,0x5D,0x01,Read,ACK
11.252690400000001,0,0x5D,0x90,Read,ACK
11.252711900000000,0,0x5D,0x01,Read,ACK
11.252733360000001,0,0x5D,0x03,Read,ACK
11.252754860000000,0,0x5D,0x02,Read,ACK
11.252777480000001,0,0x5D,0x20,Read,ACK
11.252798960000000,0,0x5D,0x13,Read,ACK
11.252820420000001,0,0x5D,0x1F,Read,ACK
11.252841860000000,0,0x5D,0x0C,Read,ACK
11.252864799999999,0,0x5D,0x7B,Read,ACK
11.252886280000000,0,0x5D,0x08,Read,ACK
11.252907799999999,0,0x5D,0x03,Read,ACK
11.252929280000000,0,0x5D,0x05,Read,ACK
11.252950780000001,0,0x5D,0x20,Read,ACK
11.252972280000000,0,0x5D,0x00,Read,ACK
11.252993800000000,0,0x5D,0x00,Read,ACK
11.253015240000000,0,0x5D,0x00,Read,ACK
11.253036699999999,0,0x5D,0x00,Read,ACK
11.253058180000000,0,0x5D,0x00,Read,ACK
11.253079619999999,0,0x5D,0x00,Read,ACK
11.253101060000001,0,0x5D,0x00,Read,ACK
11.253122520000000,0,0x5D,0x00,Read,ACK
11.253143980000001,0,0x5D,0x00,Read,ACK
11.253165440000000,0,0x5D,0x00,Read,ACK
11.253186919999999,0,0x5D,0x00,Read,ACK
11.253208420000000,0,0x5D,0x00,Read,ACK
11.253229920000001,0,0x5D,0x00,Read,ACK
11.253251380000000,0,0x5D,0x00,Read,ACK
11.253272880000001,0,0x5D,0x00,Read,ACK
11.253294360000000,0,0x5D,0x00,Read,ACK
11.253315860000001,0,0x5D,0x00,Read,ACK
11.253337580000000,0,0x5D,0x00,Read,ACK
11.253359079999999,0,0x5D,0x00,Read,ACK
11.253380600000000,0,0x5D,0x00,Read,ACK
11.253405420000000,0,0x5D,0x00,Read,ACK
11.253426940000001,0,0x5D,0x00,Read,ACK
11.253450020000001,0,0x5D,0x00,Read,ACK
11.253471740000000,0,0x5D,0x00,Read,ACK
11.253495080000000,0,0x5D,0x20,Read,ACK
11.253516879999999,0,0x5D,0xBC,Read,ACK
11.253538380000000,0,0x5D,0x02,Read,ACK
11.253559859999999,0,0x5D,0x00,Read,ACK
11.253581360000000,0,0x5D,0x00,Read,ACK
11.253602839999999,0,0x5D,0x00,Read,ACK
11.253624340000000,0,0x5D,0x00,Read,ACK
11.253645860000001,0,0x5D,0x00,Read,ACK
11.253667500000001,0,0x5D,0x00,Read,ACK
11.253689000000000,0,0x5D,0x00,Read,ACK
11.253712020000000,0,0x5D,0x00,Read,ACK
11.253735120000000,0,0x5D,0x00,Read,ACK
11.253756760000000,0,0x5D,0x00,Read,ACK
11.253778260000001,0,0x5D,0x00,Read,ACK
11.253799700000000,0,0x5D,0x00,Read,ACK
11.253821179999999,0,0x5D,0x00,Read,ACK
11.253842680000000,0,0x5D,0x00,Read,ACK
11.253864139999999,0,0x5D,0x00,Read,ACK
11.253885600000000,0,0x5D,0x00,Read,ACK
11.253907119999999,0,0x5D,0x00,Read,ACK
11.253928719999999,0,0x5D,0x00,Read,NAK
11.259354860000000,0,0x5D,0x2F,Read,ACK
11.259379320000001,0,0x5D,0x00,Read,ACK
11.259400800000000,0,0x5D,0x04,Read,ACK
11.259422259999999,0,0x5D,0x03,Read,ACK
11.259443720000000,0,0x5D,0xD0,Read,ACK
11.259465199999999,0,0x5D,0x01,Read,ACK
11.259486700000000,0,0x5D,0x94,Read,ACK
11.259509680000001,0,0x5D,0x01,Read,ACK
11.259531180000000,0,0x5D,0x03,Read,ACK
11.259552700000000,0,0x5D,0x02,Read,ACK
11.259575280000000,0,0x5D,0x20,Read,ACK
11.259596880000000,0,0x5D,0x13,Read,ACK
11.259621839999999,0,0x5D,0x19,Read,ACK
11.259643300000000,0,0x5D,0x0C,Read,ACK
11.259664760000000,0,0x5D,0x77,Read,ACK
11.259686200000001,0,0x5D,0x08,Read,ACK
11.259707660000000,0,0x5D,0x03,Read,ACK
11.259730240000000,0,0x5D,0x05,Read,ACK
11.259752580000001,0,0x5D,0x20,Read,ACK
11.259774760000001,0,0x5D,0x00,Read,ACK
11.259796240000000,0,0x5D,0x00,Read,ACK
11.259817740000001,0,0x5D,0x00,Read,ACK
11.259840700000000,0,0x5D,0x00,Read,ACK
11.259863279999999,0,0x5D,0x00,Read,ACK
11.259884740000000,0,0x5D,0x00,Read,ACK
11.259906519999999,0,0x5D,0x00,Read,ACK
11.259928020000000,0,0x5D,0x00,Read,ACK
11.259949480000000,0,0x5D,0x00,Read,ACK
11.259972019999999,0,0x5D,0x00,Read,ACK
11.259993540000000,0,0x5D,0x00,Read,ACK
11.260015020000001,0,0x5D,0x00,Read,ACK
11.260036500000000,0,0x5D,0x00,Read,ACK
11.260057939999999,0,0x5D,0x00,Read,ACK
11.260079400000000,0,0x5D,0x00,Read,ACK
11.260100880000000,0,0x5D,0x00,Read,ACK
11.260122360000000,0,0x5D,0x00,Read,ACK
11.260143820000000,0,0x5D,0x00,Read,ACK
11.260165280000001,0,0x5D,0x00,Read,ACK
11.260186740000000,0,0x5D,0x00,Read,ACK
11.260208260000001,0,0x5D,0x00,Read,ACK
11.260229700000000,0,0x5D,0x00,Read,ACK
11.260251159999999,0,0x5D,0x00,Read,ACK
11.260272600000000,0,0x5D,0x00,Read,ACK
11.260294119999999,0,0x5D,0x66,Read,ACK
11.260315580000000,0,0x5D,0xBC,Read,ACK
11.260337040000000,0,0x5D,0x02,Read,ACK
11.260358500000001,0,0x5D,0x00,Read,ACK
11.260380120000001,0,0x5D,0x00,Read,ACK
11.260401580000000,0,0x5D,0x00,Read,ACK
11.260423060000001,0,0x5D,0x00,Read,ACK
11.260444560000000,0,0x5D,0x00,Read,ACK
11.260466020000001,0,0x5D,0x00,Read,ACK
11.260487460000000,0,0x5D,0x00,Read,ACK
11.260508939999999,0,0x5D,0x00,Read,ACK
11.260530440000000,0,0x5D,0x00,Read,ACK
11.260551919999999,0,0x5D,0x00,Read,ACK
11.260573420000000,0,0x5D,0x00,Read,ACK
11.260594879999999,0,0x5D,0x00,Read,ACK
11.260616320000000,0,0x5D,0x00,Read,ACK
11.260638080000000,0,0x5D,0x00,Read,ACK
11.260659540000001,0,0x5D,0x00,Read,ACK
11.260681260000000,0,0x5D,0x00,Read,ACK
11.260702739999999,0,0x5D,0x00,Read,ACK
11.260726200000001,0,0x5D,0x00,Read,NAK
11.266463359999999,0,0x5D,0x2F,Read,ACK
11.266488539999999,0,0x5D,0x00,Read,ACK
11.266510020000000,0,0x5D,0x04,Read,ACK
11.266531660000000,0,0x5D,0x03,Read,ACK
11.266553119999999,0,0x5D,0xD1,Read,ACK
11.266574560000000,0,0x5D,0x01,Read,ACK
11.266596020000000,0,0x5D,0x97,Read,ACK
11.266617480000001,0,0x5D,0x01,Read,ACK
11.266639440000001,0,0x5D,0x03,Read,ACK
11.266660959999999,0,0x5D,0x02,Read,ACK
11.266682460000000,0,0x5D,0x20,Read,ACK
11.266704900000001,0,0x5D,0x13,Read,ACK
11.266726620000000,0,0x5D,0x13,Read,ACK
11.266750920000000,0,0x5D,0x0C,Read,ACK
11.266772400000001,0,0x5D,0x74,Read,ACK
11.266793860000000,0,0x5D,0x08,Read,ACK
11.266815299999999,0,0x5D,0x03,Read,ACK
11.266836760000000,0,0x5D,0x05,Read,ACK
11.266858220000000,0,0x5D,0x20,Read,ACK
11.266879680000001,0,0x5D,0x00,Read,ACK
11.266901519999999,0,0x5D,0x00,Read,ACK
11.266923020000000,0,0x5D,0x00,Read,ACK
11.266944479999999,0,0x5D,0x00,Read,ACK
11.266965960000000,0,0x5D,0x00,Read,ACK
11.266988039999999,0,0x5D,0x00,Read,ACK
11.267009760000001,0,0x5D,0x00,Read,ACK
11.267031220000000,0,0x5D,0x00,Read,ACK
11.267052680000001,0,0x5D,0x00,Read,ACK
11.267074160000000,0,0x5D,0x00,Read,ACK
11.267095660000001,0,0x5D,0x00,Read,ACK
11.267117140000000,0,0x5D,0x00,Read,ACK
11.267138620000001,0,0x5D,0x00,Read,ACK
11.267160820000001,0,0x5D,0x00,Read,ACK
11.267183040000001,0,0x5D,0x00,Read,ACK
11.267204500000000,0,0x5D,0x00,Read,ACK
11.267226020000001,0,0x5D,0x00,Read,ACK
11.267247520000000,0,0x5D,0x00,Read,ACK
11.267269020000001,0,0x5D,0x00,Read,ACK
11.267290500000000,0,0x5D,0x00,Read,ACK
11.267311960000001,0,0x5D,0x00,Read,ACK
11.267333480000000,0,0x5D,0x00,Read,ACK
11.267354980000000,0,0x5D,0x00,Read,ACK
11.267376440000000,0,0x5D,0x00,Read,ACK
11.267397880000001,0,0x5D,0xAC,Read,ACK
11.267419340000000,0,0x5D,0xBC,Read,ACK
11.267440799999999,0,0x5D,0x02,Read,ACK
11.267462260000000,0,0x5D,0x00,Read,ACK
11.267483700000000,0,0x5D,0x00,Read,ACK
11.267507080000000,0,0x5D,0x00,Read,ACK
11.267528540000001,0,0x5D,0x00,Read,ACK
11.267550000000000,0,0x5D,0x00,Read,ACK
11.267571459999999,0,0x5D,0x00,Read,ACK
11.267592940000000,0,0x5D,0x00,Read,ACK
11.267614439999999,0,0x5D,0x00,Read,ACK
11.267635880000000,0,0x5D,0x00,Read,ACK
11.267657540000000,0,0x5D,0x00,Read,ACK
11.267679060000001,0,0x5D,0x00,Read,ACK
11.267700500000000,0,0x5D,0x00,Read,ACK
11.267721959999999,0,0x5D,0x00,Read,ACK
11.267743420000000,0,0x5D,0x00,Read,ACK
11.267768260000000,0,0x5D,0x00,Read,ACK
11.267793859999999,0,0x5D,0x00,Read,ACK
11.267815320000000,0,0x5D,0x00,Read,ACK
11.267836780000000,0,0x5D,0x00,Read,NAK
11.273594480000000,0,0x5D,0x2F,Read,ACK
11.273620100000000,0,0x5D,0x00,Read,ACK
11.273641599999999,0,0x5D,0x04,Read,ACK
11.273663060000001,0,0x5D,0x03,Read,ACK
11.273684500000000,0,0x5D,0xD3,Read,ACK
11.273706420000000,0,0x5D,0x01,Read,ACK
11.273728100000000,0,0x5D,0x9B,Read,ACK
11.273749540000001,0,0x5D,0x01,Read,ACK
11.273771000000000,0,0x5D,0x03,Read,ACK
11.273792459999999,0,0x5D,0x03,Read,ACK
11.273814220000000,0,0x5D,0x20,Read,ACK
11.273835679999999,0,0x5D,0x13,Read,ACK
11.273857120000001,0,0x5D,0x0D,Read,ACK
11.273879700000000,0,0x5D,0x0C,Read,ACK
11.273901320000000,0,0x5D,0x70,Read,ACK
11.273924100000000,0,0x5D,0x08,Read,ACK
11.273945560000000,0,0x5D,0x03,Read,ACK
11.273967040000000,0,0x5D,0x05,Read,ACK
11.273988520000000,0,0x5D,0x20,Read,ACK
11.274010000000001,0,0x5D,0x00,Read,ACK
11.274031660000000,0,0x5D,0x00,Read,ACK
11.274053700000000,0,0x5D,0x00,Read,ACK
11.274076640000001,0,0x5D,0x00,Read,ACK
11.274099720000001,0,0x5D,0x00,Read,ACK
11.274121220000000,0,0x5D,0x00,Read,ACK
11.274143600000000,0,0x5D,0x00,Read,ACK
11.274165099999999,0,0x5D,0x00,Read,ACK
11.274187080000001,0,0x5D,0x00,Read,ACK
11.274208580000000,0,0x5D,0x00,Read,ACK
11.274230019999999,0,0x5D,0x00,Read,ACK
11.274251480000000,0,0x5D,0x00,Read,ACK
11.274272959999999,0,0x5D,0x00,Read,ACK
11.274295600000000,0,0x5D,0x00,Read,ACK
11.274318539999999,0,0x5D,0x00,Read,ACK
11.274340060000000,0,0x5D,0x00,Read,ACK
11.274361559999999,0,0x5D,0x00,Read,ACK
11.274383380000000,0,0x5D,0x00,Read,ACK
11.274404860000001,0,0x5D,0x00,Read,ACK
11.274426300000000,0,0x5D,0x00,Read,ACK
11.274447800000001,0,0x5D,0x00,Read,ACK
11.274469280000000,0,0x5D,0x00,Read,ACK
11.274490739999999,0,0x5D,0x00,Read,ACK
11.274512240000000,0,0x5D,0x00,Read,ACK
11.274533679999999,0,0x5D,0xF2,Read,ACK
11.274555140000000,0,0x5D,0xBC,Read,ACK
11.274576600000000,0,0x5D,0x02,Read,ACK
11.274598060000001,0,0x5D,0x00,Read,ACK
11.274619540000000,0,0x5D,0x00,Read,ACK
11.274641440000000,0,0x5D,0x00,Read,ACK
11.274662920000001,0,0x5D,0x00,Read,ACK
11.274684380000000,0,0x5D,0x00,Read,ACK
11.274708340000000,0,0x5D,0x00,Read,ACK
11.274729839999999,0,0x5D,0x00,Read,ACK
11.274751300000000,0,0x5D,0x00,Read,ACK
11.274772799999999,0,0x5D,0x00,Read,ACK
11.274794260000000,0,0x5D,0x00,Read,ACK
11.274815739999999,0,0x5D,0x00,Read,ACK
11.274837240000000,0,0x5D,0x00,Read,ACK
11.274858760000001,0,0x5D,0x00,Read,ACK
11.274880220000000,0,0x5D,0x00,Read,ACK
11.274901720000001,0,0x5D,0x00,Read,ACK
11.274923180000000,0,0x5D,0x00,Read,ACK
11.274947259999999,0,0x5D,0x00,Read,ACK
11.274970020000000,0,0x5D,0x00,Read,NAK
11.280820220000001,0,0x5D,0x2F,Read,ACK
11.280842920000000,0,0x5D,0x00,Read,ACK
11.280864380000001,0,0x5D,0x04,Read,ACK
11.280885840000000,0,0x5D,0x03,Read,ACK
11.280907340000001,0,0x5D,0xD6,Read,ACK
11.280928820000000,0,0x5D,0x01,Read,ACK
11.280950320000001,0,0x5D,0x9F,Read,ACK
11.280972600000000,0,0x5D,0x01,Read,ACK
11.280995259999999,0,0x5D,0x03,Read,ACK
11.281017380000000,0,0x5D,0x03,Read,ACK
11.281038880000001,0,0x5D,0x20,Read,ACK
11.281060340000000,0,0x5D,0x13,Read,ACK
11.281081800000001,0,0x5D,0x08,Read,ACK
11.281103240000000,0,0x5D,0x0C,Read,ACK
11.281124699999999,0,0x5D,0x6C,Read,ACK
11.281146400000001,0,0x5D,0x08,Read,ACK
11.281167920000000,0,0x5D,0x03,Read,ACK
11.281189500000000,0,0x5D,0x05,Read,ACK
11.281211020000001,0,0x5D,0x20,Read,ACK
11.281232540000000,0,0x5D,0x00,Read,ACK
11.281254680000000,0,0x5D,0x00,Read,ACK
11.281276180000001,0,0x5D,0x00,Read,ACK
11.281297640000000,0,0x5D,0x00,Read,ACK
11.281319119999999,0,0x5D,0x00,Read,ACK
11.281340640000000,0,0x5D,0x00,Read,ACK
11.281362140000001,0,0x5D,0x00,Read,ACK
11.281383640000000,0,0x5D,0x00,Read,ACK
11.281406320000000,0,0x5D,0x00,Read,ACK
11.281428020000000,0,0x5D,0x00,Read,ACK
11.281449500000001,0,0x5D,0x00,Read,ACK
11.281471020000000,0,0x5D,0x00,Read,ACK
11.281492480000001,0,0x5D,0x00,Read,ACK
11.281513980000000,0,0x5D,0x00,Read,ACK
11.281535440000001,0,0x5D,0x00,Read,ACK
11.281556980000000,0,0x5D,0x00,Read,ACK
11.281578480000000,0,0x5D,0x00,Read,ACK
11.281599999999999,0,0x5D,0x00,Read,ACK
11.281621500000000,0,0x5D,0x00,Read,ACK
11.281642959999999,0,0x5D,0x00,Read,ACK
11.281664420000000,0,0x5D,0x00,Read,ACK
11.281685939999999,0,0x5D,0x00,Read,ACK
11.281707460000000,0,0x5D,0x00,Read,ACK
11.281728960000001,0,0x5D,0x00,Read,ACK
11.281751659999999,0,0x5D,0x38,Read,ACK
11.281773120000000,0,0x5D,0xBD,Read,ACK
11.281794600000000,0,0x5D,0x02,Read,ACK
11.281816100000000,0,0x5D,0x00,Read,ACK
11.281837560000000,0,0x5D,0x00,Read,ACK
11.281859060000000,0,0x5D,0x00,Read,ACK
11.281880520000000,0,0x5D,0x00,Read,ACK
11.281901960000001,0,0x5D,0x00,Read,ACK
11.281923440000000,0,0x5D,0x00,Read,ACK
11.281944960000001,0,0x5D,0x00,Read,ACK
11.281966400000000,0,0x5D,0x00,Read,ACK
11.281987859999999,0,0x5D,0x00,Read,ACK
11.282009300000000,0,0x5D,0x00,Read,ACK
11.282030779999999,0,0x5D,0x00,Read,ACK
11.282055639999999,0,0x5D,0x00,Read,ACK
11.282078159999999,0,0x5D,0x00,Read,ACK
11.282100540000000,0,0x5D,0x00,Read,ACK
11.282122160000000,0,0x5D,0x00,Read,ACK
11.282143960000001,0,0x5D,0x00,Read,ACK
11.282166159999999,0,0x5D,0x00,Read,ACK
11.282187840000001,0,0x5D,0x00,Read,NAK
11.287895779999999,0,0x5D,0x2F,Read,ACK
11.287920780000000,0,0x5D,0x00,Read,ACK
11.287942240000000,0,0x5D,0x04,Read,ACK
11.287963700000001,0,0x5D,0x03,Read,ACK
11.287985180000000,0,0x5D,0xD9,Read,ACK
11.288006680000001,0,0x5D,0x01,Read,ACK
11.288028120000000,0,0x5D,0xA4,Read,ACK
11.288049579999999,0,0x5D,0x01,Read,ACK
11.288071040000000,0,0x5D,0x03,Read,ACK
11.288092499999999,0,0x5D,0x03,Read,ACK
11.288113960000000,0,0x5D,0x20,Read,ACK
11.288136659999999,0,0x5D,0x13,Read,ACK
11.288159620000000,0,0x5D,0x03,Read,ACK
11.288181300000000,0,0x5D,0x0C,Read,ACK
11.288205760000000,0,0x5D,0x68,Read,ACK
11.288227220000000,0,0x5D,0x08,Read,ACK
11.288248680000001,0,0x5D,0x03,Read,ACK
11.288270140000000,0,0x5D,0x05,Read,ACK
11.288291559999999,0,0x5D,0x20,Read,ACK
11.288313459999999,0,0x5D,0x00,Read,ACK
11.288334980000000,0,0x5D,0x00,Read,ACK
11.288356459999999,0,0x5D,0x00,Read,ACK
11.288377920000000,0,0x5D,0x00,Read,ACK
11.288400460000000,0,0x5D,0x00,Read,ACK
11.288422960000000,0,0x5D,0x00,Read,ACK
11.288446700000000,0,0x5D,0x00,Read,ACK
11.288468160000001,0,0x5D,0x00,Read,ACK
11.288490299999999,0,0x5D,0x00,Read,ACK
11.288511800000000,0,0x5D,0x00,Read,ACK
11.288533259999999,0,0x5D,0x00,Read,ACK
11.288554720000000,0,0x5D,0x00,Read,ACK
11.288576519999999,0,0x5D,0x00,Read,ACK
11.288598000000000,0,0x5D,0x00,Read,ACK
11.288619479999999,0,0x5D,0x00,Read,ACK
11.288640980000000,0,0x5D,0x00,Read,ACK
11.288662479999999,0,0x5D,0x00,Read,ACK
11.288683940000000,0,0x5D,0x00,Read,ACK
11.288705459999999,0,0x5D,0x00,Read,ACK
11.288726920000000,0,0x5D,0x00,Read,ACK
11.288748360000000,0,0x5D,0x00,Read,ACK
11.288769820000001,0,0x5D,0x00,Read,ACK
11.288791280000000,0,0x5D,0x00,Read,ACK
11.288812800000001,0,0x5D,0x00,Read,ACK
11.288834240000000,0,0x5D,0x7E,Read,ACK
11.288855699999999,0,0x5D,0xBD,Read,ACK
11.288877160000000,0,0x5D,0x02,Read,ACK
11.288898619999999,0,0x5D,0x00,Read,ACK
11.288920080000000,0,0x5D,0x00,Read,ACK
11.288942340000000,0,0x5D,0x00,Read,ACK
11.288963799999999,0,0x5D,0x00,Read,ACK
11.288988480000000,0,0x5D,0x00,Read,ACK
11.289009979999999,0,0x5D,0x00,Read,ACK
11.289031480000000,0,0x5D,0x00,Read,ACK
11.289053239999999,0,0x5D,0x00,Read,ACK
11.289074700000000,0,0x5D,0x00,Read,ACK
11.289096160000000,0,0x5D,0x00,Read,ACK
11.289117620000001,0,0x5D,0x00,Read,ACK
11.289139080000000,0,0x5D,0x00,Read,ACK
11.289160580000001,0,0x5D,0x00,Read,ACK
11.289182040000000,0,0x5D,0x00,Read,ACK
11.289204700000001,0,0x5D,0x00,Read,ACK
11.289226360000001,0,0x5D,0x00,Read,ACK
11.289247840000000,0,0x5D,0x00,Read,ACK
11.289270520000001,0,0x5D,0x00,Read,NAK
11.295475740000001,0,0x5D,0x2F,Read,ACK
11.295500720000000,0,0x5D,0x00,Read,ACK
11.295522200000001,0,0x5D,0x04,Read,ACK
11.295544200000000,0,0x5D,0x03,Read,ACK
11.295566320000001,0,0x5D,0xDB,Read,ACK
11.295587800000000,0,0x5D,0x01,Read,ACK
11.295609300000001,0,0x5D,0xAA,Read,ACK
11.295630800000000,0,0x5D,0x01,Read,ACK
11.295652300000000,0,0x5D,0x03,Read,ACK
11.295673740000000,0,0x5D,0x03,Read,ACK
11.295698359999999,0,0x5D,0x20,Read,ACK
11.295719840000000,0,0x5D,0x13,Read,ACK
11.295741359999999,0,0x5D,0xFD,Read,ACK
11.295762880000000,0,0x5D,0x0B,Read,ACK
11.295784340000001,0,0x5D,0x65,Read,ACK
11.295805840000000,0,0x5D,0x08,Read,ACK
11.295827299999999,0,0x5D,0x02,Read,ACK
11.295848760000000,0,0x5D,0x05,Read,ACK
11.295870200000000,0,0x5D,0x20,Read,ACK
11.295891660000001,0,0x5D,0x00,Read,ACK
11.295913120000000,0,0x5D,0x00,Read,ACK
11.295934580000001,0,0x5D,0x00,Read,ACK
11.295956040000000,0,0x5D,0x00,Read,ACK
11.295978520000000,0,0x5D,0x00,Read,ACK
11.295999999999999,0,0x5D,0x00,Read,ACK
11.296021460000000,0,0x5D,0x00,Read,ACK
11.296042959999999,0,0x5D,0x00,Read,ACK
11.296064840000000,0,0x5D,0x00,Read,ACK
11.296086300000001,0,0x5D,0x00,Read,ACK
11.296107760000000,0,0x5D,0x00,Read,ACK
11.296129240000001,0,0x5D,0x00,Read,ACK
11.296150740000000,0,0x5D,0x00,Read,ACK
11.296172280000000,0,0x5D,0x00,Read,ACK
11.296193760000000,0,0x5D,0x00,Read,ACK
11.296215220000001,0,0x5D,0x00,Read,ACK
11.296236940000000,0,0x5D,0x00,Read,ACK
11.296260820000001,0,0x5D,0x00,Read,ACK
11.296282280000000,0,0x5D,0x00,Read,ACK
11.296303999999999,0,0x5D,0x00,Read,ACK
11.296326920000000,0,0x5D,0x00,Read,ACK
11.296348760000001,0,0x5D,0x00,Read,ACK
11.296370260000000,0,0x5D,0x00,Read,ACK
11.296391720000001,0,0x5D,0x00,Read,ACK
11.296413180000000,0,0x5D,0xC4,Read,ACK
11.296434619999999,0,0x5D,0xBD,Read,ACK
11.296456080000000,0,0x5D,0x02,Read,ACK
11.296477619999999,0,0x5D,0x00,Read,ACK
11.296500760000001,0,0x5D,0x00,Read,ACK
11.296522240000000,0,0x5D,0x00,Read,ACK
11.296545260000000,0,0x5D,0x00,Read,ACK
11.296566759999999,0,0x5D,0x00,Read,ACK
11.296588580000000,0,0x5D,0x00,Read,ACK
11.296610440000000,0,0x5D,0x00,Read,ACK
11.296631939999999,0,0x5D,0x00,Read,ACK
11.296653400000000,0,0x5D,0x00,Read,ACK
11.296674860000000,0,0x5D,0x00,Read,ACK
11.296696360000000,0,0x5D,0x00,Read,ACK
11.296717820000000,0,0x5D,0x00,Read,ACK
11.296739300000000,0,0x5D,0x00,Read,ACK
11.296761920000000,0,0x5D,0x00,Read,ACK
11.296783380000001,0,0x5D,0x00,Read,ACK
11.296805720000000,0,0x5D,0x00,Read,ACK
11.296827220000001,0,0x5D,0x00,Read,ACK
11.296848680000000,0,0x5D,0x00,Read,NAK
11.302192320000000,0,0x5D,0x2F,Read,ACK
11.302216100000001,0,0x5D,0x00,Read,ACK
11.302237560000000,0,0x5D,0x04,Read,ACK
11.302259019999999,0,0x5D,0x03,Read,ACK
11.302280540000000,0,0x5D,0xDE,Read,ACK
11.302301999999999,0,0x5D,0x01,Read,ACK
11.302323460000000,0,0x5D,0xB0,Read,ACK
11.302344959999999,0,0x5D,0x01,Read,ACK
11.302366420000000,0,0x5D,0x03,Read,ACK
11.302387860000000,0,0x5D,0x03,Read,ACK
11.302409680000000,0,0x5D,0x20,Read,ACK
11.302431720000000,0,0x5D,0x13,Read,ACK
11.302453220000000,0,0x5D,0xF7,Read,ACK
11.302475160000000,0,0x5D,0x0B,Read,ACK
11.302496659999999,0,0x5D,0x61,Read,ACK
11.302518160000000,0,0x5D,0x08,Read,ACK
11.302539619999999,0,0x5D,0x02,Read,ACK
11.302561060000000,0,0x5D,0x05,Read,ACK
11.302582780000000,0,0x5D,0x20,Read,ACK
11.302604920000000,0,0x5D,0x00,Read,ACK
11.302626820000000,0,0x5D,0x00,Read,ACK
11.302648319999999,0,0x5D,0x00,Read,ACK
11.302669760000001,0,0x5D,0x00,Read,ACK
11.302691220000000,0,0x5D,0x00,Read,ACK
11.302712680000001,0,0x5D,0x00,Read,ACK
11.302734460000000,0,0x5D,0x00,Read,ACK
11.302755980000001,0,0x5D,0x00,Read,ACK
11.302778379999999,0,0x5D,0x00,Read,ACK
11.302800879999999,0,0x5D,0x00,Read,ACK
11.302822780000000,0,0x5D,0x00,Read,ACK
11.302844280000000,0,0x5D,0x00,Read,ACK
11.302865799999999,0,0x5D,0x00,Read,ACK
11.302887300000000,0,0x5D,0x00,Read,ACK
11.302908800000001,0,0x5D,0x00,Read,ACK
11.302930300000000,0,0x5D,0x00,Read,ACK
11.302951800000001,0,0x5D,0x00,Read,ACK
11.302973260000000,0,0x5D,0x00,Read,ACK
11.302994719999999,0,0x5D,0x00,Read,ACK
11.303016220000000,0,0x5D,0x00,Read,ACK
11.303037679999999,0,0x5D,0x00,Read,ACK
11.303059140000000,0,0x5D,0x00,Read,ACK
11.303080820000000,0,0x5D,0x00,Read,ACK
11.303102300000001,0,0x5D,0x00,Read,ACK
11.303123760000000,0,0x5D,0x0A,Read,ACK
11.303145420000000,0,0x5D,0xBE,Read,ACK
11.303166900000001,0,0x5D,0x02,Read,ACK
11.303188360000000,0,0x5D,0x00,Read,ACK
11.303209819999999,0,0x5D,0x00,Read,ACK
11.303231280000000,0,0x5D,0x00,Read,ACK
11.303252720000000,0,0x5D,0x00,Read,ACK
11.303274180000001,0,0x5D,0x00,Read,ACK
11.303295640000000,0,0x5D,0x00,Read,ACK
11.303317079999999,0,0x5D,0x00,Read,ACK
11.303338540000000,0,0x5D,0x00,Read,ACK
11.303360000000000,0,0x5D,0x00,Read,ACK
11.303381460000001,0,0x5D,0x00,Read,ACK
11.303402960000000,0,0x5D,0x00,Read,ACK
11.303424440000001,0,0x5D,0x00,Read,ACK
11.303445940000000,0,0x5D,0x00,Read,ACK
11.303470500000000,0,0x5D,0x00,Read,ACK
11.303491980000000,0,0x5D,0x00,Read,ACK
11.303513499999999,0,0x5D,0x00,Read,ACK
11.303535000000000,0,0x5D,0x00,Read,ACK
11.303557359999999,0,0x5D,0x00,Read,NAK
11.309348020000000,0,0x5D,0x2F,Read,ACK
11.309371100000000,0,0x5D,0x00,Read,ACK
11.309392580000001,0,0x5D,0x04,Read,ACK
11.309414080000000,0,0x5D,0x03,Read,ACK
11.309435519999999,0,0x5D,0xE1,Read,ACK
11.309457000000000,0,0x5D,0x01,Read,ACK
11.309478439999999,0,0x5D,0xB6,Read,ACK
11.309499900000000,0,0x5D,0x01,Read,ACK
11.309521340000000,0,0x5D,0x03,Read,ACK
11.309542820000001,0,0x5D,0x03,Read,ACK
11.309564320000000,0,0x5D,0x20,Read,ACK
11.309585940000000,0,0x5D,0x13,Read,ACK
11.309607460000001,0,0x5D,0xF1,Read,ACK
11.309629400000000,0,0x5D,0x0B,Read,ACK
11.309650899999999,0,0x5D,0x5E,Read,ACK
11.309672360000000,0,0x5D,0x08,Read,ACK
11.309693859999999,0,0x5D,0x02,Read,ACK
11.309715320000000,0,0x5D,0x04,Read,ACK
11.309737159999999,0,0x5D,0x20,Read,ACK
11.309759059999999,0,0x5D,0x00,Read,ACK
11.309781020000001,0,0x5D,0x00,Read,ACK
11.309803600000000,0,0x5D,0x00,Read,ACK
11.309825099999999,0,0x5D,0x00,Read,ACK
11.309847480000000,0,0x5D,0x00,Read,ACK
11.309868959999999,0,0x5D,0x00,Read,ACK
11.309890460000000,0,0x5D,0x00,Read,ACK
11.309911919999999,0,0x5D,0x00,Read,ACK
11.309933360000000,0,0x5D,0x00,Read,ACK
11.309954859999999,0,0x5D,0x00,Read,ACK
11.309976340000000,0,0x5D,0x00,Read,ACK
11.309997800000000,0,0x5D,0x00,Read,ACK
11.310019260000001,0,0x5D,0x00,Read,ACK
11.310040700000000,0,0x5D,0x00,Read,ACK
11.310062159999999,0,0x5D,0x00,Read,ACK
11.310083620000000,0,0x5D,0x00,Read,ACK
11.310105080000000,0,0x5D,0x00,Read,ACK
11.310126580000000,0,0x5D,0x00,Read,ACK
11.310148020000000,0,0x5D,0x00,Read,ACK
11.310169480000001,0,0x5D,0x00,Read,ACK
11.310190960000000,0,0x5D,0x00,Read,ACK
11.310212480000001,0,0x5D,0x00,Read,ACK
11.310233980000000,0,0x5D,0x00,Read,ACK
11.310255420000001,0,0x5D,0x00,Read,ACK
11.310276880000000,0,0x5D,0x50,Read,ACK
11.310298360000001,0,0x5D,0xBE,Read,ACK
11.310319800000000,0,0x5D,0x02,Read,ACK
11.310341240000000,0,0x5D,0x00,Read,ACK
11.310362700000001,0,0x5D,0x00,Read,ACK
11.310384180000000,0,0x5D,0x00,Read,ACK
11.310407339999999,0,0x5D,0x00,Read,ACK
11.310428820000000,0,0x5D,0x00,Read,ACK
11.310450260000000,0,0x5D,0x00,Read,ACK
11.310471740000001,0,0x5D,0x00,Read,ACK
11.310493240000000,0,0x5D,0x00,Read,ACK
11.310514700000001,0,0x5D,0x00,Read,ACK
11.310536160000000,0,0x5D,0x00,Read,ACK
11.310557620000001,0,0x5D,0x00,Read,ACK
11.310579160000000,0,0x5D,0x00,Read,ACK
11.310600640000001,0,0x5D,0x00,Read,ACK
11.310622100000000,0,0x5D,0x00,Read,ACK
11.310647080000001,0,0x5D,0x00,Read,ACK
11.310668560000000,0,0x5D,0x00,Read,ACK
11.310690299999999,0,0x5D,0x00,Read,ACK
11.310712600000000,0,0x5D,0x00,Read,NAK
11.316458320000001,0,0x5D,0x2F,Read,ACK
11.316482720000000,0,0x5D,0x00,Read,ACK
11.316505400000000,0,0x5D,0x04,Read,ACK
11.316526860000000,0,0x5D,0x03,Read,ACK
11.316548360000001,0,0x5D,0xE4,Read,ACK
11.316569820000000,0,0x5D,0x01,Read,ACK
11.316591280000001,0,0x5D,0xBC,Read,ACK
11.316612780000000,0,0x5D,0x01,Read,ACK
11.316634440000000,0,0x5D,0x03,Read,ACK
11.316655940000000,0,0x5D,0x03,Read,ACK
11.316677400000000,0,0x5D,0x20,Read,ACK
11.316698860000001,0,0x5D,0x13,Read,ACK
11.316721940000001,0,0x5D,0xEA,Read,ACK
11.316744180000001,0,0x5D,0x0B,Read,ACK
11.316766280000000,0,0x5D,0x5B,Read,ACK
11.316787820000000,0,0x5D,0x08,Read,ACK
11.316809299999999,0,0x5D,0x03,Read,ACK
11.316830740000000,0,0x5D,0x04,Read,ACK
11.316852200000000,0,0x5D,0x20,Read,ACK
11.316873660000001,0,0x5D,0x00,Read,ACK
11.316895340000000,0,0x5D,0x00,Read,ACK
11.316918279999999,0,0x5D,0x00,Read,ACK
11.316939780000000,0,0x5D,0x00,Read,ACK
11.316961279999999,0,0x5D,0x00,Read,ACK
11.316982740000000,0,0x5D,0x00,Read,ACK
11.317004200000000,0,0x5D,0x00,Read,ACK
11.317025700000000,0,0x5D,0x00,Read,ACK
11.317047300000000,0,0x5D,0x00,Read,ACK
11.317068799999999,0,0x5D,0x00,Read,ACK
11.317090260000001,0,0x5D,0x00,Read,ACK
11.317111720000000,0,0x5D,0x00,Read,ACK
11.317133260000000,0,0x5D,0x00,Read,ACK
11.317154739999999,0,0x5D,0x00,Read,ACK
11.317176260000000,0,0x5D,0x00,Read,ACK
11.317197699999999,0,0x5D,0x00,Read,ACK
11.317219160000000,0,0x5D,0x00,Read,ACK
11.317240640000000,0,0x5D,0x00,Read,ACK
11.317262140000000,0,0x5D,0x00,Read,ACK
11.317283600000000,0,0x5D,0x00,Read,ACK
11.317305100000000,0,0x5D,0x00,Read,ACK
11.317326560000000,0,0x5D,0x00,Read,ACK
11.317348040000001,0,0x5D,0x00,Read,ACK
11.317369520000000,0,0x5D,0x00,Read,ACK
11.317390980000001,0,0x5D,0x96,Read,ACK
11.317412440000000,0,0x5D,0xBE,Read,ACK
11.317434040000000,0,0x5D,0x02,Read,ACK
11.317455519999999,0,0x5D,0x00,Read,ACK
11.317476980000000,0,0x5D,0x00,Read,ACK
11.317498499999999,0,0x5D,0x00,Read,ACK
11.317519940000000,0,0x5D,0x00,Read,ACK
11.317541400000000,0,0x5D,0x00,Read,ACK
11.317562860000001,0,0x5D,0x00,Read,ACK
11.317584360000000,0,0x5D,0x00,Read,ACK
11.317605820000001,0,0x5D,0x00,Read,ACK
11.317627260000000,0,0x5D,0x00,Read,ACK
11.317648719999999,0,0x5D,0x00,Read,ACK
11.317670180000000,0,0x5D,0x00,Read,ACK
11.317692800000000,0,0x5D,0x00,Read,ACK
11.317714260000001,0,0x5D,0x00,Read,ACK
11.317735740000000,0,0x5D,0x00,Read,ACK
11.317758180000000,0,0x5D,0x00,Read,ACK
11.317780000000001,0,0x5D,0x00,Read,ACK
11.317801780000000,0,0x5D,0x00,Read,ACK
11.317824200000000,0,0x5D,0x00,Read,NAK
11.323696699999999,0,0x5D,0x2F,Read,ACK
11.323719900000000,0,0x5D,0x00,Read,ACK
11.323741399999999,0,0x5D,0x04,Read,ACK
11.323762920000000,0,0x5D,0x03,Read,ACK
11.323784420000001,0,0x5D,0xE7,Read,ACK
11.323805880000000,0,0x5D,0x01,Read,ACK
11.323828260000001,0,0x5D,0xC1,Read,ACK
11.323849720000000,0,0x5D,0x01,Read,ACK
11.323871219999999,0,0x5D,0x03,Read,ACK
11.323892980000000,0,0x5D,0x03,Read,ACK
11.323914680000000,0,0x5D,0x20,Read,ACK
11.323937180000000,0,0x5D,0x13,Read,ACK
11.323958660000001,0,0x5D,0xE3,Read,ACK
11.323980140000000,0,0x5D,0x0B,Read,ACK
11.324001640000001,0,0x5D,0x58,Read,ACK
11.324024200000000,0,0x5D,0x08,Read,ACK
11.324046180000000,0,0x5D,0x03,Read,ACK
11.324067619999999,0,0x5D,0x03,Read,ACK
11.324089100000000,0,0x5D,0x20,Read,ACK
11.324110599999999,0,0x5D,0x00,Read,ACK
11.324132060000000,0,0x5D,0x00,Read,ACK
11.324153920000001,0,0x5D,0x00,Read,ACK
11.324175420000000,0,0x5D,0x00,Read,ACK
11.324198000000001,0,0x5D,0x00,Read,ACK
11.324219480000000,0,0x5D,0x00,Read,ACK
11.324240939999999,0,0x5D,0x00,Read,ACK
11.324263840000000,0,0x5D,0x00,Read,ACK
11.324286180000000,0,0x5D,0x00,Read,ACK
11.324307660000001,0,0x5D,0x00,Read,ACK
11.324329179999999,0,0x5D,0x00,Read,ACK
11.324350640000000,0,0x5D,0x00,Read,ACK
11.324372159999999,0,0x5D,0x00,Read,ACK
11.324393840000001,0,0x5D,0x00,Read,ACK
11.324415300000000,0,0x5D,0x00,Read,ACK
11.324436759999999,0,0x5D,0x00,Read,ACK
11.324458200000000,0,0x5D,0x00,Read,ACK
11.324479660000000,0,0x5D,0x00,Read,ACK
11.324501300000000,0,0x5D,0x00,Read,ACK
11.324522760000001,0,0x5D,0x00,Read,ACK
11.324544200000000,0,0x5D,0x00,Read,ACK
11.324565659999999,0,0x5D,0x00,Read,ACK
11.324587220000000,0,0x5D,0x00,Read,ACK
11.324608680000001,0,0x5D,0x00,Read,ACK
11.324630160000000,0,0x5D,0xDC,Read,ACK
11.324651660000001,0,0x5D,0xBE,Read,ACK
11.324673420000000,0,0x5D,0x02,Read,ACK
11.324695040000000,0,0x5D,0x00,Read,ACK
11.324716520000001,0,0x5D,0x00,Read,ACK
11.324737980000000,0,0x5D,0x00,Read,ACK
11.324759719999999,0,0x5D,0x00,Read,ACK
11.324781180000000,0,0x5D,0x00,Read,ACK
11.324802640000000,0,0x5D,0x00,Read,ACK
11.324824100000001,0,0x5D,0x00,Read,ACK
11.324845540000000,0,0x5D,0x00,Read,ACK
11.324866999999999,0,0x5D,0x00,Read,ACK
11.324888480000000,0,0x5D,0x00,Read,ACK
11.324909979999999,0,0x5D,0x00,Read,ACK
11.324934760000000,0,0x5D,0x00,Read,ACK
11.324956260000000,0,0x5D,0x00,Read,ACK
11.324977759999999,0,0x5D,0x00,Read,ACK
11.325001040000000,0,0x5D,0x00,Read,ACK
11.325023880000000,0,0x5D,0x00,Read,ACK
11.325045380000001,0,0x5D,0x00,Read,ACK
11.325067819999999,0,0x5D,0x00,Read,NAK
11.330913460000000,0,0x5D,0x2F,Read,ACK
11.330936160000000,0,0x5D,0x00,Read,ACK
11.330957620000000,0,0x5D,0x04,Read,ACK
11.330979140000000,0,0x5D,0x03,Read,ACK
11.331002260000000,0,0x5D,0xEA,Read,ACK
11.331025479999999,0,0x5D,0x01,Read,ACK
11.331047000000000,0,0x5D,0xC6,Read,ACK
11.331068500000001,0,0x5D,0x01,Read,ACK
11.331089980000000,0,0x5D,0x03,Read,ACK
11.331111460000001,0,0x5D,0x03,Read,ACK
11.331132920000000,0,0x5D,0x20,Read,ACK
11.331155219999999,0,0x5D,0x13,Read,ACK
11.331177100000000,0,0x5D,0xDB,Read,ACK
11.331198580000001,0,0x5D,0x0B,Read,ACK
11.331220060000000,0,0x5D,0x55,Read,ACK
11.331242960000001,0,0x5D,0x08,Read,ACK
11.331267280000000,0,0x5D,0x03,Read,ACK
11.331289880000000,0,0x5D,0x04,Read,ACK
11.331312360000000,0,0x5D,0x20,Read,ACK
11.331333799999999,0,0x5D,0x00,Read,ACK
11.331355260000000,0,0x5D,0x00,Read,ACK
11.331376720000000,0,0x5D,0x00,Read,ACK
11.331398220000001,0,0x5D,0x00,Read,ACK
11.331419660000000,0,0x5D,0x00,Read,ACK
11.331441119999999,0,0x5D,0x00,Read,ACK
11.331462580000000,0,0x5D,0x00,Read,ACK
11.331484039999999,0,0x5D,0x00,Read,ACK
11.331505480000001,0,0x5D,0x00,Read,ACK
11.331526960000000,0,0x5D,0x00,Read,ACK
11.331548460000000,0,0x5D,0x00,Read,ACK
11.331569979999999,0,0x5D,0x00,Read,ACK
11.331591500000000,0,0x5D,0x00,Read,ACK
11.331612939999999,0,0x5D,0x00,Read,ACK
11.331634400000000,0,0x5D,0x00,Read,ACK
11.331655860000000,0,0x5D,0x00,Read,ACK
11.331677320000001,0,0x5D,0x00,Read,ACK
11.331698859999999,0,0x5D,0x00,Read,ACK
11.331720340000000,0,0x5D,0x00,Read,ACK
11.331741800000000,0,0x5D,0x00,Read,ACK
11.331763240000001,0,0x5D,0x00,Read,ACK
11.331784720000000,0,0x5D,0x00,Read,ACK
11.331806220000001,0,0x5D,0x00,Read,ACK
11.331827680000000,0,0x5D,0x00,Read,ACK
11.331849180000001,0,0x5D,0x22,Read,ACK
11.331870640000000,0,0x5D,0xBF,Read,ACK
11.331892480000000,0,0x5D,0x02,Read,ACK
11.331913979999999,0,0x5D,0x00,Read,ACK
11.331935460000000,0,0x5D,0x00,Read,ACK
11.331956959999999,0,0x5D,0x00,Read,ACK
11.331978420000000,0,0x5D,0x00,Read,ACK
11.331999860000000,0,0x5D,0x00,Read,ACK
11.332021320000001,0,0x5D,0x00,Read,ACK
11.332042780000000,0,0x5D,0x00,Read,ACK
11.332064219999999,0,0x5D,0x00,Read,ACK
11.332085680000000,0,0x5D,0x00,Read,ACK
11.332107140000000,0,0x5D,0x00,Read,ACK
11.332129280000000,0,0x5D,0x00,Read,ACK
11.332151600000000,0,0x5D,0x00,Read,ACK
11.332173060000001,0,0x5D,0x00,Read,ACK
11.332194520000000,0,0x5D,0x00,Read,ACK
11.332217320000000,0,0x5D,0x00,Read,ACK
11.332238900000000,0,0x5D,0x00,Read,ACK
11.332260359999999,0,0x5D,0x00,Read,ACK
11.332284100000001,0,0x5D,0x00,Read,NAK
11.337965080000000,0,0x5D,0x2F,Read,ACK
11.337988340000001,0,0x5D,0x00,Read,ACK
11.338009800000000,0,0x5D,0x04,Read,ACK
11.338031320000001,0,0x5D,0x03,Read,ACK
11.338052840000000,0,0x5D,0xEC,Read,ACK
11.338074360000000,0,0x5D,0x01,Read,ACK
11.338095859999999,0,0x5D,0xCA,Read,ACK
11.338118639999999,0,0x5D,0x01,Read,ACK
11.338140140000000,0,0x5D,0x03,Read,ACK
11.338161580000000,0,0x5D,0x03,Read,ACK
11.338183200000000,0,0x5D,0x20,Read,ACK
11.338204700000000,0,0x5D,0x13,Read,ACK
11.338226900000000,0,0x5D,0xD3,Read,ACK
11.338248399999999,0,0x5D,0x0B,Read,ACK
11.338269860000000,0,0x5D,0x52,Read,ACK
11.338292140000000,0,0x5D,0x08,Read,ACK
11.338314020000000,0,0x5D,0x03,Read,ACK
11.338336079999999,0,0x5D,0x04,Read,ACK
11.338358639999999,0,0x5D,0x20,Read,ACK
11.338380140000000,0,0x5D,0x00,Read,ACK
11.338402640000000,0,0x5D,0x00,Read,ACK
11.338424079999999,0,0x5D,0x00,Read,ACK
11.338446019999999,0,0x5D,0x00,Read,ACK
11.338467520000000,0,0x5D,0x00,Read,ACK
11.338488999999999,0,0x5D,0x00,Read,ACK
11.338510460000000,0,0x5D,0x00,Read,ACK
11.338531900000000,0,0x5D,0x00,Read,ACK
11.338553380000000,0,0x5D,0x00,Read,ACK
11.338575540000001,0,0x5D,0x00,Read,ACK
11.338598899999999,0,0x5D,0x00,Read,ACK
11.338621440000001,0,0x5D,0x00,Read,ACK
11.338642920000000,0,0x5D,0x00,Read,ACK
11.338664380000001,0,0x5D,0x00,Read,ACK
11.338685900000000,0,0x5D,0x00,Read,ACK
11.338707400000001,0,0x5D,0x00,Read,ACK
11.338728860000000,0,0x5D,0x00,Read,ACK
11.338750320000001,0,0x5D,0x00,Read,ACK
11.338771980000001,0,0x5D,0x00,Read,ACK
11.338793480000000,0,0x5D,0x00,Read,ACK
11.338814980000000,0,0x5D,0x00,Read,ACK
11.338836440000000,0,0x5D,0x00,Read,ACK
11.338857900000001,0,0x5D,0x00,Read,ACK
11.338879360000000,0,0x5D,0x00,Read,ACK
11.338900860000001,0,0x5D,0x68,Read,ACK
11.338922320000000,0,0x5D,0xBF,Read,ACK
11.338943779999999,0,0x5D,0x02,Read,ACK
11.338965220000000,0,0x5D,0x00,Read,ACK
11.338986719999999,0,0x5D,0x00,Read,ACK
11.339008220000000,0,0x5D,0x00,Read,ACK
11.339029699999999,0,0x5D,0x00,Read,ACK
11.339051160000000,0,0x5D,0x00,Read,ACK
11.339072639999999,0,0x5D,0x00,Read,ACK
11.339094140000000,0,0x5D,0x00,Read,ACK
11.339115639999999,0,0x5D,0x00,Read,ACK
11.339137100000000,0,0x5D,0x00,Read,ACK
11.339158560000000,0,0x5D,0x00,Read,ACK
11.339180020000001,0,0x5D,0x00,Read,ACK
11.339201539999999,0,0x5D,0x00,Read,ACK
11.339227380000001,0,0x5D,0x00,Read,ACK
11.339248840000000,0,0x5D,0x00,Read,ACK
11.339270300000001,0,0x5D,0x00,Read,ACK
11.339291800000000,0,0x5D,0x00,Read,ACK
11.339313280000001,0,0x5D,0x00,Read,ACK
11.339335100000000,0,0x5D,0x00,Read,NAK
11.345484680000000,0,0x5D,0x2F,Read,ACK
11.345509280000000,0,0x5D,0x00,Read,ACK
11.345530739999999,0,0x5D,0x04,Read,ACK
11.345553120000000,0,0x5D,0x03,Read,ACK
11.345574680000000,0,0x5D,0xEF,Read,ACK
11.345596140000000,0,0x5D,0x01,Read,ACK
11.345617640000000,0,0x5D,0xCE,Read,ACK
11.345639840000000,0,0x5D,0x01,Read,ACK
11.345661300000000,0,0x5D,0x03,Read,ACK
11.345682780000001,0,0x5D,0x03,Read,ACK
11.345704240000000,0,0x5D,0x20,Read,ACK
11.345725720000001,0,0x5D,0x13,Read,ACK
11.345748100000000,0,0x5D,0xCB,Read,ACK
11.345769580000001,0,0x5D,0x0B,Read,ACK
11.345791080000000,0,0x5D,0x4E,Read,ACK
11.345812520000001,0,0x5D,0x08,Read,ACK
11.345834000000000,0,0x5D,0x03,Read,ACK
11.345855520000001,0,0x5D,0x04,Read,ACK
11.345877020000000,0,0x5D,0x20,Read,ACK
11.345898480000001,0,0x5D,0x00,Read,ACK
11.345919940000000,0,0x5D,0x00,Read,ACK
11.345941399999999,0,0x5D,0x00,Read,ACK
11.345962900000000,0,0x5D,0x00,Read,ACK
11.345984400000001,0,0x5D,0x00,Read,ACK
11.346006360000001,0,0x5D,0x00,Read,ACK
11.346027820000000,0,0x5D,0x00,Read,ACK
11.346049280000001,0,0x5D,0x00,Read,ACK
11.346070740000000,0,0x5D,0x00,Read,ACK
11.346092300000000,0,0x5D,0x00,Read,ACK
11.346113760000000,0,0x5D,0x00,Read,ACK
11.346135220000001,0,0x5D,0x00,Read,ACK
11.346156680000000,0,0x5D,0x00,Read,ACK
11.346178180000001,0,0x5D,0x00,Read,ACK
11.346199640000000,0,0x5D,0x00,Read,ACK
11.346221340000000,0,0x5D,0x00,Read,ACK
11.346242800000001,0,0x5D,0x00,Read,ACK
11.346264240000000,0,0x5D,0x00,Read,ACK
11.346285699999999,0,0x5D,0x00,Read,ACK
11.346307160000000,0,0x5D,0x00,Read,ACK
11.346331220000000,0,0x5D,0x00,Read,ACK
11.346353600000000,0,0x5D,0x00,Read,ACK
11.346375080000000,0,0x5D,0x00,Read,ACK
11.346396520000001,0,0x5D,0x00,Read,ACK
11.346418359999999,0,0x5D,0xAE,Read,ACK
11.346439860000000,0,0x5D,0xBF,Read,ACK
11.346461639999999,0,0x5D,0x02,Read,ACK
11.346483160000000,0,0x5D,0x00,Read,ACK
11.346504599999999,0,0x5D,0x00,Read,ACK
11.346527080000000,0,0x5D,0x00,Read,ACK
11.346548600000000,0,0x5D,0x00,Read,ACK
11.346570540000000,0,0x5D,0x00,Read,ACK
11.346594720000001,0,0x5D,0x00,Read,ACK
11.346618380000001,0,0x5D,0x00,Read,ACK
11.346639880000000,0,0x5D,0x00,Read,ACK
11.346661340000001,0,0x5D,0x00,Read,ACK
11.346682780000000,0,0x5D,0x00,Read,ACK
11.346704239999999,0,0x5D,0x00,Read,ACK
11.346726540000001,0,0x5D,0x00,Read,ACK
11.346748020000000,0,0x5D,0x00,Read,ACK
11.346769840000000,0,0x5D,0x00,Read,ACK
11.346791300000000,0,0x5D,0x00,Read,ACK
11.346813480000000,0,0x5D,0x00,Read,ACK
11.346834960000001,0,0x5D,0x00,Read,ACK
11.346856420000000,0,0x5D,0x00,Read,NAK
11.352197280000000,0,0x5D,0x2F,Read,ACK
11.352221820000000,0,0x5D,0x00,Read,ACK
11.352244700000000,0,0x5D,0x04,Read,ACK
11.352266180000001,0,0x5D,0x03,Read,ACK
11.352287680000000,0,0x5D,0xF2,Read,ACK
11.352309160000001,0,0x5D,0x01,Read,ACK
11.352330620000000,0,0x5D,0xD3,Read,ACK
11.352352120000001,0,0x5D,0x01,Read,ACK
11.352373560000000,0,0x5D,0x03,Read,ACK
11.352395039999999,0,0x5D,0x03,Read,ACK
11.352416540000000,0,0x5D,0x20,Read,ACK
11.352437999999999,0,0x5D,0x13,Read,ACK
11.352460799999999,0,0x5D,0xC2,Read,ACK
11.352482260000000,0,0x5D,0x0B,Read,ACK
11.352503840000001,0,0x5D,0x49,Read,ACK
11.352525320000000,0,0x5D,0x08,Read,ACK
11.352546820000001,0,0x5D,0x03,Read,ACK
11.352568300000000,0,0x5D,0x04,Read,ACK
11.352589800000001,0,0x5D,0x20,Read,ACK
11.352611260000000,0,0x5D,0x00,Read,ACK
11.352633559999999,0,0x5D,0x00,Read,ACK
11.352655020000000,0,0x5D,0x00,Read,ACK
11.352676499999999,0,0x5D,0x00,Read,ACK
11.352698040000000,0,0x5D,0x00,Read,ACK
11.352719520000001,0,0x5D,0x00,Read,ACK
11.352740980000000,0,0x5D,0x00,Read,ACK
11.352762419999999,0,0x5D,0x00,Read,ACK
11.352783880000000,0,0x5D,0x00,Read,ACK
11.352805340000000,0,0x5D,0x00,Read,ACK
11.352826820000001,0,0x5D,0x00,Read,ACK
11.352848320000000,0,0x5D,0x00,Read,ACK
11.352869780000001,0,0x5D,0x00,Read,ACK
11.352891939999999,0,0x5D,0x00,Read,ACK
11.352913420000000,0,0x5D,0x00,Read,ACK
11.352934879999999,0,0x5D,0x00,Read,ACK
11.352956340000000,0,0x5D,0x00,Read,ACK
11.352977900000001,0,0x5D,0x00,Read,ACK
11.352999380000000,0,0x5D,0x00,Read,ACK
11.353020839999999,0,0x5D,0x00,Read,ACK
11.353042300000000,0,0x5D,0x00,Read,ACK
11.353063799999999,0,0x5D,0x00,Read,ACK
11.353085260000000,0,0x5D,0x00,Read,ACK
11.353106700000000,0,0x5D,0x00,Read,ACK
11.353128160000001,0,0x5D,0xF4,Read,ACK
11.353149620000000,0,0x5D,0xBF,Read,ACK
11.353171079999999,0,0x5D,0x02,Read,ACK
11.353192540000000,0,0x5D,0x00,Read,ACK
11.353214240000000,0,0x5D,0x00,Read,ACK
11.353235760000000,0,0x5D,0x00,Read,ACK
11.353257299999999,0,0x5D,0x00,Read,ACK
11.353278760000000,0,0x5D,0x00,Read,ACK
11.353300239999999,0,0x5D,0x00,Read,ACK
11.353321740000000,0,0x5D,0x00,Read,ACK
11.353343180000000,0,0x5D,0x00,Read,ACK
11.353364859999999,0,0x5D,0x00,Read,ACK
11.353386360000000,0,0x5D,0x00,Read,ACK
11.353407819999999,0,0x5D,0x00,Read,ACK
11.353429320000000,0,0x5D,0x00,Read,ACK
11.353450779999999,0,0x5D,0x00,Read,ACK
11.353472220000000,0,0x5D,0x00,Read,ACK
11.353493680000000,0,0x5D,0x00,Read,ACK
11.353516400000000,0,0x5D,0x00,Read,ACK
11.353537899999999,0,0x5D,0x00,Read,ACK
11.353560440000001,0,0x5D,0x00,Read,NAK
11.359367980000000,0,0x5D,0x2F,Read,ACK
11.359390919999999,0,0x5D,0x00,Read,ACK
11.359412420000000,0,0x5D,0x04,Read,ACK
11.359433879999999,0,0x5D,0x03,Read,ACK
11.359455340000000,0,0x5D,0xF6,Read,ACK
11.359476799999999,0,0x5D,0x01,Read,ACK
11.359498300000000,0,0x5D,0xD7,Read,ACK
11.359520699999999,0,0x5D,0x01,Read,ACK
11.359542160000000,0,0x5D,0x03,Read,ACK
11.359563600000000,0,0x5D,0x03,Read,ACK
11.359586439999999,0,0x5D,0x20,Read,ACK
11.359607960000000,0,0x5D,0x13,Read,ACK
11.359629740000001,0,0x5D,0xBA,Read,ACK
11.359651240000000,0,0x5D,0x0B,Read,ACK
11.359672720000001,0,0x5D,0x45,Read,ACK
11.359694200000000,0,0x5D,0x08,Read,ACK
11.359715680000001,0,0x5D,0x03,Read,ACK
11.359737180000000,0,0x5D,0x04,Read,ACK
11.359759120000000,0,0x5D,0x20,Read,ACK
11.359780580000001,0,0x5D,0x00,Read,ACK
11.359803039999999,0,0x5D,0x00,Read,ACK
11.359824560000000,0,0x5D,0x00,Read,ACK
11.359846100000000,0,0x5D,0x00,Read,ACK
11.359868380000000,0,0x5D,0x00,Read,ACK
11.359891319999999,0,0x5D,0x00,Read,ACK
11.359912820000000,0,0x5D,0x00,Read,ACK
11.359934680000000,0,0x5D,0x00,Read,ACK
11.359956159999999,0,0x5D,0x00,Read,ACK
11.359977799999999,0,0x5D,0x00,Read,ACK
11.359999920000000,0,0x5D,0x00,Read,ACK
11.360021460000000,0,0x5D,0x00,Read,ACK
11.360042979999999,0,0x5D,0x00,Read,ACK
11.360064480000000,0,0x5D,0x00,Read,ACK
11.360085939999999,0,0x5D,0x00,Read,ACK
11.360107380000001,0,0x5D,0x00,Read,ACK
11.360128840000000,0,0x5D,0x00,Read,ACK
11.360150300000001,0,0x5D,0x00,Read,ACK
11.360171820000000,0,0x5D,0x00,Read,ACK
11.360193280000001,0,0x5D,0x00,Read,ACK
11.360214780000000,0,0x5D,0x00,Read,ACK
11.360236240000001,0,0x5D,0x00,Read,ACK
11.360257740000000,0,0x5D,0x00,Read,ACK
11.360279200000001,0,0x5D,0x00,Read,ACK
11.360300779999999,0,0x5D,0x3A,Read,ACK
11.360322280000000,0,0x5D,0xC0,Read,ACK
11.360343739999999,0,0x5D,0x02,Read,ACK
11.360365200000000,0,0x5D,0x00,Read,ACK
11.360386660000000,0,0x5D,0x00,Read,ACK
11.360408180000000,0,0x5D,0x00,Read,ACK
11.360429780000000,0,0x5D,0x00,Read,ACK
11.360451279999999,0,0x5D,0x00,Read,ACK
11.360472720000001,0,0x5D,0x00,Read,ACK
11.360494200000000,0,0x5D,0x00,Read,ACK
11.360515700000001,0,0x5D,0x00,Read,ACK
11.360537160000000,0,0x5D,0x00,Read,ACK
11.360558620000001,0,0x5D,0x00,Read,ACK
11.360582000000001,0,0x5D,0x00,Read,ACK
11.360603559999999,0,0x5D,0x00,Read,ACK
11.360625779999999,0,0x5D,0x00,Read,ACK
11.360647900000000,0,0x5D,0x00,Read,ACK
11.360669700000001,0,0x5D,0x00,Read,ACK
11.360691380000000,0,0x5D,0x00,Read,ACK
11.360712840000000,0,0x5D,0x00,Read,ACK
11.360734300000001,0,0x5D,0x00,Read,NAK
11.366491520000000,0,0x5D,0x2F,Read,ACK
11.366517280000000,0,0x5D,0x00,Read,ACK
11.366538780000001,0,0x5D,0x04,Read,ACK
11.366560280000000,0,0x5D,0x03,Read,ACK
11.366581800000001,0,0x5D,0xF9,Read,ACK
11.366603319999999,0,0x5D,0x01,Read,ACK
11.366624820000000,0,0x5D,0xDC,Read,ACK
11.366646260000000,0,0x5D,0x01,Read,ACK
11.366667720000001,0,0x5D,0x03,Read,ACK
11.366689180000000,0,0x5D,0x03,Read,ACK
11.366710640000001,0,0x5D,0x20,Read,ACK
11.366732120000000,0,0x5D,0x13,Read,ACK
11.366755440000000,0,0x5D,0xB2,Read,ACK
11.366777380000000,0,0x5D,0x0B,Read,ACK
11.366798980000000,0,0x5D,0x40,Read,ACK
11.366820460000000,0,0x5D,0x08,Read,ACK
11.366841920000001,0,0x5D,0x03,Read,ACK
11.366863400000000,0,0x5D,0x04,Read,ACK
11.366884880000001,0,0x5D,0x20,Read,ACK
11.366906360000000,0,0x5D,0x00,Read,ACK
11.366928079999999,0,0x5D,0x00,Read,ACK
11.366950720000000,0,0x5D,0x00,Read,ACK
11.366972219999999,0,0x5D,0x00,Read,ACK
11.366994640000000,0,0x5D,0x00,Read,ACK
11.367016120000001,0,0x5D,0x00,Read,ACK
11.367037580000000,0,0x5D,0x00,Read,ACK
11.367059019999999,0,0x5D,0x00,Read,ACK
11.367080480000000,0,0x5D,0x00,Read,ACK
11.367101940000000,0,0x5D,0x00,Read,ACK
11.367123400000001,0,0x5D,0x00,Read,ACK
11.367144919999999,0,0x5D,0x00,Read,ACK
11.367167060000000,0,0x5D,0x00,Read,ACK
11.367188580000001,0,0x5D,0x00,Read,ACK
11.367211259999999,0,0x5D,0x00,Read,ACK
11.367232720000001,0,0x5D,0x00,Read,ACK
11.367254180000000,0,0x5D,0x00,Read,ACK
11.367275680000001,0,0x5D,0x00,Read,ACK
11.367297140000000,0,0x5D,0x00,Read,ACK
11.367318600000001,0,0x5D,0x00,Read,ACK
11.367340060000000,0,0x5D,0x00,Read,ACK
11.367361600000001,0,0x5D,0x00,Read,ACK
11.367383080000000,0,0x5D,0x00,Read,ACK
11.367404540000001,0,0x5D,0x00,Read,ACK
11.367426000000000,0,0x5D,0x80,Read,ACK
11.367447459999999,0,0x5D,0xC0,Read,ACK
11.367469340000000,0,0x5D,0x02,Read,ACK
11.367490820000000,0,0x5D,0x00,Read,ACK
11.367512319999999,0,0x5D,0x00,Read,ACK
11.367533780000000,0,0x5D,0x00,Read,ACK
11.367555220000000,0,0x5D,0x00,Read,ACK
11.367576700000001,0,0x5D,0x00,Read,ACK
11.367598200000000,0,0x5D,0x00,Read,ACK
11.367619660000001,0,0x5D,0x00,Read,ACK
11.367641160000000,0,0x5D,0x00,Read,ACK
11.367662620000001,0,0x5D,0x00,Read,ACK
11.367684080000000,0,0x5D,0x00,Read,ACK
11.367705519999999,0,0x5D,0x00,Read,ACK
11.367726980000000,0,0x5D,0x00,Read,ACK
11.367748700000000,0,0x5D,0x00,Read,ACK
11.367770220000001,0,0x5D,0x00,Read,ACK
11.367791720000000,0,0x5D,0x00,Read,ACK
11.367814400000000,0,0x5D,0x00,Read,ACK
11.367835879999999,0,0x5D,0x00,Read,ACK
11.367858340000000,0,0x5D,0x00,Read,NAK
11.373689120000000,0,0x5D,0x2F,Read,ACK
11.373713620000000,0,0x5D,0x00,Read,ACK
11.373735119999999,0,0x5D,0x04,Read,ACK
11.373756620000000,0,0x5D,0x03,Read,ACK
11.373778140000001,0,0x5D,0xFD,Read,ACK
11.373799600000000,0,0x5D,0x01,Read,ACK
11.373821100000001,0,0x5D,0xE1,Read,ACK
11.373842580000000,0,0x5D,0x01,Read,ACK
11.373864380000001,0,0x5D,0x03,Read,ACK
11.373886160000000,0,0x5D,0x03,Read,ACK
11.373908920000000,0,0x5D,0x20,Read,ACK
11.373930359999999,0,0x5D,0x13,Read,ACK
11.373951820000000,0,0x5D,0xAA,Read,ACK
11.373973280000000,0,0x5D,0x0B,Read,ACK
11.373994800000000,0,0x5D,0x3C,Read,ACK
11.374016259999999,0,0x5D,0x08,Read,ACK
11.374038020000000,0,0x5D,0x03,Read,ACK
11.374059539999999,0,0x5D,0x04,Read,ACK
11.374081040000000,0,0x5D,0x20,Read,ACK
11.374102799999999,0,0x5D,0x00,Read,ACK
11.374124240000000,0,0x5D,0x00,Read,ACK
11.374145940000000,0,0x5D,0x00,Read,ACK
11.374168279999999,0,0x5D,0x00,Read,ACK
11.374189740000000,0,0x5D,0x00,Read,ACK
11.374211600000001,0,0x5D,0x00,Read,ACK
11.374233080000000,0,0x5D,0x00,Read,ACK
11.374254519999999,0,0x5D,0x00,Read,ACK
11.374276979999999,0,0x5D,0x00,Read,ACK
11.374298740000000,0,0x5D,0x00,Read,ACK
11.374320200000000,0,0x5D,0x00,Read,ACK
11.374341660000001,0,0x5D,0x00,Read,ACK
11.374363260000001,0,0x5D,0x00,Read,ACK
11.374384760000000,0,0x5D,0x00,Read,ACK
11.374406280000001,0,0x5D,0x00,Read,ACK
11.374427780000000,0,0x5D,0x00,Read,ACK
11.374449220000001,0,0x5D,0x00,Read,ACK
11.374470700000000,0,0x5D,0x00,Read,ACK
11.374492200000001,0,0x5D,0x00,Read,ACK
11.374513680000000,0,0x5D,0x00,Read,ACK
11.374535180000001,0,0x5D,0x00,Read,ACK
11.374556640000000,0,0x5D,0x00,Read,ACK
11.374578140000001,0,0x5D,0x00,Read,ACK
11.374599600000000,0,0x5D,0x00,Read,ACK
11.374621039999999,0,0x5D,0xC6,Read,ACK
11.374642500000000,0,0x5D,0xC0,Read,ACK
11.374663959999999,0,0x5D,0x02,Read,ACK
11.374686660000000,0,0x5D,0x00,Read,ACK
11.374708119999999,0,0x5D,0x00,Read,ACK
11.374729560000000,0,0x5D,0x00,Read,ACK
11.374751020000000,0,0x5D,0x00,Read,ACK
11.374772480000001,0,0x5D,0x00,Read,ACK
11.374793940000000,0,0x5D,0x00,Read,ACK
11.374815399999999,0,0x5D,0x00,Read,ACK
11.374836840000000,0,0x5D,0x00,Read,ACK
11.374858300000000,0,0x5D,0x00,Read,ACK
11.374879740000001,0,0x5D,0x00,Read,ACK
11.374901200000000,0,0x5D,0x00,Read,ACK
11.374924060000000,0,0x5D,0x00,Read,ACK
11.374945500000001,0,0x5D,0x00,Read,ACK
11.374967180000001,0,0x5D,0x00,Read,ACK
11.374990100000000,0,0x5D,0x00,Read,ACK
11.375013520000000,0,0x5D,0x00,Read,ACK
11.375035240000001,0,0x5D,0x00,Read,ACK
11.375056680000000,0,0x5D,0x00,Read,NAK
11.380879119999999,0,0x5D,0x2F,Read,ACK
11.380902559999999,0,0x5D,0x00,Read,ACK
11.380924020000000,0,0x5D,0x04,Read,ACK
11.380945540000001,0,0x5D,0x03,Read,ACK
11.380966980000000,0,0x5D,0x00,Read,ACK
11.380989480000000,0,0x5D,0x02,Read,ACK
11.381011620000001,0,0x5D,0xE6,Read,ACK
11.381034540000000,0,0x5D,0x01,Read,ACK
11.381056040000001,0,0x5D,0x03,Read,ACK
11.381077500000000,0,0x5D,0x03,Read,ACK
11.381098959999999,0,0x5D,0x20,Read,ACK
11.381120420000000,0,0x5D,0x13,Read,ACK
11.381141879999999,0,0x5D,0xA3,Read,ACK
11.381163400000000,0,0x5D,0x0B,Read,ACK
11.381185020000000,0,0x5D,0x38,Read,ACK
11.381206479999999,0,0x5D,0x08,Read,ACK
11.381228000000000,0,0x5D,0x03,Read,ACK
11.381249479999999,0,0x5D,0x04,Read,ACK
11.381270980000000,0,0x5D,0x20,Read,ACK
11.381292640000000,0,0x5D,0x00,Read,ACK
11.381314339999999,0,0x5D,0x00,Read,ACK
11.381335840000000,0,0x5D,0x00,Read,ACK
11.381357299999999,0,0x5D,0x00,Read,ACK
11.381378720000001,0,0x5D,0x00,Read,ACK
11.381400500000000,0,0x5D,0x00,Read,ACK
11.381422160000000,0,0x5D,0x00,Read,ACK
11.381445640000001,0,0x5D,0x00,Read,ACK
11.381467120000000,0,0x5D,0x00,Read,ACK
11.381488559999999,0,0x5D,0x00,Read,ACK
11.381510000000000,0,0x5D,0x00,Read,ACK
11.381531460000000,0,0x5D,0x00,Read,ACK
11.381552940000001,0,0x5D,0x00,Read,ACK
11.381574640000000,0,0x5D,0x00,Read,ACK
11.381596160000001,0,0x5D,0x00,Read,ACK
11.381617640000000,0,0x5D,0x00,Read,ACK
11.381639120000001,0,0x5D,0x00,Read,ACK
11.381660560000000,0,0x5D,0x00,Read,ACK
11.381682020000000,0,0x5D,0x00,Read,ACK
11.381703480000001,0,0x5D,0x00,Read,ACK
11.381724999999999,0,0x5D,0x00,Read,ACK
11.381746520000000,0,0x5D,0x00,Read,ACK
11.381768020000001,0,0x5D,0x00,Read,ACK
11.381789460000000,0,0x5D,0x00,Read,ACK
11.381810919999999,0,0x5D,0x0C,Read,ACK
11.381832380000001,0,0x5D,0xC1,Read,ACK
11.381853919999999,0,0x5D,0x02,Read,ACK
11.381875420000000,0,0x5D,0x00,Read,ACK
11.381896940000001,0,0x5D,0x00,Read,ACK
11.381918440000000,0,0x5D,0x00,Read,ACK
11.381939900000001,0,0x5D,0x00,Read,ACK
11.381961400000000,0,0x5D,0x00,Read,ACK
11.381982860000001,0,0x5D,0x00,Read,ACK
11.382006260000001,0,0x5D,0x00,Read,ACK
11.382027700000000,0,0x5D,0x00,Read,ACK
11.382049580000000,0,0x5D,0x00,Read,ACK
11.382071359999999,0,0x5D,0x00,Read,ACK
11.382093760000000,0,0x5D,0x00,Read,ACK
11.382115760000000,0,0x5D,0x00,Read,ACK
11.382137220000001,0,0x5D,0x00,Read,ACK
11.382158660000000,0,0x5D,0x00,Read,ACK
11.382180139999999,0,0x5D,0x00,Read,ACK
11.382202480000000,0,0x5D,0x00,Read,ACK
11.382223959999999,0,0x5D,0x00,Read,ACK
11.382245559999999,0,0x5D,0x00,Read,NAK
11.388306580000000,0,0x5D,0x2F,Read,ACK
11.388331259999999,0,0x5D,0x00,Read,ACK
11.388354220000000,0,0x5D,0x04,Read,ACK
11.388375720000001,0,0x5D,0x03,Read,ACK
11.388397220000000,0,0x5D,0x04,Read,ACK
11.388418679999999,0,0x5D,0x02,Read,ACK
11.388440120000000,0,0x5D,0xEC,Read,ACK
11.388461619999999,0,0x5D,0x01,Read,ACK
11.388483100000000,0,0x5D,0x03,Read,ACK
11.388504559999999,0,0x5D,0x03,Read,ACK
11.388526000000001,0,0x5D,0x20,Read,ACK
11.388547460000000,0,0x5D,0x13,Read,ACK
11.388568920000001,0,0x5D,0x9C,Read,ACK
11.388591040000000,0,0x5D,0x0B,Read,ACK
11.388612520000001,0,0x5D,0x34,Read,ACK
11.388633980000000,0,0x5D,0x08,Read,ACK
11.388655419999999,0,0x5D,0x03,Read,ACK
11.388676880000000,0,0x5D,0x04,Read,ACK
11.388698359999999,0,0x5D,0x20,Read,ACK
11.388719999999999,0,0x5D,0x00,Read,ACK
11.388741500000000,0,0x5D,0x00,Read,ACK
11.388762939999999,0,0x5D,0x00,Read,ACK
11.388784460000000,0,0x5D,0x00,Read,ACK
11.388805919999999,0,0x5D,0x00,Read,ACK
11.388827380000000,0,0x5D,0x00,Read,ACK
11.388848840000000,0,0x5D,0x00,Read,ACK
11.388870300000001,0,0x5D,0x00,Read,ACK
11.388891740000000,0,0x5D,0x00,Read,ACK
11.388913199999999,0,0x5D,0x00,Read,ACK
11.388934660000000,0,0x5D,0x00,Read,ACK
11.388956139999999,0,0x5D,0x00,Read,ACK
11.388977819999999,0,0x5D,0x00,Read,ACK
11.388999320000000,0,0x5D,0x00,Read,ACK
11.389020800000001,0,0x5D,0x00,Read,ACK
11.389042240000000,0,0x5D,0x00,Read,ACK
11.389063719999999,0,0x5D,0x00,Read,ACK
11.389085200000000,0,0x5D,0x00,Read,ACK
11.389106679999999,0,0x5D,0x00,Read,ACK
11.389129219999999,0,0x5D,0x00,Read,ACK
11.389150700000000,0,0x5D,0x00,Read,ACK
11.389172139999999,0,0x5D,0x00,Read,ACK
11.389193900000000,0,0x5D,0x00,Read,ACK
11.389215680000000,0,0x5D,0x00,Read,ACK
11.389237140000001,0,0x5D,0x52,Read,ACK
11.389259420000000,0,0x5D,0xC1,Read,ACK
11.389280899999999,0,0x5D,0x02,Read,ACK
11.389302360000000,0,0x5D,0x00,Read,ACK
11.389325019999999,0,0x5D,0x00,Read,ACK
11.389346780000000,0,0x5D,0x00,Read,ACK
11.389368940000001,0,0x5D,0x00,Read,ACK
11.389391800000000,0,0x5D,0x00,Read,ACK
11.389413520000000,0,0x5D,0x00,Read,ACK
11.389435779999999,0,0x5D,0x00,Read,ACK
11.389457739999999,0,0x5D,0x00,Read,ACK
11.389479260000000,0,0x5D,0x00,Read,ACK
11.389500780000001,0,0x5D,0x00,Read,ACK
11.389522220000000,0,0x5D,0x00,Read,ACK
11.389543679999999,0,0x5D,0x00,Read,ACK
11.389565140000000,0,0x5D,0x00,Read,ACK
11.389586599999999,0,0x5D,0x00,Read,ACK
11.389608040000001,0,0x5D,0x00,Read,ACK
11.389630060000000,0,0x5D,0x00,Read,ACK
11.389651519999999,0,0x5D,0x00,Read,ACK
11.389673960000000,0,0x5D,0x00,Read,NAK
11.395377540000000,0,0x5D,0x2F,Read,ACK
11.395399060000001,0,0x5D,0x00,Read,ACK
11.395420540000000,0,0x5D,0x04,Read,ACK
11.395441999999999,0,0x5D,0x03,Read,ACK
11.395463980000001,0,0x5D,0x08,Read,ACK
11.395486320000000,0,0x5D,0x02,Read,ACK
11.395507940000000,0,0x5D,0xF1,Read,ACK
11.395529420000001,0,0x5D,0x01,Read,ACK
11.395550920000000,0,0x5D,0x03,Read,ACK
11.395572359999999,0,0x5D,0x02,Read,ACK
11.395593840000000,0,0x5D,0x20,Read,ACK
11.395616560000001,0,0x5D,0x13,Read,ACK
11.395639299999999,0,0x5D,0x95,Read,ACK
11.395660800000000,0,0x5D,0x0B,Read,ACK
11.395682259999999,0,0x5D,0x30,Read,ACK
11.395703720000000,0,0x5D,0x08,Read,ACK
11.395725400000000,0,0x5D,0x03,Read,ACK
11.395746880000001,0,0x5D,0x04,Read,ACK
11.395768380000000,0,0x5D,0x20,Read,ACK
11.395790020000000,0,0x5D,0x00,Read,ACK
11.395811480000001,0,0x5D,0x00,Read,ACK
11.395832920000000,0,0x5D,0x00,Read,ACK
11.395854419999999,0,0x5D,0x00,Read,ACK
11.395875900000000,0,0x5D,0x00,Read,ACK
11.395897359999999,0,0x5D,0x00,Read,ACK
11.395918820000000,0,0x5D,0x00,Read,ACK
11.395940260000000,0,0x5D,0x00,Read,ACK
11.395961700000001,0,0x5D,0x00,Read,ACK
11.395983160000000,0,0x5D,0x00,Read,ACK
11.396004619999999,0,0x5D,0x00,Read,ACK
11.396027060000000,0,0x5D,0x00,Read,ACK
11.396048520000001,0,0x5D,0x00,Read,ACK
11.396070000000000,0,0x5D,0x00,Read,ACK
11.396091500000001,0,0x5D,0x00,Read,ACK
11.396112960000000,0,0x5D,0x00,Read,ACK
11.396134399999999,0,0x5D,0x00,Read,ACK
11.396155840000000,0,0x5D,0x00,Read,ACK
11.396177300000000,0,0x5D,0x00,Read,ACK
11.396198760000001,0,0x5D,0x00,Read,ACK
11.396220220000000,0,0x5D,0x00,Read,ACK
11.396241679999999,0,0x5D,0x00,Read,ACK
11.396263140000000,0,0x5D,0x00,Read,ACK
11.396286920000000,0,0x5D,0x00,Read,ACK
11.396308400000001,0,0x5D,0x98,Read,ACK
11.396329860000000,0,0x5D,0xC1,Read,ACK
11.396351800000000,0,0x5D,0x02,Read,ACK
11.396373580000001,0,0x5D,0x00,Read,ACK
11.396396340000001,0,0x5D,0x00,Read,ACK
11.396417860000000,0,0x5D,0x00,Read,ACK
11.396439360000000,0,0x5D,0x00,Read,ACK
11.396460820000000,0,0x5D,0x00,Read,ACK
11.396483119999999,0,0x5D,0x00,Read,ACK
11.396505120000000,0,0x5D,0x00,Read,ACK
11.396526619999999,0,0x5D,0x00,Read,ACK
11.396548080000001,0,0x5D,0x00,Read,ACK
11.396570020000000,0,0x5D,0x00,Read,ACK
11.396591480000000,0,0x5D,0x00,Read,ACK
11.396613320000000,0,0x5D,0x00,Read,ACK
11.396634920000000,0,0x5D,0x00,Read,ACK
11.396656419999999,0,0x5D,0x00,Read,ACK
11.396677940000000,0,0x5D,0x00,Read,ACK
11.396699440000001,0,0x5D,0x00,Read,ACK
11.396720900000000,0,0x5D,0x00,Read,ACK
11.396742820000000,0,0x5D,0x00,Read,NAK
11.402221800000000,0,0x5D,0x2F,Read,ACK
11.402245280000001,0,0x5D,0x00,Read,ACK
11.402266760000000,0,0x5D,0x04,Read,ACK
11.402288220000001,0,0x5D,0x03,Read,ACK
11.402309680000000,0,0x5D,0x0B,Read,ACK
11.402331139999999,0,0x5D,0x02,Read,ACK
11.402352580000001,0,0x5D,0xF5,Read,ACK
11.402374040000000,0,0x5D,0x01,Read,ACK
11.402395500000001,0,0x5D,0x03,Read,ACK
11.402416960000000,0,0x5D,0x02,Read,ACK
11.402439920000001,0,0x5D,0x20,Read,ACK
11.402461519999999,0,0x5D,0x13,Read,ACK
11.402485700000000,0,0x5D,0x8E,Read,ACK
11.402507200000001,0,0x5D,0x0B,Read,ACK
11.402528660000000,0,0x5D,0x2D,Read,ACK
11.402550120000001,0,0x5D,0x08,Read,ACK
11.402571560000000,0,0x5D,0x02,Read,ACK
11.402593019999999,0,0x5D,0x04,Read,ACK
11.402615660000000,0,0x5D,0x20,Read,ACK
11.402638039999999,0,0x5D,0x00,Read,ACK
11.402660620000001,0,0x5D,0x00,Read,ACK
11.402682080000000,0,0x5D,0x00,Read,ACK
11.402703580000001,0,0x5D,0x00,Read,ACK
11.402725060000000,0,0x5D,0x00,Read,ACK
11.402746560000001,0,0x5D,0x00,Read,ACK
11.402768020000000,0,0x5D,0x00,Read,ACK
11.402789479999999,0,0x5D,0x00,Read,ACK
11.402810920000000,0,0x5D,0x00,Read,ACK
11.402832399999999,0,0x5D,0x00,Read,ACK
11.402853900000000,0,0x5D,0x00,Read,ACK
11.402875359999999,0,0x5D,0x00,Read,ACK
11.402896820000000,0,0x5D,0x00,Read,ACK
11.402918460000000,0,0x5D,0x00,Read,ACK
11.402939979999999,0,0x5D,0x00,Read,ACK
11.402961500000000,0,0x5D,0x00,Read,ACK
11.402982980000001,0,0x5D,0x00,Read,ACK
11.403004460000000,0,0x5D,0x00,Read,ACK
11.403025960000001,0,0x5D,0x00,Read,ACK
11.403047440000000,0,0x5D,0x00,Read,ACK
11.403069179999999,0,0x5D,0x00,Read,ACK
11.403090640000000,0,0x5D,0x00,Read,ACK
11.403112100000000,0,0x5D,0x00,Read,ACK
11.403133540000001,0,0x5D,0x00,Read,ACK
11.403155000000000,0,0x5D,0xDE,Read,ACK
11.403176459999999,0,0x5D,0xC1,Read,ACK
11.403197900000000,0,0x5D,0x02,Read,ACK
11.403219360000000,0,0x5D,0x00,Read,ACK
11.403240820000001,0,0x5D,0x00,Read,ACK
11.403262280000000,0,0x5D,0x00,Read,ACK
11.403283739999999,0,0x5D,0x00,Read,ACK
11.403305200000000,0,0x5D,0x00,Read,ACK
11.403326720000001,0,0x5D,0x00,Read,ACK
11.403348220000000,0,0x5D,0x00,Read,ACK
11.403369700000001,0,0x5D,0x00,Read,ACK
11.403391200000000,0,0x5D,0x00,Read,ACK
11.403412700000001,0,0x5D,0x00,Read,ACK
11.403435900000000,0,0x5D,0x00,Read,ACK
11.403457380000001,0,0x5D,0x00,Read,ACK
11.403478880000000,0,0x5D,0x00,Read,ACK
11.403500400000000,0,0x5D,0x00,Read,ACK
11.403522280000001,0,0x5D,0x00,Read,ACK
11.403545500000000,0,0x5D,0x00,Read,ACK
11.403567100000000,0,0x5D,0x00,Read,ACK
11.403588579999999,0,0x5D,0x00,Read,NAK
11.409323240000001,0,0x5D,0x2F,Read,ACK
11.409348580000000,0,0x5D,0x00,Read,ACK
11.409370380000000,0,0x5D,0x04,Read,ACK
11.409391899999999,0,0x5D,0x03,Read,ACK
11.409415380000000,0,0x5D,0x0E,Read,ACK
11.409436840000000,0,0x5D,0x02,Read,ACK
11.409458300000001,0,0x5D,0xFA,Read,ACK
11.409479760000000,0,0x5D,0x01,Read,ACK
11.409501199999999,0,0x5D,0x03,Read,ACK
11.409522680000000,0,0x5D,0x02,Read,ACK
11.409545680000001,0,0x5D,0x20,Read,ACK
11.409567140000000,0,0x5D,0x13,Read,ACK
11.409588599999999,0,0x5D,0x88,Read,ACK
11.409611320000000,0,0x5D,0x0B,Read,ACK
11.409632820000001,0,0x5D,0x29,Read,ACK
11.409654500000000,0,0x5D,0x08,Read,ACK
11.409675960000000,0,0x5D,0x02,Read,ACK
11.409697420000001,0,0x5D,0x04,Read,ACK
11.409718880000000,0,0x5D,0x20,Read,ACK
11.409740340000001,0,0x5D,0x00,Read,ACK
11.409761800000000,0,0x5D,0x00,Read,ACK
11.409783660000000,0,0x5D,0x00,Read,ACK
11.409805140000000,0,0x5D,0x00,Read,ACK
11.409826819999999,0,0x5D,0x00,Read,ACK
11.409848320000000,0,0x5D,0x00,Read,ACK
11.409869820000001,0,0x5D,0x00,Read,ACK
11.409891660000000,0,0x5D,0x00,Read,ACK
11.409913160000000,0,0x5D,0x00,Read,ACK
11.409936000000000,0,0x5D,0x00,Read,ACK
11.409958639999999,0,0x5D,0x00,Read,ACK
11.409981260000000,0,0x5D,0x00,Read,ACK
11.410002720000000,0,0x5D,0x00,Read,ACK
11.410024340000000,0,0x5D,0x00,Read,ACK
11.410046740000000,0,0x5D,0x00,Read,ACK
11.410068219999999,0,0x5D,0x00,Read,ACK
11.410089680000000,0,0x5D,0x00,Read,ACK
11.410111140000000,0,0x5D,0x00,Read,ACK
11.410132600000001,0,0x5D,0x00,Read,ACK
11.410154060000000,0,0x5D,0x00,Read,ACK
11.410175580000001,0,0x5D,0x00,Read,ACK
11.410197020000000,0,0x5D,0x00,Read,ACK
11.410218479999999,0,0x5D,0x00,Read,ACK
11.410240000000000,0,0x5D,0x00,Read,ACK
11.410261459999999,0,0x5D,0x24,Read,ACK
11.410282920000000,0,0x5D,0xC2,Read,ACK
11.410304640000000,0,0x5D,0x02,Read,ACK
11.410326140000000,0,0x5D,0x00,Read,ACK
11.410347840000000,0,0x5D,0x00,Read,ACK
11.410369299999999,0,0x5D,0x00,Read,ACK
11.410390760000000,0,0x5D,0x00,Read,ACK
11.410412239999999,0,0x5D,0x00,Read,ACK
11.410433720000000,0,0x5D,0x00,Read,ACK
11.410455180000000,0,0x5D,0x00,Read,ACK
11.410476660000000,0,0x5D,0x00,Read,ACK
11.410498160000000,0,0x5D,0x00,Read,ACK
11.410519760000000,0,0x5D,0x00,Read,ACK
11.410541300000000,0,0x5D,0x00,Read,ACK
11.410562799999999,0,0x5D,0x00,Read,ACK
11.410584439999999,0,0x5D,0x00,Read,ACK
11.410605940000000,0,0x5D,0x00,Read,ACK
11.410628160000000,0,0x5D,0x00,Read,ACK
11.410651059999999,0,0x5D,0x00,Read,ACK
11.410672580000000,0,0x5D,0x00,Read,ACK
11.410694080000001,0,0x5D,0x00,Read,NAK
11.416498539999999,0,0x5D,0x2F,Read,ACK
11.416522980000000,0,0x5D,0x00,Read,ACK
11.416545200000000,0,0x5D,0x04,Read,ACK
11.416566680000001,0,0x5D,0x03,Read,ACK
11.416588140000000,0,0x5D,0x12,Read,ACK
11.416609640000001,0,0x5D,0x02,Read,ACK
11.416631120000000,0,0x5D,0xFF,Read,ACK
11.416652620000001,0,0x5D,0x01,Read,ACK
11.416674080000000,0,0x5D,0x03,Read,ACK
11.416695580000001,0,0x5D,0x02,Read,ACK
11.416717040000000,0,0x5D,0x20,Read,ACK
11.416739500000000,0,0x5D,0x13,Read,ACK
11.416761140000000,0,0x5D,0x81,Read,ACK
11.416783779999999,0,0x5D,0x0B,Read,ACK
11.416805360000000,0,0x5D,0x25,Read,ACK
11.416826860000000,0,0x5D,0x08,Read,ACK
11.416848320000000,0,0x5D,0x02,Read,ACK
11.416869780000001,0,0x5D,0x04,Read,ACK
11.416891220000000,0,0x5D,0x20,Read,ACK
11.416912760000001,0,0x5D,0x00,Read,ACK
11.416934360000001,0,0x5D,0x00,Read,ACK
11.416955840000000,0,0x5D,0x00,Read,ACK
11.416977279999999,0,0x5D,0x00,Read,ACK
11.416998740000000,0,0x5D,0x00,Read,ACK
11.417020700000000,0,0x5D,0x00,Read,ACK
11.417043440000000,0,0x5D,0x00,Read,ACK
11.417064939999999,0,0x5D,0x00,Read,ACK
11.417086420000000,0,0x5D,0x00,Read,ACK
11.417107880000000,0,0x5D,0x00,Read,ACK
11.417129360000001,0,0x5D,0x00,Read,ACK
11.417150840000000,0,0x5D,0x00,Read,ACK
11.417172760000000,0,0x5D,0x00,Read,ACK
11.417194260000000,0,0x5D,0x00,Read,ACK
11.417215700000000,0,0x5D,0x00,Read,ACK
11.417237180000001,0,0x5D,0x00,Read,ACK
11.417258680000000,0,0x5D,0x00,Read,ACK
11.417280160000001,0,0x5D,0x00,Read,ACK
11.417301660000000,0,0x5D,0x00,Read,ACK
11.417323120000001,0,0x5D,0x00,Read,ACK
11.417344580000000,0,0x5D,0x00,Read,ACK
11.417366080000001,0,0x5D,0x00,Read,ACK
11.417387540000000,0,0x5D,0x00,Read,ACK
11.417408999999999,0,0x5D,0x00,Read,ACK
11.417430460000000,0,0x5D,0x6A,Read,ACK
11.417451900000000,0,0x5D,0xC2,Read,ACK
11.417473360000001,0,0x5D,0x02,Read,ACK
11.417494860000000,0,0x5D,0x00,Read,ACK
11.417516320000001,0,0x5D,0x00,Read,ACK
11.417537780000000,0,0x5D,0x00,Read,ACK
11.417559499999999,0,0x5D,0x00,Read,ACK
11.417581020000000,0,0x5D,0x00,Read,ACK
11.417602499999999,0,0x5D,0x00,Read,ACK
11.417623960000000,0,0x5D,0x00,Read,ACK
11.417645419999999,0,0x5D,0x00,Read,ACK
11.417666940000000,0,0x5D,0x00,Read,ACK
11.417688380000000,0,0x5D,0x00,Read,ACK
11.417709840000001,0,0x5D,0x00,Read,ACK
11.417731300000000,0,0x5D,0x00,Read,ACK
11.417752800000001,0,0x5D,0x00,Read,ACK
11.417774280000000,0,0x5D,0x00,Read,ACK
11.417801640000000,0,0x5D,0x00,Read,ACK
11.417823540000001,0,0x5D,0x00,Read,ACK
11.417845460000001,0,0x5D,0x00,Read,ACK
11.417866999999999,0,0x5D,0x00,Read,NAK
11.423670560000000,0,0x5D,0x2F,Read,ACK
11.423695380000000,0,0x5D,0x00,Read,ACK
11.423716840000001,0,0x5D,0x04,Read,ACK
11.423738300000000,0,0x5D,0x03,Read,ACK
11.423759759999999,0,0x5D,0x16,Read,ACK
11.423781220000000,0,0x5D,0x02,Read,ACK
11.423802719999999,0,0x5D,0x04,Read,ACK
11.423824840000000,0,0x5D,0x02,Read,ACK
11.423846320000001,0,0x5D,0x03,Read,ACK
11.423867800000000,0,0x5D,0x02,Read,ACK
11.423890960000000,0,0x5D,0x20,Read,ACK
11.423912680000001,0,0x5D,0x13,Read,ACK
11.423935400000000,0,0x5D,0x7A,Read,ACK
11.423956880000000,0,0x5D,0x0B,Read,ACK
11.423978360000000,0,0x5D,0x21,Read,ACK
11.423999800000001,0,0x5D,0x08,Read,ACK
11.424021260000000,0,0x5D,0x02,Read,ACK
11.424042719999999,0,0x5D,0x04,Read,ACK
11.424065120000000,0,0x5D,0x20,Read,ACK
11.424087159999999,0,0x5D,0x00,Read,ACK
11.424108620000000,0,0x5D,0x00,Read,ACK
11.424130119999999,0,0x5D,0x00,Read,ACK
11.424151600000000,0,0x5D,0x00,Read,ACK
11.424173800000000,0,0x5D,0x00,Read,ACK
11.424195259999999,0,0x5D,0x00,Read,ACK
11.424216720000000,0,0x5D,0x00,Read,ACK
11.424238219999999,0,0x5D,0x00,Read,ACK
11.424259680000000,0,0x5D,0x00,Read,ACK
11.424281140000000,0,0x5D,0x00,Read,ACK
11.424302580000001,0,0x5D,0x00,Read,ACK
11.424324840000001,0,0x5D,0x00,Read,ACK
11.424346300000000,0,0x5D,0x00,Read,ACK
11.424367780000001,0,0x5D,0x00,Read,ACK
11.424389560000000,0,0x5D,0x00,Read,ACK
11.424411040000001,0,0x5D,0x00,Read,ACK
11.424432520000000,0,0x5D,0x00,Read,ACK
11.424454020000001,0,0x5D,0x00,Read,ACK
11.424475460000000,0,0x5D,0x00,Read,ACK
11.424496939999999,0,0x5D,0x00,Read,ACK
11.424518440000000,0,0x5D,0x00,Read,ACK
11.424539899999999,0,0x5D,0x00,Read,ACK
11.424561360000000,0,0x5D,0x00,Read,ACK
11.424582800000000,0,0x5D,0x00,Read,ACK
11.424604260000001,0,0x5D,0xB0,Read,ACK
11.424625720000000,0,0x5D,0xC2,Read,ACK
11.424647179999999,0,0x5D,0x02,Read,ACK
11.424668680000000,0,0x5D,0x00,Read,ACK
11.424690139999999,0,0x5D,0x00,Read,ACK
11.424711600000000,0,0x5D,0x00,Read,ACK
11.424733040000000,0,0x5D,0x00,Read,ACK
11.424754520000000,0,0x5D,0x00,Read,ACK
11.424775980000000,0,0x5D,0x00,Read,ACK
11.424797900000000,0,0x5D,0x00,Read,ACK
11.424819380000001,0,0x5D,0x00,Read,ACK
11.424840900000000,0,0x5D,0x00,Read,ACK
11.424863300000000,0,0x5D,0x00,Read,ACK
11.424886100000000,0,0x5D,0x00,Read,ACK
11.424907760000000,0,0x5D,0x00,Read,ACK
11.424929280000001,0,0x5D,0x00,Read,ACK
11.424951739999999,0,0x5D,0x00,Read,ACK
11.424973220000000,0,0x5D,0x00,Read,ACK
11.424994699999999,0,0x5D,0x00,Read,ACK
11.425016200000000,0,0x5D,0x00,Read,ACK
11.425037639999999,0,0x5D,0x00,Read,NAK
11.430859959999999,0,0x5D,0x2F,Read,ACK
11.430883220000000,0,0x5D,0x00,Read,ACK
11.430904679999999,0,0x5D,0x04,Read,ACK
11.430926140000000,0,0x5D,0x03,Read,ACK
11.430947600000000,0,0x5D,0x1A,Read,ACK
11.430970580000000,0,0x5D,0x02,Read,ACK
11.430992040000000,0,0x5D,0x09,Read,ACK
11.431013500000001,0,0x5D,0x02,Read,ACK
11.431035659999999,0,0x5D,0x03,Read,ACK
11.431058139999999,0,0x5D,0x02,Read,ACK
11.431081180000000,0,0x5D,0x20,Read,ACK
11.431102620000001,0,0x5D,0x13,Read,ACK
11.431124080000000,0,0x5D,0x73,Read,ACK
11.431145539999999,0,0x5D,0x0B,Read,ACK
11.431166980000000,0,0x5D,0x1C,Read,ACK
11.431189280000000,0,0x5D,0x08,Read,ACK
11.431211040000001,0,0x5D,0x03,Read,ACK
11.431232540000000,0,0x5D,0x05,Read,ACK
11.431254080000000,0,0x5D,0x20,Read,ACK
11.431275560000000,0,0x5D,0x00,Read,ACK
11.431297980000000,0,0x5D,0x00,Read,ACK
11.431319459999999,0,0x5D,0x00,Read,ACK
11.431340920000000,0,0x5D,0x00,Read,ACK
11.431362360000000,0,0x5D,0x00,Read,ACK
11.431383820000001,0,0x5D,0x00,Read,ACK
11.431405280000000,0,0x5D,0x00,Read,ACK
11.431426719999999,0,0x5D,0x00,Read,ACK
11.431449320000000,0,0x5D,0x00,Read,ACK
11.431470780000000,0,0x5D,0x00,Read,ACK
11.431492220000001,0,0x5D,0x00,Read,ACK
11.431513680000000,0,0x5D,0x00,Read,ACK
11.431535119999999,0,0x5D,0x00,Read,ACK
11.431556580000001,0,0x5D,0x00,Read,ACK
11.431578020000000,0,0x5D,0x00,Read,ACK
11.431599479999999,0,0x5D,0x00,Read,ACK
11.431620940000000,0,0x5D,0x00,Read,ACK
11.431642380000000,0,0x5D,0x00,Read,ACK
11.431663840000001,0,0x5D,0x00,Read,ACK
11.431685300000000,0,0x5D,0x00,Read,ACK
11.431706739999999,0,0x5D,0x00,Read,ACK
11.431728220000000,0,0x5D,0x00,Read,ACK
11.431749719999999,0,0x5D,0x00,Read,ACK
11.431771180000000,0,0x5D,0x00,Read,ACK
11.431794360000000,0,0x5D,0xF6,Read,ACK
11.431815840000001,0,0x5D,0xC2,Read,ACK
11.431837639999999,0,0x5D,0x02,Read,ACK
11.431859100000000,0,0x5D,0x00,Read,ACK
11.431880560000000,0,0x5D,0x00,Read,ACK
11.431902020000001,0,0x5D,0x00,Read,ACK
11.431923480000000,0,0x5D,0x00,Read,ACK
11.431944919999999,0,0x5D,0x00,Read,ACK
11.431966380000000,0,0x5D,0x00,Read,ACK
11.431987840000000,0,0x5D,0x00,Read,ACK
11.432009300000001,0,0x5D,0x00,Read,ACK
11.432030920000001,0,0x5D,0x00,Read,ACK
11.432052380000000,0,0x5D,0x00,Read,ACK
11.432073839999999,0,0x5D,0x00,Read,ACK
11.432096339999999,0,0x5D,0x00,Read,ACK
11.432117800000000,0,0x5D,0x00,Read,ACK
11.432139780000000,0,0x5D,0x00,Read,ACK
11.432161440000000,0,0x5D,0x00,Read,ACK
11.432183800000001,0,0x5D,0x00,Read,ACK
11.432205620000000,0,0x5D,0x00,Read,ACK
11.432227140000000,0,0x5D,0x00,Read,NAK
11.438209840000001,0,0x5D,0x2F,Read,ACK
11.438234780000000,0,0x5D,0x00,Read,ACK
11.438256220000000,0,0x5D,0x04,Read,ACK
11.438277680000001,0,0x5D,0x03,Read,ACK
11.438299140000000,0,0x5D,0x1F,Read,ACK
11.438320600000001,0,0x5D,0x02,Read,ACK
11.438342880000000,0,0x5D,0x0F,Read,ACK
11.438364360000000,0,0x5D,0x02,Read,ACK
11.438387320000000,0,0x5D,0x03,Read,ACK
11.438408839999999,0,0x5D,0x02,Read,ACK
11.438430640000000,0,0x5D,0x20,Read,ACK
11.438452119999999,0,0x5D,0x13,Read,ACK
11.438473620000000,0,0x5D,0x6B,Read,ACK
11.438495600000000,0,0x5D,0x0B,Read,ACK
11.438517120000000,0,0x5D,0x16,Read,ACK
11.438538619999999,0,0x5D,0x08,Read,ACK
11.438561460000001,0,0x5D,0x03,Read,ACK
11.438584420000000,0,0x5D,0x04,Read,ACK
11.438605940000000,0,0x5D,0x20,Read,ACK
11.438627420000000,0,0x5D,0x00,Read,ACK
11.438648900000000,0,0x5D,0x00,Read,ACK
11.438670419999999,0,0x5D,0x00,Read,ACK
11.438692359999999,0,0x5D,0x00,Read,ACK
11.438713820000000,0,0x5D,0x00,Read,ACK
11.438735260000000,0,0x5D,0x00,Read,ACK
11.438756720000001,0,0x5D,0x00,Read,ACK
11.438778180000000,0,0x5D,0x00,Read,ACK
11.438799780000000,0,0x5D,0x00,Read,ACK
11.438821259999999,0,0x5D,0x00,Read,ACK
11.438842720000000,0,0x5D,0x00,Read,ACK
11.438864179999999,0,0x5D,0x00,Read,ACK
11.438885620000001,0,0x5D,0x00,Read,ACK
11.438907100000000,0,0x5D,0x00,Read,ACK
11.438928600000001,0,0x5D,0x00,Read,ACK
11.438950080000000,0,0x5D,0x00,Read,ACK
11.438971840000001,0,0x5D,0x00,Read,ACK
11.438993340000000,0,0x5D,0x00,Read,ACK
11.439014800000001,0,0x5D,0x00,Read,ACK
11.439036260000000,0,0x5D,0x00,Read,ACK
11.439057760000001,0,0x5D,0x00,Read,ACK
11.439079200000000,0,0x5D,0x00,Read,ACK
11.439100659999999,0,0x5D,0x00,Read,ACK
11.439122120000000,0,0x5D,0x00,Read,ACK
11.439143639999999,0,0x5D,0x3C,Read,ACK
11.439165100000000,0,0x5D,0xC3,Read,ACK
11.439186560000000,0,0x5D,0x02,Read,ACK
11.439208060000000,0,0x5D,0x00,Read,ACK
11.439229960000000,0,0x5D,0x00,Read,ACK
11.439251620000000,0,0x5D,0x00,Read,ACK
11.439273200000001,0,0x5D,0x00,Read,ACK
11.439295039999999,0,0x5D,0x00,Read,ACK
11.439316820000000,0,0x5D,0x00,Read,ACK
11.439338279999999,0,0x5D,0x00,Read,ACK
11.439359740000000,0,0x5D,0x00,Read,ACK
11.439381200000000,0,0x5D,0x00,Read,ACK
11.439405239999999,0,0x5D,0x00,Read,ACK
11.439426700000000,0,0x5D,0x00,Read,ACK
11.439448179999999,0,0x5D,0x00,Read,ACK
11.439471180000000,0,0x5D,0x00,Read,ACK
11.439492860000000,0,0x5D,0x00,Read,ACK
11.439516520000000,0,0x5D,0x00,Read,ACK
11.439538480000000,0,0x5D,0x00,Read,ACK
11.439559920000001,0,0x5D,0x00,Read,ACK
11.439581380000000,0,0x5D,0x00,Read,NAK
11.445308259999999,0,0x5D,0x2F,Read,ACK
11.445330260000000,0,0x5D,0x00,Read,ACK
11.445351840000001,0,0x5D,0x04,Read,ACK
11.445373920000000,0,0x5D,0x03,Read,ACK
11.445395380000001,0,0x5D,0x24,Read,ACK
11.445416840000000,0,0x5D,0x02,Read,ACK
11.445438299999999,0,0x5D,0x15,Read,ACK
11.445459740000000,0,0x5D,0x02,Read,ACK
11.445481720000000,0,0x5D,0x03,Read,ACK
11.445504720000001,0,0x5D,0x03,Read,ACK
11.445526839999999,0,0x5D,0x20,Read,ACK
11.445548320000000,0,0x5D,0x13,Read,ACK
11.445569799999999,0,0x5D,0x63,Read,ACK
11.445592700000001,0,0x5D,0x0B,Read,ACK
11.445614160000000,0,0x5D,0x0F,Read,ACK
11.445635599999999,0,0x5D,0x08,Read,ACK
11.445657040000000,0,0x5D,0x03,Read,ACK
11.445678520000000,0,0x5D,0x04,Read,ACK
11.445700020000000,0,0x5D,0x20,Read,ACK
11.445721700000000,0,0x5D,0x00,Read,ACK
11.445743980000000,0,0x5D,0x00,Read,ACK
11.445765440000001,0,0x5D,0x00,Read,ACK
11.445786979999999,0,0x5D,0x00,Read,ACK
11.445808480000000,0,0x5D,0x00,Read,ACK
11.445829959999999,0,0x5D,0x00,Read,ACK
11.445851420000000,0,0x5D,0x00,Read,ACK
11.445872880000000,0,0x5D,0x00,Read,ACK
11.445894320000001,0,0x5D,0x00,Read,ACK
11.445915780000000,0,0x5D,0x00,Read,ACK
11.445937219999999,0,0x5D,0x00,Read,ACK
11.445958700000000,0,0x5D,0x00,Read,ACK
11.445980140000000,0,0x5D,0x00,Read,ACK
11.446001580000001,0,0x5D,0x00,Read,ACK
11.446023040000000,0,0x5D,0x00,Read,ACK
11.446044560000001,0,0x5D,0x00,Read,ACK
11.446066000000000,0,0x5D,0x00,Read,ACK
11.446089239999999,0,0x5D,0x00,Read,ACK
11.446110700000000,0,0x5D,0x00,Read,ACK
11.446132179999999,0,0x5D,0x00,Read,ACK
11.446155520000000,0,0x5D,0x00,Read,ACK
11.446177000000000,0,0x5D,0x00,Read,ACK
11.446198460000000,0,0x5D,0x00,Read,ACK
11.446219899999999,0,0x5D,0x00,Read,ACK
11.446241360000000,0,0x5D,0x82,Read,ACK
11.446262800000000,0,0x5D,0xC3,Read,ACK
11.446284260000001,0,0x5D,0x02,Read,ACK
11.446305700000000,0,0x5D,0x00,Read,ACK
11.446327159999999,0,0x5D,0x00,Read,ACK
11.446348620000000,0,0x5D,0x00,Read,ACK
11.446370060000000,0,0x5D,0x00,Read,ACK
11.446392260000000,0,0x5D,0x00,Read,ACK
11.446413720000001,0,0x5D,0x00,Read,ACK
11.446436159999999,0,0x5D,0x00,Read,ACK
11.446457759999999,0,0x5D,0x00,Read,ACK
11.446479200000001,0,0x5D,0x00,Read,ACK
11.446500660000000,0,0x5D,0x00,Read,ACK
11.446524180000001,0,0x5D,0x00,Read,ACK
11.446545800000001,0,0x5D,0x00,Read,ACK
11.446567419999999,0,0x5D,0x00,Read,ACK
11.446588900000000,0,0x5D,0x00,Read,ACK
11.446610359999999,0,0x5D,0x00,Read,ACK
11.446632019999999,0,0x5D,0x00,Read,ACK
11.446654840000001,0,0x5D,0x00,Read,ACK
11.446677319999999,0,0x5D,0x00,Read,NAK
11.452198040000001,0,0x5D,0x2F,Read,ACK
11.452222500000000,0,0x5D,0x00,Read,ACK
11.452243960000001,0,0x5D,0x04,Read,ACK
11.452265900000000,0,0x5D,0x03,Read,ACK
11.452287380000000,0,0x5D,0x29,Read,ACK
11.452308880000000,0,0x5D,0x02,Read,ACK
11.452330340000000,0,0x5D,0x1A,Read,ACK
11.452351780000001,0,0x5D,0x02,Read,ACK
11.452373240000000,0,0x5D,0x03,Read,ACK
11.452394699999999,0,0x5D,0x03,Read,ACK
11.452416160000000,0,0x5D,0x20,Read,ACK
11.452437679999999,0,0x5D,0x13,Read,ACK
11.452459559999999,0,0x5D,0x5A,Read,ACK
11.452481260000001,0,0x5D,0x0B,Read,ACK
11.452505600000000,0,0x5D,0x09,Read,ACK
11.452527099999999,0,0x5D,0x08,Read,ACK
11.452548620000000,0,0x5D,0x03,Read,ACK
11.452570059999999,0,0x5D,0x04,Read,ACK
11.452591520000000,0,0x5D,0x20,Read,ACK
11.452612980000000,0,0x5D,0x00,Read,ACK
11.452634880000000,0,0x5D,0x00,Read,ACK
11.452659120000000,0,0x5D,0x00,Read,ACK
11.452680559999999,0,0x5D,0x00,Read,ACK
11.452702199999999,0,0x5D,0x00,Read,ACK
11.452723660000000,0,0x5D,0x00,Read,ACK
11.452745739999999,0,0x5D,0x00,Read,ACK
11.452767220000000,0,0x5D,0x00,Read,ACK
11.452788719999999,0,0x5D,0x00,Read,ACK
11.452811340000000,0,0x5D,0x00,Read,ACK
11.452832799999999,0,0x5D,0x00,Read,ACK
11.452854280000000,0,0x5D,0x00,Read,ACK
11.452875760000000,0,0x5D,0x00,Read,ACK
11.452898299999999,0,0x5D,0x00,Read,ACK
11.452919800000000,0,0x5D,0x00,Read,ACK
11.452941259999999,0,0x5D,0x00,Read,ACK
11.452962740000000,0,0x5D,0x00,Read,ACK
11.452984239999999,0,0x5D,0x00,Read,ACK
11.453005760000000,0,0x5D,0x00,Read,ACK
11.453027199999999,0,0x5D,0x00,Read,ACK
11.453048660000000,0,0x5D,0x00,Read,ACK
11.453070120000000,0,0x5D,0x00,Read,ACK
11.453091580000001,0,0x5D,0x00,Read,ACK
11.453113080000000,0,0x5D,0x00,Read,ACK
11.453134540000001,0,0x5D,0xC8,Read,ACK
11.453156000000000,0,0x5D,0xC3,Read,ACK
11.453177459999999,0,0x5D,0x02,Read,ACK
11.453199100000001,0,0x5D,0x00,Read,ACK
11.453220540000000,0,0x5D,0x00,Read,ACK
11.453242100000001,0,0x5D,0x00,Read,ACK
11.453263580000000,0,0x5D,0x00,Read,ACK
11.453285140000000,0,0x5D,0x00,Read,ACK
11.453306840000000,0,0x5D,0x00,Read,ACK
11.453328340000001,0,0x5D,0x00,Read,ACK
11.453349820000000,0,0x5D,0x00,Read,ACK
11.453371280000001,0,0x5D,0x00,Read,ACK
11.453392720000000,0,0x5D,0x00,Read,ACK
11.453414179999999,0,0x5D,0x00,Read,ACK
11.453435640000000,0,0x5D,0x00,Read,ACK
11.453457100000000,0,0x5D,0x00,Read,ACK
11.453478540000001,0,0x5D,0x00,Read,ACK
11.453503740000000,0,0x5D,0x00,Read,ACK
11.453526200000001,0,0x5D,0x00,Read,ACK
11.453547900000000,0,0x5D,0x00,Read,ACK
11.453569659999999,0,0x5D,0x00,Read,NAK
11.459536200000001,0,0x5D,0x2F,Read,ACK
11.459557700000000,0,0x5D,0x00,Read,ACK
11.459579200000000,0,0x5D,0x04,Read,ACK
11.459600880000000,0,0x5D,0x03,Read,ACK
11.459622380000001,0,0x5D,0x2E,Read,ACK
11.459645480000001,0,0x5D,0x02,Read,ACK
11.459668180000000,0,0x5D,0x20,Read,ACK
11.459689660000000,0,0x5D,0x02,Read,ACK
11.459711100000000,0,0x5D,0x03,Read,ACK
11.459732580000001,0,0x5D,0x03,Read,ACK
11.459754060000000,0,0x5D,0x20,Read,ACK
11.459777860000001,0,0x5D,0x13,Read,ACK
11.459800820000000,0,0x5D,0x50,Read,ACK
11.459823060000000,0,0x5D,0x0B,Read,ACK
11.459844580000000,0,0x5D,0x02,Read,ACK
11.459866840000000,0,0x5D,0x08,Read,ACK
11.459888780000000,0,0x5D,0x03,Read,ACK
11.459910239999999,0,0x5D,0x04,Read,ACK
11.459931680000000,0,0x5D,0x20,Read,ACK
11.459953280000001,0,0x5D,0x00,Read,ACK
11.459974740000000,0,0x5D,0x00,Read,ACK
11.459996179999999,0,0x5D,0x00,Read,ACK
11.460017660000000,0,0x5D,0x00,Read,ACK
11.460039099999999,0,0x5D,0x00,Read,ACK
11.460060580000000,0,0x5D,0x00,Read,ACK
11.460082079999999,0,0x5D,0x00,Read,ACK
11.460103540000000,0,0x5D,0x00,Read,ACK
11.460124980000000,0,0x5D,0x00,Read,ACK
11.460146440000001,0,0x5D,0x00,Read,ACK
11.460167880000000,0,0x5D,0x00,Read,ACK
11.460189339999999,0,0x5D,0x00,Read,ACK
11.460210800000000,0,0x5D,0x00,Read,ACK
11.460232500000000,0,0x5D,0x00,Read,ACK
11.460253959999999,0,0x5D,0x00,Read,ACK
11.460275420000000,0,0x5D,0x00,Read,ACK
11.460296880000000,0,0x5D,0x00,Read,ACK
11.460320340000001,0,0x5D,0x00,Read,ACK
11.460342460000000,0,0x5D,0x00,Read,ACK
11.460363920000001,0,0x5D,0x00,Read,ACK
11.460385360000000,0,0x5D,0x00,Read,ACK
11.460406839999999,0,0x5D,0x00,Read,ACK
11.460428280000000,0,0x5D,0x00,Read,ACK
11.460449740000000,0,0x5D,0x00,Read,ACK
11.460471200000001,0,0x5D,0x0E,Read,ACK
11.460492640000000,0,0x5D,0xC4,Read,ACK
11.460514099999999,0,0x5D,0x02,Read,ACK
11.460535580000000,0,0x5D,0x00,Read,ACK
11.460557039999999,0,0x5D,0x00,Read,ACK
11.460578520000000,0,0x5D,0x00,Read,ACK
11.460601700000000,0,0x5D,0x00,Read,ACK
11.460623240000000,0,0x5D,0x00,Read,ACK
11.460644900000000,0,0x5D,0x00,Read,ACK
11.460666600000000,0,0x5D,0x00,Read,ACK
11.460689739999999,0,0x5D,0x00,Read,ACK
11.460711300000000,0,0x5D,0x00,Read,ACK
11.460732780000001,0,0x5D,0x00,Read,ACK
11.460754220000000,0,0x5D,0x00,Read,ACK
11.460775720000001,0,0x5D,0x00,Read,ACK
11.460797200000000,0,0x5D,0x00,Read,ACK
11.460819200000000,0,0x5D,0x00,Read,ACK
11.460840700000000,0,0x5D,0x00,Read,ACK
11.460864219999999,0,0x5D,0x00,Read,ACK
11.460887359999999,0,0x5D,0x00,Read,ACK
11.460908860000000,0,0x5D,0x00,Read,NAK
11.466598660000001,0,0x5D,0x2F,Read,ACK
11.466620180000000,0,0x5D,0x00,Read,ACK
11.466641680000000,0,0x5D,0x04,Read,ACK
11.466663160000000,0,0x5D,0x03,Read,ACK
11.466685439999999,0,0x5D,0x33,Read,ACK
11.466706920000000,0,0x5D,0x02,Read,ACK
11.466728379999999,0,0x5D,0x26,Read,ACK
11.466750800000000,0,0x5D,0x02,Read,ACK
11.466772499999999,0,0x5D,0x03,Read,ACK
11.466795960000001,0,0x5D,0x03,Read,ACK
11.466817420000000,0,0x5D,0x20,Read,ACK
11.466838900000001,0,0x5D,0x13,Read,ACK
11.466860420000000,0,0x5D,0x47,Read,ACK
11.466881900000001,0,0x5D,0x0B,Read,ACK
11.466904500000000,0,0x5D,0xFB,Read,ACK
11.466926020000001,0,0x5D,0x07,Read,ACK
11.466947520000000,0,0x5D,0x03,Read,ACK
11.466968980000001,0,0x5D,0x03,Read,ACK
11.466990420000000,0,0x5D,0x20,Read,ACK
11.467011879999999,0,0x5D,0x00,Read,ACK
11.467034300000000,0,0x5D,0x00,Read,ACK
11.467055800000001,0,0x5D,0x00,Read,ACK
11.467077320000000,0,0x5D,0x00,Read,ACK
11.467098800000000,0,0x5D,0x00,Read,ACK
11.467120260000000,0,0x5D,0x00,Read,ACK
11.467142920000001,0,0x5D,0x00,Read,ACK
11.467164759999999,0,0x5D,0x00,Read,ACK
11.467186240000000,0,0x5D,0x00,Read,ACK
11.467207680000000,0,0x5D,0x00,Read,ACK
11.467229140000001,0,0x5D,0x00,Read,ACK
11.467250600000000,0,0x5D,0x00,Read,ACK
11.467272060000001,0,0x5D,0x00,Read,ACK
11.467293520000000,0,0x5D,0x00,Read,ACK
11.467314960000000,0,0x5D,0x00,Read,ACK
11.467336420000001,0,0x5D,0x00,Read,ACK
11.467357880000000,0,0x5D,0x00,Read,ACK
11.467379400000000,0,0x5D,0x00,Read,ACK
11.467400860000000,0,0x5D,0x00,Read,ACK
11.467422360000000,0,0x5D,0x00,Read,ACK
11.467444080000000,0,0x5D,0x00,Read,ACK
11.467465640000000,0,0x5D,0x00,Read,ACK
11.467487119999999,0,0x5D,0x00,Read,ACK
11.467508640000000,0,0x5D,0x00,Read,ACK
11.467530139999999,0,0x5D,0x54,Read,ACK
11.467551800000001,0,0x5D,0xC4,Read,ACK
11.467573300000000,0,0x5D,0x02,Read,ACK
11.467594739999999,0,0x5D,0x00,Read,ACK
11.467616200000000,0,0x5D,0x00,Read,ACK
11.467637659999999,0,0x5D,0x00,Read,ACK
11.467659120000000,0,0x5D,0x00,Read,ACK
11.467680560000000,0,0x5D,0x00,Read,ACK
11.467702040000001,0,0x5D,0x00,Read,ACK
11.467723540000000,0,0x5D,0x00,Read,ACK
11.467745460000000,0,0x5D,0x00,Read,ACK
11.467766960000001,0,0x5D,0x00,Read,ACK
11.467790040000001,0,0x5D,0x00,Read,ACK
11.467811500000000,0,0x5D,0x00,Read,ACK
11.467832939999999,0,0x5D,0x00,Read,ACK
11.467855680000000,0,0x5D,0x00,Read,ACK
11.467878600000001,0,0x5D,0x00,Read,ACK
11.467900040000000,0,0x5D,0x00,Read,ACK
11.467921680000000,0,0x5D,0x00,Read,ACK
11.467943379999999,0,0x5D,0x00,Read,ACK
11.467964860000000,0,0x5D,0x00,Read,NAK
11.473688140000000,0,0x5D,0x2F,Read,ACK
11.473710940000000,0,0x5D,0x00,Read,ACK
11.473732419999999,0,0x5D,0x04,Read,ACK
11.473753880000000,0,0x5D,0x03,Read,ACK
11.473775420000001,0,0x5D,0x39,Read,ACK
11.473796900000000,0,0x5D,0x02,Read,ACK
11.473818380000001,0,0x5D,0x2C,Read,ACK
11.473841280000000,0,0x5D,0x02,Read,ACK
11.473862759999999,0,0x5D,0x03,Read,ACK
11.473884220000000,0,0x5D,0x03,Read,ACK
11.473905900000000,0,0x5D,0x20,Read,ACK
11.473927659999999,0,0x5D,0x13,Read,ACK
11.473949579999999,0,0x5D,0x3C,Read,ACK
11.473971040000000,0,0x5D,0x0B,Read,ACK
11.473992500000000,0,0x5D,0xF5,Read,ACK
11.474013960000001,0,0x5D,0x07,Read,ACK
11.474035400000000,0,0x5D,0x03,Read,ACK
11.474057580000000,0,0x5D,0x03,Read,ACK
11.474079300000000,0,0x5D,0x20,Read,ACK
11.474100800000000,0,0x5D,0x00,Read,ACK
11.474122319999999,0,0x5D,0x00,Read,ACK
11.474143820000000,0,0x5D,0x00,Read,ACK
11.474165800000000,0,0x5D,0x00,Read,ACK
11.474187460000000,0,0x5D,0x00,Read,ACK
11.474208920000001,0,0x5D,0x00,Read,ACK
11.474230360000000,0,0x5D,0x00,Read,ACK
11.474251819999999,0,0x5D,0x00,Read,ACK
11.474273280000000,0,0x5D,0x00,Read,ACK
11.474295300000000,0,0x5D,0x00,Read,ACK
11.474316800000000,0,0x5D,0x00,Read,ACK
11.474338260000000,0,0x5D,0x00,Read,ACK
11.474359720000001,0,0x5D,0x00,Read,ACK
11.474381180000000,0,0x5D,0x00,Read,ACK
11.474402680000001,0,0x5D,0x00,Read,ACK
11.474424140000000,0,0x5D,0x00,Read,ACK
11.474445579999999,0,0x5D,0x00,Read,ACK
11.474467060000000,0,0x5D,0x00,Read,ACK
11.474488559999999,0,0x5D,0x00,Read,ACK
11.474510020000000,0,0x5D,0x00,Read,ACK
11.474531460000000,0,0x5D,0x00,Read,ACK
11.474552920000001,0,0x5D,0x00,Read,ACK
11.474574360000000,0,0x5D,0x00,Read,ACK
11.474595819999999,0,0x5D,0x00,Read,ACK
11.474617300000000,0,0x5D,0x9A,Read,ACK
11.474638799999999,0,0x5D,0xC4,Read,ACK
11.474660260000000,0,0x5D,0x02,Read,ACK
11.474681720000000,0,0x5D,0x00,Read,ACK
11.474703359999999,0,0x5D,0x00,Read,ACK
11.474724820000000,0,0x5D,0x00,Read,ACK
11.474746319999999,0,0x5D,0x00,Read,ACK
11.474767780000001,0,0x5D,0x00,Read,ACK
11.474789240000000,0,0x5D,0x00,Read,ACK
11.474810679999999,0,0x5D,0x00,Read,ACK
11.474832140000000,0,0x5D,0x00,Read,ACK
11.474853599999999,0,0x5D,0x00,Read,ACK
11.474875060000000,0,0x5D,0x00,Read,ACK
11.474897000000000,0,0x5D,0x00,Read,ACK
11.474918460000000,0,0x5D,0x00,Read,ACK
11.474940320000000,0,0x5D,0x00,Read,ACK
11.474963420000000,0,0x5D,0x00,Read,ACK
11.474984900000001,0,0x5D,0x00,Read,ACK
11.475007000000000,0,0x5D,0x00,Read,ACK
11.475030260000000,0,0x5D,0x00,Read,ACK
11.475051740000000,0,0x5D,0x00,Read,NAK
11.480868100000000,0,0x5D,0x2F,Read,ACK
11.480889540000000,0,0x5D,0x00,Read,ACK
11.480911000000001,0,0x5D,0x04,Read,ACK
11.480932460000000,0,0x5D,0x03,Read,ACK
11.480953899999999,0,0x5D,0x3F,Read,ACK
11.480975400000000,0,0x5D,0x02,Read,ACK
11.480996879999999,0,0x5D,0x32,Read,ACK
11.481019399999999,0,0x5D,0x02,Read,ACK
11.481041299999999,0,0x5D,0x03,Read,ACK
11.481065579999999,0,0x5D,0x03,Read,ACK
11.481087080000000,0,0x5D,0x20,Read,ACK
11.481108580000001,0,0x5D,0x13,Read,ACK
11.481130060000000,0,0x5D,0x30,Read,ACK
11.481151580000001,0,0x5D,0x0B,Read,ACK
11.481173080000000,0,0x5D,0xED,Read,ACK
11.481195080000001,0,0x5D,0x07,Read,ACK
11.481218180000001,0,0x5D,0x03,Read,ACK
11.481239620000000,0,0x5D,0x03,Read,ACK
11.481261079999999,0,0x5D,0x20,Read,ACK
11.481282540000000,0,0x5D,0x00,Read,ACK
11.481304020000000,0,0x5D,0x00,Read,ACK
11.481327000000000,0,0x5D,0x00,Read,ACK
11.481348460000000,0,0x5D,0x00,Read,ACK
11.481369940000000,0,0x5D,0x00,Read,ACK
11.481391439999999,0,0x5D,0x00,Read,ACK
11.481412900000000,0,0x5D,0x00,Read,ACK
11.481434719999999,0,0x5D,0x00,Read,ACK
11.481456440000001,0,0x5D,0x00,Read,ACK
11.481477940000000,0,0x5D,0x00,Read,ACK
11.481499400000001,0,0x5D,0x00,Read,ACK
11.481520840000000,0,0x5D,0x00,Read,ACK
11.481542320000001,0,0x5D,0x00,Read,ACK
11.481563840000000,0,0x5D,0x00,Read,ACK
11.481585340000001,0,0x5D,0x00,Read,ACK
11.481606820000000,0,0x5D,0x00,Read,ACK
11.481628320000000,0,0x5D,0x00,Read,ACK
11.481649819999999,0,0x5D,0x00,Read,ACK
11.481671280000000,0,0x5D,0x00,Read,ACK
11.481692760000000,0,0x5D,0x00,Read,ACK
11.481714200000001,0,0x5D,0x00,Read,ACK
11.481735880000000,0,0x5D,0x00,Read,ACK
11.481757500000001,0,0x5D,0x00,Read,ACK
11.481779019999999,0,0x5D,0x00,Read,ACK
11.481800900000000,0,0x5D,0xE0,Read,ACK
11.481822340000001,0,0x5D,0xC4,Read,ACK
11.481843800000000,0,0x5D,0x02,Read,ACK
11.481865259999999,0,0x5D,0x00,Read,ACK
11.481886720000000,0,0x5D,0x00,Read,ACK
11.481908180000000,0,0x5D,0x00,Read,ACK
11.481929620000001,0,0x5D,0x00,Read,ACK
11.481951080000000,0,0x5D,0x00,Read,ACK
11.481972519999999,0,0x5D,0x00,Read,ACK
11.481994000000000,0,0x5D,0x00,Read,ACK
11.482015440000000,0,0x5D,0x00,Read,ACK
11.482037220000000,0,0x5D,0x00,Read,ACK
11.482060100000000,0,0x5D,0x00,Read,ACK
11.482081640000001,0,0x5D,0x00,Read,ACK
11.482103280000000,0,0x5D,0x00,Read,ACK
11.482125900000000,0,0x5D,0x00,Read,ACK
11.482148540000001,0,0x5D,0x00,Read,ACK
11.482170000000000,0,0x5D,0x00,Read,ACK
11.482191459999999,0,0x5D,0x00,Read,ACK
11.482213000000000,0,0x5D,0x00,Read,ACK
11.482234540000000,0,0x5D,0x00,Read,NAK
11.488138879999999,0,0x5D,0x2F,Read,ACK
11.488165779999999,0,0x5D,0x00,Read,ACK
11.488188620000001,0,0x5D,0x04,Read,ACK
11.488210380000000,0,0x5D,0x03,Read,ACK
11.488232999999999,0,0x5D,0x45,Read,ACK
11.488254480000000,0,0x5D,0x02,Read,ACK
11.488275939999999,0,0x5D,0x37,Read,ACK
11.488297400000000,0,0x5D,0x02,Read,ACK
11.488318840000000,0,0x5D,0x03,Read,ACK
11.488341180000001,0,0x5D,0x03,Read,ACK
11.488363220000000,0,0x5D,0x20,Read,ACK
11.488384699999999,0,0x5D,0x13,Read,ACK
11.488406160000000,0,0x5D,0x22,Read,ACK
11.488427620000000,0,0x5D,0x0B,Read,ACK
11.488449060000001,0,0x5D,0xE4,Read,ACK
11.488470520000000,0,0x5D,0x07,Read,ACK
11.488492000000001,0,0x5D,0x03,Read,ACK
11.488513500000000,0,0x5D,0x04,Read,ACK
11.488534939999999,0,0x5D,0x20,Read,ACK
11.488556900000001,0,0x5D,0x00,Read,ACK
11.488578420000000,0,0x5D,0x00,Read,ACK
11.488599880000001,0,0x5D,0x00,Read,ACK
11.488621340000000,0,0x5D,0x00,Read,ACK
11.488642860000001,0,0x5D,0x00,Read,ACK
11.488664320000000,0,0x5D,0x00,Read,ACK
11.488685840000000,0,0x5D,0x00,Read,ACK
11.488707339999999,0,0x5D,0x00,Read,ACK
11.488728800000001,0,0x5D,0x00,Read,ACK
11.488750260000000,0,0x5D,0x00,Read,ACK
11.488771699999999,0,0x5D,0x00,Read,ACK
11.488793160000000,0,0x5D,0x00,Read,ACK
11.488814659999999,0,0x5D,0x00,Read,ACK
11.488836140000000,0,0x5D,0x00,Read,ACK
11.488857599999999,0,0x5D,0x00,Read,ACK
11.488879120000000,0,0x5D,0x00,Read,ACK
11.488900559999999,0,0x5D,0x00,Read,ACK
11.488922000000001,0,0x5D,0x00,Read,ACK
11.488943480000000,0,0x5D,0x00,Read,ACK
11.488965000000000,0,0x5D,0x00,Read,ACK
11.488986440000000,0,0x5D,0x00,Read,ACK
11.489007880000001,0,0x5D,0x00,Read,ACK
11.489029360000000,0,0x5D,0x00,Read,ACK
11.489050799999999,0,0x5D,0x00,Read,ACK
11.489072340000000,0,0x5D,0x26,Read,ACK
11.489093840000001,0,0x5D,0xC5,Read,ACK
11.489115280000000,0,0x5D,0x02,Read,ACK
11.489136739999999,0,0x5D,0x00,Read,ACK
11.489158200000000,0,0x5D,0x00,Read,ACK
11.489179820000000,0,0x5D,0x00,Read,ACK
11.489201300000000,0,0x5D,0x00,Read,ACK
11.489225160000000,0,0x5D,0x00,Read,ACK
11.489248460000001,0,0x5D,0x00,Read,ACK
11.489271000000000,0,0x5D,0x00,Read,ACK
11.489293440000001,0,0x5D,0x00,Read,ACK
11.489316280000001,0,0x5D,0x00,Read,ACK
11.489337980000000,0,0x5D,0x00,Read,ACK
11.489359739999999,0,0x5D,0x00,Read,ACK
11.489382000000001,0,0x5D,0x00,Read,ACK
11.489403640000001,0,0x5D,0x00,Read,ACK
11.489425860000001,0,0x5D,0x00,Read,ACK
11.489447360000000,0,0x5D,0x00,Read,ACK
11.489469300000000,0,0x5D,0x00,Read,ACK
11.489492400000000,0,0x5D,0x00,Read,ACK
11.489513920000000,0,0x5D,0x00,Read,NAK
11.495290400000000,0,0x5D,0x2F,Read,ACK
11.495315420000001,0,0x5D,0x00,Read,ACK
11.495338080000000,0,0x5D,0x04,Read,ACK
11.495360020000000,0,0x5D,0x03,Read,ACK
11.495381520000000,0,0x5D,0x4C,Read,ACK
11.495402960000000,0,0x5D,0x02,Read,ACK
11.495424420000001,0,0x5D,0x3D,Read,ACK
11.495445880000000,0,0x5D,0x02,Read,ACK
11.495467339999999,0,0x5D,0x03,Read,ACK
11.495488860000000,0,0x5D,0x03,Read,ACK
11.495510319999999,0,0x5D,0x20,Read,ACK
11.495531780000000,0,0x5D,0x13,Read,ACK
11.495553240000000,0,0x5D,0x13,Read,ACK
11.495574700000001,0,0x5D,0x0B,Read,ACK
11.495596539999999,0,0x5D,0xD9,Read,ACK
11.495619380000001,0,0x5D,0x07,Read,ACK
11.495640880000000,0,0x5D,0x02,Read,ACK
11.495662319999999,0,0x5D,0x04,Read,ACK
11.495683780000000,0,0x5D,0x20,Read,ACK
11.495705239999999,0,0x5D,0x00,Read,ACK
11.495726700000001,0,0x5D,0x00,Read,ACK
11.495748219999999,0,0x5D,0x00,Read,ACK
11.495770000000000,0,0x5D,0x00,Read,ACK
11.495791440000000,0,0x5D,0x00,Read,ACK
11.495812900000001,0,0x5D,0x00,Read,ACK
11.495834360000000,0,0x5D,0x00,Read,ACK
11.495855860000001,0,0x5D,0x00,Read,ACK
11.495877320000000,0,0x5D,0x00,Read,ACK
11.495898779999999,0,0x5D,0x00,Read,ACK
11.495920260000000,0,0x5D,0x00,Read,ACK
11.495941759999999,0,0x5D,0x00,Read,ACK
11.495963220000000,0,0x5D,0x00,Read,ACK
11.495984660000000,0,0x5D,0x00,Read,ACK
11.496006140000000,0,0x5D,0x00,Read,ACK
11.496027560000000,0,0x5D,0x00,Read,ACK
11.496049040000001,0,0x5D,0x00,Read,ACK
11.496070560000000,0,0x5D,0x00,Read,ACK
11.496092020000001,0,0x5D,0x00,Read,ACK
11.496113480000000,0,0x5D,0x00,Read,ACK
11.496135000000001,0,0x5D,0x00,Read,ACK
11.496156500000000,0,0x5D,0x00,Read,ACK
11.496177960000001,0,0x5D,0x00,Read,ACK
11.496199420000000,0,0x5D,0x00,Read,ACK
11.496220960000000,0,0x5D,0x6C,Read,ACK
11.496242499999999,0,0x5D,0xC5,Read,ACK
11.496263980000000,0,0x5D,0x02,Read,ACK
11.496285500000001,0,0x5D,0x00,Read,ACK
11.496307000000000,0,0x5D,0x00,Read,ACK
11.496328460000001,0,0x5D,0x00,Read,ACK
11.496349960000000,0,0x5D,0x00,Read,ACK
11.496374800000000,0,0x5D,0x00,Read,ACK
11.496396239999999,0,0x5D,0x00,Read,ACK
11.496417700000000,0,0x5D,0x00,Read,ACK
11.496439160000000,0,0x5D,0x00,Read,ACK
11.496460940000000,0,0x5D,0x00,Read,ACK
11.496483700000001,0,0x5D,0x00,Read,ACK
11.496506360000000,0,0x5D,0x00,Read,ACK
11.496528039999999,0,0x5D,0x00,Read,ACK
11.496549640000000,0,0x5D,0x00,Read,ACK
11.496571860000000,0,0x5D,0x00,Read,ACK
11.496593560000001,0,0x5D,0x00,Read,ACK
11.496615980000000,0,0x5D,0x00,Read,ACK
11.496639419999999,0,0x5D,0x00,Read,ACK
11.496660980000000,0,0x5D,0x00,Read,NAK
11.502198800000000,0,0x5D,0x2F,Read,ACK
11.502221759999999,0,0x5D,0x00,Read,ACK
11.502244200000000,0,0x5D,0x04,Read,ACK
11.502265680000001,0,0x5D,0x03,Read,ACK
11.502288900000000,0,0x5D,0x53,Read,ACK
11.502310420000001,0,0x5D,0x02,Read,ACK
11.502331900000000,0,0x5D,0x42,Read,ACK
11.502353380000001,0,0x5D,0x02,Read,ACK
11.502374880000000,0,0x5D,0x03,Read,ACK
11.502396360000001,0,0x5D,0x03,Read,ACK
11.502417860000000,0,0x5D,0x20,Read,ACK
11.502439300000001,0,0x5D,0x13,Read,ACK
11.502460760000000,0,0x5D,0x01,Read,ACK
11.502482420000000,0,0x5D,0x0B,Read,ACK
11.502503940000000,0,0x5D,0xCD,Read,ACK
11.502526919999999,0,0x5D,0x07,Read,ACK
11.502548460000000,0,0x5D,0x03,Read,ACK
11.502569919999999,0,0x5D,0x03,Read,ACK
11.502591400000000,0,0x5D,0x20,Read,ACK
11.502612900000001,0,0x5D,0x00,Read,ACK
11.502634400000000,0,0x5D,0x00,Read,ACK
11.502656760000001,0,0x5D,0x00,Read,ACK
11.502679880000001,0,0x5D,0x00,Read,ACK
11.502701340000000,0,0x5D,0x00,Read,ACK
11.502723820000000,0,0x5D,0x00,Read,ACK
11.502745340000001,0,0x5D,0x00,Read,ACK
11.502766840000000,0,0x5D,0x00,Read,ACK
11.502789119999999,0,0x5D,0x00,Read,ACK
11.502810640000000,0,0x5D,0x00,Read,ACK
11.502832140000001,0,0x5D,0x00,Read,ACK
11.502854760000000,0,0x5D,0x00,Read,ACK
11.502876219999999,0,0x5D,0x00,Read,ACK
11.502897680000000,0,0x5D,0x00,Read,ACK
11.502919139999999,0,0x5D,0x00,Read,ACK
11.502940600000001,0,0x5D,0x00,Read,ACK
11.502962040000000,0,0x5D,0x00,Read,ACK
11.502983520000001,0,0x5D,0x00,Read,ACK
11.503005020000000,0,0x5D,0x00,Read,ACK
11.503026480000001,0,0x5D,0x00,Read,ACK
11.503047920000000,0,0x5D,0x00,Read,ACK
11.503069379999999,0,0x5D,0x00,Read,ACK
11.503090840000000,0,0x5D,0x00,Read,ACK
11.503112300000000,0,0x5D,0x00,Read,ACK
11.503133740000001,0,0x5D,0xB2,Read,ACK
11.503155220000000,0,0x5D,0xC5,Read,ACK
11.503176679999999,0,0x5D,0x02,Read,ACK
11.503198200000000,0,0x5D,0x00,Read,ACK
11.503219700000001,0,0x5D,0x00,Read,ACK
11.503241140000000,0,0x5D,0x00,Read,ACK
11.503263040000000,0,0x5D,0x00,Read,ACK
11.503284499999999,0,0x5D,0x00,Read,ACK
11.503305960000000,0,0x5D,0x00,Read,ACK
11.503327400000000,0,0x5D,0x00,Read,ACK
11.503348859999999,0,0x5D,0x00,Read,ACK
11.503370300000000,0,0x5D,0x00,Read,ACK
11.503391760000000,0,0x5D,0x00,Read,ACK
11.503413220000001,0,0x5D,0x00,Read,ACK
11.503434680000000,0,0x5D,0x00,Read,ACK
11.503456140000001,0,0x5D,0x00,Read,ACK
11.503477600000000,0,0x5D,0x00,Read,ACK
11.503499059999999,0,0x5D,0x00,Read,ACK
11.503520560000000,0,0x5D,0x00,Read,ACK
11.503542019999999,0,0x5D,0x00,Read,ACK
11.503563480000000,0,0x5D,0x00,Read,NAK
11.509401660000000,0,0x5D,0x2F,Read,ACK
11.509426319999999,0,0x5D,0x00,Read,ACK
11.509447820000000,0,0x5D,0x04,Read,ACK
11.509469279999999,0,0x5D,0x03,Read,ACK
11.509490720000001,0,0x5D,0x5C,Read,ACK
11.509512180000000,0,0x5D,0x02,Read,ACK
11.509533640000001,0,0x5D,0x47,Read,ACK
11.509555160000000,0,0x5D,0x02,Read,ACK
11.509577000000000,0,0x5D,0x03,Read,ACK
11.509598479999999,0,0x5D,0x03,Read,ACK
11.509619940000000,0,0x5D,0x20,Read,ACK
11.509642500000000,0,0x5D,0x13,Read,ACK
11.509664320000001,0,0x5D,0xEB,Read,ACK
11.509688779999999,0,0x5D,0x0A,Read,ACK
11.509710240000000,0,0x5D,0xC3,Read,ACK
11.509731680000000,0,0x5D,0x07,Read,ACK
11.509753160000001,0,0x5D,0x03,Read,ACK
11.509774660000000,0,0x5D,0x03,Read,ACK
11.509797200000000,0,0x5D,0x20,Read,ACK
11.509819999999999,0,0x5D,0x00,Read,ACK
11.509841440000001,0,0x5D,0x00,Read,ACK
11.509862900000000,0,0x5D,0x00,Read,ACK
11.509884359999999,0,0x5D,0x00,Read,ACK
11.509906140000000,0,0x5D,0x00,Read,ACK
11.509927859999999,0,0x5D,0x00,Read,ACK
11.509949340000000,0,0x5D,0x00,Read,ACK
11.509970800000000,0,0x5D,0x00,Read,ACK
11.509992240000001,0,0x5D,0x00,Read,ACK
11.510013700000000,0,0x5D,0x00,Read,ACK
11.510035560000000,0,0x5D,0x00,Read,ACK
11.510057460000001,0,0x5D,0x00,Read,ACK
11.510078920000000,0,0x5D,0x00,Read,ACK
11.510100380000001,0,0x5D,0x00,Read,ACK
11.510121820000000,0,0x5D,0x00,Read,ACK
11.510143279999999,0,0x5D,0x00,Read,ACK
11.510164740000000,0,0x5D,0x00,Read,ACK
11.510186340000001,0,0x5D,0x00,Read,ACK
11.510207840000000,0,0x5D,0x00,Read,ACK
11.510229340000000,0,0x5D,0x00,Read,ACK
11.510250800000000,0,0x5D,0x00,Read,ACK
11.510272240000001,0,0x5D,0x00,Read,ACK
11.510293720000000,0,0x5D,0x00,Read,ACK
11.510315220000001,0,0x5D,0x00,Read,ACK
11.510336680000000,0,0x5D,0xF8,Read,ACK
11.510358119999999,0,0x5D,0xC5,Read,ACK
11.510379560000001,0,0x5D,0x02,Read,ACK
11.510401020000000,0,0x5D,0x00,Read,ACK
11.510422640000000,0,0x5D,0x00,Read,ACK
11.510444120000001,0,0x5D,0x00,Read,ACK
11.510465600000000,0,0x5D,0x00,Read,ACK
11.510487080000001,0,0x5D,0x00,Read,ACK
11.510508620000000,0,0x5D,0x00,Read,ACK
11.510530120000000,0,0x5D,0x00,Read,ACK
11.510551760000000,0,0x5D,0x00,Read,ACK
11.510573259999999,0,0x5D,0x00,Read,ACK
11.510594720000000,0,0x5D,0x00,Read,ACK
11.510616180000000,0,0x5D,0x00,Read,ACK
11.510637680000000,0,0x5D,0x00,Read,ACK
11.510659140000000,0,0x5D,0x00,Read,ACK
11.510681600000000,0,0x5D,0x00,Read,ACK
11.510703100000001,0,0x5D,0x00,Read,ACK
11.510724560000000,0,0x5D,0x00,Read,ACK
11.510746180000000,0,0x5D,0x00,Read,ACK
11.510767780000000,0,0x5D,0x00,Read,NAK
11.516634040000000,0,0x5D,0x2F,Read,ACK
11.516656720000000,0,0x5D,0x00,Read,ACK
11.516678219999999,0,0x5D,0x04,Read,ACK
11.516699680000000,0,0x5D,0x03,Read,ACK
11.516722560000000,0,0x5D,0x66,Read,ACK
11.516744240000000,0,0x5D,0x02,Read,ACK
11.516767620000000,0,0x5D,0x4C,Read,ACK
11.516789160000000,0,0x5D,0x02,Read,ACK
11.516810639999999,0,0x5D,0x03,Read,ACK
11.516832080000000,0,0x5D,0x03,Read,ACK
11.516853540000000,0,0x5D,0x20,Read,ACK
11.516875020000001,0,0x5D,0x13,Read,ACK
11.516896520000000,0,0x5D,0xD5,Read,ACK
11.516918739999999,0,0x5D,0x0A,Read,ACK
11.516941599999999,0,0x5D,0xB7,Read,ACK
11.516963100000000,0,0x5D,0x07,Read,ACK
11.516984580000001,0,0x5D,0x03,Read,ACK
11.517006040000000,0,0x5D,0x04,Read,ACK
11.517027519999999,0,0x5D,0x20,Read,ACK
11.517049000000000,0,0x5D,0x00,Read,ACK
11.517070960000000,0,0x5D,0x00,Read,ACK
11.517092620000000,0,0x5D,0x00,Read,ACK
11.517114120000000,0,0x5D,0x00,Read,ACK
11.517136760000000,0,0x5D,0x00,Read,ACK
11.517158780000001,0,0x5D,0x00,Read,ACK
11.517180240000000,0,0x5D,0x00,Read,ACK
11.517201679999999,0,0x5D,0x00,Read,ACK
11.517223140000000,0,0x5D,0x00,Read,ACK
11.517244600000000,0,0x5D,0x00,Read,ACK
11.517266040000001,0,0x5D,0x00,Read,ACK
11.517287520000000,0,0x5D,0x00,Read,ACK
11.517309020000001,0,0x5D,0x00,Read,ACK
11.517330480000000,0,0x5D,0x00,Read,ACK
11.517351939999999,0,0x5D,0x00,Read,ACK
11.517373620000001,0,0x5D,0x00,Read,ACK
11.517395100000000,0,0x5D,0x00,Read,ACK
11.517416600000001,0,0x5D,0x00,Read,ACK
11.517438060000000,0,0x5D,0x00,Read,ACK
11.517459519999999,0,0x5D,0x00,Read,ACK
11.517480980000000,0,0x5D,0x00,Read,ACK
11.517502500000001,0,0x5D,0x00,Read,ACK
11.517524000000000,0,0x5D,0x00,Read,ACK
11.517545480000001,0,0x5D,0x00,Read,ACK
11.517566980000000,0,0x5D,0x3E,Read,ACK
11.517588440000001,0,0x5D,0xC6,Read,ACK
11.517609900000000,0,0x5D,0x02,Read,ACK
11.517631420000001,0,0x5D,0x00,Read,ACK
11.517652880000000,0,0x5D,0x00,Read,ACK
11.517674380000001,0,0x5D,0x00,Read,ACK
11.517695840000000,0,0x5D,0x00,Read,ACK
11.517717299999999,0,0x5D,0x00,Read,ACK
11.517740180000001,0,0x5D,0x00,Read,ACK
11.517761640000000,0,0x5D,0x00,Read,ACK
11.517784480000000,0,0x5D,0x00,Read,ACK
11.517806600000000,0,0x5D,0x00,Read,ACK
11.517828059999999,0,0x5D,0x00,Read,ACK
11.517849560000000,0,0x5D,0x00,Read,ACK
11.517871039999999,0,0x5D,0x00,Read,ACK
11.517892480000000,0,0x5D,0x00,Read,ACK
11.517913940000000,0,0x5D,0x00,Read,ACK
11.517935400000001,0,0x5D,0x00,Read,ACK
11.517956840000000,0,0x5D,0x00,Read,ACK
11.517979540000001,0,0x5D,0x00,Read,ACK
11.518001040000000,0,0x5D,0x00,Read,NAK
11.523719540000000,0,0x5D,0x2F,Read,ACK
11.523744499999999,0,0x5D,0x00,Read,ACK
11.523765960000000,0,0x5D,0x04,Read,ACK
11.523787400000000,0,0x5D,0x03,Read,ACK
11.523808860000001,0,0x5D,0x71,Read,ACK
11.523830320000000,0,0x5D,0x02,Read,ACK
11.523851779999999,0,0x5D,0x51,Read,ACK
11.523873979999999,0,0x5D,0x02,Read,ACK
11.523895500000000,0,0x5D,0x03,Read,ACK
11.523918399999999,0,0x5D,0x03,Read,ACK
11.523939900000000,0,0x5D,0x20,Read,ACK
11.523961379999999,0,0x5D,0x13,Read,ACK
11.523982860000000,0,0x5D,0xBE,Read,ACK
11.524004320000000,0,0x5D,0x0A,Read,ACK
11.524025780000001,0,0x5D,0xAA,Read,ACK
11.524047220000000,0,0x5D,0x07,Read,ACK
11.524069160000000,0,0x5D,0x03,Read,ACK
11.524090640000001,0,0x5D,0x03,Read,ACK
11.524112100000000,0,0x5D,0x20,Read,ACK
11.524133559999999,0,0x5D,0x00,Read,ACK
11.524155000000000,0,0x5D,0x00,Read,ACK
11.524176480000000,0,0x5D,0x00,Read,ACK
11.524197960000000,0,0x5D,0x00,Read,ACK
11.524220420000001,0,0x5D,0x00,Read,ACK
11.524241900000000,0,0x5D,0x00,Read,ACK
11.524263339999999,0,0x5D,0x00,Read,ACK
11.524284800000000,0,0x5D,0x00,Read,ACK
11.524306259999999,0,0x5D,0x00,Read,ACK
11.524327840000000,0,0x5D,0x00,Read,ACK
11.524349300000001,0,0x5D,0x00,Read,ACK
11.524370740000000,0,0x5D,0x00,Read,ACK
11.524392199999999,0,0x5D,0x00,Read,ACK
11.524413660000000,0,0x5D,0x00,Read,ACK
11.524435120000000,0,0x5D,0x00,Read,ACK
11.524456720000000,0,0x5D,0x00,Read,ACK
11.524478200000001,0,0x5D,0x00,Read,ACK
11.524499660000000,0,0x5D,0x00,Read,ACK
11.524521119999999,0,0x5D,0x00,Read,ACK
11.524542580000000,0,0x5D,0x00,Read,ACK
11.524564020000000,0,0x5D,0x00,Read,ACK
11.524585500000001,0,0x5D,0x00,Read,ACK
11.524607000000000,0,0x5D,0x00,Read,ACK
11.524628460000001,0,0x5D,0x00,Read,ACK
11.524649900000000,0,0x5D,0x84,Read,ACK
11.524671379999999,0,0x5D,0xC6,Read,ACK
11.524692880000000,0,0x5D,0x02,Read,ACK
11.524714339999999,0,0x5D,0x00,Read,ACK
11.524735800000000,0,0x5D,0x00,Read,ACK
11.524757240000000,0,0x5D,0x00,Read,ACK
11.524778700000001,0,0x5D,0x00,Read,ACK
11.524800160000000,0,0x5D,0x00,Read,ACK
11.524821800000000,0,0x5D,0x00,Read,ACK
11.524843260000001,0,0x5D,0x00,Read,ACK
11.524864720000000,0,0x5D,0x00,Read,ACK
11.524886179999999,0,0x5D,0x00,Read,ACK
11.524907620000000,0,0x5D,0x00,Read,ACK
11.524929260000000,0,0x5D,0x00,Read,ACK
11.524950880000000,0,0x5D,0x00,Read,ACK
11.524973060000001,0,0x5D,0x00,Read,ACK
11.524994560000000,0,0x5D,0x00,Read,ACK
11.525017320000000,0,0x5D,0x00,Read,ACK
11.525038800000001,0,0x5D,0x00,Read,ACK
11.525060300000000,0,0x5D,0x00,Read,ACK
11.525081820000000,0,0x5D,0x00,Read,NAK
11.531225140000000,0,0x5D,0x2F,Read,ACK
11.531250099999999,0,0x5D,0x00,Read,ACK
11.531272660000001,0,0x5D,0x04,Read,ACK
11.531294140000000,0,0x5D,0x03,Read,ACK
11.531315599999999,0,0x5D,0x7B,Read,ACK
11.531337100000000,0,0x5D,0x02,Read,ACK
11.531358559999999,0,0x5D,0x57,Read,ACK
11.531380120000000,0,0x5D,0x02,Read,ACK
11.531401740000000,0,0x5D,0x03,Read,ACK
11.531423739999999,0,0x5D,0x03,Read,ACK
11.531446640000000,0,0x5D,0x20,Read,ACK
11.531468459999999,0,0x5D,0x13,Read,ACK
11.531489900000000,0,0x5D,0xAA,Read,ACK
11.531511380000000,0,0x5D,0x0A,Read,ACK
11.531532880000000,0,0x5D,0x9A,Read,ACK
11.531554359999999,0,0x5D,0x07,Read,ACK
11.531575880000000,0,0x5D,0x02,Read,ACK
11.531597560000000,0,0x5D,0x03,Read,ACK
11.531619020000001,0,0x5D,0x20,Read,ACK
11.531640460000000,0,0x5D,0x00,Read,ACK
11.531661919999999,0,0x5D,0x00,Read,ACK
11.531683380000000,0,0x5D,0x00,Read,ACK
11.531704840000000,0,0x5D,0x00,Read,ACK
11.531726300000001,0,0x5D,0x00,Read,ACK
11.531747740000000,0,0x5D,0x00,Read,ACK
11.531769199999999,0,0x5D,0x00,Read,ACK
11.531790660000000,0,0x5D,0x00,Read,ACK
11.531812140000000,0,0x5D,0x00,Read,ACK
11.531833640000000,0,0x5D,0x00,Read,ACK
11.531855080000000,0,0x5D,0x00,Read,ACK
11.531876540000001,0,0x5D,0x00,Read,ACK
11.531898040000000,0,0x5D,0x00,Read,ACK
11.531919560000000,0,0x5D,0x00,Read,ACK
11.531941040000000,0,0x5D,0x00,Read,ACK
11.531962500000001,0,0x5D,0x00,Read,ACK
11.531983940000000,0,0x5D,0x00,Read,ACK
11.532005399999999,0,0x5D,0x00,Read,ACK
11.532028280000000,0,0x5D,0x00,Read,ACK
11.532049740000000,0,0x5D,0x00,Read,ACK
11.532071200000001,0,0x5D,0x00,Read,ACK
11.532092799999999,0,0x5D,0x00,Read,ACK
11.532114679999999,0,0x5D,0x00,Read,ACK
11.532136140000000,0,0x5D,0x00,Read,ACK
11.532158380000000,0,0x5D,0xCA,Read,ACK
11.532179840000000,0,0x5D,0xC6,Read,ACK
11.532201320000000,0,0x5D,0x02,Read,ACK
11.532222760000000,0,0x5D,0x00,Read,ACK
11.532244320000000,0,0x5D,0x00,Read,ACK
11.532265819999999,0,0x5D,0x00,Read,ACK
11.532287320000000,0,0x5D,0x00,Read,ACK
11.532309200000000,0,0x5D,0x00,Read,ACK
11.532331180000000,0,0x5D,0x00,Read,ACK
11.532353759999999,0,0x5D,0x00,Read,ACK
11.532377479999999,0,0x5D,0x00,Read,ACK
11.532398960000000,0,0x5D,0x00,Read,ACK
11.532420399999999,0,0x5D,0x00,Read,ACK
11.532441880000000,0,0x5D,0x00,Read,ACK
11.532464600000001,0,0x5D,0x00,Read,ACK
11.532486260000001,0,0x5D,0x00,Read,ACK
11.532508079999999,0,0x5D,0x00,Read,ACK
11.532529560000000,0,0x5D,0x00,Read,ACK
11.532551020000000,0,0x5D,0x00,Read,ACK
11.532572520000000,0,0x5D,0x00,Read,ACK
11.532594059999999,0,0x5D,0x00,Read,NAK
11.537987279999999,0,0x5D,0x2F,Read,ACK
11.538010480000001,0,0x5D,0x00,Read,ACK
11.538031960000000,0,0x5D,0x04,Read,ACK
11.538053440000001,0,0x5D,0x03,Read,ACK
11.538074920000000,0,0x5D,0x86,Read,ACK
11.538096360000001,0,0x5D,0x02,Read,ACK
11.538117820000000,0,0x5D,0x5D,Read,ACK
11.538139279999999,0,0x5D,0x02,Read,ACK
11.538160740000000,0,0x5D,0x03,Read,ACK
11.538182380000000,0,0x5D,0x03,Read,ACK
11.538204240000001,0,0x5D,0x20,Read,ACK
11.538228360000000,0,0x5D,0x13,Read,ACK
11.538251780000000,0,0x5D,0x98,Read,ACK
11.538273240000001,0,0x5D,0x0A,Read,ACK
11.538294700000000,0,0x5D,0x8B,Read,ACK
11.538316160000001,0,0x5D,0x07,Read,ACK
11.538337620000000,0,0x5D,0x02,Read,ACK
11.538360580000001,0,0x5D,0x03,Read,ACK
11.538382080000000,0,0x5D,0x20,Read,ACK
11.538403519999999,0,0x5D,0x00,Read,ACK
11.538425000000000,0,0x5D,0x00,Read,ACK
11.538446520000001,0,0x5D,0x00,Read,ACK
11.538469640000001,0,0x5D,0x00,Read,ACK
11.538491179999999,0,0x5D,0x00,Read,ACK
11.538512680000000,0,0x5D,0x00,Read,ACK
11.538534540000001,0,0x5D,0x00,Read,ACK
11.538556020000000,0,0x5D,0x00,Read,ACK
11.538577480000001,0,0x5D,0x00,Read,ACK
11.538599079999999,0,0x5D,0x00,Read,ACK
11.538620820000000,0,0x5D,0x00,Read,ACK
11.538642299999999,0,0x5D,0x00,Read,ACK
11.538663800000000,0,0x5D,0x00,Read,ACK
11.538685259999999,0,0x5D,0x00,Read,ACK
11.538706720000000,0,0x5D,0x00,Read,ACK
11.538728219999999,0,0x5D,0x00,Read,ACK
11.538749800000000,0,0x5D,0x00,Read,ACK
11.538771260000001,0,0x5D,0x00,Read,ACK
11.538792720000000,0,0x5D,0x00,Read,ACK
11.538814179999999,0,0x5D,0x00,Read,ACK
11.538835640000000,0,0x5D,0x00,Read,ACK
11.538857119999999,0,0x5D,0x00,Read,ACK
11.538878600000000,0,0x5D,0x00,Read,ACK
11.538900060000000,0,0x5D,0x00,Read,ACK
11.538921520000001,0,0x5D,0x10,Read,ACK
11.538943400000001,0,0x5D,0xC7,Read,ACK
11.538964860000000,0,0x5D,0x02,Read,ACK
11.538986319999999,0,0x5D,0x00,Read,ACK
11.539007780000000,0,0x5D,0x00,Read,ACK
11.539029220000000,0,0x5D,0x00,Read,ACK
11.539050680000001,0,0x5D,0x00,Read,ACK
11.539072140000000,0,0x5D,0x00,Read,ACK
11.539093599999999,0,0x5D,0x00,Read,ACK
11.539115060000000,0,0x5D,0x00,Read,ACK
11.539136500000000,0,0x5D,0x00,Read,ACK
11.539157960000001,0,0x5D,0x00,Read,ACK
11.539179440000000,0,0x5D,0x00,Read,ACK
11.539200940000001,0,0x5D,0x00,Read,ACK
11.539222479999999,0,0x5D,0x00,Read,ACK
11.539247740000000,0,0x5D,0x00,Read,ACK
11.539270580000000,0,0x5D,0x00,Read,ACK
11.539292059999999,0,0x5D,0x00,Read,ACK
11.539314140000000,0,0x5D,0x00,Read,ACK
11.539335940000001,0,0x5D,0x00,Read,ACK
11.539357420000000,0,0x5D,0x00,Read,NAK
11.545142999999999,0,0x5D,0x2F,Read,ACK
11.545165740000000,0,0x5D,0x00,Read,ACK
11.545187200000001,0,0x5D,0x04,Read,ACK
11.545208660000000,0,0x5D,0x03,Read,ACK
11.545230159999999,0,0x5D,0x91,Read,ACK
11.545251640000000,0,0x5D,0x02,Read,ACK
11.545273099999999,0,0x5D,0x63,Read,ACK
11.545294540000000,0,0x5D,0x02,Read,ACK
11.545316000000000,0,0x5D,0x03,Read,ACK
11.545339000000000,0,0x5D,0x03,Read,ACK
11.545360900000000,0,0x5D,0x20,Read,ACK
11.545382600000000,0,0x5D,0x13,Read,ACK
11.545405960000000,0,0x5D,0x88,Read,ACK
11.545427460000001,0,0x5D,0x0A,Read,ACK
11.545448940000000,0,0x5D,0x7D,Read,ACK
11.545470440000001,0,0x5D,0x07,Read,ACK
11.545493080000000,0,0x5D,0x02,Read,ACK
11.545515560000000,0,0x5D,0x04,Read,ACK
11.545537059999999,0,0x5D,0x20,Read,ACK
11.545558580000000,0,0x5D,0x00,Read,ACK
11.545580080000001,0,0x5D,0x00,Read,ACK
11.545602040000000,0,0x5D,0x00,Read,ACK
11.545624260000000,0,0x5D,0x00,Read,ACK
11.545645779999999,0,0x5D,0x00,Read,ACK
11.545667440000001,0,0x5D,0x00,Read,ACK
11.545688920000000,0,0x5D,0x00,Read,ACK
11.545710379999999,0,0x5D,0x00,Read,ACK
11.545732500000000,0,0x5D,0x00,Read,ACK
11.545753980000001,0,0x5D,0x00,Read,ACK
11.545775420000000,0,0x5D,0x00,Read,ACK
11.545799620000000,0,0x5D,0x00,Read,ACK
11.545821560000000,0,0x5D,0x00,Read,ACK
11.545843059999999,0,0x5D,0x00,Read,ACK
11.545864720000001,0,0x5D,0x00,Read,ACK
11.545886200000000,0,0x5D,0x00,Read,ACK
11.545907659999999,0,0x5D,0x00,Read,ACK
11.545929100000000,0,0x5D,0x00,Read,ACK
11.545950540000000,0,0x5D,0x00,Read,ACK
11.545972000000001,0,0x5D,0x00,Read,ACK
11.545993460000000,0,0x5D,0x00,Read,ACK
11.546014919999999,0,0x5D,0x00,Read,ACK
11.546036400000000,0,0x5D,0x00,Read,ACK
11.546057920000001,0,0x5D,0x00,Read,ACK
11.546079400000000,0,0x5D,0x56,Read,ACK
11.546100859999999,0,0x5D,0xC7,Read,ACK
11.546122300000000,0,0x5D,0x02,Read,ACK
11.546143760000000,0,0x5D,0x00,Read,ACK
11.546165200000001,0,0x5D,0x00,Read,ACK
11.546186680000000,0,0x5D,0x00,Read,ACK
11.546208139999999,0,0x5D,0x00,Read,ACK
11.546229640000000,0,0x5D,0x00,Read,ACK
11.546251099999999,0,0x5D,0x00,Read,ACK
11.546272560000000,0,0x5D,0x00,Read,ACK
11.546294000000000,0,0x5D,0x00,Read,ACK
11.546315699999999,0,0x5D,0x00,Read,ACK
11.546337160000000,0,0x5D,0x00,Read,ACK
11.546358619999999,0,0x5D,0x00,Read,ACK
11.546380080000000,0,0x5D,0x00,Read,ACK
11.546404600000001,0,0x5D,0x00,Read,ACK
11.546426139999999,0,0x5D,0x00,Read,ACK
11.546449460000000,0,0x5D,0x00,Read,ACK
11.546472840000000,0,0x5D,0x00,Read,ACK
11.546494720000000,0,0x5D,0x00,Read,ACK
11.546516420000000,0,0x5D,0x00,Read,NAK
11.552206000000000,0,0x5D,0x2F,Read,ACK
11.552231500000000,0,0x5D,0x00,Read,ACK
11.552253159999999,0,0x5D,0x04,Read,ACK
11.552275420000001,0,0x5D,0x03,Read,ACK
11.552296900000000,0,0x5D,0x9C,Read,ACK
11.552318359999999,0,0x5D,0x02,Read,ACK
11.552339840000000,0,0x5D,0x6B,Read,ACK
11.552361319999999,0,0x5D,0x02,Read,ACK
11.552382800000000,0,0x5D,0x03,Read,ACK
11.552404299999999,0,0x5D,0x03,Read,ACK
11.552425760000000,0,0x5D,0x20,Read,ACK
11.552447219999999,0,0x5D,0x13,Read,ACK
11.552469860000000,0,0x5D,0x7A,Read,ACK
11.552491320000000,0,0x5D,0x0A,Read,ACK
11.552512979999999,0,0x5D,0x6E,Read,ACK
11.552534480000000,0,0x5D,0x07,Read,ACK
11.552555979999999,0,0x5D,0x02,Read,ACK
11.552577480000000,0,0x5D,0x03,Read,ACK
11.552598980000001,0,0x5D,0x20,Read,ACK
11.552620440000000,0,0x5D,0x00,Read,ACK
11.552641960000001,0,0x5D,0x00,Read,ACK
11.552664540000000,0,0x5D,0x00,Read,ACK
11.552686000000000,0,0x5D,0x00,Read,ACK
11.552707500000000,0,0x5D,0x00,Read,ACK
11.552728960000000,0,0x5D,0x00,Read,ACK
11.552751720000000,0,0x5D,0x00,Read,ACK
11.552773759999999,0,0x5D,0x00,Read,ACK
11.552795280000000,0,0x5D,0x00,Read,ACK
11.552816900000000,0,0x5D,0x00,Read,ACK
11.552838360000001,0,0x5D,0x00,Read,ACK
11.552859820000000,0,0x5D,0x00,Read,ACK
11.552881940000001,0,0x5D,0x00,Read,ACK
11.552904480000000,0,0x5D,0x00,Read,ACK
11.552925960000000,0,0x5D,0x00,Read,ACK
11.552950020000001,0,0x5D,0x00,Read,ACK
11.552972179999999,0,0x5D,0x00,Read,ACK
11.552993660000000,0,0x5D,0x00,Read,ACK
11.553015159999999,0,0x5D,0x00,Read,ACK
11.553036620000000,0,0x5D,0x00,Read,ACK
11.553058080000000,0,0x5D,0x00,Read,ACK
11.553079520000001,0,0x5D,0x00,Read,ACK
11.553101000000000,0,0x5D,0x00,Read,ACK
11.553122500000001,0,0x5D,0x00,Read,ACK
11.553143980000000,0,0x5D,0x9C,Read,ACK
11.553165419999999,0,0x5D,0xC7,Read,ACK
11.553186880000000,0,0x5D,0x02,Read,ACK
11.553208379999999,0,0x5D,0x00,Read,ACK
11.553229840000000,0,0x5D,0x00,Read,ACK
11.553251319999999,0,0x5D,0x00,Read,ACK
11.553272820000000,0,0x5D,0x00,Read,ACK
11.553294579999999,0,0x5D,0x00,Read,ACK
11.553316199999999,0,0x5D,0x00,Read,ACK
11.553337700000000,0,0x5D,0x00,Read,ACK
11.553359199999999,0,0x5D,0x00,Read,ACK
11.553380640000000,0,0x5D,0x00,Read,ACK
11.553402320000000,0,0x5D,0x00,Read,ACK
11.553423799999999,0,0x5D,0x00,Read,ACK
11.553445260000000,0,0x5D,0x00,Read,ACK
11.553467740000000,0,0x5D,0x00,Read,ACK
11.553490979999999,0,0x5D,0x00,Read,ACK
11.553512420000001,0,0x5D,0x00,Read,ACK
11.553534620000001,0,0x5D,0x00,Read,ACK
11.553556400000000,0,0x5D,0x00,Read,ACK
11.553577860000001,0,0x5D,0x00,Read,NAK
11.559347880000001,0,0x5D,0x2F,Read,ACK
11.559373140000000,0,0x5D,0x00,Read,ACK
11.559394620000001,0,0x5D,0x04,Read,ACK
11.559417240000000,0,0x5D,0x03,Read,ACK
11.559438739999999,0,0x5D,0xA7,Read,ACK
11.559460220000000,0,0x5D,0x02,Read,ACK
11.559481679999999,0,0x5D,0x75,Read,ACK
11.559503140000000,0,0x5D,0x02,Read,ACK
11.559524619999999,0,0x5D,0x03,Read,ACK
11.559546060000001,0,0x5D,0x02,Read,ACK
11.559567520000000,0,0x5D,0x20,Read,ACK
11.559588979999999,0,0x5D,0x13,Read,ACK
11.559612520000000,0,0x5D,0x6D,Read,ACK
11.559634040000001,0,0x5D,0x0A,Read,ACK
11.559656040000000,0,0x5D,0x5E,Read,ACK
11.559677660000000,0,0x5D,0x07,Read,ACK
11.559699119999999,0,0x5D,0x03,Read,ACK
11.559720600000000,0,0x5D,0x03,Read,ACK
11.559742099999999,0,0x5D,0x20,Read,ACK
11.559763540000001,0,0x5D,0x00,Read,ACK
11.559785000000000,0,0x5D,0x00,Read,ACK
11.559806880000000,0,0x5D,0x00,Read,ACK
11.559828740000000,0,0x5D,0x00,Read,ACK
11.559851340000000,0,0x5D,0x00,Read,ACK
11.559872840000001,0,0x5D,0x00,Read,ACK
11.559895259999999,0,0x5D,0x00,Read,ACK
11.559917900000000,0,0x5D,0x00,Read,ACK
11.559939379999999,0,0x5D,0x00,Read,ACK
11.559960900000000,0,0x5D,0x00,Read,ACK
11.559982679999999,0,0x5D,0x00,Read,ACK
11.560004180000000,0,0x5D,0x00,Read,ACK
11.560026239999999,0,0x5D,0x00,Read,ACK
11.560048600000000,0,0x5D,0x00,Read,ACK
11.560070100000001,0,0x5D,0x00,Read,ACK
11.560091540000000,0,0x5D,0x00,Read,ACK
11.560112999999999,0,0x5D,0x00,Read,ACK
11.560134460000000,0,0x5D,0x00,Read,ACK
11.560155920000000,0,0x5D,0x00,Read,ACK
11.560177380000001,0,0x5D,0x00,Read,ACK
11.560198840000000,0,0x5D,0x00,Read,ACK
11.560220279999999,0,0x5D,0x00,Read,ACK
11.560241740000000,0,0x5D,0x00,Read,ACK
11.560263200000000,0,0x5D,0x00,Read,ACK
11.560284680000001,0,0x5D,0xE2,Read,ACK
11.560306160000000,0,0x5D,0xC7,Read,ACK
11.560327640000001,0,0x5D,0x02,Read,ACK
11.560349520000001,0,0x5D,0x00,Read,ACK
11.560371079999999,0,0x5D,0x00,Read,ACK
11.560392560000000,0,0x5D,0x00,Read,ACK
11.560414020000000,0,0x5D,0x00,Read,ACK
11.560435480000001,0,0x5D,0x00,Read,ACK
11.560457140000000,0,0x5D,0x00,Read,ACK
11.560478639999999,0,0x5D,0x00,Read,ACK
11.560500080000001,0,0x5D,0x00,Read,ACK
11.560521560000000,0,0x5D,0x00,Read,ACK
11.560543060000001,0,0x5D,0x00,Read,ACK
11.560564520000000,0,0x5D,0x00,Read,ACK
11.560585980000001,0,0x5D,0x00,Read,ACK
11.560607420000000,0,0x5D,0x00,Read,ACK
11.560628899999999,0,0x5D,0x00,Read,ACK
11.560652080000001,0,0x5D,0x00,Read,ACK
11.560673540000000,0,0x5D,0x00,Read,ACK
11.560695000000001,0,0x5D,0x00,Read,ACK
11.560716460000000,0,0x5D,0x00,Read,NAK
11.566608799999999,0,0x5D,0x2F,Read,ACK
11.566632040000000,0,0x5D,0x00,Read,ACK
11.566653499999999,0,0x5D,0x04,Read,ACK
11.566674960000000,0,0x5D,0x03,Read,ACK
11.566696420000000,0,0x5D,0xB4,Read,ACK
11.566717960000000,0,0x5D,0x02,Read,ACK
11.566740180000000,0,0x5D,0x81,Read,ACK
11.566765040000000,0,0x5D,0x02,Read,ACK
11.566786540000001,0,0x5D,0x03,Read,ACK
11.566808000000000,0,0x5D,0x02,Read,ACK
11.566829500000001,0,0x5D,0x20,Read,ACK
11.566850980000000,0,0x5D,0x13,Read,ACK
11.566872480000001,0,0x5D,0x60,Read,ACK
11.566893940000000,0,0x5D,0x0A,Read,ACK
11.566916220000000,0,0x5D,0x4E,Read,ACK
11.566937920000001,0,0x5D,0x07,Read,ACK
11.566959440000000,0,0x5D,0x03,Read,ACK
11.566980980000000,0,0x5D,0x04,Read,ACK
11.567002440000000,0,0x5D,0x20,Read,ACK
11.567024139999999,0,0x5D,0x00,Read,ACK
11.567045620000000,0,0x5D,0x00,Read,ACK
11.567067079999999,0,0x5D,0x00,Read,ACK
11.567088520000000,0,0x5D,0x00,Read,ACK
11.567109980000000,0,0x5D,0x00,Read,ACK
11.567131460000001,0,0x5D,0x00,Read,ACK
11.567152960000000,0,0x5D,0x00,Read,ACK
11.567174639999999,0,0x5D,0x00,Read,ACK
11.567196259999999,0,0x5D,0x00,Read,ACK
11.567217780000000,0,0x5D,0x00,Read,ACK
11.567239300000001,0,0x5D,0x00,Read,ACK
11.567260800000000,0,0x5D,0x00,Read,ACK
11.567282260000001,0,0x5D,0x00,Read,ACK
11.567303700000000,0,0x5D,0x00,Read,ACK
11.567325179999999,0,0x5D,0x00,Read,ACK
11.567346680000000,0,0x5D,0x00,Read,ACK
11.567368139999999,0,0x5D,0x00,Read,ACK
11.567389600000000,0,0x5D,0x00,Read,ACK
11.567411040000000,0,0x5D,0x00,Read,ACK
11.567432500000001,0,0x5D,0x00,Read,ACK
11.567455280000001,0,0x5D,0x00,Read,ACK
11.567476780000000,0,0x5D,0x00,Read,ACK
11.567498240000001,0,0x5D,0x00,Read,ACK
11.567519760000000,0,0x5D,0x00,Read,ACK
11.567541220000001,0,0x5D,0x28,Read,ACK
11.567562720000000,0,0x5D,0xC8,Read,ACK
11.567584180000001,0,0x5D,0x02,Read,ACK
11.567605700000000,0,0x5D,0x00,Read,ACK
11.567627160000001,0,0x5D,0x00,Read,ACK
11.567648620000000,0,0x5D,0x00,Read,ACK
11.567670079999999,0,0x5D,0x00,Read,ACK
11.567691520000000,0,0x5D,0x00,Read,ACK
11.567714360000000,0,0x5D,0x00,Read,ACK
11.567738620000000,0,0x5D,0x00,Read,ACK
11.567760059999999,0,0x5D,0x00,Read,ACK
11.567781760000001,0,0x5D,0x00,Read,ACK
11.567803520000000,0,0x5D,0x00,Read,ACK
11.567824999999999,0,0x5D,0x00,Read,ACK
11.567846500000000,0,0x5D,0x00,Read,ACK
11.567867959999999,0,0x5D,0x00,Read,ACK
11.567889420000000,0,0x5D,0x00,Read,ACK
11.567910879999999,0,0x5D,0x00,Read,ACK
11.567932320000001,0,0x5D,0x00,Read,ACK
11.567954479999999,0,0x5D,0x00,Read,ACK
11.567975920000000,0,0x5D,0x00,Read,NAK
11.573714980000000,0,0x5D,0x2F,Read,ACK
11.573739460000001,0,0x5D,0x00,Read,ACK
11.573760900000000,0,0x5D,0x04,Read,ACK
11.573782380000001,0,0x5D,0x03,Read,ACK
11.573804320000001,0,0x5D,0xC0,Read,ACK
11.573825800000000,0,0x5D,0x02,Read,ACK
11.573847300000001,0,0x5D,0x8C,Read,ACK
11.573868859999999,0,0x5D,0x02,Read,ACK
11.573891160000001,0,0x5D,0x03,Read,ACK
11.573915639999999,0,0x5D,0x03,Read,ACK
11.573937120000000,0,0x5D,0x20,Read,ACK
11.573958579999999,0,0x5D,0x13,Read,ACK
11.573980040000000,0,0x5D,0x51,Read,ACK
11.574001500000000,0,0x5D,0x0A,Read,ACK
11.574022940000001,0,0x5D,0x3D,Read,ACK
11.574044400000000,0,0x5D,0x07,Read,ACK
11.574067560000000,0,0x5D,0x03,Read,ACK
11.574089060000000,0,0x5D,0x03,Read,ACK
11.574110520000000,0,0x5D,0x20,Read,ACK
11.574131960000001,0,0x5D,0x00,Read,ACK
11.574153420000000,0,0x5D,0x00,Read,ACK
11.574174879999999,0,0x5D,0x00,Read,ACK
11.574196340000000,0,0x5D,0x00,Read,ACK
11.574217859999999,0,0x5D,0x00,Read,ACK
11.574239479999999,0,0x5D,0x00,Read,ACK
11.574261160000001,0,0x5D,0x00,Read,ACK
11.574282660000000,0,0x5D,0x00,Read,ACK
11.574304120000001,0,0x5D,0x00,Read,ACK
11.574325580000000,0,0x5D,0x00,Read,ACK
11.574347100000001,0,0x5D,0x00,Read,ACK
11.574368600000000,0,0x5D,0x00,Read,ACK
11.574390060000001,0,0x5D,0x00,Read,ACK
11.574411520000000,0,0x5D,0x00,Read,ACK
11.574433220000000,0,0x5D,0x00,Read,ACK
11.574454660000001,0,0x5D,0x00,Read,ACK
11.574476140000000,0,0x5D,0x00,Read,ACK
11.574497620000001,0,0x5D,0x00,Read,ACK
11.574519100000000,0,0x5D,0x00,Read,ACK
11.574540560000001,0,0x5D,0x00,Read,ACK
11.574562020000000,0,0x5D,0x00,Read,ACK
11.574583459999999,0,0x5D,0x00,Read,ACK
11.574604920000001,0,0x5D,0x00,Read,ACK
11.574626380000000,0,0x5D,0x00,Read,ACK
11.574647840000001,0,0x5D,0x6E,Read,ACK
11.574669300000000,0,0x5D,0xC8,Read,ACK
11.574690759999999,0,0x5D,0x02,Read,ACK
11.574712220000000,0,0x5D,0x00,Read,ACK
11.574733719999999,0,0x5D,0x00,Read,ACK
11.574755180000000,0,0x5D,0x00,Read,ACK
11.574776640000000,0,0x5D,0x00,Read,ACK
11.574798100000001,0,0x5D,0x00,Read,ACK
11.574819679999999,0,0x5D,0x00,Read,ACK
11.574841200000000,0,0x5D,0x00,Read,ACK
11.574862780000000,0,0x5D,0x00,Read,ACK
11.574884220000000,0,0x5D,0x00,Read,ACK
11.574905680000001,0,0x5D,0x00,Read,ACK
11.574927160000000,0,0x5D,0x00,Read,ACK
11.574949800000001,0,0x5D,0x00,Read,ACK
11.574971400000001,0,0x5D,0x00,Read,ACK
11.574993220000000,0,0x5D,0x00,Read,ACK
11.575014720000000,0,0x5D,0x00,Read,ACK
11.575036180000000,0,0x5D,0x00,Read,ACK
11.575058260000000,0,0x5D,0x00,Read,ACK
11.575080840000000,0,0x5D,0x00,Read,NAK
11.581152780000000,0,0x5D,0x2F,Read,ACK
11.581174280000001,0,0x5D,0x00,Read,ACK
11.581195780000000,0,0x5D,0x04,Read,ACK
11.581218359999999,0,0x5D,0x03,Read,ACK
11.581240200000000,0,0x5D,0xCE,Read,ACK
11.581262080000000,0,0x5D,0x02,Read,ACK
11.581283519999999,0,0x5D,0x97,Read,ACK
11.581305000000000,0,0x5D,0x02,Read,ACK
11.581330280000000,0,0x5D,0x03,Read,ACK
11.581351780000000,0,0x5D,0x03,Read,ACK
11.581373279999999,0,0x5D,0x20,Read,ACK
11.581395400000000,0,0x5D,0x13,Read,ACK
11.581416900000001,0,0x5D,0x40,Read,ACK
11.581438400000000,0,0x5D,0x0A,Read,ACK
11.581459840000001,0,0x5D,0x2C,Read,ACK
11.581481320000000,0,0x5D,0x07,Read,ACK
11.581502840000001,0,0x5D,0x03,Read,ACK
11.581524399999999,0,0x5D,0x03,Read,ACK
11.581545860000000,0,0x5D,0x20,Read,ACK
11.581567339999999,0,0x5D,0x00,Read,ACK
11.581588940000000,0,0x5D,0x00,Read,ACK
11.581610420000001,0,0x5D,0x00,Read,ACK
11.581631880000000,0,0x5D,0x00,Read,ACK
11.581653340000001,0,0x5D,0x00,Read,ACK
11.581674800000000,0,0x5D,0x00,Read,ACK
11.581696239999999,0,0x5D,0x00,Read,ACK
11.581717700000000,0,0x5D,0x00,Read,ACK
11.581739160000000,0,0x5D,0x00,Read,ACK
11.581761220000001,0,0x5D,0x00,Read,ACK
11.581782720000000,0,0x5D,0x00,Read,ACK
11.581804220000000,0,0x5D,0x00,Read,ACK
11.581825719999999,0,0x5D,0x00,Read,ACK
11.581847280000000,0,0x5D,0x00,Read,ACK
11.581868760000001,0,0x5D,0x00,Read,ACK
11.581890220000000,0,0x5D,0x00,Read,ACK
11.581911679999999,0,0x5D,0x00,Read,ACK
11.581933200000000,0,0x5D,0x00,Read,ACK
11.581954700000001,0,0x5D,0x00,Read,ACK
11.581976160000000,0,0x5D,0x00,Read,ACK
11.581997619999999,0,0x5D,0x00,Read,ACK
11.582021019999999,0,0x5D,0x00,Read,ACK
11.582042919999999,0,0x5D,0x00,Read,ACK
11.582064420000000,0,0x5D,0x00,Read,ACK
11.582086040000000,0,0x5D,0xB4,Read,ACK
11.582108440000001,0,0x5D,0xC8,Read,ACK
11.582131140000000,0,0x5D,0x02,Read,ACK
11.582153840000000,0,0x5D,0x00,Read,ACK
11.582175299999999,0,0x5D,0x00,Read,ACK
11.582196760000000,0,0x5D,0x00,Read,ACK
11.582218400000000,0,0x5D,0x00,Read,ACK
11.582240000000001,0,0x5D,0x00,Read,ACK
11.582261640000000,0,0x5D,0x00,Read,ACK
11.582284220000000,0,0x5D,0x00,Read,ACK
11.582306100000000,0,0x5D,0x00,Read,ACK
11.582329020000000,0,0x5D,0x00,Read,ACK
11.582350880000000,0,0x5D,0x00,Read,ACK
11.582374500000000,0,0x5D,0x00,Read,ACK
11.582395959999999,0,0x5D,0x00,Read,ACK
11.582417420000001,0,0x5D,0x00,Read,ACK
11.582438880000000,0,0x5D,0x00,Read,ACK
11.582460340000001,0,0x5D,0x00,Read,ACK
11.582482219999999,0,0x5D,0x00,Read,ACK
11.582505380000001,0,0x5D,0x00,Read,ACK
11.582526900000000,0,0x5D,0x00,Read,NAK
11.588001360000000,0,0x5D,0x2F,Read,ACK
11.588024200000000,0,0x5D,0x00,Read,ACK
11.588045660000001,0,0x5D,0x04,Read,ACK
11.588067120000000,0,0x5D,0x03,Read,ACK
11.588088740000000,0,0x5D,0xDB,Read,ACK
11.588110220000001,0,0x5D,0x02,Read,ACK
11.588131740000000,0,0x5D,0xA2,Read,ACK
11.588153200000001,0,0x5D,0x02,Read,ACK
11.588175059999999,0,0x5D,0x02,Read,ACK
11.588197660000001,0,0x5D,0x03,Read,ACK
11.588221660000000,0,0x5D,0x20,Read,ACK
11.588243139999999,0,0x5D,0x13,Read,ACK
11.588264640000000,0,0x5D,0x2D,Read,ACK
11.588286099999999,0,0x5D,0x0A,Read,ACK
11.588307560000001,0,0x5D,0x1A,Read,ACK
11.588329000000000,0,0x5D,0x07,Read,ACK
11.588350480000001,0,0x5D,0x02,Read,ACK
11.588373380000000,0,0x5D,0x03,Read,ACK
11.588394820000000,0,0x5D,0x20,Read,ACK
11.588416300000000,0,0x5D,0x00,Read,ACK
11.588437799999999,0,0x5D,0x00,Read,ACK
11.588460260000000,0,0x5D,0x00,Read,ACK
11.588481880000000,0,0x5D,0x00,Read,ACK
11.588503360000001,0,0x5D,0x00,Read,ACK
11.588524939999999,0,0x5D,0x00,Read,ACK
11.588546440000000,0,0x5D,0x00,Read,ACK
11.588567899999999,0,0x5D,0x00,Read,ACK
11.588589360000000,0,0x5D,0x00,Read,ACK
11.588610900000001,0,0x5D,0x00,Read,ACK
11.588632400000000,0,0x5D,0x00,Read,ACK
11.588654139999999,0,0x5D,0x00,Read,ACK
11.588675620000000,0,0x5D,0x00,Read,ACK
11.588697079999999,0,0x5D,0x00,Read,ACK
11.588718640000000,0,0x5D,0x00,Read,ACK
11.588740100000001,0,0x5D,0x00,Read,ACK
11.588761560000000,0,0x5D,0x00,Read,ACK
11.588783019999999,0,0x5D,0x00,Read,ACK
11.588804480000000,0,0x5D,0x00,Read,ACK
11.588825940000000,0,0x5D,0x00,Read,ACK
11.588847400000001,0,0x5D,0x00,Read,ACK
11.588868840000000,0,0x5D,0x00,Read,ACK
11.588890780000000,0,0x5D,0x00,Read,ACK
11.588912260000001,0,0x5D,0x00,Read,ACK
11.588933700000000,0,0x5D,0xFA,Read,ACK
11.588955179999999,0,0x5D,0xC8,Read,ACK
11.588976620000000,0,0x5D,0x02,Read,ACK
11.588998320000000,0,0x5D,0x00,Read,ACK
11.589019779999999,0,0x5D,0x00,Read,ACK
11.589041240000000,0,0x5D,0x00,Read,ACK
11.589062680000000,0,0x5D,0x00,Read,ACK
11.589084160000001,0,0x5D,0x00,Read,ACK
11.589105600000000,0,0x5D,0x00,Read,ACK
11.589127059999999,0,0x5D,0x00,Read,ACK
11.589150719999999,0,0x5D,0x00,Read,ACK
11.589172220000000,0,0x5D,0x00,Read,ACK
11.589194300000001,0,0x5D,0x00,Read,ACK
11.589216600000000,0,0x5D,0x00,Read,ACK
11.589238079999999,0,0x5D,0x00,Read,ACK
11.589259880000000,0,0x5D,0x00,Read,ACK
11.589281359999999,0,0x5D,0x00,Read,ACK
11.589302820000000,0,0x5D,0x00,Read,ACK
11.589324280000000,0,0x5D,0x00,Read,ACK
11.589345720000001,0,0x5D,0x00,Read,ACK
11.589368420000000,0,0x5D,0x00,Read,NAK
11.595144740000000,0,0x5D,0x2F,Read,ACK
11.595169220000001,0,0x5D,0x00,Read,ACK
11.595190680000000,0,0x5D,0x04,Read,ACK
11.595212180000001,0,0x5D,0x03,Read,ACK
11.595233640000000,0,0x5D,0xE9,Read,ACK
11.595255099999999,0,0x5D,0x02,Read,ACK
11.595276560000000,0,0x5D,0xAD,Read,ACK
11.595298059999999,0,0x5D,0x02,Read,ACK
11.595319520000000,0,0x5D,0x02,Read,ACK
11.595342400000000,0,0x5D,0x03,Read,ACK
11.595364300000000,0,0x5D,0x20,Read,ACK
11.595387479999999,0,0x5D,0x13,Read,ACK
11.595411400000000,0,0x5D,0x18,Read,ACK
11.595432880000001,0,0x5D,0x0A,Read,ACK
11.595454360000000,0,0x5D,0x06,Read,ACK
11.595475820000001,0,0x5D,0x07,Read,ACK
11.595497280000000,0,0x5D,0x02,Read,ACK
11.595519080000001,0,0x5D,0x03,Read,ACK
11.595541120000000,0,0x5D,0x20,Read,ACK
11.595562579999999,0,0x5D,0x00,Read,ACK
11.595584040000000,0,0x5D,0x00,Read,ACK
11.595605480000000,0,0x5D,0x00,Read,ACK
11.595627220000001,0,0x5D,0x00,Read,ACK
11.595648720000000,0,0x5D,0x00,Read,ACK
11.595670240000000,0,0x5D,0x00,Read,ACK
11.595691800000001,0,0x5D,0x00,Read,ACK
11.595713280000000,0,0x5D,0x00,Read,ACK
11.595735480000000,0,0x5D,0x00,Read,ACK
11.595757080000000,0,0x5D,0x00,Read,ACK
11.595779500000001,0,0x5D,0x00,Read,ACK
11.595801079999999,0,0x5D,0x00,Read,ACK
11.595822560000000,0,0x5D,0x00,Read,ACK
11.595844059999999,0,0x5D,0x00,Read,ACK
11.595865500000000,0,0x5D,0x00,Read,ACK
11.595886999999999,0,0x5D,0x00,Read,ACK
11.595908480000000,0,0x5D,0x00,Read,ACK
11.595929959999999,0,0x5D,0x00,Read,ACK
11.595951460000000,0,0x5D,0x00,Read,ACK
11.595972900000000,0,0x5D,0x00,Read,ACK
11.595994559999999,0,0x5D,0x00,Read,ACK
11.596016000000001,0,0x5D,0x00,Read,ACK
11.596037480000000,0,0x5D,0x00,Read,ACK
11.596058980000000,0,0x5D,0x00,Read,ACK
11.596080440000000,0,0x5D,0x40,Read,ACK
11.596101900000001,0,0x5D,0xC9,Read,ACK
11.596123420000000,0,0x5D,0x02,Read,ACK
11.596144920000000,0,0x5D,0x00,Read,ACK
11.596166400000000,0,0x5D,0x00,Read,ACK
11.596187900000000,0,0x5D,0x00,Read,ACK
11.596209379999999,0,0x5D,0x00,Read,ACK
11.596230880000000,0,0x5D,0x00,Read,ACK
11.596252639999999,0,0x5D,0x00,Read,ACK
11.596274100000000,0,0x5D,0x00,Read,ACK
11.596295580000000,0,0x5D,0x00,Read,ACK
11.596317080000000,0,0x5D,0x00,Read,ACK
11.596338520000000,0,0x5D,0x00,Read,ACK
11.596359980000001,0,0x5D,0x00,Read,ACK
11.596384700000000,0,0x5D,0x00,Read,ACK
11.596408000000000,0,0x5D,0x00,Read,ACK
11.596429759999999,0,0x5D,0x00,Read,ACK
11.596451220000001,0,0x5D,0x00,Read,ACK
11.596472680000000,0,0x5D,0x00,Read,ACK
11.596494140000001,0,0x5D,0x00,Read,ACK
11.596515780000001,0,0x5D,0x00,Read,NAK
11.602458820000001,0,0x5D,0x2F,Read,ACK
11.602484000000000,0,0x5D,0x00,Read,ACK
11.602506580000000,0,0x5D,0x04,Read,ACK
11.602528080000001,0,0x5D,0x03,Read,ACK
11.602549620000000,0,0x5D,0xF8,Read,ACK
11.602571120000000,0,0x5D,0x02,Read,ACK
11.602592580000000,0,0x5D,0xB6,Read,ACK
11.602614080000000,0,0x5D,0x02,Read,ACK
11.602635560000000,0,0x5D,0x03,Read,ACK
11.602657060000000,0,0x5D,0x03,Read,ACK
11.602678500000000,0,0x5D,0x20,Read,ACK
11.602699980000001,0,0x5D,0x13,Read,ACK
11.602722060000000,0,0x5D,0x00,Read,ACK
11.602744580000000,0,0x5D,0x0A,Read,ACK
11.602766259999999,0,0x5D,0xEF,Read,ACK
11.602787720000000,0,0x5D,0x06,Read,ACK
11.602809160000000,0,0x5D,0x03,Read,ACK
11.602830660000000,0,0x5D,0x03,Read,ACK
11.602853260000000,0,0x5D,0x20,Read,ACK
11.602874760000001,0,0x5D,0x00,Read,ACK
11.602896240000000,0,0x5D,0x00,Read,ACK
11.602917700000001,0,0x5D,0x00,Read,ACK
11.602939140000000,0,0x5D,0x00,Read,ACK
11.602960619999999,0,0x5D,0x00,Read,ACK
11.602982140000000,0,0x5D,0x00,Read,ACK
11.603003640000001,0,0x5D,0x00,Read,ACK
11.603025080000000,0,0x5D,0x00,Read,ACK
11.603046539999999,0,0x5D,0x00,Read,ACK
11.603068000000000,0,0x5D,0x00,Read,ACK
11.603089460000000,0,0x5D,0x00,Read,ACK
11.603110900000001,0,0x5D,0x00,Read,ACK
11.603132360000000,0,0x5D,0x00,Read,ACK
11.603153860000001,0,0x5D,0x00,Read,ACK
11.603175360000000,0,0x5D,0x00,Read,ACK
11.603196840000001,0,0x5D,0x00,Read,ACK
11.603218340000000,0,0x5D,0x00,Read,ACK
11.603239840000001,0,0x5D,0x00,Read,ACK
11.603261359999999,0,0x5D,0x00,Read,ACK
11.603282860000000,0,0x5D,0x00,Read,ACK
11.603304319999999,0,0x5D,0x00,Read,ACK
11.603325780000000,0,0x5D,0x00,Read,ACK
11.603347279999999,0,0x5D,0x00,Read,ACK
11.603369060000000,0,0x5D,0x00,Read,ACK
11.603390579999999,0,0x5D,0x86,Read,ACK
11.603412020000000,0,0x5D,0xC9,Read,ACK
11.603433780000000,0,0x5D,0x02,Read,ACK
11.603455240000001,0,0x5D,0x00,Read,ACK
11.603476860000001,0,0x5D,0x00,Read,ACK
11.603502120000000,0,0x5D,0x00,Read,ACK
11.603523600000001,0,0x5D,0x00,Read,ACK
11.603545080000000,0,0x5D,0x00,Read,ACK
11.603568220000000,0,0x5D,0x00,Read,ACK
11.603589919999999,0,0x5D,0x00,Read,ACK
11.603612180000001,0,0x5D,0x00,Read,ACK
11.603634319999999,0,0x5D,0x00,Read,ACK
11.603655820000000,0,0x5D,0x00,Read,ACK
11.603678260000001,0,0x5D,0x00,Read,ACK
11.603699779999999,0,0x5D,0x00,Read,ACK
11.603721240000000,0,0x5D,0x00,Read,ACK
11.603743500000000,0,0x5D,0x00,Read,ACK
11.603767080000001,0,0x5D,0x00,Read,ACK
11.603789040000001,0,0x5D,0x00,Read,ACK
11.603810500000000,0,0x5D,0x00,Read,ACK
11.603831939999999,0,0x5D,0x00,Read,NAK
11.609414340000001,0,0x5D,0x2F,Read,ACK
11.609438120000000,0,0x5D,0x00,Read,ACK
11.609459559999999,0,0x5D,0x04,Read,ACK
11.609481020000000,0,0x5D,0x03,Read,ACK
11.609502480000000,0,0x5D,0x07,Read,ACK
11.609523960000001,0,0x5D,0x03,Read,ACK
11.609545460000000,0,0x5D,0xBE,Read,ACK
11.609566920000001,0,0x5D,0x02,Read,ACK
11.609588380000000,0,0x5D,0x03,Read,ACK
11.609609839999999,0,0x5D,0x03,Read,ACK
11.609633300000000,0,0x5D,0x20,Read,ACK
11.609655520000000,0,0x5D,0x13,Read,ACK
11.609677280000000,0,0x5D,0xE6,Read,ACK
11.609698780000000,0,0x5D,0x09,Read,ACK
11.609720220000000,0,0x5D,0xD6,Read,ACK
11.609741700000001,0,0x5D,0x06,Read,ACK
11.609763200000000,0,0x5D,0x03,Read,ACK
11.609784660000001,0,0x5D,0x03,Read,ACK
11.609806259999999,0,0x5D,0x20,Read,ACK
11.609828660000000,0,0x5D,0x00,Read,ACK
11.609850140000001,0,0x5D,0x00,Read,ACK
11.609871600000000,0,0x5D,0x00,Read,ACK
11.609893059999999,0,0x5D,0x00,Read,ACK
11.609914580000000,0,0x5D,0x00,Read,ACK
11.609937360000000,0,0x5D,0x00,Read,ACK
11.609958860000001,0,0x5D,0x00,Read,ACK
11.609980540000000,0,0x5D,0x00,Read,ACK
11.610002039999999,0,0x5D,0x00,Read,ACK
11.610023540000000,0,0x5D,0x00,Read,ACK
11.610045059999999,0,0x5D,0x00,Read,ACK
11.610066520000000,0,0x5D,0x00,Read,ACK
11.610088019999999,0,0x5D,0x00,Read,ACK
11.610109960000001,0,0x5D,0x00,Read,ACK
11.610131440000000,0,0x5D,0x00,Read,ACK
11.610152879999999,0,0x5D,0x00,Read,ACK
11.610174499999999,0,0x5D,0x00,Read,ACK
11.610195980000000,0,0x5D,0x00,Read,ACK
11.610217459999999,0,0x5D,0x00,Read,ACK
11.610238960000000,0,0x5D,0x00,Read,ACK
11.610260419999999,0,0x5D,0x00,Read,ACK
11.610281900000000,0,0x5D,0x00,Read,ACK
11.610303380000000,0,0x5D,0x00,Read,ACK
11.610324840000001,0,0x5D,0x00,Read,ACK
11.610346320000000,0,0x5D,0xCC,Read,ACK
11.610367820000000,0,0x5D,0xC9,Read,ACK
11.610389280000000,0,0x5D,0x02,Read,ACK
11.610410740000001,0,0x5D,0x00,Read,ACK
11.610432940000001,0,0x5D,0x00,Read,ACK
11.610454400000000,0,0x5D,0x00,Read,ACK
11.610475879999999,0,0x5D,0x00,Read,ACK
11.610497380000000,0,0x5D,0x00,Read,ACK
11.610518900000001,0,0x5D,0x00,Read,ACK
11.610540340000000,0,0x5D,0x00,Read,ACK
11.610561819999999,0,0x5D,0x00,Read,ACK
11.610583260000000,0,0x5D,0x00,Read,ACK
11.610604720000000,0,0x5D,0x00,Read,ACK
11.610626260000000,0,0x5D,0x00,Read,ACK
11.610647760000001,0,0x5D,0x00,Read,ACK
11.610672380000000,0,0x5D,0x00,Read,ACK
11.610694519999999,0,0x5D,0x00,Read,ACK
11.610716119999999,0,0x5D,0x00,Read,ACK
11.610737560000000,0,0x5D,0x00,Read,ACK
11.610759240000000,0,0x5D,0x00,Read,ACK
11.610780739999999,0,0x5D,0x00,Read,NAK
11.616658559999999,0,0x5D,0x2F,Read,ACK
11.616681240000000,0,0x5D,0x00,Read,ACK
11.616702719999999,0,0x5D,0x04,Read,ACK
11.616724180000000,0,0x5D,0x03,Read,ACK
11.616746340000001,0,0x5D,0x15,Read,ACK
11.616767860000000,0,0x5D,0x03,Read,ACK
11.616790419999999,0,0x5D,0xC4,Read,ACK
11.616813219999999,0,0x5D,0x02,Read,ACK
11.616834700000000,0,0x5D,0x03,Read,ACK
11.616856159999999,0,0x5D,0x03,Read,ACK
11.616877620000000,0,0x5D,0x20,Read,ACK
11.616899080000000,0,0x5D,0x13,Read,ACK
11.616920540000001,0,0x5D,0xCA,Read,ACK
11.616943320000001,0,0x5D,0x09,Read,ACK
11.616965880000000,0,0x5D,0xBB,Read,ACK
11.616987320000000,0,0x5D,0x06,Read,ACK
11.617008780000001,0,0x5D,0x02,Read,ACK
11.617030260000000,0,0x5D,0x03,Read,ACK
11.617053000000000,0,0x5D,0x20,Read,ACK
11.617074499999999,0,0x5D,0x00,Read,ACK
11.617096000000000,0,0x5D,0x00,Read,ACK
11.617117500000001,0,0x5D,0x00,Read,ACK
11.617138960000000,0,0x5D,0x00,Read,ACK
11.617160419999999,0,0x5D,0x00,Read,ACK
11.617182059999999,0,0x5D,0x00,Read,ACK
11.617203520000000,0,0x5D,0x00,Read,ACK
11.617225319999999,0,0x5D,0x00,Read,ACK
11.617246800000000,0,0x5D,0x00,Read,ACK
11.617268259999999,0,0x5D,0x00,Read,ACK
11.617289700000001,0,0x5D,0x00,Read,ACK
11.617311180000000,0,0x5D,0x00,Read,ACK
11.617332680000001,0,0x5D,0x00,Read,ACK
11.617354140000000,0,0x5D,0x00,Read,ACK
11.617375600000001,0,0x5D,0x00,Read,ACK
11.617397060000000,0,0x5D,0x00,Read,ACK
11.617418560000001,0,0x5D,0x00,Read,ACK
11.617440020000000,0,0x5D,0x00,Read,ACK
11.617461499999999,0,0x5D,0x00,Read,ACK
11.617482940000000,0,0x5D,0x00,Read,ACK
11.617504459999999,0,0x5D,0x00,Read,ACK
11.617526160000001,0,0x5D,0x00,Read,ACK
11.617547620000000,0,0x5D,0x00,Read,ACK
11.617569080000001,0,0x5D,0x00,Read,ACK
11.617590699999999,0,0x5D,0x12,Read,ACK
11.617612180000000,0,0x5D,0xCA,Read,ACK
11.617633639999999,0,0x5D,0x02,Read,ACK
11.617655080000000,0,0x5D,0x00,Read,ACK
11.617676540000000,0,0x5D,0x00,Read,ACK
11.617698020000001,0,0x5D,0x00,Read,ACK
11.617719520000000,0,0x5D,0x00,Read,ACK
11.617742560000000,0,0x5D,0x00,Read,ACK
11.617765940000000,0,0x5D,0x00,Read,ACK
11.617787440000001,0,0x5D,0x00,Read,ACK
11.617809859999999,0,0x5D,0x00,Read,ACK
11.617831340000000,0,0x5D,0x00,Read,ACK
11.617854240000000,0,0x5D,0x00,Read,ACK
11.617875740000001,0,0x5D,0x00,Read,ACK
11.617897220000000,0,0x5D,0x00,Read,ACK
11.617918680000001,0,0x5D,0x00,Read,ACK
11.617940140000000,0,0x5D,0x00,Read,ACK
11.617961599999999,0,0x5D,0x00,Read,ACK
11.617983060000000,0,0x5D,0x00,Read,ACK
11.618004520000000,0,0x5D,0x00,Read,ACK
11.618026400000000,0,0x5D,0x00,Read,NAK
11.623997700000000,0,0x5D,0x2F,Read,ACK
11.624020720000001,0,0x5D,0x00,Read,ACK
11.624042180000000,0,0x5D,0x04,Read,ACK
11.624063639999999,0,0x5D,0x03,Read,ACK
11.624085460000000,0,0x5D,0x25,Read,ACK
11.624106940000001,0,0x5D,0x03,Read,ACK
11.624128460000000,0,0x5D,0xC9,Read,ACK
11.624149900000001,0,0x5D,0x02,Read,ACK
11.624171360000000,0,0x5D,0x03,Read,ACK
11.624193160000001,0,0x5D,0x03,Read,ACK
11.624214719999999,0,0x5D,0x20,Read,ACK
11.624236180000000,0,0x5D,0x13,Read,ACK
11.624257860000000,0,0x5D,0xAD,Read,ACK
11.624279380000001,0,0x5D,0x09,Read,ACK
11.624300979999999,0,0x5D,0xA0,Read,ACK
11.624323900000000,0,0x5D,0x06,Read,ACK
11.624346859999999,0,0x5D,0x02,Read,ACK
11.624368340000000,0,0x5D,0x03,Read,ACK
11.624389819999999,0,0x5D,0x20,Read,ACK
11.624411300000000,0,0x5D,0x00,Read,ACK
11.624432759999999,0,0x5D,0x00,Read,ACK
11.624454240000000,0,0x5D,0x00,Read,ACK
11.624475739999999,0,0x5D,0x00,Read,ACK
11.624497200000000,0,0x5D,0x00,Read,ACK
11.624518699999999,0,0x5D,0x00,Read,ACK
11.624540180000000,0,0x5D,0x00,Read,ACK
11.624561620000000,0,0x5D,0x00,Read,ACK
11.624583080000001,0,0x5D,0x00,Read,ACK
11.624604520000000,0,0x5D,0x00,Read,ACK
11.624625999999999,0,0x5D,0x00,Read,ACK
11.624648120000000,0,0x5D,0x00,Read,ACK
11.624669600000001,0,0x5D,0x00,Read,ACK
11.624691080000000,0,0x5D,0x00,Read,ACK
11.624712560000001,0,0x5D,0x00,Read,ACK
11.624734040000000,0,0x5D,0x00,Read,ACK
11.624755540000001,0,0x5D,0x00,Read,ACK
11.624777000000000,0,0x5D,0x00,Read,ACK
11.624798459999999,0,0x5D,0x00,Read,ACK
11.624819980000000,0,0x5D,0x00,Read,ACK
11.624841719999999,0,0x5D,0x00,Read,ACK
11.624863180000000,0,0x5D,0x00,Read,ACK
11.624884659999999,0,0x5D,0x00,Read,ACK
11.624911120000000,0,0x5D,0x00,Read,ACK
11.624932599999999,0,0x5D,0x58,Read,ACK
11.624954100000000,0,0x5D,0xCA,Read,ACK
11.624975579999999,0,0x5D,0x02,Read,ACK
11.624997040000000,0,0x5D,0x00,Read,ACK
11.625018499999999,0,0x5D,0x00,Read,ACK
11.625040040000000,0,0x5D,0x00,Read,ACK
11.625061519999999,0,0x5D,0x00,Read,ACK
11.625083000000000,0,0x5D,0x00,Read,ACK
11.625106140000000,0,0x5D,0x00,Read,ACK
11.625127660000000,0,0x5D,0x00,Read,ACK
11.625149159999999,0,0x5D,0x00,Read,ACK
11.625170720000000,0,0x5D,0x00,Read,ACK
11.625192320000000,0,0x5D,0x00,Read,ACK
11.625215160000000,0,0x5D,0x00,Read,ACK
11.625237640000000,0,0x5D,0x00,Read,ACK
11.625260140000000,0,0x5D,0x00,Read,ACK
11.625281640000001,0,0x5D,0x00,Read,ACK
11.625303160000000,0,0x5D,0x00,Read,ACK
11.625324620000001,0,0x5D,0x00,Read,ACK
11.625346060000000,0,0x5D,0x00,Read,ACK
11.625367640000000,0,0x5D,0x00,Read,NAK
11.631023539999999,0,0x5D,0x2F,Read,ACK
11.631048460000001,0,0x5D,0x00,Read,ACK
11.631070920000001,0,0x5D,0x04,Read,ACK
11.631092519999999,0,0x5D,0x03,Read,ACK
11.631113980000000,0,0x5D,0x35,Read,ACK
11.631135440000000,0,0x5D,0x03,Read,ACK
11.631156900000001,0,0x5D,0xCD,Read,ACK
11.631178400000000,0,0x5D,0x02,Read,ACK
11.631199860000001,0,0x5D,0x03,Read,ACK
11.631223280000000,0,0x5D,0x03,Read,ACK
11.631245979999999,0,0x5D,0x20,Read,ACK
11.631267500000000,0,0x5D,0x13,Read,ACK
11.631288980000001,0,0x5D,0x92,Read,ACK
11.631310460000000,0,0x5D,0x09,Read,ACK
11.631332620000000,0,0x5D,0x85,Read,ACK
11.631355360000001,0,0x5D,0x06,Read,ACK
11.631376879999999,0,0x5D,0x02,Read,ACK
11.631398380000000,0,0x5D,0x03,Read,ACK
11.631419899999999,0,0x5D,0x20,Read,ACK
11.631441340000000,0,0x5D,0x00,Read,ACK
11.631463900000000,0,0x5D,0x00,Read,ACK
11.631485600000000,0,0x5D,0x00,Read,ACK
11.631507720000000,0,0x5D,0x00,Read,ACK
11.631529199999999,0,0x5D,0x00,Read,ACK
11.631550680000000,0,0x5D,0x00,Read,ACK
11.631572139999999,0,0x5D,0x00,Read,ACK
11.631593620000000,0,0x5D,0x00,Read,ACK
11.631615119999999,0,0x5D,0x00,Read,ACK
11.631636580000000,0,0x5D,0x00,Read,ACK
11.631658040000000,0,0x5D,0x00,Read,ACK
11.631679500000001,0,0x5D,0x00,Read,ACK
11.631700980000000,0,0x5D,0x00,Read,ACK
11.631722480000001,0,0x5D,0x00,Read,ACK
11.631743940000000,0,0x5D,0x00,Read,ACK
11.631765580000000,0,0x5D,0x00,Read,ACK
11.631787100000000,0,0x5D,0x00,Read,ACK
11.631808540000000,0,0x5D,0x00,Read,ACK
11.631830000000001,0,0x5D,0x00,Read,ACK
11.631851460000000,0,0x5D,0x00,Read,ACK
11.631872919999999,0,0x5D,0x00,Read,ACK
11.631894440000000,0,0x5D,0x00,Read,ACK
11.631915879999999,0,0x5D,0x00,Read,ACK
11.631937340000000,0,0x5D,0x00,Read,ACK
11.631958819999999,0,0x5D,0x9E,Read,ACK
11.631980660000000,0,0x5D,0xCA,Read,ACK
11.632002140000001,0,0x5D,0x02,Read,ACK
11.632023600000000,0,0x5D,0x00,Read,ACK
11.632047020000000,0,0x5D,0x00,Read,ACK
11.632071659999999,0,0x5D,0x00,Read,ACK
11.632094420000000,0,0x5D,0x00,Read,ACK
11.632116079999999,0,0x5D,0x00,Read,ACK
11.632139080000000,0,0x5D,0x00,Read,ACK
11.632160700000000,0,0x5D,0x00,Read,ACK
11.632183480000000,0,0x5D,0x00,Read,ACK
11.632204939999999,0,0x5D,0x00,Read,ACK
11.632226859999999,0,0x5D,0x00,Read,ACK
11.632248360000000,0,0x5D,0x00,Read,ACK
11.632269819999999,0,0x5D,0x00,Read,ACK
11.632291459999999,0,0x5D,0x00,Read,ACK
11.632313320000000,0,0x5D,0x00,Read,ACK
11.632334999999999,0,0x5D,0x00,Read,ACK
11.632356460000000,0,0x5D,0x00,Read,ACK
11.632377920000000,0,0x5D,0x00,Read,ACK
11.632399660000001,0,0x5D,0x00,Read,NAK
11.638013960000000,0,0x5D,0x2F,Read,ACK
11.638036619999999,0,0x5D,0x00,Read,ACK
11.638058120000000,0,0x5D,0x04,Read,ACK
11.638079619999999,0,0x5D,0x03,Read,ACK
11.638101120000000,0,0x5D,0x46,Read,ACK
11.638122600000001,0,0x5D,0x03,Read,ACK
11.638145580000000,0,0x5D,0xD2,Read,ACK
11.638167380000001,0,0x5D,0x02,Read,ACK
11.638189179999999,0,0x5D,0x02,Read,ACK
11.638210660000000,0,0x5D,0x03,Read,ACK
11.638232120000000,0,0x5D,0x20,Read,ACK
11.638253560000001,0,0x5D,0x13,Read,ACK
11.638275020000000,0,0x5D,0x78,Read,ACK
11.638296479999999,0,0x5D,0x09,Read,ACK
11.638317940000000,0,0x5D,0x6B,Read,ACK
11.638339400000000,0,0x5D,0x06,Read,ACK
11.638360860000001,0,0x5D,0x03,Read,ACK
11.638382820000000,0,0x5D,0x03,Read,ACK
11.638404339999999,0,0x5D,0x20,Read,ACK
11.638426200000000,0,0x5D,0x00,Read,ACK
11.638447680000001,0,0x5D,0x00,Read,ACK
11.638469180000000,0,0x5D,0x00,Read,ACK
11.638490640000001,0,0x5D,0x00,Read,ACK
11.638513059999999,0,0x5D,0x00,Read,ACK
11.638535879999999,0,0x5D,0x00,Read,ACK
11.638557380000000,0,0x5D,0x00,Read,ACK
11.638578839999999,0,0x5D,0x00,Read,ACK
11.638600320000000,0,0x5D,0x00,Read,ACK
11.638621799999999,0,0x5D,0x00,Read,ACK
11.638643280000000,0,0x5D,0x00,Read,ACK
11.638666420000000,0,0x5D,0x00,Read,ACK
11.638688760000001,0,0x5D,0x00,Read,ACK
11.638710240000000,0,0x5D,0x00,Read,ACK
11.638731699999999,0,0x5D,0x00,Read,ACK
11.638753160000000,0,0x5D,0x00,Read,ACK
11.638774620000000,0,0x5D,0x00,Read,ACK
11.638796180000000,0,0x5D,0x00,Read,ACK
11.638817639999999,0,0x5D,0x00,Read,ACK
11.638839120000000,0,0x5D,0x00,Read,ACK
11.638860559999999,0,0x5D,0x00,Read,ACK
11.638882020000000,0,0x5D,0x00,Read,ACK
11.638903480000000,0,0x5D,0x00,Read,ACK
11.638924980000001,0,0x5D,0x00,Read,ACK
11.638946440000000,0,0x5D,0xE4,Read,ACK
11.638967960000000,0,0x5D,0xCA,Read,ACK
11.638989499999999,0,0x5D,0x02,Read,ACK
11.639011000000000,0,0x5D,0x00,Read,ACK
11.639032439999999,0,0x5D,0x00,Read,ACK
11.639053900000000,0,0x5D,0x00,Read,ACK
11.639075360000000,0,0x5D,0x00,Read,ACK
11.639096820000001,0,0x5D,0x00,Read,ACK
11.639118340000000,0,0x5D,0x00,Read,ACK
11.639139800000001,0,0x5D,0x00,Read,ACK
11.639161540000000,0,0x5D,0x00,Read,ACK
11.639186280000001,0,0x5D,0x00,Read,ACK
11.639207760000000,0,0x5D,0x00,Read,ACK
11.639229240000001,0,0x5D,0x00,Read,ACK
11.639250740000000,0,0x5D,0x00,Read,ACK
11.639272419999999,0,0x5D,0x00,Read,ACK
11.639293900000000,0,0x5D,0x00,Read,ACK
11.639315359999999,0,0x5D,0x00,Read,ACK
11.639338600000000,0,0x5D,0x00,Read,ACK
11.639361340000001,0,0x5D,0x00,Read,ACK
11.639384460000000,0,0x5D,0x00,Read,NAK
11.645117279999999,0,0x5D,0x2F,Read,ACK
11.645142099999999,0,0x5D,0x00,Read,ACK
11.645163600000000,0,0x5D,0x04,Read,ACK
11.645185059999999,0,0x5D,0x03,Read,ACK
11.645206520000000,0,0x5D,0x57,Read,ACK
11.645227999999999,0,0x5D,0x03,Read,ACK
11.645249500000000,0,0x5D,0xD8,Read,ACK
11.645270960000000,0,0x5D,0x02,Read,ACK
11.645292400000001,0,0x5D,0x02,Read,ACK
11.645313900000000,0,0x5D,0x03,Read,ACK
11.645335740000000,0,0x5D,0x20,Read,ACK
11.645359640000001,0,0x5D,0x13,Read,ACK
11.645382560000000,0,0x5D,0x62,Read,ACK
11.645404080000000,0,0x5D,0x09,Read,ACK
11.645425599999999,0,0x5D,0x54,Read,ACK
11.645447100000000,0,0x5D,0x06,Read,ACK
11.645468559999999,0,0x5D,0x03,Read,ACK
11.645490000000001,0,0x5D,0x02,Read,ACK
11.645511480000000,0,0x5D,0x20,Read,ACK
11.645533380000000,0,0x5D,0x00,Read,ACK
11.645554880000001,0,0x5D,0x00,Read,ACK
11.645577200000000,0,0x5D,0x00,Read,ACK
11.645598659999999,0,0x5D,0x00,Read,ACK
11.645621520000001,0,0x5D,0x00,Read,ACK
11.645643000000000,0,0x5D,0x00,Read,ACK
11.645664480000001,0,0x5D,0x00,Read,ACK
11.645686280000000,0,0x5D,0x00,Read,ACK
11.645707760000001,0,0x5D,0x00,Read,ACK
11.645729319999999,0,0x5D,0x00,Read,ACK
11.645750800000000,0,0x5D,0x00,Read,ACK
11.645774019999999,0,0x5D,0x00,Read,ACK
11.645795760000000,0,0x5D,0x00,Read,ACK
11.645817220000000,0,0x5D,0x00,Read,ACK
11.645838680000001,0,0x5D,0x00,Read,ACK
11.645860160000000,0,0x5D,0x00,Read,ACK
11.645881599999999,0,0x5D,0x00,Read,ACK
11.645903060000000,0,0x5D,0x00,Read,ACK
11.645924500000000,0,0x5D,0x00,Read,ACK
11.645945980000000,0,0x5D,0x00,Read,ACK
11.645967460000000,0,0x5D,0x00,Read,ACK
11.645989220000001,0,0x5D,0x00,Read,ACK
11.646010720000000,0,0x5D,0x00,Read,ACK
11.646032580000000,0,0x5D,0x00,Read,ACK
11.646054080000001,0,0x5D,0x2A,Read,ACK
11.646075540000000,0,0x5D,0xCB,Read,ACK
11.646097040000001,0,0x5D,0x02,Read,ACK
11.646118520000000,0,0x5D,0x00,Read,ACK
11.646140020000001,0,0x5D,0x00,Read,ACK
11.646161500000000,0,0x5D,0x00,Read,ACK
11.646183000000001,0,0x5D,0x00,Read,ACK
11.646204460000000,0,0x5D,0x00,Read,ACK
11.646225919999999,0,0x5D,0x00,Read,ACK
11.646247380000000,0,0x5D,0x00,Read,ACK
11.646268839999999,0,0x5D,0x00,Read,ACK
11.646290360000000,0,0x5D,0x00,Read,ACK
11.646313200000000,0,0x5D,0x00,Read,ACK
11.646336040000000,0,0x5D,0x00,Read,ACK
11.646357520000000,0,0x5D,0x00,Read,ACK
11.646379480000000,0,0x5D,0x00,Read,ACK
11.646401780000000,0,0x5D,0x00,Read,ACK
11.646423479999999,0,0x5D,0x00,Read,ACK
11.646444980000000,0,0x5D,0x00,Read,ACK
11.646466419999999,0,0x5D,0x00,Read,ACK
11.646487900000000,0,0x5D,0x00,Read,NAK
11.652433479999999,0,0x5D,0x2F,Read,ACK
11.652458180000000,0,0x5D,0x00,Read,ACK
11.652482060000001,0,0x5D,0x04,Read,ACK
11.652503540000000,0,0x5D,0x03,Read,ACK
11.652525020000001,0,0x5D,0x66,Read,ACK
11.652546460000000,0,0x5D,0x03,Read,ACK
11.652567940000001,0,0x5D,0xDF,Read,ACK
11.652589460000000,0,0x5D,0x02,Read,ACK
11.652610960000001,0,0x5D,0x02,Read,ACK
11.652632420000000,0,0x5D,0x03,Read,ACK
11.652654860000000,0,0x5D,0x20,Read,ACK
11.652676359999999,0,0x5D,0x13,Read,ACK
11.652697840000000,0,0x5D,0x4F,Read,ACK
11.652720020000000,0,0x5D,0x09,Read,ACK
11.652741519999999,0,0x5D,0x41,Read,ACK
11.652764140000000,0,0x5D,0x06,Read,ACK
11.652787139999999,0,0x5D,0x03,Read,ACK
11.652808640000000,0,0x5D,0x03,Read,ACK
11.652831660000000,0,0x5D,0x20,Read,ACK
11.652853159999999,0,0x5D,0x00,Read,ACK
11.652874620000000,0,0x5D,0x00,Read,ACK
11.652896200000001,0,0x5D,0x00,Read,ACK
11.652918939999999,0,0x5D,0x00,Read,ACK
11.652940440000000,0,0x5D,0x00,Read,ACK
11.652961940000001,0,0x5D,0x00,Read,ACK
11.652983400000000,0,0x5D,0x00,Read,ACK
11.653004859999999,0,0x5D,0x00,Read,ACK
11.653026320000000,0,0x5D,0x00,Read,ACK
11.653047780000000,0,0x5D,0x00,Read,ACK
11.653069220000001,0,0x5D,0x00,Read,ACK
11.653090680000000,0,0x5D,0x00,Read,ACK
11.653112159999999,0,0x5D,0x00,Read,ACK
11.653133680000000,0,0x5D,0x00,Read,ACK
11.653155180000001,0,0x5D,0x00,Read,ACK
11.653176640000000,0,0x5D,0x00,Read,ACK
11.653198160000001,0,0x5D,0x00,Read,ACK
11.653219860000000,0,0x5D,0x00,Read,ACK
11.653241319999999,0,0x5D,0x00,Read,ACK
11.653262760000000,0,0x5D,0x00,Read,ACK
11.653284220000000,0,0x5D,0x00,Read,ACK
11.653305680000001,0,0x5D,0x00,Read,ACK
11.653327180000000,0,0x5D,0x00,Read,ACK
11.653348660000001,0,0x5D,0x00,Read,ACK
11.653370120000000,0,0x5D,0x70,Read,ACK
11.653391579999999,0,0x5D,0xCB,Read,ACK
11.653413100000000,0,0x5D,0x02,Read,ACK
11.653434539999999,0,0x5D,0x00,Read,ACK
11.653456020000000,0,0x5D,0x00,Read,ACK
11.653482060000000,0,0x5D,0x00,Read,ACK
11.653503519999999,0,0x5D,0x00,Read,ACK
11.653524980000000,0,0x5D,0x00,Read,ACK
11.653546520000001,0,0x5D,0x00,Read,ACK
11.653568300000000,0,0x5D,0x00,Read,ACK
11.653591120000000,0,0x5D,0x00,Read,ACK
11.653613679999999,0,0x5D,0x00,Read,ACK
11.653635160000000,0,0x5D,0x00,Read,ACK
11.653656620000000,0,0x5D,0x00,Read,ACK
11.653678460000000,0,0x5D,0x00,Read,ACK
11.653700219999999,0,0x5D,0x00,Read,ACK
11.653721700000000,0,0x5D,0x00,Read,ACK
11.653743220000001,0,0x5D,0x00,Read,ACK
11.653765419999999,0,0x5D,0x00,Read,ACK
11.653787480000000,0,0x5D,0x00,Read,ACK
11.653809460000000,0,0x5D,0x00,Read,NAK
11.659461920000000,0,0x5D,0x2F,Read,ACK
11.659484660000000,0,0x5D,0x00,Read,ACK
11.659506120000000,0,0x5D,0x04,Read,ACK
11.659527580000001,0,0x5D,0x03,Read,ACK
11.659549040000000,0,0x5D,0x75,Read,ACK
11.659571600000000,0,0x5D,0x03,Read,ACK
11.659593740000000,0,0x5D,0xE7,Read,ACK
11.659615700000000,0,0x5D,0x02,Read,ACK
11.659637180000001,0,0x5D,0x03,Read,ACK
11.659658640000000,0,0x5D,0x03,Read,ACK
11.659680140000001,0,0x5D,0x20,Read,ACK
11.659701620000000,0,0x5D,0x13,Read,ACK
11.659723120000001,0,0x5D,0x3F,Read,ACK
11.659744600000000,0,0x5D,0x09,Read,ACK
11.659766080000001,0,0x5D,0x31,Read,ACK
11.659787540000000,0,0x5D,0x06,Read,ACK
11.659810320000000,0,0x5D,0x03,Read,ACK
11.659834060000000,0,0x5D,0x03,Read,ACK
11.659855520000001,0,0x5D,0x20,Read,ACK
11.659877040000000,0,0x5D,0x00,Read,ACK
11.659898500000001,0,0x5D,0x00,Read,ACK
11.659919960000000,0,0x5D,0x00,Read,ACK
11.659941399999999,0,0x5D,0x00,Read,ACK
11.659962880000000,0,0x5D,0x00,Read,ACK
11.659984379999999,0,0x5D,0x00,Read,ACK
11.660005900000000,0,0x5D,0x00,Read,ACK
11.660027400000001,0,0x5D,0x00,Read,ACK
11.660048860000000,0,0x5D,0x00,Read,ACK
11.660071439999999,0,0x5D,0x00,Read,ACK
11.660092900000000,0,0x5D,0x00,Read,ACK
11.660114360000000,0,0x5D,0x00,Read,ACK
11.660136019999999,0,0x5D,0x00,Read,ACK
11.660157520000000,0,0x5D,0x00,Read,ACK
11.660178980000000,0,0x5D,0x00,Read,ACK
11.660200440000001,0,0x5D,0x00,Read,ACK
11.660221880000000,0,0x5D,0x00,Read,ACK
11.660243339999999,0,0x5D,0x00,Read,ACK
11.660264800000000,0,0x5D,0x00,Read,ACK
11.660286259999999,0,0x5D,0x00,Read,ACK
11.660307740000000,0,0x5D,0x00,Read,ACK
11.660330999999999,0,0x5D,0x00,Read,ACK
11.660352500000000,0,0x5D,0x00,Read,ACK
11.660373999999999,0,0x5D,0x00,Read,ACK
11.660395460000000,0,0x5D,0xB6,Read,ACK
11.660416919999999,0,0x5D,0xCB,Read,ACK
11.660438380000000,0,0x5D,0x02,Read,ACK
11.660459840000000,0,0x5D,0x00,Read,ACK
11.660481280000001,0,0x5D,0x00,Read,ACK
11.660502740000000,0,0x5D,0x00,Read,ACK
11.660524199999999,0,0x5D,0x00,Read,ACK
11.660545660000000,0,0x5D,0x00,Read,ACK
11.660567159999999,0,0x5D,0x00,Read,ACK
11.660588640000000,0,0x5D,0x00,Read,ACK
11.660610080000000,0,0x5D,0x00,Read,ACK
11.660634679999999,0,0x5D,0x00,Read,ACK
11.660656619999999,0,0x5D,0x00,Read,ACK
11.660678060000000,0,0x5D,0x00,Read,ACK
11.660699640000001,0,0x5D,0x00,Read,ACK
11.660722020000000,0,0x5D,0x00,Read,ACK
11.660743500000001,0,0x5D,0x00,Read,ACK
11.660764960000000,0,0x5D,0x00,Read,ACK
11.660786399999999,0,0x5D,0x00,Read,ACK
11.660808940000001,0,0x5D,0x00,Read,ACK
11.660831119999999,0,0x5D,0x00,Read,NAK
11.666648380000000,0,0x5D,0x2F,Read,ACK
11.666673339999999,0,0x5D,0x00,Read,ACK
11.666695040000000,0,0x5D,0x04,Read,ACK
11.666716500000000,0,0x5D,0x03,Read,ACK
11.666737960000001,0,0x5D,0x83,Read,ACK
11.666759640000000,0,0x5D,0x03,Read,ACK
11.666781220000001,0,0x5D,0xF0,Read,ACK
11.666803959999999,0,0x5D,0x02,Read,ACK
11.666825460000000,0,0x5D,0x03,Read,ACK
11.666846919999999,0,0x5D,0x02,Read,ACK
11.666868360000000,0,0x5D,0x20,Read,ACK
11.666889840000000,0,0x5D,0x13,Read,ACK
11.666911360000000,0,0x5D,0x31,Read,ACK
11.666932800000000,0,0x5D,0x09,Read,ACK
11.666954880000000,0,0x5D,0x24,Read,ACK
11.666976340000000,0,0x5D,0x06,Read,ACK
11.666997840000001,0,0x5D,0x03,Read,ACK
11.667019500000000,0,0x5D,0x03,Read,ACK
11.667040999999999,0,0x5D,0x20,Read,ACK
11.667062600000000,0,0x5D,0x00,Read,ACK
11.667085220000001,0,0x5D,0x00,Read,ACK
11.667106680000000,0,0x5D,0x00,Read,ACK
11.667128320000000,0,0x5D,0x00,Read,ACK
11.667149780000001,0,0x5D,0x00,Read,ACK
11.667171280000000,0,0x5D,0x00,Read,ACK
11.667193740000000,0,0x5D,0x00,Read,ACK
11.667215440000000,0,0x5D,0x00,Read,ACK
11.667236920000001,0,0x5D,0x00,Read,ACK
11.667258640000000,0,0x5D,0x00,Read,ACK
11.667280140000001,0,0x5D,0x00,Read,ACK
11.667301640000000,0,0x5D,0x00,Read,ACK
11.667323280000000,0,0x5D,0x00,Read,ACK
11.667344760000001,0,0x5D,0x00,Read,ACK
11.667366200000000,0,0x5D,0x00,Read,ACK
11.667387659999999,0,0x5D,0x00,Read,ACK
11.667409120000000,0,0x5D,0x00,Read,ACK
11.667430780000000,0,0x5D,0x00,Read,ACK
11.667452219999999,0,0x5D,0x00,Read,ACK
11.667473700000000,0,0x5D,0x00,Read,ACK
11.667495199999999,0,0x5D,0x00,Read,ACK
11.667516760000000,0,0x5D,0x00,Read,ACK
11.667538220000001,0,0x5D,0x00,Read,ACK
11.667559700000000,0,0x5D,0x00,Read,ACK
11.667581200000001,0,0x5D,0xFC,Read,ACK
11.667602660000000,0,0x5D,0xCB,Read,ACK
11.667624119999999,0,0x5D,0x02,Read,ACK
11.667645580000000,0,0x5D,0x00,Read,ACK
11.667667020000000,0,0x5D,0x00,Read,ACK
11.667688480000001,0,0x5D,0x00,Read,ACK
11.667709940000000,0,0x5D,0x00,Read,ACK
11.667731399999999,0,0x5D,0x00,Read,ACK
11.667752860000000,0,0x5D,0x00,Read,ACK
11.667777400000000,0,0x5D,0x00,Read,ACK
11.667798879999999,0,0x5D,0x00,Read,ACK
11.667821640000000,0,0x5D,0x00,Read,ACK
11.667844479999999,0,0x5D,0x00,Read,ACK
11.667867520000000,0,0x5D,0x00,Read,ACK
11.667889000000001,0,0x5D,0x00,Read,ACK
11.667910460000000,0,0x5D,0x00,Read,ACK
11.667931899999999,0,0x5D,0x00,Read,ACK
11.667954860000000,0,0x5D,0x00,Read,ACK
11.667976299999999,0,0x5D,0x00,Read,ACK
11.667998040000001,0,0x5D,0x00,Read,ACK
11.668019680000000,0,0x5D,0x00,Read,NAK
11.673861680000000,0,0x5D,0x2F,Read,ACK
11.673885439999999,0,0x5D,0x00,Read,ACK
11.673907740000001,0,0x5D,0x04,Read,ACK
11.673929200000000,0,0x5D,0x03,Read,ACK
11.673950639999999,0,0x5D,0x8F,Read,ACK
11.673972120000000,0,0x5D,0x03,Read,ACK
11.673993619999999,0,0x5D,0xFB,Read,ACK
11.674015080000000,0,0x5D,0x02,Read,ACK
11.674036520000000,0,0x5D,0x03,Read,ACK
11.674057980000001,0,0x5D,0x02,Read,ACK
11.674080340000000,0,0x5D,0x20,Read,ACK
11.674101960000000,0,0x5D,0x13,Read,ACK
11.674123639999999,0,0x5D,0x26,Read,ACK
11.674145100000000,0,0x5D,0x09,Read,ACK
11.674166560000000,0,0x5D,0x1A,Read,ACK
11.674187999999999,0,0x5D,0x06,Read,ACK
11.674209460000000,0,0x5D,0x03,Read,ACK
11.674230919999999,0,0x5D,0x03,Read,ACK
11.674253280000000,0,0x5D,0x20,Read,ACK
11.674275900000000,0,0x5D,0x00,Read,ACK
11.674297400000000,0,0x5D,0x00,Read,ACK
11.674318840000000,0,0x5D,0x00,Read,ACK
11.674340320000001,0,0x5D,0x00,Read,ACK
11.674362060000000,0,0x5D,0x00,Read,ACK
11.674383580000001,0,0x5D,0x00,Read,ACK
11.674405060000000,0,0x5D,0x00,Read,ACK
11.674426560000001,0,0x5D,0x00,Read,ACK
11.674448000000000,0,0x5D,0x00,Read,ACK
11.674469520000001,0,0x5D,0x00,Read,ACK
11.674490960000000,0,0x5D,0x00,Read,ACK
11.674512440000001,0,0x5D,0x00,Read,ACK
11.674533940000000,0,0x5D,0x00,Read,ACK
11.674555440000001,0,0x5D,0x00,Read,ACK
11.674577080000001,0,0x5D,0x00,Read,ACK
11.674598560000000,0,0x5D,0x00,Read,ACK
11.674620080000000,0,0x5D,0x00,Read,ACK
11.674642759999999,0,0x5D,0x00,Read,ACK
11.674664260000000,0,0x5D,0x00,Read,ACK
11.674685759999999,0,0x5D,0x00,Read,ACK
11.674707260000000,0,0x5D,0x00,Read,ACK
11.674728760000001,0,0x5D,0x00,Read,ACK
11.674750480000000,0,0x5D,0x00,Read,ACK
11.674771979999999,0,0x5D,0x00,Read,ACK
11.674793440000000,0,0x5D,0x42,Read,ACK
11.674814880000000,0,0x5D,0xCC,Read,ACK
11.674836420000000,0,0x5D,0x02,Read,ACK
11.674857919999999,0,0x5D,0x00,Read,ACK
11.674880320000000,0,0x5D,0x00,Read,ACK
11.674904620000000,0,0x5D,0x00,Read,ACK
11.674926160000000,0,0x5D,0x00,Read,ACK
11.674949300000000,0,0x5D,0x00,Read,ACK
11.674971060000001,0,0x5D,0x00,Read,ACK
11.674992580000000,0,0x5D,0x00,Read,ACK
11.675014080000000,0,0x5D,0x00,Read,ACK
11.675035760000000,0,0x5D,0x00,Read,ACK
11.675057219999999,0,0x5D,0x00,Read,ACK
11.675078680000000,0,0x5D,0x00,Read,ACK
11.675100140000000,0,0x5D,0x00,Read,ACK
11.675121600000001,0,0x5D,0x00,Read,ACK
11.675143040000000,0,0x5D,0x00,Read,ACK
11.675164499999999,0,0x5D,0x00,Read,ACK
11.675186800000001,0,0x5D,0x00,Read,ACK
11.675210939999999,0,0x5D,0x00,Read,ACK
11.675232420000000,0,0x5D,0x00,Read,NAK
11.681025040000000,0,0x5D,0x2F,Read,ACK
11.681048880000001,0,0x5D,0x00,Read,ACK
11.681070560000000,0,0x5D,0x04,Read,ACK
11.681092019999999,0,0x5D,0x03,Read,ACK
11.681113480000000,0,0x5D,0x99,Read,ACK
11.681134920000000,0,0x5D,0x03,Read,ACK
11.681156400000001,0,0x5D,0x04,Read,ACK
11.681177900000000,0,0x5D,0x03,Read,ACK
11.681199339999999,0,0x5D,0x03,Read,ACK
11.681220820000000,0,0x5D,0x02,Read,ACK
11.681243139999999,0,0x5D,0x20,Read,ACK
11.681264660000000,0,0x5D,0x13,Read,ACK
11.681286099999999,0,0x5D,0x1D,Read,ACK
11.681307560000000,0,0x5D,0x09,Read,ACK
11.681330500000000,0,0x5D,0x13,Read,ACK
11.681351980000001,0,0x5D,0x06,Read,ACK
11.681374920000000,0,0x5D,0x02,Read,ACK
11.681396420000000,0,0x5D,0x03,Read,ACK
11.681418140000000,0,0x5D,0x20,Read,ACK
11.681439660000001,0,0x5D,0x00,Read,ACK
11.681461199999999,0,0x5D,0x00,Read,ACK
11.681483340000000,0,0x5D,0x00,Read,ACK
11.681505019999999,0,0x5D,0x00,Read,ACK
11.681526460000001,0,0x5D,0x00,Read,ACK
11.681547920000000,0,0x5D,0x00,Read,ACK
11.681569379999999,0,0x5D,0x00,Read,ACK
11.681590840000000,0,0x5D,0x00,Read,ACK
11.681612339999999,0,0x5D,0x00,Read,ACK
11.681633800000000,0,0x5D,0x00,Read,ACK
11.681655240000000,0,0x5D,0x00,Read,ACK
11.681676720000000,0,0x5D,0x00,Read,ACK
11.681698219999999,0,0x5D,0x00,Read,ACK
11.681719680000000,0,0x5D,0x00,Read,ACK
11.681741120000000,0,0x5D,0x00,Read,ACK
11.681762579999999,0,0x5D,0x00,Read,ACK
11.681784040000000,0,0x5D,0x00,Read,ACK
11.681805480000000,0,0x5D,0x00,Read,ACK
11.681826940000001,0,0x5D,0x00,Read,ACK
11.681848459999999,0,0x5D,0x00,Read,ACK
11.681869940000000,0,0x5D,0x00,Read,ACK
11.681891459999999,0,0x5D,0x00,Read,ACK
11.681913000000000,0,0x5D,0x00,Read,ACK
11.681934480000001,0,0x5D,0x00,Read,ACK
11.681955980000000,0,0x5D,0x88,Read,ACK
11.681977440000001,0,0x5D,0xCC,Read,ACK
11.681998880000000,0,0x5D,0x02,Read,ACK
11.682020339999999,0,0x5D,0x00,Read,ACK
11.682043240000000,0,0x5D,0x00,Read,ACK
11.682066080000000,0,0x5D,0x00,Read,ACK
11.682087579999999,0,0x5D,0x00,Read,ACK
11.682109300000000,0,0x5D,0x00,Read,ACK
11.682131460000001,0,0x5D,0x00,Read,ACK
11.682152940000000,0,0x5D,0x00,Read,ACK
11.682174399999999,0,0x5D,0x00,Read,ACK
11.682197199999999,0,0x5D,0x00,Read,ACK
11.682219940000000,0,0x5D,0x00,Read,ACK
11.682242340000000,0,0x5D,0x00,Read,ACK
11.682264640000000,0,0x5D,0x00,Read,ACK
11.682286820000000,0,0x5D,0x00,Read,ACK
11.682309460000001,0,0x5D,0x00,Read,ACK
11.682330960000000,0,0x5D,0x00,Read,ACK
11.682353720000000,0,0x5D,0x00,Read,ACK
11.682375499999999,0,0x5D,0x00,Read,ACK
11.682397020000000,0,0x5D,0x00,Read,NAK
11.687937820000000,0,0x5D,0x2F,Read,ACK
11.687961380000001,0,0x5D,0x00,Read,ACK
11.687982880000000,0,0x5D,0x04,Read,ACK
11.688004480000000,0,0x5D,0x03,Read,ACK
11.688025959999999,0,0x5D,0xA3,Read,ACK
11.688047440000000,0,0x5D,0x03,Read,ACK
11.688068899999999,0,0x5D,0x0D,Read,ACK
11.688090360000000,0,0x5D,0x03,Read,ACK
11.688111800000000,0,0x5D,0x03,Read,ACK
11.688134860000000,0,0x5D,0x02,Read,ACK
11.688156340000001,0,0x5D,0x20,Read,ACK
11.688177800000000,0,0x5D,0x13,Read,ACK
11.688200500000001,0,0x5D,0x14,Read,ACK
11.688222520000000,0,0x5D,0x09,Read,ACK
11.688246440000000,0,0x5D,0x0D,Read,ACK
11.688267919999999,0,0x5D,0x06,Read,ACK
11.688289380000001,0,0x5D,0x02,Read,ACK
11.688310840000000,0,0x5D,0x03,Read,ACK
11.688332360000000,0,0x5D,0x20,Read,ACK
11.688353859999999,0,0x5D,0x00,Read,ACK
11.688375340000000,0,0x5D,0x00,Read,ACK
11.688398100000001,0,0x5D,0x00,Read,ACK
11.688419680000001,0,0x5D,0x00,Read,ACK
11.688441180000000,0,0x5D,0x00,Read,ACK
11.688462660000001,0,0x5D,0x00,Read,ACK
11.688484160000000,0,0x5D,0x00,Read,ACK
11.688506120000000,0,0x5D,0x00,Read,ACK
11.688527580000001,0,0x5D,0x00,Read,ACK
11.688549020000000,0,0x5D,0x00,Read,ACK
11.688570479999999,0,0x5D,0x00,Read,ACK
11.688592020000000,0,0x5D,0x00,Read,ACK
11.688613500000001,0,0x5D,0x00,Read,ACK
11.688635120000001,0,0x5D,0x00,Read,ACK
11.688656760000001,0,0x5D,0x00,Read,ACK
11.688678280000000,0,0x5D,0x00,Read,ACK
11.688699760000000,0,0x5D,0x00,Read,ACK
11.688721220000000,0,0x5D,0x00,Read,ACK
11.688742660000001,0,0x5D,0x00,Read,ACK
11.688764120000000,0,0x5D,0x00,Read,ACK
11.688785599999999,0,0x5D,0x00,Read,ACK
11.688807080000000,0,0x5D,0x00,Read,ACK
11.688828539999999,0,0x5D,0x00,Read,ACK
11.688850000000000,0,0x5D,0x00,Read,ACK
11.688871460000000,0,0x5D,0xCE,Read,ACK
11.688892940000001,0,0x5D,0xCC,Read,ACK
11.688914459999999,0,0x5D,0x02,Read,ACK
11.688936020000000,0,0x5D,0x00,Read,ACK
11.688957479999999,0,0x5D,0x00,Read,ACK
11.688978980000000,0,0x5D,0x00,Read,ACK
11.689000439999999,0,0x5D,0x00,Read,ACK
11.689021920000000,0,0x5D,0x00,Read,ACK
11.689043399999999,0,0x5D,0x00,Read,ACK
11.689064860000000,0,0x5D,0x00,Read,ACK
11.689086339999999,0,0x5D,0x00,Read,ACK
11.689107840000000,0,0x5D,0x00,Read,ACK
11.689129280000000,0,0x5D,0x00,Read,ACK
11.689150740000001,0,0x5D,0x00,Read,ACK
11.689172200000000,0,0x5D,0x00,Read,ACK
11.689193660000001,0,0x5D,0x00,Read,ACK
11.689216540000000,0,0x5D,0x00,Read,ACK
11.689238240000000,0,0x5D,0x00,Read,ACK
11.689260320000001,0,0x5D,0x00,Read,ACK
11.689282100000000,0,0x5D,0x00,Read,ACK
11.689304920000000,0,0x5D,0x00,Read,NAK
11.695128820000001,0,0x5D,0x2F,Read,ACK
11.695152920000000,0,0x5D,0x00,Read,ACK
11.695174440000001,0,0x5D,0x04,Read,ACK
11.695195940000000,0,0x5D,0x03,Read,ACK
11.695217400000001,0,0x5D,0xAC,Read,ACK
11.695238860000000,0,0x5D,0x03,Read,ACK
11.695260299999999,0,0x5D,0x15,Read,ACK
11.695281760000000,0,0x5D,0x03,Read,ACK
11.695304340000000,0,0x5D,0x03,Read,ACK
11.695325800000001,0,0x5D,0x02,Read,ACK
11.695347260000000,0,0x5D,0x20,Read,ACK
11.695369520000000,0,0x5D,0x13,Read,ACK
11.695391740000000,0,0x5D,0x0C,Read,ACK
11.695414120000001,0,0x5D,0x09,Read,ACK
11.695435560000000,0,0x5D,0x08,Read,ACK
11.695457019999999,0,0x5D,0x06,Read,ACK
11.695478540000000,0,0x5D,0x02,Read,ACK
11.695499999999999,0,0x5D,0x03,Read,ACK
11.695521500000000,0,0x5D,0x20,Read,ACK
11.695543900000001,0,0x5D,0x00,Read,ACK
11.695565360000000,0,0x5D,0x00,Read,ACK
11.695586820000001,0,0x5D,0x00,Read,ACK
11.695608260000000,0,0x5D,0x00,Read,ACK
11.695629719999999,0,0x5D,0x00,Read,ACK
11.695651180000000,0,0x5D,0x00,Read,ACK
11.695672660000000,0,0x5D,0x00,Read,ACK
11.695694160000000,0,0x5D,0x00,Read,ACK
11.695715600000000,0,0x5D,0x00,Read,ACK
11.695737060000001,0,0x5D,0x00,Read,ACK
11.695758520000000,0,0x5D,0x00,Read,ACK
11.695780760000000,0,0x5D,0x00,Read,ACK
11.695802240000001,0,0x5D,0x00,Read,ACK
11.695823740000000,0,0x5D,0x00,Read,ACK
11.695845200000001,0,0x5D,0x00,Read,ACK
11.695866660000000,0,0x5D,0x00,Read,ACK
11.695888119999999,0,0x5D,0x00,Read,ACK
11.695909680000000,0,0x5D,0x00,Read,ACK
11.695931180000001,0,0x5D,0x00,Read,ACK
11.695952660000000,0,0x5D,0x00,Read,ACK
11.695974120000001,0,0x5D,0x00,Read,ACK
11.695995580000000,0,0x5D,0x00,Read,ACK
11.696017039999999,0,0x5D,0x00,Read,ACK
11.696038500000000,0,0x5D,0x00,Read,ACK
11.696059940000000,0,0x5D,0x14,Read,ACK
11.696081400000001,0,0x5D,0xCD,Read,ACK
11.696102880000000,0,0x5D,0x02,Read,ACK
11.696124380000001,0,0x5D,0x00,Read,ACK
11.696145840000000,0,0x5D,0x00,Read,ACK
11.696167360000000,0,0x5D,0x00,Read,ACK
11.696188800000000,0,0x5D,0x00,Read,ACK
11.696210260000001,0,0x5D,0x00,Read,ACK
11.696231720000000,0,0x5D,0x00,Read,ACK
11.696253159999999,0,0x5D,0x00,Read,ACK
11.696274660000000,0,0x5D,0x00,Read,ACK
11.696296220000001,0,0x5D,0x00,Read,ACK
11.696317700000000,0,0x5D,0x00,Read,ACK
11.696339180000001,0,0x5D,0x00,Read,ACK
11.696360620000000,0,0x5D,0x00,Read,ACK
11.696382079999999,0,0x5D,0x00,Read,ACK
11.696405120000000,0,0x5D,0x00,Read,ACK
11.696426660000000,0,0x5D,0x00,Read,ACK
11.696448240000000,0,0x5D,0x00,Read,ACK
11.696469920000000,0,0x5D,0x00,Read,ACK
11.696493159999999,0,0x5D,0x00,Read,NAK
11.702345440000000,0,0x5D,0x2F,Read,ACK
11.702369340000001,0,0x5D,0x00,Read,ACK
11.702390840000000,0,0x5D,0x04,Read,ACK
11.702412300000001,0,0x5D,0x03,Read,ACK
11.702433800000000,0,0x5D,0xB5,Read,ACK
11.702455300000000,0,0x5D,0x03,Read,ACK
11.702478540000000,0,0x5D,0x1D,Read,ACK
11.702500240000001,0,0x5D,0x03,Read,ACK
11.702521900000001,0,0x5D,0x03,Read,ACK
11.702543380000000,0,0x5D,0x03,Read,ACK
11.702564860000001,0,0x5D,0x20,Read,ACK
11.702586320000000,0,0x5D,0x13,Read,ACK
11.702607759999999,0,0x5D,0x03,Read,ACK
11.702629220000000,0,0x5D,0x09,Read,ACK
11.702650680000000,0,0x5D,0x03,Read,ACK
11.702672140000001,0,0x5D,0x06,Read,ACK
11.702694620000001,0,0x5D,0x02,Read,ACK
11.702717079999999,0,0x5D,0x03,Read,ACK
11.702738540000000,0,0x5D,0x20,Read,ACK
11.702760039999999,0,0x5D,0x00,Read,ACK
11.702781520000000,0,0x5D,0x00,Read,ACK
11.702803380000001,0,0x5D,0x00,Read,ACK
11.702824880000000,0,0x5D,0x00,Read,ACK
11.702846320000001,0,0x5D,0x00,Read,ACK
11.702868400000000,0,0x5D,0x00,Read,ACK
11.702889940000000,0,0x5D,0x00,Read,ACK
11.702911680000000,0,0x5D,0x00,Read,ACK
11.702933160000001,0,0x5D,0x00,Read,ACK
11.702955879999999,0,0x5D,0x00,Read,ACK
11.702977360000000,0,0x5D,0x00,Read,ACK
11.702998839999999,0,0x5D,0x00,Read,ACK
11.703020280000000,0,0x5D,0x00,Read,ACK
11.703041740000000,0,0x5D,0x00,Read,ACK
11.703063220000001,0,0x5D,0x00,Read,ACK
11.703084880000000,0,0x5D,0x00,Read,ACK
11.703106360000000,0,0x5D,0x00,Read,ACK
11.703127820000001,0,0x5D,0x00,Read,ACK
11.703149359999999,0,0x5D,0x00,Read,ACK
11.703170840000000,0,0x5D,0x00,Read,ACK
11.703192300000000,0,0x5D,0x00,Read,ACK
11.703213780000000,0,0x5D,0x00,Read,ACK
11.703235279999999,0,0x5D,0x00,Read,ACK
11.703256740000000,0,0x5D,0x00,Read,ACK
11.703278200000000,0,0x5D,0x5A,Read,ACK
11.703299700000001,0,0x5D,0xCD,Read,ACK
11.703321200000000,0,0x5D,0x02,Read,ACK
11.703342680000000,0,0x5D,0x00,Read,ACK
11.703364340000000,0,0x5D,0x00,Read,ACK
11.703385839999999,0,0x5D,0x00,Read,ACK
11.703407300000000,0,0x5D,0x00,Read,ACK
11.703428760000000,0,0x5D,0x00,Read,ACK
11.703450200000001,0,0x5D,0x00,Read,ACK
11.703471680000000,0,0x5D,0x00,Read,ACK
11.703495260000000,0,0x5D,0x00,Read,ACK
11.703516759999999,0,0x5D,0x00,Read,ACK
11.703538220000000,0,0x5D,0x00,Read,ACK
11.703559680000000,0,0x5D,0x00,Read,ACK
11.703581840000000,0,0x5D,0x00,Read,ACK
11.703603520000000,0,0x5D,0x00,Read,ACK
11.703624960000001,0,0x5D,0x00,Read,ACK
11.703646420000000,0,0x5D,0x00,Read,ACK
11.703667879999999,0,0x5D,0x00,Read,ACK
11.703689320000001,0,0x5D,0x00,Read,ACK
11.703711880000000,0,0x5D,0x00,Read,NAK
11.709492740000000,0,0x5D,0x2F,Read,ACK
11.709516040000000,0,0x5D,0x00,Read,ACK
11.709537520000000,0,0x5D,0x04,Read,ACK
11.709559000000000,0,0x5D,0x03,Read,ACK
11.709580460000000,0,0x5D,0xBF,Read,ACK
11.709601920000001,0,0x5D,0x03,Read,ACK
11.709623360000000,0,0x5D,0x25,Read,ACK
11.709645920000000,0,0x5D,0x03,Read,ACK
11.709668519999999,0,0x5D,0x03,Read,ACK
11.709691360000001,0,0x5D,0x03,Read,ACK
11.709712880000000,0,0x5D,0x20,Read,ACK
11.709734360000001,0,0x5D,0x13,Read,ACK
11.709755860000000,0,0x5D,0xFA,Read,ACK
11.709777320000001,0,0x5D,0x08,Read,ACK
11.709798980000000,0,0x5D,0xFE,Read,ACK
11.709821440000001,0,0x5D,0x05,Read,ACK
11.709843940000001,0,0x5D,0x02,Read,ACK
11.709865620000000,0,0x5D,0x03,Read,ACK
11.709887100000000,0,0x5D,0x20,Read,ACK
11.709908600000000,0,0x5D,0x00,Read,ACK
11.709930060000000,0,0x5D,0x00,Read,ACK
11.709951520000001,0,0x5D,0x00,Read,ACK
11.709972980000000,0,0x5D,0x00,Read,ACK
11.709994580000000,0,0x5D,0x00,Read,ACK
11.710016059999999,0,0x5D,0x00,Read,ACK
11.710038460000000,0,0x5D,0x00,Read,ACK
11.710060140000000,0,0x5D,0x00,Read,ACK
11.710081620000000,0,0x5D,0x00,Read,ACK
11.710103540000000,0,0x5D,0x00,Read,ACK
11.710125020000000,0,0x5D,0x00,Read,ACK
11.710146500000000,0,0x5D,0x00,Read,ACK
11.710168160000000,0,0x5D,0x00,Read,ACK
11.710189639999999,0,0x5D,0x00,Read,ACK
11.710211100000000,0,0x5D,0x00,Read,ACK
11.710232540000000,0,0x5D,0x00,Read,ACK
11.710254020000001,0,0x5D,0x00,Read,ACK
11.710275599999999,0,0x5D,0x00,Read,ACK
11.710297060000000,0,0x5D,0x00,Read,ACK
11.710318520000000,0,0x5D,0x00,Read,ACK
11.710340020000000,0,0x5D,0x00,Read,ACK
11.710361519999999,0,0x5D,0x00,Read,ACK
11.710383000000000,0,0x5D,0x00,Read,ACK
11.710404520000001,0,0x5D,0x00,Read,ACK
11.710426020000000,0,0x5D,0xA0,Read,ACK
11.710447500000001,0,0x5D,0xCD,Read,ACK
11.710469120000001,0,0x5D,0x02,Read,ACK
11.710490580000000,0,0x5D,0x00,Read,ACK
11.710512039999999,0,0x5D,0x00,Read,ACK
11.710533500000000,0,0x5D,0x00,Read,ACK
11.710554960000000,0,0x5D,0x00,Read,ACK
11.710576400000001,0,0x5D,0x00,Read,ACK
11.710597880000000,0,0x5D,0x00,Read,ACK
11.710619319999999,0,0x5D,0x00,Read,ACK
11.710640760000000,0,0x5D,0x00,Read,ACK
11.710662220000000,0,0x5D,0x00,Read,ACK
11.710683700000001,0,0x5D,0x00,Read,ACK
11.710705480000000,0,0x5D,0x00,Read,ACK
11.710726960000001,0,0x5D,0x00,Read,ACK
11.710748420000000,0,0x5D,0x00,Read,ACK
11.710770139999999,0,0x5D,0x00,Read,ACK
11.710791660000000,0,0x5D,0x00,Read,ACK
11.710813099999999,0,0x5D,0x00,Read,ACK
11.710834560000000,0,0x5D,0x00,Read,ACK
11.710856020000000,0,0x5D,0x00,Read,NAK
11.716991280000000,0,0x5D,0x2F,Read,ACK
11.717017419999999,0,0x5D,0x00,Read,ACK
11.717038880000000,0,0x5D,0x04,Read,ACK
11.717060340000000,0,0x5D,0x03,Read,ACK
11.717083499999999,0,0x5D,0xCA,Read,ACK
11.717105159999999,0,0x5D,0x03,Read,ACK
11.717126640000000,0,0x5D,0x2E,Read,ACK
11.717148079999999,0,0x5D,0x03,Read,ACK
11.717169540000000,0,0x5D,0x03,Read,ACK
11.717191000000000,0,0x5D,0x03,Read,ACK
11.717213380000000,0,0x5D,0x20,Read,ACK
11.717235340000000,0,0x5D,0x13,Read,ACK
11.717256799999999,0,0x5D,0xF0,Read,ACK
11.717278260000001,0,0x5D,0x08,Read,ACK
11.717299720000000,0,0x5D,0xF8,Read,ACK
11.717321240000000,0,0x5D,0x05,Read,ACK
11.717342680000000,0,0x5D,0x02,Read,ACK
11.717364220000000,0,0x5D,0x03,Read,ACK
11.717385719999999,0,0x5D,0x20,Read,ACK
11.717407180000000,0,0x5D,0x00,Read,ACK
11.717428640000000,0,0x5D,0x00,Read,ACK
11.717450080000001,0,0x5D,0x00,Read,ACK
11.717471540000000,0,0x5D,0x00,Read,ACK
11.717492999999999,0,0x5D,0x00,Read,ACK
11.717515060000000,0,0x5D,0x00,Read,ACK
11.717536559999999,0,0x5D,0x00,Read,ACK
11.717559160000000,0,0x5D,0x00,Read,ACK
11.717580620000000,0,0x5D,0x00,Read,ACK
11.717602080000001,0,0x5D,0x00,Read,ACK
11.717623580000000,0,0x5D,0x00,Read,ACK
11.717645040000001,0,0x5D,0x00,Read,ACK
11.717666500000000,0,0x5D,0x00,Read,ACK
11.717687939999999,0,0x5D,0x00,Read,ACK
11.717709420000000,0,0x5D,0x00,Read,ACK
11.717730860000000,0,0x5D,0x00,Read,ACK
11.717752320000001,0,0x5D,0x00,Read,ACK
11.717773820000000,0,0x5D,0x00,Read,ACK
11.717799780000000,0,0x5D,0x00,Read,ACK
11.717821680000000,0,0x5D,0x00,Read,ACK
11.717844660000001,0,0x5D,0x00,Read,ACK
11.717866860000001,0,0x5D,0x00,Read,ACK
11.717888620000000,0,0x5D,0x00,Read,ACK
11.717910460000001,0,0x5D,0x00,Read,ACK
11.717931940000000,0,0x5D,0xE6,Read,ACK
11.717953400000001,0,0x5D,0xCD,Read,ACK
11.717974920000000,0,0x5D,0x02,Read,ACK
11.717996460000000,0,0x5D,0x00,Read,ACK
11.718017939999999,0,0x5D,0x00,Read,ACK
11.718039400000000,0,0x5D,0x00,Read,ACK
11.718061479999999,0,0x5D,0x00,Read,ACK
11.718083220000000,0,0x5D,0x00,Read,ACK
11.718105080000001,0,0x5D,0x00,Read,ACK
11.718127120000000,0,0x5D,0x00,Read,ACK
11.718148619999999,0,0x5D,0x00,Read,ACK
11.718170060000000,0,0x5D,0x00,Read,ACK
11.718191640000001,0,0x5D,0x00,Read,ACK
11.718213120000000,0,0x5D,0x00,Read,ACK
11.718234620000000,0,0x5D,0x00,Read,ACK
11.718256300000000,0,0x5D,0x00,Read,ACK
11.718277779999999,0,0x5D,0x00,Read,ACK
11.718299240000000,0,0x5D,0x00,Read,ACK
11.718320680000000,0,0x5D,0x00,Read,ACK
11.718344280000000,0,0x5D,0x00,Read,ACK
11.718365779999999,0,0x5D,0x00,Read,NAK
11.723933260000001,0,0x5D,0x2F,Read,ACK
11.723956780000000,0,0x5D,0x00,Read,ACK
11.723978880000001,0,0x5D,0x04,Read,ACK
11.724000380000000,0,0x5D,0x03,Read,ACK
11.724021840000001,0,0x5D,0xD4,Read,ACK
11.724043300000000,0,0x5D,0x03,Read,ACK
11.724064800000001,0,0x5D,0x37,Read,ACK
11.724086260000000,0,0x5D,0x03,Read,ACK
11.724108040000001,0,0x5D,0x02,Read,ACK
11.724130580000001,0,0x5D,0x03,Read,ACK
11.724152080000000,0,0x5D,0x20,Read,ACK
11.724173580000000,0,0x5D,0x13,Read,ACK
11.724195099999999,0,0x5D,0xE6,Read,ACK
11.724216840000000,0,0x5D,0x08,Read,ACK
11.724238560000000,0,0x5D,0xF1,Read,ACK
11.724260019999999,0,0x5D,0x05,Read,ACK
11.724282499999999,0,0x5D,0x02,Read,ACK
11.724303980000000,0,0x5D,0x03,Read,ACK
11.724325700000000,0,0x5D,0x20,Read,ACK
11.724347220000000,0,0x5D,0x00,Read,ACK
11.724370260000001,0,0x5D,0x00,Read,ACK
11.724391920000000,0,0x5D,0x00,Read,ACK
11.724415219999999,0,0x5D,0x00,Read,ACK
11.724436780000000,0,0x5D,0x00,Read,ACK
11.724458300000000,0,0x5D,0x00,Read,ACK
11.724479740000000,0,0x5D,0x00,Read,ACK
11.724501200000001,0,0x5D,0x00,Read,ACK
11.724522720000000,0,0x5D,0x00,Read,ACK
11.724544220000000,0,0x5D,0x00,Read,ACK
11.724565680000000,0,0x5D,0x00,Read,ACK
11.724587180000000,0,0x5D,0x00,Read,ACK
11.724608679999999,0,0x5D,0x00,Read,ACK
11.724630180000000,0,0x5D,0x00,Read,ACK
11.724651679999999,0,0x5D,0x00,Read,ACK
11.724673160000000,0,0x5D,0x00,Read,ACK
11.724694660000001,0,0x5D,0x00,Read,ACK
11.724716180000000,0,0x5D,0x00,Read,ACK
11.724737640000001,0,0x5D,0x00,Read,ACK
11.724759160000000,0,0x5D,0x00,Read,ACK
11.724780600000001,0,0x5D,0x00,Read,ACK
11.724802060000000,0,0x5D,0x00,Read,ACK
11.724823499999999,0,0x5D,0x00,Read,ACK
11.724844960000000,0,0x5D,0x00,Read,ACK
11.724866440000000,0,0x5D,0x2C,Read,ACK
11.724887940000000,0,0x5D,0xCE,Read,ACK
11.724909419999999,0,0x5D,0x02,Read,ACK
11.724930940000000,0,0x5D,0x00,Read,ACK
11.724952719999999,0,0x5D,0x00,Read,ACK
11.724977160000000,0,0x5D,0x00,Read,ACK
11.725000639999999,0,0x5D,0x00,Read,ACK
11.725022780000000,0,0x5D,0x00,Read,ACK
11.725044340000000,0,0x5D,0x00,Read,ACK
11.725066220000000,0,0x5D,0x00,Read,ACK
11.725087700000000,0,0x5D,0x00,Read,ACK
11.725109300000000,0,0x5D,0x00,Read,ACK
11.725130780000001,0,0x5D,0x00,Read,ACK
11.725152260000000,0,0x5D,0x00,Read,ACK
11.725174020000001,0,0x5D,0x00,Read,ACK
11.725195700000000,0,0x5D,0x00,Read,ACK
11.725217460000000,0,0x5D,0x00,Read,ACK
11.725239300000000,0,0x5D,0x00,Read,ACK
11.725260759999999,0,0x5D,0x00,Read,ACK
11.725282760000001,0,0x5D,0x00,Read,ACK
11.725304220000000,0,0x5D,0x00,Read,NAK
11.730904660000000,0,0x5D,0x2F,Read,ACK
11.730926119999999,0,0x5D,0x00,Read,ACK
11.730947560000001,0,0x5D,0x04,Read,ACK
11.730969020000000,0,0x5D,0x03,Read,ACK
11.730990500000001,0,0x5D,0xDF,Read,ACK
11.731012020000000,0,0x5D,0x03,Read,ACK
11.731034460000000,0,0x5D,0x3F,Read,ACK
11.731055919999999,0,0x5D,0x03,Read,ACK
11.731077839999999,0,0x5D,0x02,Read,ACK
11.731099700000000,0,0x5D,0x03,Read,ACK
11.731121580000000,0,0x5D,0x20,Read,ACK
11.731143039999999,0,0x5D,0x13,Read,ACK
11.731164500000000,0,0x5D,0xDB,Read,ACK
11.731185959999999,0,0x5D,0x08,Read,ACK
11.731207400000001,0,0x5D,0xEA,Read,ACK
11.731228860000000,0,0x5D,0x05,Read,ACK
11.731251660000000,0,0x5D,0x03,Read,ACK
11.731273160000001,0,0x5D,0x03,Read,ACK
11.731294620000000,0,0x5D,0x20,Read,ACK
11.731316059999999,0,0x5D,0x00,Read,ACK
11.731337520000000,0,0x5D,0x00,Read,ACK
11.731359160000000,0,0x5D,0x00,Read,ACK
11.731380679999999,0,0x5D,0x00,Read,ACK
11.731402140000000,0,0x5D,0x00,Read,ACK
11.731423580000000,0,0x5D,0x00,Read,ACK
11.731445060000000,0,0x5D,0x00,Read,ACK
11.731466559999999,0,0x5D,0x00,Read,ACK
11.731488020000000,0,0x5D,0x00,Read,ACK
11.731509660000000,0,0x5D,0x00,Read,ACK
11.731531120000000,0,0x5D,0x00,Read,ACK
11.731552580000001,0,0x5D,0x00,Read,ACK
11.731574020000000,0,0x5D,0x00,Read,ACK
11.731595499999999,0,0x5D,0x00,Read,ACK
11.731617000000000,0,0x5D,0x00,Read,ACK
11.731638459999999,0,0x5D,0x00,Read,ACK
11.731659900000000,0,0x5D,0x00,Read,ACK
11.731681360000000,0,0x5D,0x00,Read,ACK
11.731702820000001,0,0x5D,0x00,Read,ACK
11.731724320000000,0,0x5D,0x00,Read,ACK
11.731745800000001,0,0x5D,0x00,Read,ACK
11.731767319999999,0,0x5D,0x00,Read,ACK
11.731788820000000,0,0x5D,0x00,Read,ACK
11.731810299999999,0,0x5D,0x00,Read,ACK
11.731831800000000,0,0x5D,0x72,Read,ACK
11.731853240000000,0,0x5D,0xCE,Read,ACK
11.731874700000001,0,0x5D,0x02,Read,ACK
11.731896880000001,0,0x5D,0x00,Read,ACK
11.731918360000000,0,0x5D,0x00,Read,ACK
11.731939819999999,0,0x5D,0x00,Read,ACK
11.731961260000000,0,0x5D,0x00,Read,ACK
11.731982720000000,0,0x5D,0x00,Read,ACK
11.732004180000001,0,0x5D,0x00,Read,ACK
11.732025640000000,0,0x5D,0x00,Read,ACK
11.732047160000000,0,0x5D,0x00,Read,ACK
11.732068600000000,0,0x5D,0x00,Read,ACK
11.732090060000001,0,0x5D,0x00,Read,ACK
11.732111520000000,0,0x5D,0x00,Read,ACK
11.732135740000000,0,0x5D,0x00,Read,ACK
11.732158139999999,0,0x5D,0x00,Read,ACK
11.732180280000000,0,0x5D,0x00,Read,ACK
11.732201760000001,0,0x5D,0x00,Read,ACK
11.732223680000001,0,0x5D,0x00,Read,ACK
11.732245360000000,0,0x5D,0x00,Read,ACK
11.732266879999999,0,0x5D,0x00,Read,NAK
11.738012840000000,0,0x5D,0x2F,Read,ACK
11.738036700000000,0,0x5D,0x00,Read,ACK
11.738058400000000,0,0x5D,0x04,Read,ACK
11.738079880000001,0,0x5D,0x03,Read,ACK
11.738101360000000,0,0x5D,0xE9,Read,ACK
11.738122860000001,0,0x5D,0x03,Read,ACK
11.738144360000000,0,0x5D,0x48,Read,ACK
11.738165840000001,0,0x5D,0x03,Read,ACK
11.738187360000000,0,0x5D,0x02,Read,ACK
11.738209720000000,0,0x5D,0x03,Read,ACK
11.738231200000000,0,0x5D,0x20,Read,ACK
11.738253280000000,0,0x5D,0x13,Read,ACK
11.738275160000001,0,0x5D,0xD0,Read,ACK
11.738297599999999,0,0x5D,0x08,Read,ACK
11.738319080000000,0,0x5D,0xE3,Read,ACK
11.738340579999999,0,0x5D,0x05,Read,ACK
11.738362020000000,0,0x5D,0x03,Read,ACK
11.738383480000000,0,0x5D,0x03,Read,ACK
11.738404940000001,0,0x5D,0x20,Read,ACK
11.738426400000000,0,0x5D,0x00,Read,ACK
11.738448320000000,0,0x5D,0x00,Read,ACK
11.738470260000000,0,0x5D,0x00,Read,ACK
11.738492020000001,0,0x5D,0x00,Read,ACK
11.738513460000000,0,0x5D,0x00,Read,ACK
11.738534919999999,0,0x5D,0x00,Read,ACK
11.738556360000000,0,0x5D,0x00,Read,ACK
11.738579059999999,0,0x5D,0x00,Read,ACK
11.738600520000000,0,0x5D,0x00,Read,ACK
11.738621980000000,0,0x5D,0x00,Read,ACK
11.738643440000001,0,0x5D,0x00,Read,ACK
11.738664880000000,0,0x5D,0x00,Read,ACK
11.738686360000001,0,0x5D,0x00,Read,ACK
11.738707800000000,0,0x5D,0x00,Read,ACK
11.738729259999999,0,0x5D,0x00,Read,ACK
11.738752600000000,0,0x5D,0x00,Read,ACK
11.738774220000000,0,0x5D,0x00,Read,ACK
11.738795700000001,0,0x5D,0x00,Read,ACK
11.738817200000000,0,0x5D,0x00,Read,ACK
11.738838660000001,0,0x5D,0x00,Read,ACK
11.738860120000000,0,0x5D,0x00,Read,ACK
11.738881579999999,0,0x5D,0x00,Read,ACK
11.738903020000000,0,0x5D,0x00,Read,ACK
11.738924480000000,0,0x5D,0x00,Read,ACK
11.738945940000001,0,0x5D,0xB8,Read,ACK
11.738967380000000,0,0x5D,0xCE,Read,ACK
11.738988839999999,0,0x5D,0x02,Read,ACK
11.739010660000000,0,0x5D,0x00,Read,ACK
11.739032140000001,0,0x5D,0x00,Read,ACK
11.739053600000000,0,0x5D,0x00,Read,ACK
11.739075059999999,0,0x5D,0x00,Read,ACK
11.739096580000000,0,0x5D,0x00,Read,ACK
11.739118160000000,0,0x5D,0x00,Read,ACK
11.739139659999999,0,0x5D,0x00,Read,ACK
11.739161120000000,0,0x5D,0x00,Read,ACK
11.739182580000000,0,0x5D,0x00,Read,ACK
11.739204120000000,0,0x5D,0x00,Read,ACK
11.739225619999999,0,0x5D,0x00,Read,ACK
11.739247140000000,0,0x5D,0x00,Read,ACK
11.739268620000001,0,0x5D,0x00,Read,ACK
11.739290080000000,0,0x5D,0x00,Read,ACK
11.739311560000001,0,0x5D,0x00,Read,ACK
11.739334019999999,0,0x5D,0x00,Read,ACK
11.739356320000001,0,0x5D,0x00,Read,ACK
11.739378540000001,0,0x5D,0x00,Read,NAK
11.745149720000001,0,0x5D,0x2F,Read,ACK
11.745173440000000,0,0x5D,0x00,Read,ACK
11.745196060000000,0,0x5D,0x04,Read,ACK
11.745217540000001,0,0x5D,0x03,Read,ACK
11.745239040000000,0,0x5D,0xF2,Read,ACK
11.745260500000001,0,0x5D,0x03,Read,ACK
11.745281980000000,0,0x5D,0x51,Read,ACK
11.745303460000001,0,0x5D,0x03,Read,ACK
11.745324920000000,0,0x5D,0x02,Read,ACK
11.745346380000001,0,0x5D,0x03,Read,ACK
11.745368879999999,0,0x5D,0x20,Read,ACK
11.745390400000000,0,0x5D,0x13,Read,ACK
11.745412419999999,0,0x5D,0xC4,Read,ACK
11.745436480000000,0,0x5D,0x08,Read,ACK
11.745457960000000,0,0x5D,0xDB,Read,ACK
11.745479400000001,0,0x5D,0x05,Read,ACK
11.745500880000000,0,0x5D,0x02,Read,ACK
11.745522360000001,0,0x5D,0x03,Read,ACK
11.745543820000000,0,0x5D,0x20,Read,ACK
11.745565340000001,0,0x5D,0x00,Read,ACK
11.745588059999999,0,0x5D,0x00,Read,ACK
11.745609600000000,0,0x5D,0x00,Read,ACK
11.745631080000001,0,0x5D,0x00,Read,ACK
11.745652540000000,0,0x5D,0x00,Read,ACK
11.745673999999999,0,0x5D,0x00,Read,ACK
11.745695780000000,0,0x5D,0x00,Read,ACK
11.745717300000001,0,0x5D,0x00,Read,ACK
11.745738820000000,0,0x5D,0x00,Read,ACK
11.745760320000000,0,0x5D,0x00,Read,ACK
11.745781760000000,0,0x5D,0x00,Read,ACK
11.745803540000001,0,0x5D,0x00,Read,ACK
11.745825379999999,0,0x5D,0x00,Read,ACK
11.745846900000000,0,0x5D,0x00,Read,ACK
11.745868400000001,0,0x5D,0x00,Read,ACK
11.745889840000000,0,0x5D,0x00,Read,ACK
11.745911299999999,0,0x5D,0x00,Read,ACK
11.745932780000000,0,0x5D,0x00,Read,ACK
11.745954319999999,0,0x5D,0x00,Read,ACK
11.745975840000000,0,0x5D,0x00,Read,ACK
11.745997300000001,0,0x5D,0x00,Read,ACK
11.746018760000000,0,0x5D,0x00,Read,ACK
11.746040239999999,0,0x5D,0x00,Read,ACK
11.746061839999999,0,0x5D,0x00,Read,ACK
11.746083320000000,0,0x5D,0xFE,Read,ACK
11.746106559999999,0,0x5D,0xCE,Read,ACK
11.746128040000000,0,0x5D,0x02,Read,ACK
11.746149559999999,0,0x5D,0x00,Read,ACK
11.746171020000000,0,0x5D,0x00,Read,ACK
11.746192560000001,0,0x5D,0x00,Read,ACK
11.746214040000000,0,0x5D,0x00,Read,ACK
11.746235499999999,0,0x5D,0x00,Read,ACK
11.746256960000000,0,0x5D,0x00,Read,ACK
11.746278480000001,0,0x5D,0x00,Read,ACK
11.746299940000000,0,0x5D,0x00,Read,ACK
11.746321439999999,0,0x5D,0x00,Read,ACK
11.746342900000000,0,0x5D,0x00,Read,ACK
11.746364420000001,0,0x5D,0x00,Read,ACK
11.746390099999999,0,0x5D,0x00,Read,ACK
11.746411560000000,0,0x5D,0x00,Read,ACK
11.746434420000000,0,0x5D,0x00,Read,ACK
11.746458219999999,0,0x5D,0x00,Read,ACK
11.746481160000000,0,0x5D,0x00,Read,ACK
11.746502619999999,0,0x5D,0x00,Read,ACK
11.746524080000000,0,0x5D,0x00,Read,NAK
11.752369099999999,0,0x5D,0x2F,Read,ACK
11.752392340000000,0,0x5D,0x00,Read,ACK
11.752413799999999,0,0x5D,0x04,Read,ACK
11.752435260000000,0,0x5D,0x03,Read,ACK
11.752456700000000,0,0x5D,0xFC,Read,ACK
11.752479200000000,0,0x5D,0x03,Read,ACK
11.752501040000000,0,0x5D,0x5A,Read,ACK
11.752523000000000,0,0x5D,0x03,Read,ACK
11.752544459999999,0,0x5D,0x03,Read,ACK
11.752565900000000,0,0x5D,0x03,Read,ACK
11.752587360000000,0,0x5D,0x20,Read,ACK
11.752608820000001,0,0x5D,0x13,Read,ACK
11.752630340000000,0,0x5D,0xB9,Read,ACK
11.752651840000000,0,0x5D,0x08,Read,ACK
11.752673320000000,0,0x5D,0xD4,Read,ACK
11.752694800000000,0,0x5D,0x05,Read,ACK
11.752716260000000,0,0x5D,0x02,Read,ACK
11.752737740000001,0,0x5D,0x03,Read,ACK
11.752759220000000,0,0x5D,0x20,Read,ACK
11.752780700000001,0,0x5D,0x00,Read,ACK
11.752802360000000,0,0x5D,0x00,Read,ACK
11.752823840000000,0,0x5D,0x00,Read,ACK
11.752845300000001,0,0x5D,0x00,Read,ACK
11.752866740000000,0,0x5D,0x00,Read,ACK
11.752888220000001,0,0x5D,0x00,Read,ACK
11.752909720000000,0,0x5D,0x00,Read,ACK
11.752931200000001,0,0x5D,0x00,Read,ACK
11.752952700000000,0,0x5D,0x00,Read,ACK
11.752974240000000,0,0x5D,0x00,Read,ACK
11.752995719999999,0,0x5D,0x00,Read,ACK
11.753017180000001,0,0x5D,0x00,Read,ACK
11.753038620000000,0,0x5D,0x00,Read,ACK
11.753060079999999,0,0x5D,0x00,Read,ACK
11.753081540000000,0,0x5D,0x00,Read,ACK
11.753102999999999,0,0x5D,0x00,Read,ACK
11.753124500000000,0,0x5D,0x00,Read,ACK
11.753145979999999,0,0x5D,0x00,Read,ACK
11.753167420000000,0,0x5D,0x00,Read,ACK
11.753188880000000,0,0x5D,0x00,Read,ACK
11.753210380000001,0,0x5D,0x00,Read,ACK
11.753231840000000,0,0x5D,0x00,Read,ACK
11.753253279999999,0,0x5D,0x00,Read,ACK
11.753274760000000,0,0x5D,0x00,Read,ACK
11.753296260000001,0,0x5D,0x44,Read,ACK
11.753317700000000,0,0x5D,0xCF,Read,ACK
11.753339159999999,0,0x5D,0x02,Read,ACK
11.753360640000000,0,0x5D,0x00,Read,ACK
11.753382139999999,0,0x5D,0x00,Read,ACK
11.753403600000000,0,0x5D,0x00,Read,ACK
11.753425240000000,0,0x5D,0x00,Read,ACK
11.753446759999999,0,0x5D,0x00,Read,ACK
11.753468280000000,0,0x5D,0x00,Read,ACK
11.753489780000001,0,0x5D,0x00,Read,ACK
11.753512560000001,0,0x5D,0x00,Read,ACK
11.753536159999999,0,0x5D,0x00,Read,ACK
11.753557960000000,0,0x5D,0x00,Read,ACK
11.753579800000001,0,0x5D,0x00,Read,ACK
11.753601280000000,0,0x5D,0x00,Read,ACK
11.753623340000001,0,0x5D,0x00,Read,ACK
11.753644820000000,0,0x5D,0x00,Read,ACK
11.753666259999999,0,0x5D,0x00,Read,ACK
11.753687740000000,0,0x5D,0x00,Read,ACK
11.753709219999999,0,0x5D,0x00,Read,ACK
11.753730680000000,0,0x5D,0x00,Read,NAK
11.759460020000001,0,0x5D,0x2F,Read,ACK
11.759483319999999,0,0x5D,0x00,Read,ACK
11.759504760000000,0,0x5D,0x04,Read,ACK
11.759526220000000,0,0x5D,0x03,Read,ACK
11.759547680000001,0,0x5D,0x04,Read,ACK
11.759569180000000,0,0x5D,0x04,Read,ACK
11.759593320000000,0,0x5D,0x63,Read,ACK
11.759615280000000,0,0x5D,0x03,Read,ACK
11.759636759999999,0,0x5D,0x03,Read,ACK
11.759658240000000,0,0x5D,0x03,Read,ACK
11.759679700000000,0,0x5D,0x20,Read,ACK
11.759701160000001,0,0x5D,0x13,Read,ACK
11.759722600000000,0,0x5D,0xAE,Read,ACK
11.759744039999999,0,0x5D,0x08,Read,ACK
11.759765520000000,0,0x5D,0xCD,Read,ACK
11.759786960000000,0,0x5D,0x05,Read,ACK
11.759808420000001,0,0x5D,0x02,Read,ACK
11.759829860000000,0,0x5D,0x02,Read,ACK
11.759852779999999,0,0x5D,0x20,Read,ACK
11.759874220000000,0,0x5D,0x00,Read,ACK
11.759896339999999,0,0x5D,0x00,Read,ACK
11.759917840000000,0,0x5D,0x00,Read,ACK
11.759940220000001,0,0x5D,0x00,Read,ACK
11.759962260000000,0,0x5D,0x00,Read,ACK
11.759983719999999,0,0x5D,0x00,Read,ACK
11.760005200000000,0,0x5D,0x00,Read,ACK
11.760026699999999,0,0x5D,0x00,Read,ACK
11.760048160000000,0,0x5D,0x00,Read,ACK
11.760069600000000,0,0x5D,0x00,Read,ACK
11.760091040000001,0,0x5D,0x00,Read,ACK
11.760112500000000,0,0x5D,0x00,Read,ACK
11.760133959999999,0,0x5D,0x00,Read,ACK
11.760155400000000,0,0x5D,0x00,Read,ACK
11.760176860000000,0,0x5D,0x00,Read,ACK
11.760198340000001,0,0x5D,0x00,Read,ACK
11.760219780000000,0,0x5D,0x00,Read,ACK
11.760241260000001,0,0x5D,0x00,Read,ACK
11.760262780000000,0,0x5D,0x00,Read,ACK
11.760284260000001,0,0x5D,0x00,Read,ACK
11.760305740000000,0,0x5D,0x00,Read,ACK
11.760327240000001,0,0x5D,0x00,Read,ACK
11.760348700000000,0,0x5D,0x00,Read,ACK
11.760370240000000,0,0x5D,0x00,Read,ACK
11.760391719999999,0,0x5D,0x8A,Read,ACK
11.760413240000000,0,0x5D,0xCF,Read,ACK
11.760434699999999,0,0x5D,0x02,Read,ACK
11.760456160000000,0,0x5D,0x00,Read,ACK
11.760477720000001,0,0x5D,0x00,Read,ACK
11.760499180000000,0,0x5D,0x00,Read,ACK
11.760520639999999,0,0x5D,0x00,Read,ACK
11.760542080000000,0,0x5D,0x00,Read,ACK
11.760563560000000,0,0x5D,0x00,Read,ACK
11.760585140000000,0,0x5D,0x00,Read,ACK
11.760607739999999,0,0x5D,0x00,Read,ACK
11.760629200000000,0,0x5D,0x00,Read,ACK
11.760652420000000,0,0x5D,0x00,Read,ACK
11.760674860000000,0,0x5D,0x00,Read,ACK
11.760696540000000,0,0x5D,0x00,Read,ACK
11.760718839999999,0,0x5D,0x00,Read,ACK
11.760740360000000,0,0x5D,0x00,Read,ACK
11.760762020000000,0,0x5D,0x00,Read,ACK
11.760784579999999,0,0x5D,0x00,Read,ACK
11.760807099999999,0,0x5D,0x00,Read,ACK
11.760829680000001,0,0x5D,0x00,Read,NAK
11.766919220000000,0,0x5D,0x2F,Read,ACK
11.766942459999999,0,0x5D,0x00,Read,ACK
11.766963940000000,0,0x5D,0x04,Read,ACK
11.766985500000001,0,0x5D,0x03,Read,ACK
11.767007000000000,0,0x5D,0x0C,Read,ACK
11.767028560000000,0,0x5D,0x04,Read,ACK
11.767050040000001,0,0x5D,0x6B,Read,ACK
11.767071500000000,0,0x5D,0x03,Read,ACK
11.767094520000001,0,0x5D,0x03,Read,ACK
11.767116079999999,0,0x5D,0x03,Read,ACK
11.767138140000000,0,0x5D,0x20,Read,ACK
11.767159639999999,0,0x5D,0x13,Read,ACK
11.767181100000000,0,0x5D,0xA4,Read,ACK
11.767202620000001,0,0x5D,0x08,Read,ACK
11.767224360000000,0,0x5D,0xC7,Read,ACK
11.767246520000000,0,0x5D,0x05,Read,ACK
11.767267980000000,0,0x5D,0x02,Read,ACK
11.767289460000001,0,0x5D,0x02,Read,ACK
11.767310940000000,0,0x5D,0x20,Read,ACK
11.767332400000001,0,0x5D,0x00,Read,ACK
11.767353860000000,0,0x5D,0x00,Read,ACK
11.767375319999999,0,0x5D,0x00,Read,ACK
11.767396840000000,0,0x5D,0x00,Read,ACK
11.767418279999999,0,0x5D,0x00,Read,ACK
11.767439740000000,0,0x5D,0x00,Read,ACK
11.767461200000000,0,0x5D,0x00,Read,ACK
11.767482660000001,0,0x5D,0x00,Read,ACK
11.767504199999999,0,0x5D,0x00,Read,ACK
11.767525680000000,0,0x5D,0x00,Read,ACK
11.767547340000000,0,0x5D,0x00,Read,ACK
11.767568839999999,0,0x5D,0x00,Read,ACK
11.767590320000000,0,0x5D,0x00,Read,ACK
11.767611840000001,0,0x5D,0x00,Read,ACK
11.767633340000000,0,0x5D,0x00,Read,ACK
11.767654840000001,0,0x5D,0x00,Read,ACK
11.767676320000000,0,0x5D,0x00,Read,ACK
11.767697780000001,0,0x5D,0x00,Read,ACK
11.767719280000000,0,0x5D,0x00,Read,ACK
11.767740740000001,0,0x5D,0x00,Read,ACK
11.767762980000001,0,0x5D,0x00,Read,ACK
11.767784839999999,0,0x5D,0x00,Read,ACK
11.767806459999999,0,0x5D,0x00,Read,ACK
11.767828180000000,0,0x5D,0x00,Read,ACK
11.767850660000001,0,0x5D,0xD0,Read,ACK
11.767872140000000,0,0x5D,0xCF,Read,ACK
11.767894340000000,0,0x5D,0x02,Read,ACK
11.767915800000001,0,0x5D,0x00,Read,ACK
11.767937280000000,0,0x5D,0x00,Read,ACK
11.767958900000000,0,0x5D,0x00,Read,ACK
11.767980780000000,0,0x5D,0x00,Read,ACK
11.768002259999999,0,0x5D,0x00,Read,ACK
11.768025460000000,0,0x5D,0x00,Read,ACK
11.768047940000001,0,0x5D,0x00,Read,ACK
11.768070700000001,0,0x5D,0x00,Read,ACK
11.768094880000000,0,0x5D,0x00,Read,ACK
11.768116320000001,0,0x5D,0x00,Read,ACK
11.768138380000000,0,0x5D,0x00,Read,ACK
11.768160360000000,0,0x5D,0x00,Read,ACK
11.768182860000000,0,0x5D,0x00,Read,ACK
11.768204340000000,0,0x5D,0x00,Read,ACK
11.768226020000000,0,0x5D,0x00,Read,ACK
11.768247499999999,0,0x5D,0x00,Read,ACK
11.768268980000000,0,0x5D,0x00,Read,ACK
11.768291780000000,0,0x5D,0x00,Read,NAK
11.773849719999999,0,0x5D,0x2F,Read,ACK
11.773873580000000,0,0x5D,0x00,Read,ACK
11.773895180000000,0,0x5D,0x04,Read,ACK
11.773917060000000,0,0x5D,0x03,Read,ACK
11.773938520000000,0,0x5D,0x13,Read,ACK
11.773959980000001,0,0x5D,0x04,Read,ACK
11.773981460000000,0,0x5D,0x74,Read,ACK
11.774002940000001,0,0x5D,0x03,Read,ACK
11.774024420000000,0,0x5D,0x03,Read,ACK
11.774045859999999,0,0x5D,0x02,Read,ACK
11.774067340000000,0,0x5D,0x20,Read,ACK
11.774088839999999,0,0x5D,0x13,Read,ACK
11.774110500000001,0,0x5D,0x9C,Read,ACK
11.774133780000000,0,0x5D,0x08,Read,ACK
11.774155260000001,0,0x5D,0xC4,Read,ACK
11.774176779999999,0,0x5D,0x05,Read,ACK
11.774198240000000,0,0x5D,0x02,Read,ACK
11.774219700000000,0,0x5D,0x03,Read,ACK
11.774241160000001,0,0x5D,0x20,Read,ACK
11.774262620000000,0,0x5D,0x00,Read,ACK
11.774284320000000,0,0x5D,0x00,Read,ACK
11.774305920000000,0,0x5D,0x00,Read,ACK
11.774327420000001,0,0x5D,0x00,Read,ACK
11.774348880000000,0,0x5D,0x00,Read,ACK
11.774370380000001,0,0x5D,0x00,Read,ACK
11.774391840000000,0,0x5D,0x00,Read,ACK
11.774413300000001,0,0x5D,0x00,Read,ACK
11.774434760000000,0,0x5D,0x00,Read,ACK
11.774456219999999,0,0x5D,0x00,Read,ACK
11.774477680000000,0,0x5D,0x00,Read,ACK
11.774499199999999,0,0x5D,0x00,Read,ACK
11.774520720000000,0,0x5D,0x00,Read,ACK
11.774542179999999,0,0x5D,0x00,Read,ACK
11.774563620000000,0,0x5D,0x00,Read,ACK
11.774585080000000,0,0x5D,0x00,Read,ACK
11.774606520000001,0,0x5D,0x00,Read,ACK
11.774627980000000,0,0x5D,0x00,Read,ACK
11.774649439999999,0,0x5D,0x00,Read,ACK
11.774670900000000,0,0x5D,0x00,Read,ACK
11.774692340000000,0,0x5D,0x00,Read,ACK
11.774713800000001,0,0x5D,0x00,Read,ACK
11.774735260000000,0,0x5D,0x00,Read,ACK
11.774756719999999,0,0x5D,0x00,Read,ACK
11.774778180000000,0,0x5D,0x16,Read,ACK
11.774799620000000,0,0x5D,0xD0,Read,ACK
11.774821100000000,0,0x5D,0x02,Read,ACK
11.774842540000000,0,0x5D,0x00,Read,ACK
11.774864000000001,0,0x5D,0x00,Read,ACK
11.774885480000000,0,0x5D,0x00,Read,ACK
11.774908580000000,0,0x5D,0x00,Read,ACK
11.774930140000000,0,0x5D,0x00,Read,ACK
11.774951800000000,0,0x5D,0x00,Read,ACK
11.774973480000000,0,0x5D,0x00,Read,ACK
11.774995240000001,0,0x5D,0x00,Read,ACK
11.775016740000000,0,0x5D,0x00,Read,ACK
11.775038600000000,0,0x5D,0x00,Read,ACK
11.775060099999999,0,0x5D,0x00,Read,ACK
11.775081840000000,0,0x5D,0x00,Read,ACK
11.775104580000001,0,0x5D,0x00,Read,ACK
11.775126060000000,0,0x5D,0x00,Read,ACK
11.775147540000001,0,0x5D,0x00,Read,ACK
11.775169060000000,0,0x5D,0x00,Read,ACK
11.775191580000000,0,0x5D,0x00,Read,ACK
11.775213160000000,0,0x5D,0x00,Read,NAK
11.780910320000000,0,0x5D,0x2F,Read,ACK
11.780933220000000,0,0x5D,0x00,Read,ACK
11.780954680000001,0,0x5D,0x04,Read,ACK
11.780976120000000,0,0x5D,0x03,Read,ACK
11.780997599999999,0,0x5D,0x19,Read,ACK
11.781019100000000,0,0x5D,0x04,Read,ACK
11.781040559999999,0,0x5D,0x7D,Read,ACK
11.781062479999999,0,0x5D,0x03,Read,ACK
11.781084699999999,0,0x5D,0x03,Read,ACK
11.781107380000000,0,0x5D,0x02,Read,ACK
11.781128880000001,0,0x5D,0x20,Read,ACK
11.781150340000000,0,0x5D,0x13,Read,ACK
11.781171860000001,0,0x5D,0x95,Read,ACK
11.781193360000000,0,0x5D,0x08,Read,ACK
11.781214800000001,0,0x5D,0xC2,Read,ACK
11.781236280000000,0,0x5D,0x05,Read,ACK
11.781259220000001,0,0x5D,0x03,Read,ACK
11.781281840000000,0,0x5D,0x03,Read,ACK
11.781303299999999,0,0x5D,0x20,Read,ACK
11.781324780000000,0,0x5D,0x00,Read,ACK
11.781347179999999,0,0x5D,0x00,Read,ACK
11.781370740000000,0,0x5D,0x00,Read,ACK
11.781392380000000,0,0x5D,0x00,Read,ACK
11.781413840000001,0,0x5D,0x00,Read,ACK
11.781435500000001,0,0x5D,0x00,Read,ACK
11.781456980000000,0,0x5D,0x00,Read,ACK
11.781478440000001,0,0x5D,0x00,Read,ACK
11.781499900000000,0,0x5D,0x00,Read,ACK
11.781521600000000,0,0x5D,0x00,Read,ACK
11.781543060000001,0,0x5D,0x00,Read,ACK
11.781564560000000,0,0x5D,0x00,Read,ACK
11.781586020000001,0,0x5D,0x00,Read,ACK
11.781607480000000,0,0x5D,0x00,Read,ACK
11.781628939999999,0,0x5D,0x00,Read,ACK
11.781650700000000,0,0x5D,0x00,Read,ACK
11.781672159999999,0,0x5D,0x00,Read,ACK
11.781693620000000,0,0x5D,0x00,Read,ACK
11.781715280000000,0,0x5D,0x00,Read,ACK
11.781736759999999,0,0x5D,0x00,Read,ACK
11.781758220000000,0,0x5D,0x00,Read,ACK
11.781779680000000,0,0x5D,0x00,Read,ACK
11.781801140000001,0,0x5D,0x00,Read,ACK
11.781822719999999,0,0x5D,0x00,Read,ACK
11.781844240000000,0,0x5D,0x5C,Read,ACK
11.781865700000001,0,0x5D,0xD0,Read,ACK
11.781887200000000,0,0x5D,0x02,Read,ACK
11.781908659999999,0,0x5D,0x00,Read,ACK
11.781930120000000,0,0x5D,0x00,Read,ACK
11.781951579999999,0,0x5D,0x00,Read,ACK
11.781973020000001,0,0x5D,0x00,Read,ACK
11.781994500000000,0,0x5D,0x00,Read,ACK
11.782016000000000,0,0x5D,0x00,Read,ACK
11.782037460000000,0,0x5D,0x00,Read,ACK
11.782058940000001,0,0x5D,0x00,Read,ACK
11.782080420000000,0,0x5D,0x00,Read,ACK
11.782102020000000,0,0x5D,0x00,Read,ACK
11.782123520000001,0,0x5D,0x00,Read,ACK
11.782145420000001,0,0x5D,0x00,Read,ACK
11.782167180000000,0,0x5D,0x00,Read,ACK
11.782188639999999,0,0x5D,0x00,Read,ACK
11.782210100000000,0,0x5D,0x00,Read,ACK
11.782231560000000,0,0x5D,0x00,Read,ACK
11.782253860000001,0,0x5D,0x00,Read,ACK
11.782275340000000,0,0x5D,0x00,Read,NAK
11.788066420000000,0,0x5D,0x2F,Read,ACK
11.788090880000000,0,0x5D,0x00,Read,ACK
11.788112379999999,0,0x5D,0x04,Read,ACK
11.788133880000000,0,0x5D,0x03,Read,ACK
11.788155339999999,0,0x5D,0x1F,Read,ACK
11.788177080000001,0,0x5D,0x04,Read,ACK
11.788199040000000,0,0x5D,0x87,Read,ACK
11.788220819999999,0,0x5D,0x03,Read,ACK
11.788242280000000,0,0x5D,0x03,Read,ACK
11.788263740000000,0,0x5D,0x02,Read,ACK
11.788285240000000,0,0x5D,0x20,Read,ACK
11.788306700000000,0,0x5D,0x13,Read,ACK
11.788328200000000,0,0x5D,0x90,Read,ACK
11.788349680000000,0,0x5D,0x08,Read,ACK
11.788371140000001,0,0x5D,0xC1,Read,ACK
11.788392580000000,0,0x5D,0x05,Read,ACK
11.788415260000001,0,0x5D,0x03,Read,ACK
11.788436740000000,0,0x5D,0x03,Read,ACK
11.788458200000001,0,0x5D,0x20,Read,ACK
11.788479680000000,0,0x5D,0x00,Read,ACK
11.788501159999999,0,0x5D,0x00,Read,ACK
11.788523380000001,0,0x5D,0x00,Read,ACK
11.788544880000000,0,0x5D,0x00,Read,ACK
11.788566380000001,0,0x5D,0x00,Read,ACK
11.788587840000000,0,0x5D,0x00,Read,ACK
11.788609299999999,0,0x5D,0x00,Read,ACK
11.788630760000000,0,0x5D,0x00,Read,ACK
11.788652219999999,0,0x5D,0x00,Read,ACK
11.788673680000000,0,0x5D,0x00,Read,ACK
11.788695120000000,0,0x5D,0x00,Read,ACK
11.788716600000001,0,0x5D,0x00,Read,ACK
11.788738100000000,0,0x5D,0x00,Read,ACK
11.788759580000001,0,0x5D,0x00,Read,ACK
11.788781000000000,0,0x5D,0x00,Read,ACK
11.788802440000000,0,0x5D,0x00,Read,ACK
11.788823920000000,0,0x5D,0x00,Read,ACK
11.788845700000000,0,0x5D,0x00,Read,ACK
11.788867200000000,0,0x5D,0x00,Read,ACK
11.788888660000000,0,0x5D,0x00,Read,ACK
11.788910180000000,0,0x5D,0x00,Read,ACK
11.788931620000000,0,0x5D,0x00,Read,ACK
11.788953060000001,0,0x5D,0x00,Read,ACK
11.788974520000000,0,0x5D,0x00,Read,ACK
11.788995999999999,0,0x5D,0xA2,Read,ACK
11.789017500000000,0,0x5D,0xD0,Read,ACK
11.789038959999999,0,0x5D,0x02,Read,ACK
11.789060579999999,0,0x5D,0x00,Read,ACK
11.789082040000000,0,0x5D,0x00,Read,ACK
11.789103500000000,0,0x5D,0x00,Read,ACK
11.789124940000001,0,0x5D,0x00,Read,ACK
11.789146400000000,0,0x5D,0x00,Read,ACK
11.789167839999999,0,0x5D,0x00,Read,ACK
11.789190980000001,0,0x5D,0x00,Read,ACK
11.789212800000000,0,0x5D,0x00,Read,ACK
11.789234280000001,0,0x5D,0x00,Read,ACK
11.789256360000000,0,0x5D,0x00,Read,ACK
11.789278160000000,0,0x5D,0x00,Read,ACK
11.789299620000000,0,0x5D,0x00,Read,ACK
11.789321120000000,0,0x5D,0x00,Read,ACK
11.789342639999999,0,0x5D,0x00,Read,ACK
11.789364200000000,0,0x5D,0x00,Read,ACK
11.789387480000000,0,0x5D,0x00,Read,ACK
11.789409220000000,0,0x5D,0x00,Read,ACK
11.789430720000000,0,0x5D,0x00,Read,NAK
11.795207540000000,0,0x5D,0x2F,Read,ACK
11.795230240000000,0,0x5D,0x00,Read,ACK
11.795251700000000,0,0x5D,0x04,Read,ACK
11.795273160000001,0,0x5D,0x03,Read,ACK
11.795294640000000,0,0x5D,0x24,Read,ACK
11.795316120000001,0,0x5D,0x04,Read,ACK
11.795337600000000,0,0x5D,0x90,Read,ACK
11.795359760000000,0,0x5D,0x03,Read,ACK
11.795381380000000,0,0x5D,0x03,Read,ACK
11.795402920000001,0,0x5D,0x02,Read,ACK
11.795424400000000,0,0x5D,0x20,Read,ACK
11.795445920000001,0,0x5D,0x13,Read,ACK
11.795467360000000,0,0x5D,0x8C,Read,ACK
11.795488840000001,0,0x5D,0x08,Read,ACK
11.795510340000000,0,0x5D,0xC1,Read,ACK
11.795531779999999,0,0x5D,0x05,Read,ACK
11.795553240000000,0,0x5D,0x03,Read,ACK
11.795575019999999,0,0x5D,0x03,Read,ACK
11.795597060000000,0,0x5D,0x20,Read,ACK
11.795619459999999,0,0x5D,0x00,Read,ACK
11.795640940000000,0,0x5D,0x00,Read,ACK
11.795662439999999,0,0x5D,0x00,Read,ACK
11.795684100000001,0,0x5D,0x00,Read,ACK
11.795705600000000,0,0x5D,0x00,Read,ACK
11.795727060000001,0,0x5D,0x00,Read,ACK
11.795748959999999,0,0x5D,0x00,Read,ACK
11.795770579999999,0,0x5D,0x00,Read,ACK
11.795792040000000,0,0x5D,0x00,Read,ACK
11.795813480000000,0,0x5D,0x00,Read,ACK
11.795834960000001,0,0x5D,0x00,Read,ACK
11.795856460000000,0,0x5D,0x00,Read,ACK
11.795877940000000,0,0x5D,0x00,Read,ACK
11.795899439999999,0,0x5D,0x00,Read,ACK
11.795920900000000,0,0x5D,0x00,Read,ACK
11.795942399999999,0,0x5D,0x00,Read,ACK
11.795963880000000,0,0x5D,0x00,Read,ACK
11.795985379999999,0,0x5D,0x00,Read,ACK
11.796006880000000,0,0x5D,0x00,Read,ACK
11.796028339999999,0,0x5D,0x00,Read,ACK
11.796049800000000,0,0x5D,0x00,Read,ACK
11.796071240000000,0,0x5D,0x00,Read,ACK
11.796092700000001,0,0x5D,0x00,Read,ACK
11.796114160000000,0,0x5D,0x00,Read,ACK
11.796135619999999,0,0x5D,0xE8,Read,ACK
11.796157460000000,0,0x5D,0xD0,Read,ACK
11.796178960000001,0,0x5D,0x02,Read,ACK
11.796200420000000,0,0x5D,0x00,Read,ACK
11.796221980000000,0,0x5D,0x00,Read,ACK
11.796243459999999,0,0x5D,0x00,Read,ACK
11.796264900000001,0,0x5D,0x00,Read,ACK
11.796286380000000,0,0x5D,0x00,Read,ACK
11.796307860000001,0,0x5D,0x00,Read,ACK
11.796329419999999,0,0x5D,0x00,Read,ACK
11.796350900000000,0,0x5D,0x00,Read,ACK
11.796372679999999,0,0x5D,0x00,Read,ACK
11.796394560000000,0,0x5D,0x00,Read,ACK
11.796416020000001,0,0x5D,0x00,Read,ACK
11.796437480000000,0,0x5D,0x00,Read,ACK
11.796459820000001,0,0x5D,0x00,Read,ACK
11.796483200000001,0,0x5D,0x00,Read,ACK
11.796504900000000,0,0x5D,0x00,Read,ACK
11.796526340000000,0,0x5D,0x00,Read,ACK
11.796548339999999,0,0x5D,0x00,Read,ACK
11.796570140000000,0,0x5D,0x00,Read,NAK
11.802429139999999,0,0x5D,0x2F,Read,ACK
11.802453620000000,0,0x5D,0x00,Read,ACK
11.802475360000001,0,0x5D,0x04,Read,ACK
11.802497320000001,0,0x5D,0x03,Read,ACK
11.802518879999999,0,0x5D,0x28,Read,ACK
11.802540340000000,0,0x5D,0x04,Read,ACK
11.802561819999999,0,0x5D,0x99,Read,ACK
11.802583320000000,0,0x5D,0x03,Read,ACK
11.802604860000001,0,0x5D,0x03,Read,ACK
11.802626340000000,0,0x5D,0x02,Read,ACK
11.802647820000001,0,0x5D,0x20,Read,ACK
11.802669320000000,0,0x5D,0x13,Read,ACK
11.802690800000001,0,0x5D,0x89,Read,ACK
11.802712339999999,0,0x5D,0x08,Read,ACK
11.802734279999999,0,0x5D,0xC2,Read,ACK
11.802756860000001,0,0x5D,0x05,Read,ACK
11.802778360000000,0,0x5D,0x02,Read,ACK
11.802799820000001,0,0x5D,0x03,Read,ACK
11.802822660000000,0,0x5D,0x20,Read,ACK
11.802844400000000,0,0x5D,0x00,Read,ACK
11.802865860000001,0,0x5D,0x00,Read,ACK
11.802888200000000,0,0x5D,0x00,Read,ACK
11.802909720000001,0,0x5D,0x00,Read,ACK
11.802931259999999,0,0x5D,0x00,Read,ACK
11.802953400000000,0,0x5D,0x00,Read,ACK
11.802975040000000,0,0x5D,0x00,Read,ACK
11.802996520000001,0,0x5D,0x00,Read,ACK
11.803017980000000,0,0x5D,0x00,Read,ACK
11.803039439999999,0,0x5D,0x00,Read,ACK
11.803060900000000,0,0x5D,0x00,Read,ACK
11.803082359999999,0,0x5D,0x00,Read,ACK
11.803104120000000,0,0x5D,0x00,Read,ACK
11.803125580000000,0,0x5D,0x00,Read,ACK
11.803147020000001,0,0x5D,0x00,Read,ACK
11.803168480000000,0,0x5D,0x00,Read,ACK
11.803189939999999,0,0x5D,0x00,Read,ACK
11.803211400000000,0,0x5D,0x00,Read,ACK
11.803232919999999,0,0x5D,0x00,Read,ACK
11.803254380000000,0,0x5D,0x00,Read,ACK
11.803275820000000,0,0x5D,0x00,Read,ACK
11.803297300000001,0,0x5D,0x00,Read,ACK
11.803318800000000,0,0x5D,0x00,Read,ACK
11.803340260000001,0,0x5D,0x00,Read,ACK
11.803361760000000,0,0x5D,0x2E,Read,ACK
11.803383240000000,0,0x5D,0xD1,Read,ACK
11.803404720000000,0,0x5D,0x02,Read,ACK
11.803426220000000,0,0x5D,0x00,Read,ACK
11.803447680000000,0,0x5D,0x00,Read,ACK
11.803469120000001,0,0x5D,0x00,Read,ACK
11.803490580000000,0,0x5D,0x00,Read,ACK
11.803512039999999,0,0x5D,0x00,Read,ACK
11.803533500000000,0,0x5D,0x00,Read,ACK
11.803554940000000,0,0x5D,0x00,Read,ACK
11.803577219999999,0,0x5D,0x00,Read,ACK
11.803600540000000,0,0x5D,0x00,Read,ACK
11.803622660000000,0,0x5D,0x00,Read,ACK
11.803645160000000,0,0x5D,0x00,Read,ACK
11.803666659999999,0,0x5D,0x00,Read,ACK
11.803688120000000,0,0x5D,0x00,Read,ACK
11.803710080000000,0,0x5D,0x00,Read,ACK
11.803731539999999,0,0x5D,0x00,Read,ACK
11.803753980000000,0,0x5D,0x00,Read,ACK
11.803775580000000,0,0x5D,0x00,Read,ACK
11.803798420000000,0,0x5D,0x00,Read,NAK
11.809749500000001,0,0x5D,0x2F,Read,ACK
11.809772720000000,0,0x5D,0x00,Read,ACK
11.809794220000001,0,0x5D,0x04,Read,ACK
11.809815720000000,0,0x5D,0x03,Read,ACK
11.809838160000000,0,0x5D,0x2B,Read,ACK
11.809859640000001,0,0x5D,0x04,Read,ACK
11.809881100000000,0,0x5D,0xA0,Read,ACK
11.809902559999999,0,0x5D,0x03,Read,ACK
11.809924020000000,0,0x5D,0x03,Read,ACK
11.809945460000000,0,0x5D,0x02,Read,ACK
11.809968240000000,0,0x5D,0x20,Read,ACK
11.809989760000001,0,0x5D,0x13,Read,ACK
11.810011220000000,0,0x5D,0x87,Read,ACK
11.810032740000000,0,0x5D,0x08,Read,ACK
11.810054239999999,0,0x5D,0xC4,Read,ACK
11.810075700000001,0,0x5D,0x05,Read,ACK
11.810097160000000,0,0x5D,0x02,Read,ACK
11.810118620000001,0,0x5D,0x03,Read,ACK
11.810140080000000,0,0x5D,0x20,Read,ACK
11.810161519999999,0,0x5D,0x00,Read,ACK
11.810183000000000,0,0x5D,0x00,Read,ACK
11.810204440000000,0,0x5D,0x00,Read,ACK
11.810225980000000,0,0x5D,0x00,Read,ACK
11.810247479999999,0,0x5D,0x00,Read,ACK
11.810268940000000,0,0x5D,0x00,Read,ACK
11.810290400000000,0,0x5D,0x00,Read,ACK
11.810311920000000,0,0x5D,0x00,Read,ACK
11.810333379999999,0,0x5D,0x00,Read,ACK
11.810354840000000,0,0x5D,0x00,Read,ACK
11.810376300000000,0,0x5D,0x00,Read,ACK
11.810397800000001,0,0x5D,0x00,Read,ACK
11.810419760000000,0,0x5D,0x00,Read,ACK
11.810441239999999,0,0x5D,0x00,Read,ACK
11.810462760000000,0,0x5D,0x00,Read,ACK
11.810484260000001,0,0x5D,0x00,Read,ACK
11.810505700000000,0,0x5D,0x00,Read,ACK
11.810527159999999,0,0x5D,0x00,Read,ACK
11.810548640000000,0,0x5D,0x00,Read,ACK
11.810570100000000,0,0x5D,0x00,Read,ACK
11.810591600000000,0,0x5D,0x00,Read,ACK
11.810613060000000,0,0x5D,0x00,Read,ACK
11.810634580000000,0,0x5D,0x00,Read,ACK
11.810657180000000,0,0x5D,0x00,Read,ACK
11.810679800000001,0,0x5D,0x74,Read,ACK
11.810701260000000,0,0x5D,0xD1,Read,ACK
11.810722920000000,0,0x5D,0x02,Read,ACK
11.810745380000000,0,0x5D,0x00,Read,ACK
11.810766879999999,0,0x5D,0x00,Read,ACK
11.810788320000000,0,0x5D,0x00,Read,ACK
11.810809799999999,0,0x5D,0x00,Read,ACK
11.810831280000000,0,0x5D,0x00,Read,ACK
11.810852940000000,0,0x5D,0x00,Read,ACK
11.810874580000000,0,0x5D,0x00,Read,ACK
11.810896039999999,0,0x5D,0x00,Read,ACK
11.810917520000000,0,0x5D,0x00,Read,ACK
11.810940159999999,0,0x5D,0x00,Read,ACK
11.810961720000000,0,0x5D,0x00,Read,ACK
11.810983580000000,0,0x5D,0x00,Read,ACK
11.811005040000000,0,0x5D,0x00,Read,ACK
11.811026500000001,0,0x5D,0x00,Read,ACK
11.811048120000001,0,0x5D,0x00,Read,ACK
11.811069600000000,0,0x5D,0x00,Read,ACK
11.811091660000001,0,0x5D,0x00,Read,ACK
11.811113140000000,0,0x5D,0x00,Read,NAK
11.817040540000001,0,0x5D,0x2F,Read,ACK
11.817065720000000,0,0x5D,0x00,Read,ACK
11.817087180000000,0,0x5D,0x04,Read,ACK
11.817109960000000,0,0x5D,0x03,Read,ACK
11.817131720000001,0,0x5D,0x2C,Read,ACK
11.817153220000000,0,0x5D,0x04,Read,ACK
11.817174800000000,0,0x5D,0xA5,Read,ACK
11.817196259999999,0,0x5D,0x03,Read,ACK
11.817217700000000,0,0x5D,0x03,Read,ACK
11.817239180000000,0,0x5D,0x02,Read,ACK
11.817261380000000,0,0x5D,0x20,Read,ACK
11.817283120000001,0,0x5D,0x13,Read,ACK
11.817304600000000,0,0x5D,0x87,Read,ACK
11.817326039999999,0,0x5D,0x08,Read,ACK
11.817347500000000,0,0x5D,0xCA,Read,ACK
11.817368960000000,0,0x5D,0x05,Read,ACK
11.817390400000001,0,0x5D,0x02,Read,ACK
11.817411860000000,0,0x5D,0x03,Read,ACK
11.817433319999999,0,0x5D,0x20,Read,ACK
11.817454780000000,0,0x5D,0x00,Read,ACK
11.817476220000000,0,0x5D,0x00,Read,ACK
11.817497680000001,0,0x5D,0x00,Read,ACK
11.817519140000000,0,0x5D,0x00,Read,ACK
11.817540760000000,0,0x5D,0x00,Read,ACK
11.817563500000000,0,0x5D,0x00,Read,ACK
11.817584999999999,0,0x5D,0x00,Read,ACK
11.817607880000001,0,0x5D,0x00,Read,ACK
11.817629860000000,0,0x5D,0x00,Read,ACK
11.817651740000001,0,0x5D,0x00,Read,ACK
11.817674300000000,0,0x5D,0x00,Read,ACK
11.817695779999999,0,0x5D,0x00,Read,ACK
11.817717220000000,0,0x5D,0x00,Read,ACK
11.817741079999999,0,0x5D,0x00,Read,ACK
11.817762640000000,0,0x5D,0x00,Read,ACK
11.817785660000000,0,0x5D,0x00,Read,ACK
11.817807800000001,0,0x5D,0x00,Read,ACK
11.817829240000000,0,0x5D,0x00,Read,ACK
11.817850699999999,0,0x5D,0x00,Read,ACK
11.817873620000000,0,0x5D,0x00,Read,ACK
11.817896100000000,0,0x5D,0x00,Read,ACK
11.817917560000000,0,0x5D,0x00,Read,ACK
11.817939020000001,0,0x5D,0x00,Read,ACK
11.817960500000000,0,0x5D,0x00,Read,ACK
11.817983379999999,0,0x5D,0xBA,Read,ACK
11.818004900000000,0,0x5D,0xD1,Read,ACK
11.818026400000001,0,0x5D,0x02,Read,ACK
11.818047900000000,0,0x5D,0x00,Read,ACK
11.818070920000000,0,0x5D,0x00,Read,ACK
11.818094719999999,0,0x5D,0x00,Read,ACK
11.818116220000000,0,0x5D,0x00,Read,ACK
11.818138200000000,0,0x5D,0x00,Read,ACK
11.818159780000000,0,0x5D,0x00,Read,ACK
11.818181539999999,0,0x5D,0x00,Read,ACK
11.818206280000000,0,0x5D,0x00,Read,ACK
11.818229040000000,0,0x5D,0x00,Read,ACK
11.818250700000000,0,0x5D,0x00,Read,ACK
11.818273500000000,0,0x5D,0x00,Read,ACK
11.818295220000000,0,0x5D,0x00,Read,ACK
11.818319260000001,0,0x5D,0x00,Read,ACK
11.818340800000000,0,0x5D,0x00,Read,ACK
11.818362300000000,0,0x5D,0x00,Read,ACK
11.818383819999999,0,0x5D,0x00,Read,ACK
11.818405580000000,0,0x5D,0x00,Read,ACK
11.818429040000000,0,0x5D,0x00,Read,NAK
11.823724739999999,0,0x5D,0x2F,Read,ACK
11.823747680000000,0,0x5D,0x00,Read,ACK
11.823769260000001,0,0x5D,0x04,Read,ACK
11.823790700000000,0,0x5D,0x01,Read,ACK
11.823812159999999,0,0x5D,0x2C,Read,ACK
11.823833620000000,0,0x5D,0x04,Read,ACK
11.823855080000000,0,0x5D,0xA5,Read,ACK
11.823876600000000,0,0x5D,0x03,Read,ACK
11.823898040000000,0,0x5D,0x02,Read,ACK
11.823919540000000,0,0x5D,0x03,Read,ACK
11.823941019999999,0,0x5D,0x20,Read,ACK
11.823962480000000,0,0x5D,0x13,Read,ACK
11.823983940000000,0,0x5D,0x88,Read,ACK
11.824005460000000,0,0x5D,0x08,Read,ACK
11.824026959999999,0,0x5D,0xD3,Read,ACK
11.824048420000000,0,0x5D,0x05,Read,ACK
11.824069880000000,0,0x5D,0x01,Read,ACK
11.824091400000000,0,0x5D,0x01,Read,ACK
11.824112899999999,0,0x5D,0x20,Read,ACK
11.824134360000000,0,0x5D,0x00,Read,ACK
11.824156860000000,0,0x5D,0x00,Read,ACK
11.824178780000000,0,0x5D,0x00,Read,ACK
11.824200279999999,0,0x5D,0x00,Read,ACK
11.824221740000000,0,0x5D,0x00,Read,ACK
11.824243200000000,0,0x5D,0x00,Read,ACK
11.824264700000001,0,0x5D,0x00,Read,ACK
11.824286160000000,0,0x5D,0x00,Read,ACK
11.824307620000001,0,0x5D,0x00,Read,ACK
11.824329320000000,0,0x5D,0x00,Read,ACK
11.824350760000000,0,0x5D,0x00,Read,ACK
11.824372800000001,0,0x5D,0x00,Read,ACK
11.824394240000000,0,0x5D,0x00,Read,ACK
11.824415699999999,0,0x5D,0x00,Read,ACK
11.824437160000000,0,0x5D,0x00,Read,ACK
11.824458620000000,0,0x5D,0x00,Read,ACK
11.824480060000001,0,0x5D,0x00,Read,ACK
11.824501679999999,0,0x5D,0x00,Read,ACK
11.824523299999999,0,0x5D,0x00,Read,ACK
11.824544800000000,0,0x5D,0x00,Read,ACK
11.824566239999999,0,0x5D,0x00,Read,ACK
11.824587700000000,0,0x5D,0x00,Read,ACK
11.824609160000000,0,0x5D,0x00,Read,ACK
11.824630600000001,0,0x5D,0x00,Read,ACK
11.824652060000000,0,0x5D,0x00,Read,ACK
11.824673499999999,0,0x5D,0xD2,Read,ACK
11.824694960000000,0,0x5D,0x02,Read,ACK
11.824716420000000,0,0x5D,0x00,Read,ACK
11.824737940000000,0,0x5D,0x00,Read,ACK
11.824759480000001,0,0x5D,0x00,Read,ACK
11.824780960000000,0,0x5D,0x00,Read,ACK
11.824802419999999,0,0x5D,0x00,Read,ACK
11.824823860000000,0,0x5D,0x00,Read,ACK
11.824847320000000,0,0x5D,0x00,Read,ACK
11.824871520000000,0,0x5D,0x00,Read,ACK
11.824892980000000,0,0x5D,0x00,Read,ACK
11.824915920000000,0,0x5D,0x00,Read,ACK
11.824938200000000,0,0x5D,0x00,Read,ACK
11.824960000000001,0,0x5D,0x00,Read,ACK
11.824981480000000,0,0x5D,0x00,Read,ACK
11.825002939999999,0,0x5D,0x00,Read,ACK
11.825024460000000,0,0x5D,0x00,Read,ACK
11.825045960000001,0,0x5D,0x00,Read,ACK
11.825067519999999,0,0x5D,0x00,Read,ACK
11.825089759999999,0,0x5D,0x00,Read,NAK
11.830884599999999,0,0x5D,0x2F,Read,ACK
11.830906680000000,0,0x5D,0x00,Read,ACK
11.830928240000000,0,0x5D,0x04,Read,ACK
11.830949700000000,0,0x5D,0x11,Read,ACK
11.830971140000001,0,0x5D,0x88,Read,ACK
11.830992600000000,0,0x5D,0x08,Read,ACK
11.831014079999999,0,0x5D,0xD3,Read,ACK
11.831035560000000,0,0x5D,0x05,Read,ACK
11.831057039999999,0,0x5D,0x01,Read,ACK
11.831078480000000,0,0x5D,0x01,Read,ACK
11.831099940000000,0,0x5D,0x20,Read,ACK
11.831121400000001,0,0x5D,0x00,Read,ACK
11.831142840000000,0,0x5D,0x00,Read,ACK
11.831164299999999,0,0x5D,0x00,Read,ACK
11.831185760000000,0,0x5D,0x00,Read,ACK
11.831207300000001,0,0x5D,0x00,Read,ACK
11.831228800000000,0,0x5D,0x00,Read,ACK
11.831250280000001,0,0x5D,0x00,Read,ACK
11.831271760000000,0,0x5D,0x00,Read,ACK
11.831294540000000,0,0x5D,0x00,Read,ACK
11.831316080000001,0,0x5D,0x00,Read,ACK
11.831337560000000,0,0x5D,0x00,Read,ACK
11.831359020000001,0,0x5D,0x00,Read,ACK
11.831380780000000,0,0x5D,0x00,Read,ACK
11.831403340000000,0,0x5D,0x00,Read,ACK
11.831424820000001,0,0x5D,0x00,Read,ACK
11.831446339999999,0,0x5D,0x00,Read,ACK
11.831467840000000,0,0x5D,0x00,Read,ACK
11.831489380000001,0,0x5D,0x00,Read,ACK
11.831510880000000,0,0x5D,0x00,Read,ACK
11.831532400000000,0,0x5D,0x00,Read,ACK
11.831553919999999,0,0x5D,0x00,Read,ACK
11.831575600000001,0,0x5D,0x00,Read,ACK
11.831597080000000,0,0x5D,0x00,Read,ACK
11.831618700000000,0,0x5D,0x00,Read,ACK
11.831640180000001,0,0x5D,0x00,Read,ACK
11.831661640000000,0,0x5D,0x00,Read,ACK
11.831683140000001,0,0x5D,0x00,Read,ACK
11.831704600000000,0,0x5D,0x00,Read,ACK
11.831726059999999,0,0x5D,0x00,Read,ACK
11.831747979999999,0,0x5D,0x00,Read,ACK
11.831769460000000,0,0x5D,0x00,Read,ACK
11.831790920000000,0,0x5D,0x00,Read,ACK
11.831812360000001,0,0x5D,0x46,Read,ACK
11.831833800000000,0,0x5D,0xD2,Read,ACK
11.831855259999999,0,0x5D,0x01,Read,ACK
11.831876720000000,0,0x5D,0x00,Read,ACK
11.831898219999999,0,0x5D,0x00,Read,ACK
11.831919680000000,0,0x5D,0x00,Read,ACK
11.831941140000000,0,0x5D,0x00,Read,ACK
11.831962600000001,0,0x5D,0x00,Read,ACK
11.831985680000001,0,0x5D,0x00,Read,ACK
11.832007140000000,0,0x5D,0x00,Read,ACK
11.832029100000000,0,0x5D,0x00,Read,ACK
11.832050799999999,0,0x5D,0x00,Read,ACK
11.832072320000000,0,0x5D,0x00,Read,ACK
11.832093820000001,0,0x5D,0x00,Read,ACK
11.832115280000000,0,0x5D,0x00,Read,ACK
11.832136719999999,0,0x5D,0x00,Read,ACK
11.832159080000000,0,0x5D,0x00,Read,ACK
11.832181820000001,0,0x5D,0x00,Read,ACK
11.832203880000000,0,0x5D,0x00,Read,ACK
11.832225760000000,0,0x5D,0x00,Read,ACK
11.832247440000000,0,0x5D,0x00,Read,NAK
