Time [s],Packet ID,Address,Data,Read/Write,ACK/NAK
1.393103156250000,0,0x5D,0x2F,Read,ACK
1.393132281250000,0,0x5D,0x00,Read,ACK
1.393154437500000,0,0x5D,0x04,Read,ACK
1.393175906250000,0,0x5D,0x03,Read,ACK
1.393197843750000,0,0x5D,0xC8,Read,ACK
1.393219312500000,0,0x5D,0x08,Read,ACK
1.393240812500000,0,0x5D,0x12,Read,ACK
1.393262250000000,0,0x5D,0x03,Read,ACK
1.393284093750000,0,0x5D,0x02,Read,ACK
1.393306468750000,0,0x5D,0x02,Read,ACK
1.393329375000000,0,0x5D,0x20,Read,ACK
1.393351093750000,0,0x5D,0x00,Read,ACK
1.393372593750000,0,0x5D,0x00,Read,ACK
1.393394062500000,0,0x5D,0x00,Read,ACK
1.393415531250000,0,0x5D,0x00,Read,ACK
1.393437000000000,0,0x5D,0x00,Read,ACK
1.393458468750000,0,0x5D,0x00,Read,ACK
1.393479937500000,0,0x5D,0x00,Read,ACK
1.393501437500000,0,0x5D,0x00,Read,ACK
1.393522937500000,0,0x5D,0x00,Read,ACK
1.393544375000000,0,0x5D,0x00,Read,ACK
1.393566125000000,0,0x5D,0x00,Read,ACK
1.393588593750000,0,0x5D,0x00,Read,ACK
1.393610062500000,0,0x5D,0x00,Read,ACK
1.393631906250000,0,0x5D,0x00,Read,ACK
1.393653406250000,0,0x5D,0x00,Read,ACK
1.393676093750000,0,0x5D,0x00,Read,ACK
1.393697593750000,0,0x5D,0x00,Read,ACK
1.393720625000000,0,0x5D,0x00,Read,ACK
1.393742125000000,0,0x5D,0x00,Read,ACK
1.393764593750000,0,0x5D,0x00,Read,ACK
1.393786062500000,0,0x5D,0x00,Read,ACK
1.393807531250000,0,0x5D,0x00,Read,ACK
1.393829000000000,0,0x5D,0x00,Read,ACK
1.393850500000000,0,0x5D,0x00,Read,ACK
1.393872125000000,0,0x5D,0x00,Read,ACK
1.393893625000000,0,0x5D,0x00,Read,ACK
1.393915125000000,0,0x5D,0x00,Read,ACK
1.393936562500000,0,0x5D,0x00,Read,ACK
1.393958031250000,0,0x5D,0x00,Read,ACK
1.393979531250000,0,0x5D,0x00,Read,ACK
1.394001000000000,0,0x5D,0x00,Read,ACK
1.394022500000000,0,0x5D,0x00,Read,ACK
1.394043968750000,0,0x5D,0x7A,Read,ACK
1.394065406250000,0,0x5D,0x9C,Read,ACK
1.394086906250000,0,0x5D,0x01,Read,ACK
1.394108375000000,0,0x5D,0x00,Read,ACK
1.394129843750000,0,0x5D,0x00,Read,ACK
1.394151312500000,0,0x5D,0x00,Read,ACK
1.394172781250000,0,0x5D,0x00,Read,ACK
1.394194281250000,0,0x5D,0x00,Read,ACK
1.394215750000000,0,0x5D,0x00,Read,ACK
1.394237218750000,0,0x5D,0x00,Read,ACK
1.394258687500000,0,0x5D,0x00,Read,ACK
1.394280187500000,0,0x5D,0x00,Read,ACK
1.394301656250000,0,0x5D,0x00,Read,ACK
1.394323437500000,0,0x5D,0x00,Read,ACK
1.394344906250000,0,0x5D,0x00,Read,ACK
1.394366406250000,0,0x5D,0x00,Read,ACK
1.394387875000000,0,0x5D,0x00,Read,ACK
1.394409312500000,0,0x5D,0x00,Read,ACK
1.394430812500000,0,0x5D,0x00,Read,ACK
1.394452281250000,0,0x5D,0x00,Read,ACK
1.394473750000000,0,0x5D,0x00,Read,NAK
1.400404156250000,0,0x5D,0x2F,Read,ACK
1.400434000000000,0,0x5D,0x00,Read,ACK
1.400455812500000,0,0x5D,0x04,Read,ACK
1.400478031250000,0,0x5D,0x03,Read,ACK
1.400499500000000,0,0x5D,0xC8,Read,ACK
1.400521000000000,0,0x5D,0x08,Read,ACK
1.400542437500000,0,0x5D,0x12,Read,ACK
1.400563906250000,0,0x5D,0x03,Read,ACK
1.400585406250000,0,0x5D,0x03,Read,ACK
1.400606875000000,0,0x5D,0x03,Read,ACK
1.400628375000000,0,0x5D,0x20,Read,ACK
1.400649812500000,0,0x5D,0x00,Read,ACK
1.400671312500000,0,0x5D,0x00,Read,ACK
1.400692781250000,0,0x5D,0x00,Read,ACK
1.400715468750000,0,0x5D,0x00,Read,ACK
1.400736937500000,0,0x5D,0x00,Read,ACK
1.400758406250000,0,0x5D,0x00,Read,ACK
1.400779843750000,0,0x5D,0x00,Read,ACK
1.400802875000000,0,0x5D,0x00,Read,ACK
1.400824562500000,0,0x5D,0x00,Read,ACK
1.400846031250000,0,0x5D,0x00,Read,ACK
1.400867906250000,0,0x5D,0x00,Read,ACK
1.400890562500000,0,0x5D,0x00,Read,ACK
1.400912031250000,0,0x5D,0x00,Read,ACK
1.400933500000000,0,0x5D,0x00,Read,ACK
1.400957906250000,0,0x5D,0x00,Read,ACK
1.400979375000000,0,0x5D,0x00,Read,ACK
1.401000875000000,0,0x5D,0x00,Read,ACK
1.401022343750000,0,0x5D,0x00,Read,ACK
1.401043812500000,0,0x5D,0x00,Read,ACK
1.401065281250000,0,0x5D,0x00,Read,ACK
1.401086750000000,0,0x5D,0x00,Read,ACK
1.401108250000000,0,0x5D,0x00,Read,ACK
1.401129718750000,0,0x5D,0x00,Read,ACK
1.401151187500000,0,0x5D,0x00,Read,ACK
1.401172656250000,0,0x5D,0x00,Read,ACK
1.401194125000000,0,0x5D,0x00,Read,ACK
1.401215656250000,0,0x5D,0x00,Read,ACK
1.401237156250000,0,0x5D,0x00,Read,ACK
1.401258625000000,0,0x5D,0x00,Read,ACK
1.401280093750000,0,0x5D,0x00,Read,ACK
1.401301593750000,0,0x5D,0x00,Read,ACK
1.401323093750000,0,0x5D,0x00,Read,ACK
1.401344843750000,0,0x5D,0xC0,Read,ACK
1.401366281250000,0,0x5D,0x9C,Read,ACK
1.401387781250000,0,0x5D,0x01,Read,ACK
1.401409250000000,0,0x5D,0x00,Read,ACK
1.401430843750000,0,0x5D,0x00,Read,ACK
1.401453000000000,0,0x5D,0x00,Read,ACK
1.401474468750000,0,0x5D,0x00,Read,ACK
1.401495968750000,0,0x5D,0x00,Read,ACK
1.401517437500000,0,0x5D,0x00,Read,ACK
1.401538968750000,0,0x5D,0x00,Read,ACK
1.401560437500000,0,0x5D,0x00,Read,ACK
1.401581906250000,0,0x5D,0x00,Read,ACK
1.401603406250000,0,0x5D,0x00,Read,ACK
1.401624843750000,0,0x5D,0x00,Read,ACK
1.401646312500000,0,0x5D,0x00,Read,ACK
1.401668062500000,0,0x5D,0x00,Read,ACK
1.401691750000000,0,0x5D,0x00,Read,ACK
1.401714468750000,0,0x5D,0x00,Read,ACK
1.401735968750000,0,0x5D,0x00,Read,ACK
1.401757468750000,0,0x5D,0x00,Read,ACK
1.401779750000000,0,0x5D,0x00,Read,NAK
1.407519843750000,0,0x5D,0x2F,Read,ACK
1.407548093750000,0,0x5D,0x00,Read,ACK
1.407569531250000,0,0x5D,0x04,Read,ACK
1.407592406250000,0,0x5D,0x03,Read,ACK
1.407613843750000,0,0x5D,0xC8,Read,ACK
1.407636562500000,0,0x5D,0x08,Read,ACK
1.407658062500000,0,0x5D,0x12,Read,ACK
1.407679562500000,0,0x5D,0x03,Read,ACK
1.407701031250000,0,0x5D,0x03,Read,ACK
1.407722468750000,0,0x5D,0x04,Read,ACK
1.407743968750000,0,0x5D,0x20,Read,ACK
1.407765437500000,0,0x5D,0x00,Read,ACK
1.407786906250000,0,0x5D,0x00,Read,ACK
1.407808375000000,0,0x5D,0x00,Read,ACK
1.407830687500000,0,0x5D,0x00,Read,ACK
1.407852187500000,0,0x5D,0x00,Read,ACK
1.407873625000000,0,0x5D,0x00,Read,ACK
1.407895093750000,0,0x5D,0x00,Read,ACK
1.407917031250000,0,0x5D,0x00,Read,ACK
1.407938750000000,0,0x5D,0x00,Read,ACK
1.407960687500000,0,0x5D,0x00,Read,ACK
1.407982187500000,0,0x5D,0x00,Read,ACK
1.408003656250000,0,0x5D,0x00,Read,ACK
1.408025093750000,0,0x5D,0x00,Read,ACK
1.408046593750000,0,0x5D,0x00,Read,ACK
1.408068093750000,0,0x5D,0x00,Read,ACK
1.408089593750000,0,0x5D,0x00,Read,ACK
1.408111093750000,0,0x5D,0x00,Read,ACK
1.408132562500000,0,0x5D,0x00,Read,ACK
1.408154031250000,0,0x5D,0x00,Read,ACK
1.408175500000000,0,0x5D,0x00,Read,ACK
1.408196968750000,0,0x5D,0x00,Read,ACK
1.408218437500000,0,0x5D,0x00,Read,ACK
1.408239906250000,0,0x5D,0x00,Read,ACK
1.408261406250000,0,0x5D,0x00,Read,ACK
1.408283187500000,0,0x5D,0x00,Read,ACK
1.408304656250000,0,0x5D,0x00,Read,ACK
1.408326125000000,0,0x5D,0x00,Read,ACK
1.408347593750000,0,0x5D,0x00,Read,ACK
1.408369187500000,0,0x5D,0x00,Read,ACK
1.408390687500000,0,0x5D,0x00,Read,ACK
1.408412187500000,0,0x5D,0x00,Read,ACK
1.408433687500000,0,0x5D,0x00,Read,ACK
1.408455437500000,0,0x5D,0x06,Read,ACK
1.408476906250000,0,0x5D,0x9D,Read,ACK
1.408498375000000,0,0x5D,0x01,Read,ACK
1.408520125000000,0,0x5D,0x00,Read,ACK
1.408541625000000,0,0x5D,0x00,Read,ACK
1.408563093750000,0,0x5D,0x00,Read,ACK
1.408584562500000,0,0x5D,0x00,Read,ACK
1.408606062500000,0,0x5D,0x00,Read,ACK
1.408627562500000,0,0x5D,0x00,Read,ACK
1.408649062500000,0,0x5D,0x00,Read,ACK
1.408670562500000,0,0x5D,0x00,Read,ACK
1.408692031250000,0,0x5D,0x00,Read,ACK
1.408713468750000,0,0x5D,0x00,Read,ACK
1.408734968750000,0,0x5D,0x00,Read,ACK
1.408756437500000,0,0x5D,0x00,Read,ACK
1.408779468750000,0,0x5D,0x00,Read,ACK
1.408800937500000,0,0x5D,0x00,Read,ACK
1.408822406250000,0,0x5D,0x00,Read,ACK
1.408843906250000,0,0x5D,0x00,Read,ACK
1.408865937500000,0,0x5D,0x00,Read,ACK
1.408888562500000,0,0x5D,0x00,Read,NAK
1.414990156250000,0,0x5D,0x2F,Read,ACK
1.415019062500000,0,0x5D,0x00,Read,ACK
1.415040500000000,0,0x5D,0x04,Read,ACK
1.415061968750000,0,0x5D,0x03,Read,ACK
1.415083437500000,0,0x5D,0xC8,Read,ACK
1.415104968750000,0,0x5D,0x08,Read,ACK
1.415129156250000,0,0x5D,0x12,Read,ACK
1.415150625000000,0,0x5D,0x03,Read,ACK
1.415172093750000,0,0x5D,0x03,Read,ACK
1.415193562500000,0,0x5D,0x04,Read,ACK
1.415215031250000,0,0x5D,0x20,Read,ACK
1.415236531250000,0,0x5D,0x00,Read,ACK
1.415258031250000,0,0x5D,0x00,Read,ACK
1.415279468750000,0,0x5D,0x00,Read,ACK
1.415300937500000,0,0x5D,0x00,Read,ACK
1.415322406250000,0,0x5D,0x00,Read,ACK
1.415343875000000,0,0x5D,0x00,Read,ACK
1.415365343750000,0,0x5D,0x00,Read,ACK
1.415386843750000,0,0x5D,0x00,Read,ACK
1.415408312500000,0,0x5D,0x00,Read,ACK
1.415429781250000,0,0x5D,0x00,Read,ACK
1.415451281250000,0,0x5D,0x00,Read,ACK
1.415472750000000,0,0x5D,0x00,Read,ACK
1.415494218750000,0,0x5D,0x00,Read,ACK
1.415515718750000,0,0x5D,0x00,Read,ACK
1.415537156250000,0,0x5D,0x00,Read,ACK
1.415558625000000,0,0x5D,0x00,Read,ACK
1.415580093750000,0,0x5D,0x00,Read,ACK
1.415601562500000,0,0x5D,0x00,Read,ACK
1.415624312500000,0,0x5D,0x00,Read,ACK
1.415645812500000,0,0x5D,0x00,Read,ACK
1.415667250000000,0,0x5D,0x00,Read,ACK
1.415688718750000,0,0x5D,0x00,Read,ACK
1.415710187500000,0,0x5D,0x00,Read,ACK
1.415731656250000,0,0x5D,0x00,Read,ACK
1.415753125000000,0,0x5D,0x00,Read,ACK
1.415774593750000,0,0x5D,0x00,Read,ACK
1.415796093750000,0,0x5D,0x00,Read,ACK
1.415817593750000,0,0x5D,0x00,Read,ACK
1.415839062500000,0,0x5D,0x00,Read,ACK
1.415860500000000,0,0x5D,0x00,Read,ACK
1.415882468750000,0,0x5D,0x00,Read,ACK
1.415904125000000,0,0x5D,0x00,Read,ACK
1.415925718750000,0,0x5D,0x4C,Read,ACK
1.415948593750000,0,0x5D,0x9D,Read,ACK
1.415971437500000,0,0x5D,0x01,Read,ACK
1.415994218750000,0,0x5D,0x00,Read,ACK
1.416016968750000,0,0x5D,0x00,Read,ACK
1.416039687500000,0,0x5D,0x00,Read,ACK
1.416064375000000,0,0x5D,0x00,Read,ACK
1.416085875000000,0,0x5D,0x00,Read,ACK
1.416107343750000,0,0x5D,0x00,Read,ACK
1.416128906250000,0,0x5D,0x00,Read,ACK
1.416152250000000,0,0x5D,0x00,Read,ACK
1.416173781250000,0,0x5D,0x00,Read,ACK
1.416195218750000,0,0x5D,0x00,Read,ACK
1.416218218750000,0,0x5D,0x00,Read,ACK
1.416241718750000,0,0x5D,0x00,Read,ACK
1.416263156250000,0,0x5D,0x00,Read,ACK
1.416284843750000,0,0x5D,0x00,Read,ACK
1.416306281250000,0,0x5D,0x00,Read,ACK
1.416329375000000,0,0x5D,0x00,Read,ACK
1.416350875000000,0,0x5D,0x00,Read,ACK
1.416373187500000,0,0x5D,0x00,Read,NAK
1.421808781250000,0,0x5D,0x2F,Read,ACK
1.421831937500000,0,0x5D,0x00,Read,ACK
1.421853625000000,0,0x5D,0x04,Read,ACK
1.421877093750000,0,0x5D,0x03,Read,ACK
1.421898968750000,0,0x5D,0xC8,Read,ACK
1.421922093750000,0,0x5D,0x08,Read,ACK
1.421943562500000,0,0x5D,0x12,Read,ACK
1.421965031250000,0,0x5D,0x03,Read,ACK
1.421986500000000,0,0x5D,0x03,Read,ACK
1.422008000000000,0,0x5D,0x04,Read,ACK
1.422029437500000,0,0x5D,0x20,Read,ACK
1.422050937500000,0,0x5D,0x00,Read,ACK
1.422072406250000,0,0x5D,0x00,Read,ACK
1.422093875000000,0,0x5D,0x00,Read,ACK
1.422116281250000,0,0x5D,0x00,Read,ACK
1.422138906250000,0,0x5D,0x00,Read,ACK
1.422160406250000,0,0x5D,0x00,Read,ACK
1.422181906250000,0,0x5D,0x00,Read,ACK
1.422203375000000,0,0x5D,0x00,Read,ACK
1.422225125000000,0,0x5D,0x00,Read,ACK
1.422246593750000,0,0x5D,0x00,Read,ACK
1.422269218750000,0,0x5D,0x00,Read,ACK
1.422290718750000,0,0x5D,0x00,Read,ACK
1.422312218750000,0,0x5D,0x00,Read,ACK
1.422333656250000,0,0x5D,0x00,Read,ACK
1.422355156250000,0,0x5D,0x00,Read,ACK
1.422377187500000,0,0x5D,0x00,Read,ACK
1.422398656250000,0,0x5D,0x00,Read,ACK
1.422420156250000,0,0x5D,0x00,Read,ACK
1.422441625000000,0,0x5D,0x00,Read,ACK
1.422463093750000,0,0x5D,0x00,Read,ACK
1.422484562500000,0,0x5D,0x00,Read,ACK
1.422506031250000,0,0x5D,0x00,Read,ACK
1.422527500000000,0,0x5D,0x00,Read,ACK
1.422549000000000,0,0x5D,0x00,Read,ACK
1.422570468750000,0,0x5D,0x00,Read,ACK
1.422592125000000,0,0x5D,0x00,Read,ACK
1.422613625000000,0,0x5D,0x00,Read,ACK
1.422635093750000,0,0x5D,0x00,Read,ACK
1.422656562500000,0,0x5D,0x00,Read,ACK
1.422678031250000,0,0x5D,0x00,Read,ACK
1.422699531250000,0,0x5D,0x00,Read,ACK
1.422721000000000,0,0x5D,0x00,Read,ACK
1.422742500000000,0,0x5D,0x92,Read,ACK
1.422764000000000,0,0x5D,0x9D,Read,ACK
1.422785468750000,0,0x5D,0x01,Read,ACK
1.422806937500000,0,0x5D,0x00,Read,ACK
1.422828437500000,0,0x5D,0x00,Read,ACK
1.422851312500000,0,0x5D,0x00,Read,ACK
1.422874031250000,0,0x5D,0x00,Read,ACK
1.422898312500000,0,0x5D,0x00,Read,ACK
1.422919812500000,0,0x5D,0x00,Read,ACK
1.422941281250000,0,0x5D,0x00,Read,ACK
1.422962781250000,0,0x5D,0x00,Read,ACK
1.422984250000000,0,0x5D,0x00,Read,ACK
1.423006406250000,0,0x5D,0x00,Read,ACK
1.423028000000000,0,0x5D,0x00,Read,ACK
1.423050562500000,0,0x5D,0x00,Read,ACK
1.423073062500000,0,0x5D,0x00,Read,ACK
1.423095937500000,0,0x5D,0x00,Read,ACK
1.423117656250000,0,0x5D,0x00,Read,ACK
1.423141156250000,0,0x5D,0x00,Read,ACK
1.423162812500000,0,0x5D,0x00,Read,ACK
1.423184687500000,0,0x5D,0x00,Read,NAK
1.428932437500000,0,0x5D,0x2F,Read,ACK
1.428959718750000,0,0x5D,0x00,Read,ACK
1.428981218750000,0,0x5D,0x04,Read,ACK
1.429002906250000,0,0x5D,0x03,Read,ACK
1.429024687500000,0,0x5D,0xC8,Read,ACK
1.429049250000000,0,0x5D,0x08,Read,ACK
1.429070750000000,0,0x5D,0x11,Read,ACK
1.429092218750000,0,0x5D,0x03,Read,ACK
1.429113687500000,0,0x5D,0x04,Read,ACK
1.429135156250000,0,0x5D,0x04,Read,ACK
1.429156625000000,0,0x5D,0x20,Read,ACK
1.429178093750000,0,0x5D,0x00,Read,ACK
1.429199562500000,0,0x5D,0x00,Read,ACK
1.429221062500000,0,0x5D,0x00,Read,ACK
1.429242531250000,0,0x5D,0x00,Read,ACK
1.429264343750000,0,0x5D,0x00,Read,ACK
1.429285812500000,0,0x5D,0x00,Read,ACK
1.429307250000000,0,0x5D,0x00,Read,ACK
1.429328718750000,0,0x5D,0x00,Read,ACK
1.429350187500000,0,0x5D,0x00,Read,ACK
1.429371656250000,0,0x5D,0x00,Read,ACK
1.429393156250000,0,0x5D,0x00,Read,ACK
1.429414750000000,0,0x5D,0x00,Read,ACK
1.429436250000000,0,0x5D,0x00,Read,ACK
1.429457718750000,0,0x5D,0x00,Read,ACK
1.429479156250000,0,0x5D,0x00,Read,ACK
1.429500625000000,0,0x5D,0x00,Read,ACK
1.429523625000000,0,0x5D,0x00,Read,ACK
1.429545093750000,0,0x5D,0x00,Read,ACK
1.429566562500000,0,0x5D,0x00,Read,ACK
1.429588031250000,0,0x5D,0x00,Read,ACK
1.429609531250000,0,0x5D,0x00,Read,ACK
1.429630968750000,0,0x5D,0x00,Read,ACK
1.429652437500000,0,0x5D,0x00,Read,ACK
1.429673937500000,0,0x5D,0x00,Read,ACK
1.429695406250000,0,0x5D,0x00,Read,ACK
1.429716875000000,0,0x5D,0x00,Read,ACK
1.429738500000000,0,0x5D,0x00,Read,ACK
1.429760000000000,0,0x5D,0x00,Read,ACK
1.429781531250000,0,0x5D,0x00,Read,ACK
1.429803187500000,0,0x5D,0x00,Read,ACK
1.429824687500000,0,0x5D,0x00,Read,ACK
1.429846156250000,0,0x5D,0x00,Read,ACK
1.429867656250000,0,0x5D,0xD8,Read,ACK
1.429889093750000,0,0x5D,0x9D,Read,ACK
1.429910562500000,0,0x5D,0x01,Read,ACK
1.429932062500000,0,0x5D,0x00,Read,ACK
1.429953531250000,0,0x5D,0x00,Read,ACK
1.429976000000000,0,0x5D,0x00,Read,ACK
1.429998750000000,0,0x5D,0x00,Read,ACK
1.430021218750000,0,0x5D,0x00,Read,ACK
1.430043062500000,0,0x5D,0x00,Read,ACK
1.430064843750000,0,0x5D,0x00,Read,ACK
1.430086312500000,0,0x5D,0x00,Read,ACK
1.430107781250000,0,0x5D,0x00,Read,ACK
1.430129250000000,0,0x5D,0x00,Read,ACK
1.430150812500000,0,0x5D,0x00,Read,ACK
1.430172281250000,0,0x5D,0x00,Read,ACK
1.430193750000000,0,0x5D,0x00,Read,ACK
1.430215250000000,0,0x5D,0x00,Read,ACK
1.430239312500000,0,0x5D,0x00,Read,ACK
1.430260812500000,0,0x5D,0x00,Read,ACK
1.430282750000000,0,0x5D,0x00,Read,ACK
1.430304250000000,0,0x5D,0x00,Read,NAK
1.436009093750000,0,0x5D,0x2F,Read,ACK
1.436035218750000,0,0x5D,0x00,Read,ACK
1.436056718750000,0,0x5D,0x04,Read,ACK
1.436078250000000,0,0x5D,0x03,Read,ACK
1.436099718750000,0,0x5D,0xCA,Read,ACK
1.436121218750000,0,0x5D,0x08,Read,ACK
1.436142812500000,0,0x5D,0x0E,Read,ACK
1.436165656250000,0,0x5D,0x03,Read,ACK
1.436187906250000,0,0x5D,0x04,Read,ACK
1.436209343750000,0,0x5D,0x04,Read,ACK
1.436230843750000,0,0x5D,0x20,Read,ACK
1.436252312500000,0,0x5D,0x00,Read,ACK
1.436273781250000,0,0x5D,0x00,Read,ACK
1.436295250000000,0,0x5D,0x00,Read,ACK
1.436316718750000,0,0x5D,0x00,Read,ACK
1.436338187500000,0,0x5D,0x00,Read,ACK
1.436359656250000,0,0x5D,0x00,Read,ACK
1.436381562500000,0,0x5D,0x00,Read,ACK
1.436404593750000,0,0x5D,0x00,Read,ACK
1.436428812500000,0,0x5D,0x00,Read,ACK
1.436450500000000,0,0x5D,0x00,Read,ACK
1.436472000000000,0,0x5D,0x00,Read,ACK
1.436493500000000,0,0x5D,0x00,Read,ACK
1.436515000000000,0,0x5D,0x00,Read,ACK
1.436538156250000,0,0x5D,0x00,Read,ACK
1.436559625000000,0,0x5D,0x00,Read,ACK
1.436581093750000,0,0x5D,0x00,Read,ACK
1.436602562500000,0,0x5D,0x00,Read,ACK
1.436624031250000,0,0x5D,0x00,Read,ACK
1.436645500000000,0,0x5D,0x00,Read,ACK
1.436666968750000,0,0x5D,0x00,Read,ACK
1.436688562500000,0,0x5D,0x00,Read,ACK
1.436710062500000,0,0x5D,0x00,Read,ACK
1.436731531250000,0,0x5D,0x00,Read,ACK
1.436753000000000,0,0x5D,0x00,Read,ACK
1.436774468750000,0,0x5D,0x00,Read,ACK
1.436795937500000,0,0x5D,0x00,Read,ACK
1.436817437500000,0,0x5D,0x00,Read,ACK
1.436838906250000,0,0x5D,0x00,Read,ACK
1.436860375000000,0,0x5D,0x00,Read,ACK
1.436881843750000,0,0x5D,0x00,Read,ACK
1.436903312500000,0,0x5D,0x00,Read,ACK
1.436924781250000,0,0x5D,0x00,Read,ACK
1.436946281250000,0,0x5D,0x1E,Read,ACK
1.436967718750000,0,0x5D,0x9E,Read,ACK
1.436989218750000,0,0x5D,0x01,Read,ACK
1.437010687500000,0,0x5D,0x00,Read,ACK
1.437032156250000,0,0x5D,0x00,Read,ACK
1.437053781250000,0,0x5D,0x00,Read,ACK
1.437075281250000,0,0x5D,0x00,Read,ACK
1.437097625000000,0,0x5D,0x00,Read,ACK
1.437120406250000,0,0x5D,0x00,Read,ACK
1.437141906250000,0,0x5D,0x00,Read,ACK
1.437164625000000,0,0x5D,0x00,Read,ACK
1.437187062500000,0,0x5D,0x00,Read,ACK
1.437208562500000,0,0x5D,0x00,Read,ACK
1.437231187500000,0,0x5D,0x00,Read,ACK
1.437252687500000,0,0x5D,0x00,Read,ACK
1.437274156250000,0,0x5D,0x00,Read,ACK
1.437295937500000,0,0x5D,0x00,Read,ACK
1.437317437500000,0,0x5D,0x00,Read,ACK
1.437339093750000,0,0x5D,0x00,Read,ACK
1.437361781250000,0,0x5D,0x00,Read,ACK
1.437386375000000,0,0x5D,0x00,Read,NAK
1.443133281250000,0,0x5D,0x2F,Read,ACK
1.443160125000000,0,0x5D,0x00,Read,ACK
1.443184031250000,0,0x5D,0x04,Read,ACK
1.443205531250000,0,0x5D,0x03,Read,ACK
1.443227000000000,0,0x5D,0xCC,Read,ACK
1.443248468750000,0,0x5D,0x08,Read,ACK
1.443269937500000,0,0x5D,0x09,Read,ACK
1.443292125000000,0,0x5D,0x03,Read,ACK
1.443314812500000,0,0x5D,0x04,Read,ACK
1.443341750000000,0,0x5D,0x04,Read,ACK
1.443363218750000,0,0x5D,0x20,Read,ACK
1.443384687500000,0,0x5D,0x00,Read,ACK
1.443406156250000,0,0x5D,0x00,Read,ACK
1.443427625000000,0,0x5D,0x00,Read,ACK
1.443449125000000,0,0x5D,0x00,Read,ACK
1.443470593750000,0,0x5D,0x00,Read,ACK
1.443492062500000,0,0x5D,0x00,Read,ACK
1.443513562500000,0,0x5D,0x00,Read,ACK
1.443535000000000,0,0x5D,0x00,Read,ACK
1.443556500000000,0,0x5D,0x00,Read,ACK
1.443578437500000,0,0x5D,0x00,Read,ACK
1.443600312500000,0,0x5D,0x00,Read,ACK
1.443622437500000,0,0x5D,0x00,Read,ACK
1.443643937500000,0,0x5D,0x00,Read,ACK
1.443665406250000,0,0x5D,0x00,Read,ACK
1.443688687500000,0,0x5D,0x00,Read,ACK
1.443710187500000,0,0x5D,0x00,Read,ACK
1.443731656250000,0,0x5D,0x00,Read,ACK
1.443753375000000,0,0x5D,0x00,Read,ACK
1.443774843750000,0,0x5D,0x00,Read,ACK
1.443796312500000,0,0x5D,0x00,Read,ACK
1.443817781250000,0,0x5D,0x00,Read,ACK
1.443839281250000,0,0x5D,0x00,Read,ACK
1.443860718750000,0,0x5D,0x00,Read,ACK
1.443882218750000,0,0x5D,0x00,Read,ACK
1.443903687500000,0,0x5D,0x00,Read,ACK
1.443925312500000,0,0x5D,0x00,Read,ACK
1.443946750000000,0,0x5D,0x00,Read,ACK
1.443968218750000,0,0x5D,0x00,Read,ACK
1.443989718750000,0,0x5D,0x00,Read,ACK
1.444011187500000,0,0x5D,0x00,Read,ACK
1.444032656250000,0,0x5D,0x00,Read,ACK
1.444054125000000,0,0x5D,0x00,Read,ACK
1.444075593750000,0,0x5D,0x64,Read,ACK
1.444097093750000,0,0x5D,0x9E,Read,ACK
1.444118562500000,0,0x5D,0x01,Read,ACK
1.444140031250000,0,0x5D,0x00,Read,ACK
1.444161531250000,0,0x5D,0x00,Read,ACK
1.444182968750000,0,0x5D,0x00,Read,ACK
1.444204468750000,0,0x5D,0x00,Read,ACK
1.444225937500000,0,0x5D,0x00,Read,ACK
1.444255562500000,0,0x5D,0x00,Read,ACK
1.444279000000000,0,0x5D,0x00,Read,ACK
1.444302062500000,0,0x5D,0x00,Read,ACK
1.444325312500000,0,0x5D,0x00,Read,ACK
1.444348343750000,0,0x5D,0x00,Read,ACK
1.444371093750000,0,0x5D,0x00,Read,ACK
1.444392531250000,0,0x5D,0x00,Read,ACK
1.444414000000000,0,0x5D,0x00,Read,ACK
1.444435468750000,0,0x5D,0x00,Read,ACK
1.444456968750000,0,0x5D,0x00,Read,ACK
1.444478437500000,0,0x5D,0x00,Read,ACK
1.444500000000000,0,0x5D,0x00,Read,ACK
1.444521625000000,0,0x5D,0x00,Read,NAK
1.450409750000000,0,0x5D,0x2F,Read,ACK
1.450437562500000,0,0x5D,0x00,Read,ACK
1.450461062500000,0,0x5D,0x04,Read,ACK
1.450485031250000,0,0x5D,0x03,Read,ACK
1.450506531250000,0,0x5D,0xCE,Read,ACK
1.450528031250000,0,0x5D,0x08,Read,ACK
1.450549468750000,0,0x5D,0x03,Read,ACK
1.450570968750000,0,0x5D,0x03,Read,ACK
1.450592437500000,0,0x5D,0x04,Read,ACK
1.450613937500000,0,0x5D,0x03,Read,ACK
1.450635375000000,0,0x5D,0x20,Read,ACK
1.450656875000000,0,0x5D,0x00,Read,ACK
1.450678343750000,0,0x5D,0x00,Read,ACK
1.450699843750000,0,0x5D,0x00,Read,ACK
1.450722187500000,0,0x5D,0x00,Read,ACK
1.450743687500000,0,0x5D,0x00,Read,ACK
1.450765156250000,0,0x5D,0x00,Read,ACK
1.450786968750000,0,0x5D,0x00,Read,ACK
1.450808843750000,0,0x5D,0x00,Read,ACK
1.450830562500000,0,0x5D,0x00,Read,ACK
1.450852500000000,0,0x5D,0x00,Read,ACK
1.450874000000000,0,0x5D,0x00,Read,ACK
1.450895500000000,0,0x5D,0x00,Read,ACK
1.450916968750000,0,0x5D,0x00,Read,ACK
1.450938468750000,0,0x5D,0x00,Read,ACK
1.450959937500000,0,0x5D,0x00,Read,ACK
1.450981406250000,0,0x5D,0x00,Read,ACK
1.451002875000000,0,0x5D,0x00,Read,ACK
1.451024343750000,0,0x5D,0x00,Read,ACK
1.451045812500000,0,0x5D,0x00,Read,ACK
1.451067281250000,0,0x5D,0x00,Read,ACK
1.451088750000000,0,0x5D,0x00,Read,ACK
1.451110250000000,0,0x5D,0x00,Read,ACK
1.451131718750000,0,0x5D,0x00,Read,ACK
1.451153187500000,0,0x5D,0x00,Read,ACK
1.451174656250000,0,0x5D,0x00,Read,ACK
1.451196125000000,0,0x5D,0x00,Read,ACK
1.451217625000000,0,0x5D,0x00,Read,ACK
1.451239093750000,0,0x5D,0x00,Read,ACK
1.451260562500000,0,0x5D,0x00,Read,ACK
1.451282031250000,0,0x5D,0x00,Read,ACK
1.451303500000000,0,0x5D,0x00,Read,ACK
1.451325187500000,0,0x5D,0x00,Read,ACK
1.451346656250000,0,0x5D,0xAA,Read,ACK
1.451368125000000,0,0x5D,0x9E,Read,ACK
1.451389875000000,0,0x5D,0x01,Read,ACK
1.451416125000000,0,0x5D,0x00,Read,ACK
1.451438343750000,0,0x5D,0x00,Read,ACK
1.451460218750000,0,0x5D,0x00,Read,ACK
1.451483187500000,0,0x5D,0x00,Read,ACK
1.451504625000000,0,0x5D,0x00,Read,ACK
1.451526093750000,0,0x5D,0x00,Read,ACK
1.451547562500000,0,0x5D,0x00,Read,ACK
1.451569062500000,0,0x5D,0x00,Read,ACK
1.451590531250000,0,0x5D,0x00,Read,ACK
1.451613437500000,0,0x5D,0x00,Read,ACK
1.451635437500000,0,0x5D,0x00,Read,ACK
1.451656937500000,0,0x5D,0x00,Read,ACK
1.451678406250000,0,0x5D,0x00,Read,ACK
1.451703281250000,0,0x5D,0x00,Read,ACK
1.451724750000000,0,0x5D,0x00,Read,ACK
1.451747062500000,0,0x5D,0x00,Read,ACK
1.451768562500000,0,0x5D,0x00,Read,ACK
1.451790750000000,0,0x5D,0x00,Read,NAK
1.457504906250000,0,0x5D,0x2F,Read,ACK
1.457532250000000,0,0x5D,0x00,Read,ACK
1.457553750000000,0,0x5D,0x04,Read,ACK
1.457575218750000,0,0x5D,0x03,Read,ACK
1.457596937500000,0,0x5D,0xCF,Read,ACK
1.457618906250000,0,0x5D,0x08,Read,ACK
1.457640406250000,0,0x5D,0xFE,Read,ACK
1.457661875000000,0,0x5D,0x02,Read,ACK
1.457683375000000,0,0x5D,0x04,Read,ACK
1.457704843750000,0,0x5D,0x03,Read,ACK
1.457726312500000,0,0x5D,0x20,Read,ACK
1.457747781250000,0,0x5D,0x00,Read,ACK
1.457769250000000,0,0x5D,0x00,Read,ACK
1.457790718750000,0,0x5D,0x00,Read,ACK
1.457812187500000,0,0x5D,0x00,Read,ACK
1.457833687500000,0,0x5D,0x00,Read,ACK
1.457855437500000,0,0x5D,0x00,Read,ACK
1.457876875000000,0,0x5D,0x00,Read,ACK
1.457898343750000,0,0x5D,0x00,Read,ACK
1.457919812500000,0,0x5D,0x00,Read,ACK
1.457941468750000,0,0x5D,0x00,Read,ACK
1.457962968750000,0,0x5D,0x00,Read,ACK
1.457985656250000,0,0x5D,0x00,Read,ACK
1.458007156250000,0,0x5D,0x00,Read,ACK
1.458028625000000,0,0x5D,0x00,Read,ACK
1.458051000000000,0,0x5D,0x00,Read,ACK
1.458072500000000,0,0x5D,0x00,Read,ACK
1.458094000000000,0,0x5D,0x00,Read,ACK
1.458115468750000,0,0x5D,0x00,Read,ACK
1.458136968750000,0,0x5D,0x00,Read,ACK
1.458158406250000,0,0x5D,0x00,Read,ACK
1.458179875000000,0,0x5D,0x00,Read,ACK
1.458201343750000,0,0x5D,0x00,Read,ACK
1.458222843750000,0,0x5D,0x00,Read,ACK
1.458244500000000,0,0x5D,0x00,Read,ACK
1.458266000000000,0,0x5D,0x00,Read,ACK
1.458287437500000,0,0x5D,0x00,Read,ACK
1.458308906250000,0,0x5D,0x00,Read,ACK
1.458330406250000,0,0x5D,0x00,Read,ACK
1.458351906250000,0,0x5D,0x00,Read,ACK
1.458373343750000,0,0x5D,0x00,Read,ACK
1.458394812500000,0,0x5D,0x00,Read,ACK
1.458416281250000,0,0x5D,0x00,Read,ACK
1.458437750000000,0,0x5D,0xF0,Read,ACK
1.458459218750000,0,0x5D,0x9E,Read,ACK
1.458480718750000,0,0x5D,0x01,Read,ACK
1.458504093750000,0,0x5D,0x00,Read,ACK
1.458527125000000,0,0x5D,0x00,Read,ACK
1.458550125000000,0,0x5D,0x00,Read,ACK
1.458571718750000,0,0x5D,0x00,Read,ACK
1.458594125000000,0,0x5D,0x00,Read,ACK
1.458615625000000,0,0x5D,0x00,Read,ACK
1.458637093750000,0,0x5D,0x00,Read,ACK
1.458658562500000,0,0x5D,0x00,Read,ACK
1.458680437500000,0,0x5D,0x00,Read,ACK
1.458703437500000,0,0x5D,0x00,Read,ACK
1.458725406250000,0,0x5D,0x00,Read,ACK
1.458746906250000,0,0x5D,0x00,Read,ACK
1.458768656250000,0,0x5D,0x00,Read,ACK
1.458790218750000,0,0x5D,0x00,Read,ACK
1.458811687500000,0,0x5D,0x00,Read,ACK
1.458833437500000,0,0x5D,0x00,Read,ACK
1.458857593750000,0,0x5D,0x00,Read,ACK
1.458879031250000,0,0x5D,0x00,Read,NAK
1.465047218750000,0,0x5D,0x2F,Read,ACK
1.465075406250000,0,0x5D,0x00,Read,ACK
1.465097281250000,0,0x5D,0x04,Read,ACK
1.465118843750000,0,0x5D,0x03,Read,ACK
1.465140281250000,0,0x5D,0xD0,Read,ACK
1.465161781250000,0,0x5D,0x08,Read,ACK
1.465183250000000,0,0x5D,0xFB,Read,ACK
1.465204718750000,0,0x5D,0x02,Read,ACK
1.465229531250000,0,0x5D,0x04,Read,ACK
1.465251062500000,0,0x5D,0x03,Read,ACK
1.465272531250000,0,0x5D,0x20,Read,ACK
1.465293968750000,0,0x5D,0x00,Read,ACK
1.465315437500000,0,0x5D,0x00,Read,ACK
1.465337031250000,0,0x5D,0x00,Read,ACK
1.465358531250000,0,0x5D,0x00,Read,ACK
1.465380000000000,0,0x5D,0x00,Read,ACK
1.465401468750000,0,0x5D,0x00,Read,ACK
1.465422968750000,0,0x5D,0x00,Read,ACK
1.465444437500000,0,0x5D,0x00,Read,ACK
1.465465906250000,0,0x5D,0x00,Read,ACK
1.465487375000000,0,0x5D,0x00,Read,ACK
1.465508843750000,0,0x5D,0x00,Read,ACK
1.465530343750000,0,0x5D,0x00,Read,ACK
1.465551812500000,0,0x5D,0x00,Read,ACK
1.465573281250000,0,0x5D,0x00,Read,ACK
1.465594750000000,0,0x5D,0x00,Read,ACK
1.465618218750000,0,0x5D,0x00,Read,ACK
1.465641343750000,0,0x5D,0x00,Read,ACK
1.465666218750000,0,0x5D,0x00,Read,ACK
1.465688000000000,0,0x5D,0x00,Read,ACK
1.465710875000000,0,0x5D,0x00,Read,ACK
1.465732531250000,0,0x5D,0x00,Read,ACK
1.465754281250000,0,0x5D,0x00,Read,ACK
1.465775750000000,0,0x5D,0x00,Read,ACK
1.465797406250000,0,0x5D,0x00,Read,ACK
1.465818906250000,0,0x5D,0x00,Read,ACK
1.465841343750000,0,0x5D,0x00,Read,ACK
1.465864062500000,0,0x5D,0x00,Read,ACK
1.465887156250000,0,0x5D,0x00,Read,ACK
1.465908593750000,0,0x5D,0x00,Read,ACK
1.465930093750000,0,0x5D,0x00,Read,ACK
1.465951531250000,0,0x5D,0x00,Read,ACK
1.465973156250000,0,0x5D,0x00,Read,ACK
1.465995093750000,0,0x5D,0x36,Read,ACK
1.466016875000000,0,0x5D,0x9F,Read,ACK
1.466038375000000,0,0x5D,0x01,Read,ACK
1.466059843750000,0,0x5D,0x00,Read,ACK
1.466081812500000,0,0x5D,0x00,Read,ACK
1.466103281250000,0,0x5D,0x00,Read,ACK
1.466124781250000,0,0x5D,0x00,Read,ACK
1.466146218750000,0,0x5D,0x00,Read,ACK
1.466168750000000,0,0x5D,0x00,Read,ACK
1.466190218750000,0,0x5D,0x00,Read,ACK
1.466213187500000,0,0x5D,0x00,Read,ACK
1.466234687500000,0,0x5D,0x00,Read,ACK
1.466256187500000,0,0x5D,0x00,Read,ACK
1.466278031250000,0,0x5D,0x00,Read,ACK
1.466301625000000,0,0x5D,0x00,Read,ACK
1.466323062500000,0,0x5D,0x00,Read,ACK
1.466344562500000,0,0x5D,0x00,Read,ACK
1.466366031250000,0,0x5D,0x00,Read,ACK
1.466387500000000,0,0x5D,0x00,Read,ACK
1.466409031250000,0,0x5D,0x00,Read,ACK
1.466432781250000,0,0x5D,0x00,Read,NAK
1.471766906250000,0,0x5D,0x2F,Read,ACK
1.471793312500000,0,0x5D,0x00,Read,ACK
1.471814781250000,0,0x5D,0x04,Read,ACK
1.471836250000000,0,0x5D,0x03,Read,ACK
1.471857750000000,0,0x5D,0xD0,Read,ACK
1.471879406250000,0,0x5D,0x08,Read,ACK
1.471901281250000,0,0x5D,0xF8,Read,ACK
1.471922812500000,0,0x5D,0x02,Read,ACK
1.471944281250000,0,0x5D,0x04,Read,ACK
1.471965718750000,0,0x5D,0x03,Read,ACK
1.471987218750000,0,0x5D,0x20,Read,ACK
1.472008687500000,0,0x5D,0x00,Read,ACK
1.472030156250000,0,0x5D,0x00,Read,ACK
1.472051656250000,0,0x5D,0x00,Read,ACK
1.472073125000000,0,0x5D,0x00,Read,ACK
1.472094562500000,0,0x5D,0x00,Read,ACK
1.472116531250000,0,0x5D,0x00,Read,ACK
1.472139125000000,0,0x5D,0x00,Read,ACK
1.472160625000000,0,0x5D,0x00,Read,ACK
1.472182218750000,0,0x5D,0x00,Read,ACK
1.472203687500000,0,0x5D,0x00,Read,ACK
1.472226218750000,0,0x5D,0x00,Read,ACK
1.472248312500000,0,0x5D,0x00,Read,ACK
1.472269812500000,0,0x5D,0x00,Read,ACK
1.472291593750000,0,0x5D,0x00,Read,ACK
1.472313093750000,0,0x5D,0x00,Read,ACK
1.472334531250000,0,0x5D,0x00,Read,ACK
1.472359343750000,0,0x5D,0x00,Read,ACK
1.472380812500000,0,0x5D,0x00,Read,ACK
1.472402281250000,0,0x5D,0x00,Read,ACK
1.472423750000000,0,0x5D,0x00,Read,ACK
1.472445250000000,0,0x5D,0x00,Read,ACK
1.472466718750000,0,0x5D,0x00,Read,ACK
1.472488187500000,0,0x5D,0x00,Read,ACK
1.472509656250000,0,0x5D,0x00,Read,ACK
1.472531250000000,0,0x5D,0x00,Read,ACK
1.472552750000000,0,0x5D,0x00,Read,ACK
1.472574406250000,0,0x5D,0x00,Read,ACK
1.472595875000000,0,0x5D,0x00,Read,ACK
1.472617375000000,0,0x5D,0x00,Read,ACK
1.472638843750000,0,0x5D,0x00,Read,ACK
1.472660562500000,0,0x5D,0x00,Read,ACK
1.472682031250000,0,0x5D,0x00,Read,ACK
1.472703500000000,0,0x5D,0x7C,Read,ACK
1.472724968750000,0,0x5D,0x9F,Read,ACK
1.472746437500000,0,0x5D,0x01,Read,ACK
1.472767937500000,0,0x5D,0x00,Read,ACK
1.472790437500000,0,0x5D,0x00,Read,ACK
1.472812031250000,0,0x5D,0x00,Read,ACK
1.472835062500000,0,0x5D,0x00,Read,ACK
1.472856593750000,0,0x5D,0x00,Read,ACK
1.472879562500000,0,0x5D,0x00,Read,ACK
1.472903062500000,0,0x5D,0x00,Read,ACK
1.472924750000000,0,0x5D,0x00,Read,ACK
1.472946218750000,0,0x5D,0x00,Read,ACK
1.472967687500000,0,0x5D,0x00,Read,ACK
1.472990687500000,0,0x5D,0x00,Read,ACK
1.473012375000000,0,0x5D,0x00,Read,ACK
1.473033843750000,0,0x5D,0x00,Read,ACK
1.473056437500000,0,0x5D,0x00,Read,ACK
1.473078875000000,0,0x5D,0x00,Read,ACK
1.473101250000000,0,0x5D,0x00,Read,ACK
1.473122750000000,0,0x5D,0x00,Read,ACK
1.473144593750000,0,0x5D,0x00,Read,NAK
1.478927062500000,0,0x5D,0x2F,Read,ACK
1.478952718750000,0,0x5D,0x00,Read,ACK
1.478974281250000,0,0x5D,0x04,Read,ACK
1.478995750000000,0,0x5D,0x03,Read,ACK
1.479017218750000,0,0x5D,0xD1,Read,ACK
1.479040031250000,0,0x5D,0x08,Read,ACK
1.479066781250000,0,0x5D,0xF6,Read,ACK
1.479088531250000,0,0x5D,0x02,Read,ACK
1.479110000000000,0,0x5D,0x04,Read,ACK
1.479131468750000,0,0x5D,0x03,Read,ACK
1.479152906250000,0,0x5D,0x20,Read,ACK
1.479174406250000,0,0x5D,0x00,Read,ACK
1.479195875000000,0,0x5D,0x00,Read,ACK
1.479217375000000,0,0x5D,0x00,Read,ACK
1.479238812500000,0,0x5D,0x00,Read,ACK
1.479260968750000,0,0x5D,0x00,Read,ACK
1.479282875000000,0,0x5D,0x00,Read,ACK
1.479304375000000,0,0x5D,0x00,Read,ACK
1.479325875000000,0,0x5D,0x00,Read,ACK
1.479347312500000,0,0x5D,0x00,Read,ACK
1.479368781250000,0,0x5D,0x00,Read,ACK
1.479390250000000,0,0x5D,0x00,Read,ACK
1.479412968750000,0,0x5D,0x00,Read,ACK
1.479434437500000,0,0x5D,0x00,Read,ACK
1.479455968750000,0,0x5D,0x00,Read,ACK
1.479477406250000,0,0x5D,0x00,Read,ACK
1.479498875000000,0,0x5D,0x00,Read,ACK
1.479520375000000,0,0x5D,0x00,Read,ACK
1.479541937500000,0,0x5D,0x00,Read,ACK
1.479563437500000,0,0x5D,0x00,Read,ACK
1.479584906250000,0,0x5D,0x00,Read,ACK
1.479606562500000,0,0x5D,0x00,Read,ACK
1.479628031250000,0,0x5D,0x00,Read,ACK
1.479649531250000,0,0x5D,0x00,Read,ACK
1.479670968750000,0,0x5D,0x00,Read,ACK
1.479692468750000,0,0x5D,0x00,Read,ACK
1.479713937500000,0,0x5D,0x00,Read,ACK
1.479735406250000,0,0x5D,0x00,Read,ACK
1.479756875000000,0,0x5D,0x00,Read,ACK
1.479778343750000,0,0x5D,0x00,Read,ACK
1.479799812500000,0,0x5D,0x00,Read,ACK
1.479821312500000,0,0x5D,0x00,Read,ACK
1.479842781250000,0,0x5D,0x00,Read,ACK
1.479864250000000,0,0x5D,0xC2,Read,ACK
1.479885718750000,0,0x5D,0x9F,Read,ACK
1.479907625000000,0,0x5D,0x01,Read,ACK
1.479929125000000,0,0x5D,0x00,Read,ACK
1.479950562500000,0,0x5D,0x00,Read,ACK
1.479972031250000,0,0x5D,0x00,Read,ACK
1.479993500000000,0,0x5D,0x00,Read,ACK
1.480017656250000,0,0x5D,0x00,Read,ACK
1.480043468750000,0,0x5D,0x00,Read,ACK
1.480065562500000,0,0x5D,0x00,Read,ACK
1.480088562500000,0,0x5D,0x00,Read,ACK
1.480111968750000,0,0x5D,0x00,Read,ACK
1.480133468750000,0,0x5D,0x00,Read,ACK
1.480154937500000,0,0x5D,0x00,Read,ACK
1.480176406250000,0,0x5D,0x00,Read,ACK
1.480198375000000,0,0x5D,0x00,Read,ACK
1.480221406250000,0,0x5D,0x00,Read,ACK
1.480242875000000,0,0x5D,0x00,Read,ACK
1.480265750000000,0,0x5D,0x00,Read,ACK
1.480287218750000,0,0x5D,0x00,Read,ACK
1.480309375000000,0,0x5D,0x00,Read,NAK
1.485996750000000,0,0x5D,0x2F,Read,ACK
1.486026250000000,0,0x5D,0x00,Read,ACK
1.486048031250000,0,0x5D,0x04,Read,ACK
1.486070000000000,0,0x5D,0x03,Read,ACK
1.486091468750000,0,0x5D,0xD3,Read,ACK
1.486112937500000,0,0x5D,0x08,Read,ACK
1.486134406250000,0,0x5D,0xF4,Read,ACK
1.486156312500000,0,0x5D,0x02,Read,ACK
1.486179187500000,0,0x5D,0x04,Read,ACK
1.486202218750000,0,0x5D,0x03,Read,ACK
1.486223687500000,0,0x5D,0x20,Read,ACK
1.486245156250000,0,0x5D,0x00,Read,ACK
1.486266625000000,0,0x5D,0x00,Read,ACK
1.486288093750000,0,0x5D,0x00,Read,ACK
1.486309562500000,0,0x5D,0x00,Read,ACK
1.486331031250000,0,0x5D,0x00,Read,ACK
1.486352500000000,0,0x5D,0x00,Read,ACK
1.486374000000000,0,0x5D,0x00,Read,ACK
1.486395468750000,0,0x5D,0x00,Read,ACK
1.486417468750000,0,0x5D,0x00,Read,ACK
1.486440437500000,0,0x5D,0x00,Read,ACK
1.486462406250000,0,0x5D,0x00,Read,ACK
1.486485187500000,0,0x5D,0x00,Read,ACK
1.486506718750000,0,0x5D,0x00,Read,ACK
1.486529531250000,0,0x5D,0x00,Read,ACK
1.486551687500000,0,0x5D,0x00,Read,ACK
1.486573187500000,0,0x5D,0x00,Read,ACK
1.486594687500000,0,0x5D,0x00,Read,ACK
1.486616187500000,0,0x5D,0x00,Read,ACK
1.486637687500000,0,0x5D,0x00,Read,ACK
1.486659125000000,0,0x5D,0x00,Read,ACK
1.486680625000000,0,0x5D,0x00,Read,ACK
1.486702093750000,0,0x5D,0x00,Read,ACK
1.486723750000000,0,0x5D,0x00,Read,ACK
1.486745250000000,0,0x5D,0x00,Read,ACK
1.486766906250000,0,0x5D,0x00,Read,ACK
1.486788656250000,0,0x5D,0x00,Read,ACK
1.486810125000000,0,0x5D,0x00,Read,ACK
1.486831593750000,0,0x5D,0x00,Read,ACK
1.486853093750000,0,0x5D,0x00,Read,ACK
1.486874562500000,0,0x5D,0x00,Read,ACK
1.486896031250000,0,0x5D,0x00,Read,ACK
1.486917531250000,0,0x5D,0x00,Read,ACK
1.486938968750000,0,0x5D,0x08,Read,ACK
1.486960437500000,0,0x5D,0xA0,Read,ACK
1.486981906250000,0,0x5D,0x01,Read,ACK
1.487003375000000,0,0x5D,0x00,Read,ACK
1.487024843750000,0,0x5D,0x00,Read,ACK
1.487046312500000,0,0x5D,0x00,Read,ACK
1.487067812500000,0,0x5D,0x00,Read,ACK
1.487089281250000,0,0x5D,0x00,Read,ACK
1.487115343750000,0,0x5D,0x00,Read,ACK
1.487136781250000,0,0x5D,0x00,Read,ACK
1.487159468750000,0,0x5D,0x00,Read,ACK
1.487184500000000,0,0x5D,0x00,Read,ACK
1.487206562500000,0,0x5D,0x00,Read,ACK
1.487228250000000,0,0x5D,0x00,Read,ACK
1.487250000000000,0,0x5D,0x00,Read,ACK
1.487271687500000,0,0x5D,0x00,Read,ACK
1.487293125000000,0,0x5D,0x00,Read,ACK
1.487314593750000,0,0x5D,0x00,Read,ACK
1.487336312500000,0,0x5D,0x00,Read,ACK
1.487358968750000,0,0x5D,0x00,Read,ACK
1.487380500000000,0,0x5D,0x00,Read,NAK
1.493163125000000,0,0x5D,0x2F,Read,ACK
1.493191843750000,0,0x5D,0x00,Read,ACK
1.493213281250000,0,0x5D,0x04,Read,ACK
1.493234781250000,0,0x5D,0x03,Read,ACK
1.493256687500000,0,0x5D,0xD5,Read,ACK
1.493278156250000,0,0x5D,0x08,Read,ACK
1.493299625000000,0,0x5D,0xF4,Read,ACK
1.493322093750000,0,0x5D,0x02,Read,ACK
1.493344718750000,0,0x5D,0x04,Read,ACK
1.493369343750000,0,0x5D,0x03,Read,ACK
1.493390843750000,0,0x5D,0x20,Read,ACK
1.493412312500000,0,0x5D,0x00,Read,ACK
1.493433781250000,0,0x5D,0x00,Read,ACK
1.493455281250000,0,0x5D,0x00,Read,ACK
1.493476718750000,0,0x5D,0x00,Read,ACK
1.493498187500000,0,0x5D,0x00,Read,ACK
1.493519687500000,0,0x5D,0x00,Read,ACK
1.493541156250000,0,0x5D,0x00,Read,ACK
1.493562625000000,0,0x5D,0x00,Read,ACK
1.493584625000000,0,0x5D,0x00,Read,ACK
1.493606062500000,0,0x5D,0x00,Read,ACK
1.493627562500000,0,0x5D,0x00,Read,ACK
1.493649000000000,0,0x5D,0x00,Read,ACK
1.493670500000000,0,0x5D,0x00,Read,ACK
1.493692375000000,0,0x5D,0x00,Read,ACK
1.493713875000000,0,0x5D,0x00,Read,ACK
1.493735343750000,0,0x5D,0x00,Read,ACK
1.493756812500000,0,0x5D,0x00,Read,ACK
1.493778281250000,0,0x5D,0x00,Read,ACK
1.493799781250000,0,0x5D,0x00,Read,ACK
1.493821250000000,0,0x5D,0x00,Read,ACK
1.493843125000000,0,0x5D,0x00,Read,ACK
1.493864593750000,0,0x5D,0x00,Read,ACK
1.493886031250000,0,0x5D,0x00,Read,ACK
1.493907500000000,0,0x5D,0x00,Read,ACK
1.493929250000000,0,0x5D,0x00,Read,ACK
1.493950718750000,0,0x5D,0x00,Read,ACK
1.493972187500000,0,0x5D,0x00,Read,ACK
1.493993656250000,0,0x5D,0x00,Read,ACK
1.494015125000000,0,0x5D,0x00,Read,ACK
1.494036656250000,0,0x5D,0x00,Read,ACK
1.494058156250000,0,0x5D,0x00,Read,ACK
1.494079593750000,0,0x5D,0x00,Read,ACK
1.494101062500000,0,0x5D,0x4E,Read,ACK
1.494122562500000,0,0x5D,0xA0,Read,ACK
1.494144031250000,0,0x5D,0x01,Read,ACK
1.494165531250000,0,0x5D,0x00,Read,ACK
1.494186968750000,0,0x5D,0x00,Read,ACK
1.494208437500000,0,0x5D,0x00,Read,ACK
1.494229906250000,0,0x5D,0x00,Read,ACK
1.494256562500000,0,0x5D,0x00,Read,ACK
1.494280437500000,0,0x5D,0x00,Read,ACK
1.494301906250000,0,0x5D,0x00,Read,ACK
1.494326531250000,0,0x5D,0x00,Read,ACK
1.494349062500000,0,0x5D,0x00,Read,ACK
1.494372375000000,0,0x5D,0x00,Read,ACK
1.494394656250000,0,0x5D,0x00,Read,ACK
1.494416156250000,0,0x5D,0x00,Read,ACK
1.494437625000000,0,0x5D,0x00,Read,ACK
1.494461500000000,0,0x5D,0x00,Read,ACK
1.494483218750000,0,0x5D,0x00,Read,ACK
1.494505687500000,0,0x5D,0x00,Read,ACK
1.494528375000000,0,0x5D,0x00,Read,ACK
1.494550843750000,0,0x5D,0x00,Read,NAK
1.500398312500000,0,0x5D,0x2F,Read,ACK
1.500422468750000,0,0x5D,0x00,Read,ACK
1.500447718750000,0,0x5D,0x04,Read,ACK
1.500470656250000,0,0x5D,0x03,Read,ACK
1.500492125000000,0,0x5D,0xD7,Read,ACK
1.500513625000000,0,0x5D,0x08,Read,ACK
1.500535062500000,0,0x5D,0xF3,Read,ACK
1.500556531250000,0,0x5D,0x02,Read,ACK
1.500578031250000,0,0x5D,0x04,Read,ACK
1.500599500000000,0,0x5D,0x03,Read,ACK
1.500620968750000,0,0x5D,0x20,Read,ACK
1.500642437500000,0,0x5D,0x00,Read,ACK
1.500663937500000,0,0x5D,0x00,Read,ACK
1.500686656250000,0,0x5D,0x00,Read,ACK
1.500708156250000,0,0x5D,0x00,Read,ACK
1.500729656250000,0,0x5D,0x00,Read,ACK
1.500751187500000,0,0x5D,0x00,Read,ACK
1.500772656250000,0,0x5D,0x00,Read,ACK
1.500795093750000,0,0x5D,0x00,Read,ACK
1.500816531250000,0,0x5D,0x00,Read,ACK
1.500838000000000,0,0x5D,0x00,Read,ACK
1.500859468750000,0,0x5D,0x00,Read,ACK
1.500880968750000,0,0x5D,0x00,Read,ACK
1.500902468750000,0,0x5D,0x00,Read,ACK
1.500924125000000,0,0x5D,0x00,Read,ACK
1.500945625000000,0,0x5D,0x00,Read,ACK
1.500967343750000,0,0x5D,0x00,Read,ACK
1.500988812500000,0,0x5D,0x00,Read,ACK
1.501010500000000,0,0x5D,0x00,Read,ACK
1.501031937500000,0,0x5D,0x00,Read,ACK
1.501053437500000,0,0x5D,0x00,Read,ACK
1.501074906250000,0,0x5D,0x00,Read,ACK
1.501096375000000,0,0x5D,0x00,Read,ACK
1.501117843750000,0,0x5D,0x00,Read,ACK
1.501139375000000,0,0x5D,0x00,Read,ACK
1.501160843750000,0,0x5D,0x00,Read,ACK
1.501182312500000,0,0x5D,0x00,Read,ACK
1.501203812500000,0,0x5D,0x00,Read,ACK
1.501225250000000,0,0x5D,0x00,Read,ACK
1.501246750000000,0,0x5D,0x00,Read,ACK
1.501268250000000,0,0x5D,0x00,Read,ACK
1.501289687500000,0,0x5D,0x00,Read,ACK
1.501311156250000,0,0x5D,0x00,Read,ACK
1.501332625000000,0,0x5D,0x94,Read,ACK
1.501356812500000,0,0x5D,0xA0,Read,ACK
1.501382281250000,0,0x5D,0x01,Read,ACK
1.501406843750000,0,0x5D,0x00,Read,ACK
1.501428468750000,0,0x5D,0x00,Read,ACK
1.501450031250000,0,0x5D,0x00,Read,ACK
1.501471531250000,0,0x5D,0x00,Read,ACK
1.501493000000000,0,0x5D,0x00,Read,ACK
1.501514468750000,0,0x5D,0x00,Read,ACK
1.501535937500000,0,0x5D,0x00,Read,ACK
1.501560406250000,0,0x5D,0x00,Read,ACK
1.501582000000000,0,0x5D,0x00,Read,ACK
1.501604812500000,0,0x5D,0x00,Read,ACK
1.501626281250000,0,0x5D,0x00,Read,ACK
1.501647750000000,0,0x5D,0x00,Read,ACK
1.501669218750000,0,0x5D,0x00,Read,ACK
1.501690687500000,0,0x5D,0x00,Read,ACK
1.501712281250000,0,0x5D,0x00,Read,ACK
1.501734093750000,0,0x5D,0x00,Read,ACK
1.501755531250000,0,0x5D,0x00,Read,ACK
1.501778562500000,0,0x5D,0x00,Read,NAK
1.507466218750000,0,0x5D,0x2F,Read,ACK
1.507494406250000,0,0x5D,0x00,Read,ACK
1.507515875000000,0,0x5D,0x04,Read,ACK
1.507537343750000,0,0x5D,0x03,Read,ACK
1.507558812500000,0,0x5D,0xDA,Read,ACK
1.507580281250000,0,0x5D,0x08,Read,ACK
1.507601843750000,0,0x5D,0xF3,Read,ACK
1.507624781250000,0,0x5D,0x02,Read,ACK
1.507646781250000,0,0x5D,0x04,Read,ACK
1.507668250000000,0,0x5D,0x03,Read,ACK
1.507689718750000,0,0x5D,0x20,Read,ACK
1.507711187500000,0,0x5D,0x00,Read,ACK
1.507732656250000,0,0x5D,0x00,Read,ACK
1.507754156250000,0,0x5D,0x00,Read,ACK
1.507775625000000,0,0x5D,0x00,Read,ACK
1.507797093750000,0,0x5D,0x00,Read,ACK
1.507818562500000,0,0x5D,0x00,Read,ACK
1.507840031250000,0,0x5D,0x00,Read,ACK
1.507861500000000,0,0x5D,0x00,Read,ACK
1.507883468750000,0,0x5D,0x00,Read,ACK
1.507904968750000,0,0x5D,0x00,Read,ACK
1.507926468750000,0,0x5D,0x00,Read,ACK
1.507947968750000,0,0x5D,0x00,Read,ACK
1.507969625000000,0,0x5D,0x00,Read,ACK
1.507991156250000,0,0x5D,0x00,Read,ACK
1.508012656250000,0,0x5D,0x00,Read,ACK
1.508034187500000,0,0x5D,0x00,Read,ACK
1.508055656250000,0,0x5D,0x00,Read,ACK
1.508077125000000,0,0x5D,0x00,Read,ACK
1.508098593750000,0,0x5D,0x00,Read,ACK
1.508120093750000,0,0x5D,0x00,Read,ACK
1.508141562500000,0,0x5D,0x00,Read,ACK
1.508163031250000,0,0x5D,0x00,Read,ACK
1.508184531250000,0,0x5D,0x00,Read,ACK
1.508205968750000,0,0x5D,0x00,Read,ACK
1.508227500000000,0,0x5D,0x00,Read,ACK
1.508249000000000,0,0x5D,0x00,Read,ACK
1.508270468750000,0,0x5D,0x00,Read,ACK
1.508291937500000,0,0x5D,0x00,Read,ACK
1.508313406250000,0,0x5D,0x00,Read,ACK
1.508334875000000,0,0x5D,0x00,Read,ACK
1.508356375000000,0,0x5D,0x00,Read,ACK
1.508377812500000,0,0x5D,0x00,Read,ACK
1.508399281250000,0,0x5D,0xDA,Read,ACK
1.508420750000000,0,0x5D,0xA0,Read,ACK
1.508442250000000,0,0x5D,0x01,Read,ACK
1.508463718750000,0,0x5D,0x00,Read,ACK
1.508485187500000,0,0x5D,0x00,Read,ACK
1.508506687500000,0,0x5D,0x00,Read,ACK
1.508528156250000,0,0x5D,0x00,Read,ACK
1.508552187500000,0,0x5D,0x00,Read,ACK
1.508573656250000,0,0x5D,0x00,Read,ACK
1.508595125000000,0,0x5D,0x00,Read,ACK
1.508617062500000,0,0x5D,0x00,Read,ACK
1.508639468750000,0,0x5D,0x00,Read,ACK
1.508661281250000,0,0x5D,0x00,Read,ACK
1.508682875000000,0,0x5D,0x00,Read,ACK
1.508704312500000,0,0x5D,0x00,Read,ACK
1.508725812500000,0,0x5D,0x00,Read,ACK
1.508749312500000,0,0x5D,0x00,Read,ACK
1.508771500000000,0,0x5D,0x00,Read,ACK
1.508792968750000,0,0x5D,0x00,Read,ACK
1.508814593750000,0,0x5D,0x00,Read,ACK
1.508838125000000,0,0x5D,0x00,Read,NAK
1.514901656250000,0,0x5D,0x2F,Read,ACK
1.514928906250000,0,0x5D,0x00,Read,ACK
1.514950406250000,0,0x5D,0x04,Read,ACK
1.514971843750000,0,0x5D,0x03,Read,ACK
1.514993843750000,0,0x5D,0xDD,Read,ACK
1.515015718750000,0,0x5D,0x08,Read,ACK
1.515037218750000,0,0x5D,0xF4,Read,ACK
1.515059437500000,0,0x5D,0x02,Read,ACK
1.515080906250000,0,0x5D,0x04,Read,ACK
1.515102937500000,0,0x5D,0x03,Read,ACK
1.515124531250000,0,0x5D,0x20,Read,ACK
1.515146031250000,0,0x5D,0x00,Read,ACK
1.515167500000000,0,0x5D,0x00,Read,ACK
1.515188968750000,0,0x5D,0x00,Read,ACK
1.515210437500000,0,0x5D,0x00,Read,ACK
1.515231906250000,0,0x5D,0x00,Read,ACK
1.515253406250000,0,0x5D,0x00,Read,ACK
1.515274875000000,0,0x5D,0x00,Read,ACK
1.515296343750000,0,0x5D,0x00,Read,ACK
1.515317812500000,0,0x5D,0x00,Read,ACK
1.515339281250000,0,0x5D,0x00,Read,ACK
1.515360781250000,0,0x5D,0x00,Read,ACK
1.515382250000000,0,0x5D,0x00,Read,ACK
1.515403718750000,0,0x5D,0x00,Read,ACK
1.515425156250000,0,0x5D,0x00,Read,ACK
1.515446656250000,0,0x5D,0x00,Read,ACK
1.515468125000000,0,0x5D,0x00,Read,ACK
1.515489625000000,0,0x5D,0x00,Read,ACK
1.515511062500000,0,0x5D,0x00,Read,ACK
1.515532531250000,0,0x5D,0x00,Read,ACK
1.515554000000000,0,0x5D,0x00,Read,ACK
1.515575468750000,0,0x5D,0x00,Read,ACK
1.515596968750000,0,0x5D,0x00,Read,ACK
1.515618875000000,0,0x5D,0x00,Read,ACK
1.515640375000000,0,0x5D,0x00,Read,ACK
1.515665500000000,0,0x5D,0x00,Read,ACK
1.515690625000000,0,0x5D,0x00,Read,ACK
1.515713406250000,0,0x5D,0x00,Read,ACK
1.515736468750000,0,0x5D,0x00,Read,ACK
1.515758937500000,0,0x5D,0x00,Read,ACK
1.515780812500000,0,0x5D,0x00,Read,ACK
1.515802281250000,0,0x5D,0x00,Read,ACK
1.515823718750000,0,0x5D,0x00,Read,ACK
1.515845218750000,0,0x5D,0x20,Read,ACK
1.515867125000000,0,0x5D,0xA1,Read,ACK
1.515889031250000,0,0x5D,0x01,Read,ACK
1.515910500000000,0,0x5D,0x00,Read,ACK
1.515933000000000,0,0x5D,0x00,Read,ACK
1.515954750000000,0,0x5D,0x00,Read,ACK
1.515976218750000,0,0x5D,0x00,Read,ACK
1.516000250000000,0,0x5D,0x00,Read,ACK
1.516023187500000,0,0x5D,0x00,Read,ACK
1.516044656250000,0,0x5D,0x00,Read,ACK
1.516066125000000,0,0x5D,0x00,Read,ACK
1.516088562500000,0,0x5D,0x00,Read,ACK
1.516110000000000,0,0x5D,0x00,Read,ACK
1.516132906250000,0,0x5D,0x00,Read,ACK
1.516154375000000,0,0x5D,0x00,Read,ACK
1.516176812500000,0,0x5D,0x00,Read,ACK
1.516198281250000,0,0x5D,0x00,Read,ACK
1.516222406250000,0,0x5D,0x00,Read,ACK
1.516243906250000,0,0x5D,0x00,Read,ACK
1.516265937500000,0,0x5D,0x00,Read,ACK
1.516287406250000,0,0x5D,0x00,Read,NAK
1.521763000000000,0,0x5D,0x2F,Read,ACK
1.521791875000000,0,0x5D,0x00,Read,ACK
1.521813343750000,0,0x5D,0x04,Read,ACK
1.521834875000000,0,0x5D,0x03,Read,ACK
1.521857406250000,0,0x5D,0xE1,Read,ACK
1.521878843750000,0,0x5D,0x08,Read,ACK
1.521900312500000,0,0x5D,0xF6,Read,ACK
1.521922250000000,0,0x5D,0x02,Read,ACK
1.521944125000000,0,0x5D,0x04,Read,ACK
1.521968437500000,0,0x5D,0x03,Read,ACK
1.521989906250000,0,0x5D,0x20,Read,ACK
1.522011375000000,0,0x5D,0x00,Read,ACK
1.522032843750000,0,0x5D,0x00,Read,ACK
1.522054312500000,0,0x5D,0x00,Read,ACK
1.522075781250000,0,0x5D,0x00,Read,ACK
1.522097281250000,0,0x5D,0x00,Read,ACK
1.522118750000000,0,0x5D,0x00,Read,ACK
1.522141031250000,0,0x5D,0x00,Read,ACK
1.522162656250000,0,0x5D,0x00,Read,ACK
1.522184125000000,0,0x5D,0x00,Read,ACK
1.522205593750000,0,0x5D,0x00,Read,ACK
1.522227093750000,0,0x5D,0x00,Read,ACK
1.522248687500000,0,0x5D,0x00,Read,ACK
1.522270125000000,0,0x5D,0x00,Read,ACK
1.522292531250000,0,0x5D,0x00,Read,ACK
1.522314906250000,0,0x5D,0x00,Read,ACK
1.522336406250000,0,0x5D,0x00,Read,ACK
1.522357843750000,0,0x5D,0x00,Read,ACK
1.522379312500000,0,0x5D,0x00,Read,ACK
1.522401500000000,0,0x5D,0x00,Read,ACK
1.522422937500000,0,0x5D,0x00,Read,ACK
1.522444437500000,0,0x5D,0x00,Read,ACK
1.522465906250000,0,0x5D,0x00,Read,ACK
1.522487406250000,0,0x5D,0x00,Read,ACK
1.522509031250000,0,0x5D,0x00,Read,ACK
1.522530531250000,0,0x5D,0x00,Read,ACK
1.522551968750000,0,0x5D,0x00,Read,ACK
1.522573468750000,0,0x5D,0x00,Read,ACK
1.522594937500000,0,0x5D,0x00,Read,ACK
1.522616406250000,0,0x5D,0x00,Read,ACK
1.522638718750000,0,0x5D,0x00,Read,ACK
1.522660250000000,0,0x5D,0x00,Read,ACK
1.522681718750000,0,0x5D,0x00,Read,ACK
1.522703156250000,0,0x5D,0x66,Read,ACK
1.522724656250000,0,0x5D,0xA1,Read,ACK
1.522746125000000,0,0x5D,0x01,Read,ACK
1.522767593750000,0,0x5D,0x00,Read,ACK
1.522789062500000,0,0x5D,0x00,Read,ACK
1.522810562500000,0,0x5D,0x00,Read,ACK
1.522832000000000,0,0x5D,0x00,Read,ACK
1.522853468750000,0,0x5D,0x00,Read,ACK
1.522875218750000,0,0x5D,0x00,Read,ACK
1.522896718750000,0,0x5D,0x00,Read,ACK
1.522922906250000,0,0x5D,0x00,Read,ACK
1.522946375000000,0,0x5D,0x00,Read,ACK
1.522967843750000,0,0x5D,0x00,Read,ACK
1.522990250000000,0,0x5D,0x00,Read,ACK
1.523012156250000,0,0x5D,0x00,Read,ACK
1.523033656250000,0,0x5D,0x00,Read,ACK
1.523055125000000,0,0x5D,0x00,Read,ACK
1.523076593750000,0,0x5D,0x00,Read,ACK
1.523098156250000,0,0x5D,0x00,Read,ACK
1.523119593750000,0,0x5D,0x00,Read,ACK
1.523141093750000,0,0x5D,0x00,Read,NAK
1.528931625000000,0,0x5D,0x2F,Read,ACK
1.528960875000000,0,0x5D,0x00,Read,ACK
1.528982343750000,0,0x5D,0x04,Read,ACK
1.529003812500000,0,0x5D,0x03,Read,ACK
1.529025468750000,0,0x5D,0xE5,Read,ACK
1.529047906250000,0,0x5D,0x08,Read,ACK
1.529070218750000,0,0x5D,0xFB,Read,ACK
1.529091687500000,0,0x5D,0x02,Read,ACK
1.529113156250000,0,0x5D,0x04,Read,ACK
1.529134656250000,0,0x5D,0x04,Read,ACK
1.529156093750000,0,0x5D,0x20,Read,ACK
1.529177593750000,0,0x5D,0x00,Read,ACK
1.529199062500000,0,0x5D,0x00,Read,ACK
1.529220531250000,0,0x5D,0x00,Read,ACK
1.529242031250000,0,0x5D,0x00,Read,ACK
1.529264062500000,0,0x5D,0x00,Read,ACK
1.529285593750000,0,0x5D,0x00,Read,ACK
1.529307093750000,0,0x5D,0x00,Read,ACK
1.529328593750000,0,0x5D,0x00,Read,ACK
1.529350062500000,0,0x5D,0x00,Read,ACK
1.529371531250000,0,0x5D,0x00,Read,ACK
1.529393031250000,0,0x5D,0x00,Read,ACK
1.529415687500000,0,0x5D,0x00,Read,ACK
1.529437968750000,0,0x5D,0x00,Read,ACK
1.529459437500000,0,0x5D,0x00,Read,ACK
1.529480906250000,0,0x5D,0x00,Read,ACK
1.529502375000000,0,0x5D,0x00,Read,ACK
1.529524343750000,0,0x5D,0x00,Read,ACK
1.529545812500000,0,0x5D,0x00,Read,ACK
1.529567281250000,0,0x5D,0x00,Read,ACK
1.529588750000000,0,0x5D,0x00,Read,ACK
1.529610218750000,0,0x5D,0x00,Read,ACK
1.529631718750000,0,0x5D,0x00,Read,ACK
1.529653187500000,0,0x5D,0x00,Read,ACK
1.529674656250000,0,0x5D,0x00,Read,ACK
1.529696125000000,0,0x5D,0x00,Read,ACK
1.529718406250000,0,0x5D,0x00,Read,ACK
1.529739906250000,0,0x5D,0x00,Read,ACK
1.529761375000000,0,0x5D,0x00,Read,ACK
1.529782843750000,0,0x5D,0x00,Read,ACK
1.529804312500000,0,0x5D,0x00,Read,ACK
1.529825781250000,0,0x5D,0x00,Read,ACK
1.529847250000000,0,0x5D,0x00,Read,ACK
1.529868718750000,0,0x5D,0xAC,Read,ACK
1.529890187500000,0,0x5D,0xA1,Read,ACK
1.529911687500000,0,0x5D,0x01,Read,ACK
1.529933156250000,0,0x5D,0x00,Read,ACK
1.529954625000000,0,0x5D,0x00,Read,ACK
1.529977562500000,0,0x5D,0x00,Read,ACK
1.530000687500000,0,0x5D,0x00,Read,ACK
1.530022656250000,0,0x5D,0x00,Read,ACK
1.530045062500000,0,0x5D,0x00,Read,ACK
1.530068093750000,0,0x5D,0x00,Read,ACK
1.530089687500000,0,0x5D,0x00,Read,ACK
1.530111968750000,0,0x5D,0x00,Read,ACK
1.530133468750000,0,0x5D,0x00,Read,ACK
1.530154937500000,0,0x5D,0x00,Read,ACK
1.530179281250000,0,0x5D,0x00,Read,ACK
1.530200750000000,0,0x5D,0x00,Read,ACK
1.530223281250000,0,0x5D,0x00,Read,ACK
1.530245062500000,0,0x5D,0x00,Read,ACK
1.530266562500000,0,0x5D,0x00,Read,ACK
1.530288031250000,0,0x5D,0x00,Read,ACK
1.530309500000000,0,0x5D,0x00,Read,NAK
1.536009156250000,0,0x5D,0x2F,Read,ACK
1.536034375000000,0,0x5D,0x00,Read,ACK
1.536056562500000,0,0x5D,0x04,Read,ACK
1.536078062500000,0,0x5D,0x03,Read,ACK
1.536099531250000,0,0x5D,0xEB,Read,ACK
1.536121031250000,0,0x5D,0x08,Read,ACK
1.536143343750000,0,0x5D,0x04,Read,ACK
1.536166062500000,0,0x5D,0x03,Read,ACK
1.536191031250000,0,0x5D,0x03,Read,ACK
1.536212500000000,0,0x5D,0x03,Read,ACK
1.536234000000000,0,0x5D,0x20,Read,ACK
1.536255468750000,0,0x5D,0x00,Read,ACK
1.536276937500000,0,0x5D,0x00,Read,ACK
1.536298437500000,0,0x5D,0x00,Read,ACK
1.536319875000000,0,0x5D,0x00,Read,ACK
1.536341343750000,0,0x5D,0x00,Read,ACK
1.536362812500000,0,0x5D,0x00,Read,ACK
1.536384312500000,0,0x5D,0x00,Read,ACK
1.536405781250000,0,0x5D,0x00,Read,ACK
1.536427656250000,0,0x5D,0x00,Read,ACK
1.536449125000000,0,0x5D,0x00,Read,ACK
1.536470656250000,0,0x5D,0x00,Read,ACK
1.536492125000000,0,0x5D,0x00,Read,ACK
1.536513656250000,0,0x5D,0x00,Read,ACK
1.536535125000000,0,0x5D,0x00,Read,ACK
1.536556593750000,0,0x5D,0x00,Read,ACK
1.536579093750000,0,0x5D,0x00,Read,ACK
1.536600593750000,0,0x5D,0x00,Read,ACK
1.536622062500000,0,0x5D,0x00,Read,ACK
1.536643531250000,0,0x5D,0x00,Read,ACK
1.536665343750000,0,0x5D,0x00,Read,ACK
1.536686812500000,0,0x5D,0x00,Read,ACK
1.536708281250000,0,0x5D,0x00,Read,ACK
1.536729812500000,0,0x5D,0x00,Read,ACK
1.536751281250000,0,0x5D,0x00,Read,ACK
1.536772781250000,0,0x5D,0x00,Read,ACK
1.536794218750000,0,0x5D,0x00,Read,ACK
1.536815718750000,0,0x5D,0x00,Read,ACK
1.536837187500000,0,0x5D,0x00,Read,ACK
1.536858656250000,0,0x5D,0x00,Read,ACK
1.536880593750000,0,0x5D,0x00,Read,ACK
1.536902093750000,0,0x5D,0x00,Read,ACK
1.536923562500000,0,0x5D,0x00,Read,ACK
1.536945312500000,0,0x5D,0xF2,Read,ACK
1.536966937500000,0,0x5D,0xA1,Read,ACK
1.536988406250000,0,0x5D,0x01,Read,ACK
1.537009843750000,0,0x5D,0x00,Read,ACK
1.537031312500000,0,0x5D,0x00,Read,ACK
1.537052812500000,0,0x5D,0x00,Read,ACK
1.537074281250000,0,0x5D,0x00,Read,ACK
1.537098343750000,0,0x5D,0x00,Read,ACK
1.537123375000000,0,0x5D,0x00,Read,ACK
1.537144812500000,0,0x5D,0x00,Read,ACK
1.537166625000000,0,0x5D,0x00,Read,ACK
1.537189000000000,0,0x5D,0x00,Read,ACK
1.537210781250000,0,0x5D,0x00,Read,ACK
1.537232281250000,0,0x5D,0x00,Read,ACK
1.537253750000000,0,0x5D,0x00,Read,ACK
1.537275218750000,0,0x5D,0x00,Read,ACK
1.537297187500000,0,0x5D,0x00,Read,ACK
1.537318656250000,0,0x5D,0x00,Read,ACK
1.537340125000000,0,0x5D,0x00,Read,ACK
1.537364812500000,0,0x5D,0x00,Read,ACK
1.537386281250000,0,0x5D,0x00,Read,NAK
1.543234437500000,0,0x5D,0x2F,Read,ACK
1.543263750000000,0,0x5D,0x00,Read,ACK
1.543285250000000,0,0x5D,0x04,Read,ACK
1.543307187500000,0,0x5D,0x03,Read,ACK
1.543331781250000,0,0x5D,0xF2,Read,ACK
1.543353281250000,0,0x5D,0x08,Read,ACK
1.543374781250000,0,0x5D,0x11,Read,ACK
1.543396218750000,0,0x5D,0x03,Read,ACK
1.543417718750000,0,0x5D,0x03,Read,ACK
1.543439187500000,0,0x5D,0x03,Read,ACK
1.543460656250000,0,0x5D,0x20,Read,ACK
1.543482125000000,0,0x5D,0x00,Read,ACK
1.543503625000000,0,0x5D,0x00,Read,ACK
1.543525062500000,0,0x5D,0x00,Read,ACK
1.543546750000000,0,0x5D,0x00,Read,ACK
1.543569312500000,0,0x5D,0x00,Read,ACK
1.543590812500000,0,0x5D,0x00,Read,ACK
1.543612281250000,0,0x5D,0x00,Read,ACK
1.543633781250000,0,0x5D,0x00,Read,ACK
1.543656375000000,0,0x5D,0x00,Read,ACK
1.543677843750000,0,0x5D,0x00,Read,ACK
1.543699312500000,0,0x5D,0x00,Read,ACK
1.543720781250000,0,0x5D,0x00,Read,ACK
1.543742250000000,0,0x5D,0x00,Read,ACK
1.543763718750000,0,0x5D,0x00,Read,ACK
1.543785218750000,0,0x5D,0x00,Read,ACK
1.543806687500000,0,0x5D,0x00,Read,ACK
1.543828187500000,0,0x5D,0x00,Read,ACK
1.543849625000000,0,0x5D,0x00,Read,ACK
1.543871093750000,0,0x5D,0x00,Read,ACK
1.543892562500000,0,0x5D,0x00,Read,ACK
1.543914062500000,0,0x5D,0x00,Read,ACK
1.543935531250000,0,0x5D,0x00,Read,ACK
1.543957000000000,0,0x5D,0x00,Read,ACK
1.543978468750000,0,0x5D,0x00,Read,ACK
1.543999937500000,0,0x5D,0x00,Read,ACK
1.544021406250000,0,0x5D,0x00,Read,ACK
1.544042906250000,0,0x5D,0x00,Read,ACK
1.544064375000000,0,0x5D,0x00,Read,ACK
1.544085843750000,0,0x5D,0x00,Read,ACK
1.544107312500000,0,0x5D,0x00,Read,ACK
1.544128781250000,0,0x5D,0x00,Read,ACK
1.544150250000000,0,0x5D,0x00,Read,ACK
1.544171718750000,0,0x5D,0x38,Read,ACK
1.544193250000000,0,0x5D,0xA2,Read,ACK
1.544217281250000,0,0x5D,0x01,Read,ACK
1.544241281250000,0,0x5D,0x00,Read,ACK
1.544262750000000,0,0x5D,0x00,Read,ACK
1.544285375000000,0,0x5D,0x00,Read,ACK
1.544308281250000,0,0x5D,0x00,Read,ACK
1.544330062500000,0,0x5D,0x00,Read,ACK
1.544351531250000,0,0x5D,0x00,Read,ACK
1.544373000000000,0,0x5D,0x00,Read,ACK
1.544394468750000,0,0x5D,0x00,Read,ACK
1.544416718750000,0,0x5D,0x00,Read,ACK
1.544439218750000,0,0x5D,0x00,Read,ACK
1.544460687500000,0,0x5D,0x00,Read,ACK
1.544485437500000,0,0x5D,0x00,Read,ACK
1.544506906250000,0,0x5D,0x00,Read,ACK
1.544528437500000,0,0x5D,0x00,Read,ACK
1.544550281250000,0,0x5D,0x00,Read,ACK
1.544573312500000,0,0x5D,0x00,Read,ACK
1.544594812500000,0,0x5D,0x00,Read,ACK
1.544616406250000,0,0x5D,0x00,Read,NAK
1.550476562500000,0,0x5D,0x2F,Read,ACK
1.550504843750000,0,0x5D,0x00,Read,ACK
1.550526343750000,0,0x5D,0x04,Read,ACK
1.550547812500000,0,0x5D,0x03,Read,ACK
1.550569281250000,0,0x5D,0xFA,Read,ACK
1.550590781250000,0,0x5D,0x08,Read,ACK
1.550612250000000,0,0x5D,0x23,Read,ACK
1.550633718750000,0,0x5D,0x03,Read,ACK
1.550655187500000,0,0x5D,0x03,Read,ACK
1.550676656250000,0,0x5D,0x03,Read,ACK
1.550698500000000,0,0x5D,0x20,Read,ACK
1.550720000000000,0,0x5D,0x00,Read,ACK
1.550741500000000,0,0x5D,0x00,Read,ACK
1.550762937500000,0,0x5D,0x00,Read,ACK
1.550785718750000,0,0x5D,0x00,Read,ACK
1.550807187500000,0,0x5D,0x00,Read,ACK
1.550828656250000,0,0x5D,0x00,Read,ACK
1.550850156250000,0,0x5D,0x00,Read,ACK
1.550871625000000,0,0x5D,0x00,Read,ACK
1.550893093750000,0,0x5D,0x00,Read,ACK
1.550914562500000,0,0x5D,0x00,Read,ACK
1.550936093750000,0,0x5D,0x00,Read,ACK
1.550957562500000,0,0x5D,0x00,Read,ACK
1.550979062500000,0,0x5D,0x00,Read,ACK
1.551000531250000,0,0x5D,0x00,Read,ACK
1.551022031250000,0,0x5D,0x00,Read,ACK
1.551043468750000,0,0x5D,0x00,Read,ACK
1.551064937500000,0,0x5D,0x00,Read,ACK
1.551086406250000,0,0x5D,0x00,Read,ACK
1.551107906250000,0,0x5D,0x00,Read,ACK
1.551129687500000,0,0x5D,0x00,Read,ACK
1.551151187500000,0,0x5D,0x00,Read,ACK
1.551172687500000,0,0x5D,0x00,Read,ACK
1.551194156250000,0,0x5D,0x00,Read,ACK
1.551215625000000,0,0x5D,0x00,Read,ACK
1.551237125000000,0,0x5D,0x00,Read,ACK
1.551258593750000,0,0x5D,0x00,Read,ACK
1.551280062500000,0,0x5D,0x00,Read,ACK
1.551301562500000,0,0x5D,0x00,Read,ACK
1.551323062500000,0,0x5D,0x00,Read,ACK
1.551344531250000,0,0x5D,0x00,Read,ACK
1.551368468750000,0,0x5D,0x00,Read,ACK
1.551389906250000,0,0x5D,0x00,Read,ACK
1.551411375000000,0,0x5D,0x7E,Read,ACK
1.551433843750000,0,0x5D,0xA2,Read,ACK
1.551455656250000,0,0x5D,0x01,Read,ACK
1.551477125000000,0,0x5D,0x00,Read,ACK
1.551498593750000,0,0x5D,0x00,Read,ACK
1.551521218750000,0,0x5D,0x00,Read,ACK
1.551543218750000,0,0x5D,0x00,Read,ACK
1.551565312500000,0,0x5D,0x00,Read,ACK
1.551588250000000,0,0x5D,0x00,Read,ACK
1.551610093750000,0,0x5D,0x00,Read,ACK
1.551631562500000,0,0x5D,0x00,Read,ACK
1.551653031250000,0,0x5D,0x00,Read,ACK
1.551675937500000,0,0x5D,0x00,Read,ACK
1.551697500000000,0,0x5D,0x00,Read,ACK
1.551718968750000,0,0x5D,0x00,Read,ACK
1.551741125000000,0,0x5D,0x00,Read,ACK
1.551762593750000,0,0x5D,0x00,Read,ACK
1.551786187500000,0,0x5D,0x00,Read,ACK
1.551807687500000,0,0x5D,0x00,Read,ACK
1.551829125000000,0,0x5D,0x00,Read,ACK
1.551850593750000,0,0x5D,0x00,Read,NAK
1.557511000000000,0,0x5D,0x2F,Read,ACK
1.557539906250000,0,0x5D,0x00,Read,ACK
1.557561375000000,0,0x5D,0x04,Read,ACK
1.557582843750000,0,0x5D,0x03,Read,ACK
1.557605781250000,0,0x5D,0x03,Read,ACK
1.557627656250000,0,0x5D,0x09,Read,ACK
1.557649437500000,0,0x5D,0x38,Read,ACK
1.557670968750000,0,0x5D,0x03,Read,ACK
1.557692437500000,0,0x5D,0x03,Read,ACK
1.557713906250000,0,0x5D,0x03,Read,ACK
1.557735375000000,0,0x5D,0x20,Read,ACK
1.557756843750000,0,0x5D,0x00,Read,ACK
1.557778343750000,0,0x5D,0x00,Read,ACK
1.557799812500000,0,0x5D,0x00,Read,ACK
1.557821250000000,0,0x5D,0x00,Read,ACK
1.557843593750000,0,0x5D,0x00,Read,ACK
1.557865593750000,0,0x5D,0x00,Read,ACK
1.557887062500000,0,0x5D,0x00,Read,ACK
1.557908531250000,0,0x5D,0x00,Read,ACK
1.557930031250000,0,0x5D,0x00,Read,ACK
1.557951500000000,0,0x5D,0x00,Read,ACK
1.557972937500000,0,0x5D,0x00,Read,ACK
1.557995281250000,0,0x5D,0x00,Read,ACK
1.558016781250000,0,0x5D,0x00,Read,ACK
1.558038250000000,0,0x5D,0x00,Read,ACK
1.558059750000000,0,0x5D,0x00,Read,ACK
1.558081187500000,0,0x5D,0x00,Read,ACK
1.558102687500000,0,0x5D,0x00,Read,ACK
1.558124156250000,0,0x5D,0x00,Read,ACK
1.558145625000000,0,0x5D,0x00,Read,ACK
1.558167093750000,0,0x5D,0x00,Read,ACK
1.558188562500000,0,0x5D,0x00,Read,ACK
1.558210031250000,0,0x5D,0x00,Read,ACK
1.558231500000000,0,0x5D,0x00,Read,ACK
1.558252968750000,0,0x5D,0x00,Read,ACK
1.558274468750000,0,0x5D,0x00,Read,ACK
1.558295937500000,0,0x5D,0x00,Read,ACK
1.558317406250000,0,0x5D,0x00,Read,ACK
1.558338875000000,0,0x5D,0x00,Read,ACK
1.558360375000000,0,0x5D,0x00,Read,ACK
1.558381812500000,0,0x5D,0x00,Read,ACK
1.558403281250000,0,0x5D,0x00,Read,ACK
1.558424843750000,0,0x5D,0x00,Read,ACK
1.558446312500000,0,0x5D,0xC4,Read,ACK
1.558467781250000,0,0x5D,0xA2,Read,ACK
1.558489250000000,0,0x5D,0x01,Read,ACK
1.558510718750000,0,0x5D,0x00,Read,ACK
1.558532218750000,0,0x5D,0x00,Read,ACK
1.558558187500000,0,0x5D,0x00,Read,ACK
1.558580968750000,0,0x5D,0x00,Read,ACK
1.558602718750000,0,0x5D,0x00,Read,ACK
1.558624562500000,0,0x5D,0x00,Read,ACK
1.558646437500000,0,0x5D,0x00,Read,ACK
1.558667906250000,0,0x5D,0x00,Read,ACK
1.558690562500000,0,0x5D,0x00,Read,ACK
1.558712062500000,0,0x5D,0x00,Read,ACK
1.558733500000000,0,0x5D,0x00,Read,ACK
1.558755656250000,0,0x5D,0x00,Read,ACK
1.558777093750000,0,0x5D,0x00,Read,ACK
1.558798781250000,0,0x5D,0x00,Read,ACK
1.558821875000000,0,0x5D,0x00,Read,ACK
1.558843312500000,0,0x5D,0x00,Read,ACK
1.558864781250000,0,0x5D,0x00,Read,ACK
1.558887156250000,0,0x5D,0x00,Read,NAK
1.564935187500000,0,0x5D,0x2F,Read,ACK
1.564962812500000,0,0x5D,0x00,Read,ACK
1.564984343750000,0,0x5D,0x04,Read,ACK
1.565005812500000,0,0x5D,0x03,Read,ACK
1.565027312500000,0,0x5D,0x0B,Read,ACK
1.565048781250000,0,0x5D,0x09,Read,ACK
1.565070250000000,0,0x5D,0x50,Read,ACK
1.565091718750000,0,0x5D,0x03,Read,ACK
1.565113187500000,0,0x5D,0x03,Read,ACK
1.565136218750000,0,0x5D,0x03,Read,ACK
1.565157687500000,0,0x5D,0x20,Read,ACK
1.565179156250000,0,0x5D,0x00,Read,ACK
1.565200656250000,0,0x5D,0x00,Read,ACK
1.565222125000000,0,0x5D,0x00,Read,ACK
1.565243625000000,0,0x5D,0x00,Read,ACK
1.565265343750000,0,0x5D,0x00,Read,ACK
1.565286875000000,0,0x5D,0x00,Read,ACK
1.565308312500000,0,0x5D,0x00,Read,ACK
1.565329875000000,0,0x5D,0x00,Read,ACK
1.565351312500000,0,0x5D,0x00,Read,ACK
1.565372812500000,0,0x5D,0x00,Read,ACK
1.565394312500000,0,0x5D,0x00,Read,ACK
1.565415781250000,0,0x5D,0x00,Read,ACK
1.565437250000000,0,0x5D,0x00,Read,ACK
1.565458687500000,0,0x5D,0x00,Read,ACK
1.565480156250000,0,0x5D,0x00,Read,ACK
1.565501656250000,0,0x5D,0x00,Read,ACK
1.565523125000000,0,0x5D,0x00,Read,ACK
1.565544562500000,0,0x5D,0x00,Read,ACK
1.565567156250000,0,0x5D,0x00,Read,ACK
1.565588656250000,0,0x5D,0x00,Read,ACK
1.565610125000000,0,0x5D,0x00,Read,ACK
1.565632937500000,0,0x5D,0x00,Read,ACK
1.565654718750000,0,0x5D,0x00,Read,ACK
1.565676156250000,0,0x5D,0x00,Read,ACK
1.565698593750000,0,0x5D,0x00,Read,ACK
1.565722218750000,0,0x5D,0x00,Read,ACK
1.565743718750000,0,0x5D,0x00,Read,ACK
1.565765843750000,0,0x5D,0x00,Read,ACK
1.565787343750000,0,0x5D,0x00,Read,ACK
1.565808875000000,0,0x5D,0x00,Read,ACK
1.565830343750000,0,0x5D,0x00,Read,ACK
1.565851968750000,0,0x5D,0x00,Read,ACK
1.565873625000000,0,0x5D,0x0A,Read,ACK
1.565896500000000,0,0x5D,0xA3,Read,ACK
1.565920125000000,0,0x5D,0x01,Read,ACK
1.565941625000000,0,0x5D,0x00,Read,ACK
1.565963093750000,0,0x5D,0x00,Read,ACK
1.565985500000000,0,0x5D,0x00,Read,ACK
1.566007031250000,0,0x5D,0x00,Read,ACK
1.566028531250000,0,0x5D,0x00,Read,ACK
1.566050000000000,0,0x5D,0x00,Read,ACK
1.566072093750000,0,0x5D,0x00,Read,ACK
1.566094781250000,0,0x5D,0x00,Read,ACK
1.566118156250000,0,0x5D,0x00,Read,ACK
1.566139937500000,0,0x5D,0x00,Read,ACK
1.566161406250000,0,0x5D,0x00,Read,ACK
1.566184468750000,0,0x5D,0x00,Read,ACK
1.566206781250000,0,0x5D,0x00,Read,ACK
1.566228593750000,0,0x5D,0x00,Read,ACK
1.566253187500000,0,0x5D,0x00,Read,ACK
1.566275656250000,0,0x5D,0x00,Read,ACK
1.566297125000000,0,0x5D,0x00,Read,ACK
1.566318593750000,0,0x5D,0x00,Read,NAK
1.571800656250000,0,0x5D,0x2F,Read,ACK
1.571828437500000,0,0x5D,0x00,Read,ACK
1.571849937500000,0,0x5D,0x04,Read,ACK
1.571871406250000,0,0x5D,0x03,Read,ACK
1.571892875000000,0,0x5D,0x13,Read,ACK
1.571917968750000,0,0x5D,0x09,Read,ACK
1.571942562500000,0,0x5D,0x6A,Read,ACK
1.571964031250000,0,0x5D,0x03,Read,ACK
1.571985500000000,0,0x5D,0x03,Read,ACK
1.572006968750000,0,0x5D,0x02,Read,ACK
1.572028468750000,0,0x5D,0x20,Read,ACK
1.572049937500000,0,0x5D,0x00,Read,ACK
1.572071406250000,0,0x5D,0x00,Read,ACK
1.572092875000000,0,0x5D,0x00,Read,ACK
1.572114343750000,0,0x5D,0x00,Read,ACK
1.572136062500000,0,0x5D,0x00,Read,ACK
1.572157562500000,0,0x5D,0x00,Read,ACK
1.572179031250000,0,0x5D,0x00,Read,ACK
1.572200531250000,0,0x5D,0x00,Read,ACK
1.572224875000000,0,0x5D,0x00,Read,ACK
1.572246781250000,0,0x5D,0x00,Read,ACK
1.572268281250000,0,0x5D,0x00,Read,ACK
1.572289750000000,0,0x5D,0x00,Read,ACK
1.572311250000000,0,0x5D,0x00,Read,ACK
1.572332718750000,0,0x5D,0x00,Read,ACK
1.572355750000000,0,0x5D,0x00,Read,ACK
1.572378937500000,0,0x5D,0x00,Read,ACK
1.572400375000000,0,0x5D,0x00,Read,ACK
1.572421843750000,0,0x5D,0x00,Read,ACK
1.572443312500000,0,0x5D,0x00,Read,ACK
1.572464781250000,0,0x5D,0x00,Read,ACK
1.572486281250000,0,0x5D,0x00,Read,ACK
1.572507750000000,0,0x5D,0x00,Read,ACK
1.572529218750000,0,0x5D,0x00,Read,ACK
1.572550687500000,0,0x5D,0x00,Read,ACK
1.572572187500000,0,0x5D,0x00,Read,ACK
1.572593625000000,0,0x5D,0x00,Read,ACK
1.572615093750000,0,0x5D,0x00,Read,ACK
1.572636562500000,0,0x5D,0x00,Read,ACK
1.572658062500000,0,0x5D,0x00,Read,ACK
1.572679531250000,0,0x5D,0x00,Read,ACK
1.572701000000000,0,0x5D,0x00,Read,ACK
1.572722500000000,0,0x5D,0x00,Read,ACK
1.572744000000000,0,0x5D,0x50,Read,ACK
1.572765500000000,0,0x5D,0xA3,Read,ACK
1.572786937500000,0,0x5D,0x01,Read,ACK
1.572810968750000,0,0x5D,0x00,Read,ACK
1.572834625000000,0,0x5D,0x00,Read,ACK
1.572856468750000,0,0x5D,0x00,Read,ACK
1.572882343750000,0,0x5D,0x00,Read,ACK
1.572905000000000,0,0x5D,0x00,Read,ACK
1.572926500000000,0,0x5D,0x00,Read,ACK
1.572947968750000,0,0x5D,0x00,Read,ACK
1.572969437500000,0,0x5D,0x00,Read,ACK
1.572990937500000,0,0x5D,0x00,Read,ACK
1.573012406250000,0,0x5D,0x00,Read,ACK
1.573033875000000,0,0x5D,0x00,Read,ACK
1.573055750000000,0,0x5D,0x00,Read,ACK
1.573078406250000,0,0x5D,0x00,Read,ACK
1.573099906250000,0,0x5D,0x00,Read,ACK
1.573121406250000,0,0x5D,0x00,Read,ACK
1.573144281250000,0,0x5D,0x00,Read,ACK
1.573166343750000,0,0x5D,0x00,Read,ACK
1.573187812500000,0,0x5D,0x00,Read,NAK
1.578924281250000,0,0x5D,0x2F,Read,ACK
1.578950937500000,0,0x5D,0x00,Read,ACK
1.578972656250000,0,0x5D,0x04,Read,ACK
1.578994093750000,0,0x5D,0x03,Read,ACK
1.579015562500000,0,0x5D,0x1B,Read,ACK
1.579037062500000,0,0x5D,0x09,Read,ACK
1.579062875000000,0,0x5D,0x86,Read,ACK
1.579084406250000,0,0x5D,0x03,Read,ACK
1.579105906250000,0,0x5D,0x03,Read,ACK
1.579127375000000,0,0x5D,0x03,Read,ACK
1.579148843750000,0,0x5D,0x20,Read,ACK
1.579170312500000,0,0x5D,0x00,Read,ACK
1.579191781250000,0,0x5D,0x00,Read,ACK
1.579213250000000,0,0x5D,0x00,Read,ACK
1.579234750000000,0,0x5D,0x00,Read,ACK
1.579256218750000,0,0x5D,0x00,Read,ACK
1.579277750000000,0,0x5D,0x00,Read,ACK
1.579300906250000,0,0x5D,0x00,Read,ACK
1.579322375000000,0,0x5D,0x00,Read,ACK
1.579343875000000,0,0x5D,0x00,Read,ACK
1.579365375000000,0,0x5D,0x00,Read,ACK
1.579386843750000,0,0x5D,0x00,Read,ACK
1.579409500000000,0,0x5D,0x00,Read,ACK
1.579431000000000,0,0x5D,0x00,Read,ACK
1.579452437500000,0,0x5D,0x00,Read,ACK
1.579473937500000,0,0x5D,0x00,Read,ACK
1.579495437500000,0,0x5D,0x00,Read,ACK
1.579516875000000,0,0x5D,0x00,Read,ACK
1.579538343750000,0,0x5D,0x00,Read,ACK
1.579559812500000,0,0x5D,0x00,Read,ACK
1.579581312500000,0,0x5D,0x00,Read,ACK
1.579602781250000,0,0x5D,0x00,Read,ACK
1.579624281250000,0,0x5D,0x00,Read,ACK
1.579645968750000,0,0x5D,0x00,Read,ACK
1.579667437500000,0,0x5D,0x00,Read,ACK
1.579688906250000,0,0x5D,0x00,Read,ACK
1.579710375000000,0,0x5D,0x00,Read,ACK
1.579731843750000,0,0x5D,0x00,Read,ACK
1.579753312500000,0,0x5D,0x00,Read,ACK
1.579774812500000,0,0x5D,0x00,Read,ACK
1.579796281250000,0,0x5D,0x00,Read,ACK
1.579817750000000,0,0x5D,0x00,Read,ACK
1.579839218750000,0,0x5D,0x00,Read,ACK
1.579860687500000,0,0x5D,0x96,Read,ACK
1.579882156250000,0,0x5D,0xA3,Read,ACK
1.579903906250000,0,0x5D,0x01,Read,ACK
1.579925375000000,0,0x5D,0x00,Read,ACK
1.579946843750000,0,0x5D,0x00,Read,ACK
1.579968312500000,0,0x5D,0x00,Read,ACK
1.579989781250000,0,0x5D,0x00,Read,ACK
1.580012500000000,0,0x5D,0x00,Read,ACK
1.580035531250000,0,0x5D,0x00,Read,ACK
1.580058562500000,0,0x5D,0x00,Read,ACK
1.580079968750000,0,0x5D,0x00,Read,ACK
1.580101937500000,0,0x5D,0x00,Read,ACK
1.580125062500000,0,0x5D,0x00,Read,ACK
1.580146531250000,0,0x5D,0x00,Read,ACK
1.580168000000000,0,0x5D,0x00,Read,ACK
1.580191156250000,0,0x5D,0x00,Read,ACK
1.580213343750000,0,0x5D,0x00,Read,ACK
1.580235281250000,0,0x5D,0x00,Read,ACK
1.580257562500000,0,0x5D,0x00,Read,ACK
1.580279062500000,0,0x5D,0x00,Read,ACK
1.580301000000000,0,0x5D,0x00,Read,NAK
1.586036656250000,0,0x5D,0x2F,Read,ACK
1.586064187500000,0,0x5D,0x00,Read,ACK
1.586087406250000,0,0x5D,0x04,Read,ACK
1.586108875000000,0,0x5D,0x03,Read,ACK
1.586130343750000,0,0x5D,0x21,Read,ACK
1.586152000000000,0,0x5D,0x09,Read,ACK
1.586173968750000,0,0x5D,0xA1,Read,ACK
1.586199625000000,0,0x5D,0x03,Read,ACK
1.586221062500000,0,0x5D,0x03,Read,ACK
1.586242531250000,0,0x5D,0x03,Read,ACK
1.586264031250000,0,0x5D,0x20,Read,ACK
1.586285468750000,0,0x5D,0x00,Read,ACK
1.586306968750000,0,0x5D,0x00,Read,ACK
1.586328437500000,0,0x5D,0x00,Read,ACK
1.586349937500000,0,0x5D,0x00,Read,ACK
1.586371375000000,0,0x5D,0x00,Read,ACK
1.586392843750000,0,0x5D,0x00,Read,ACK
1.586414312500000,0,0x5D,0x00,Read,ACK
1.586435781250000,0,0x5D,0x00,Read,ACK
1.586457500000000,0,0x5D,0x00,Read,ACK
1.586479000000000,0,0x5D,0x00,Read,ACK
1.586500468750000,0,0x5D,0x00,Read,ACK
1.586521937500000,0,0x5D,0x00,Read,ACK
1.586543437500000,0,0x5D,0x00,Read,ACK
1.586564906250000,0,0x5D,0x00,Read,ACK
1.586587375000000,0,0x5D,0x00,Read,ACK
1.586608843750000,0,0x5D,0x00,Read,ACK
1.586630593750000,0,0x5D,0x00,Read,ACK
1.586652031250000,0,0x5D,0x00,Read,ACK
1.586673500000000,0,0x5D,0x00,Read,ACK
1.586694968750000,0,0x5D,0x00,Read,ACK
1.586716437500000,0,0x5D,0x00,Read,ACK
1.586737968750000,0,0x5D,0x00,Read,ACK
1.586759468750000,0,0x5D,0x00,Read,ACK
1.586780968750000,0,0x5D,0x00,Read,ACK
1.586802437500000,0,0x5D,0x00,Read,ACK
1.586823875000000,0,0x5D,0x00,Read,ACK
1.586845750000000,0,0x5D,0x00,Read,ACK
1.586867187500000,0,0x5D,0x00,Read,ACK
1.586888718750000,0,0x5D,0x00,Read,ACK
1.586910406250000,0,0x5D,0x00,Read,ACK
1.586931875000000,0,0x5D,0x00,Read,ACK
1.586953343750000,0,0x5D,0x00,Read,ACK
1.586974812500000,0,0x5D,0xDC,Read,ACK
1.586996281250000,0,0x5D,0xA3,Read,ACK
1.587017750000000,0,0x5D,0x01,Read,ACK
1.587039250000000,0,0x5D,0x00,Read,ACK
1.587060718750000,0,0x5D,0x00,Read,ACK
1.587082187500000,0,0x5D,0x00,Read,ACK
1.587103656250000,0,0x5D,0x00,Read,ACK
1.587126781250000,0,0x5D,0x00,Read,ACK
1.587151125000000,0,0x5D,0x00,Read,ACK
1.587172562500000,0,0x5D,0x00,Read,ACK
1.587194093750000,0,0x5D,0x00,Read,ACK
1.587216312500000,0,0x5D,0x00,Read,ACK
1.587237812500000,0,0x5D,0x00,Read,ACK
1.587259312500000,0,0x5D,0x00,Read,ACK
1.587280750000000,0,0x5D,0x00,Read,ACK
1.587302437500000,0,0x5D,0x00,Read,ACK
1.587324531250000,0,0x5D,0x00,Read,ACK
1.587346093750000,0,0x5D,0x00,Read,ACK
1.587367593750000,0,0x5D,0x00,Read,ACK
1.587389500000000,0,0x5D,0x00,Read,ACK
1.587411000000000,0,0x5D,0x00,Read,NAK
1.593161093750000,0,0x5D,0x2F,Read,ACK
1.593191093750000,0,0x5D,0x00,Read,ACK
1.593213093750000,0,0x5D,0x04,Read,ACK
1.593234531250000,0,0x5D,0x03,Read,ACK
1.593256593750000,0,0x5D,0x25,Read,ACK
1.593278093750000,0,0x5D,0x09,Read,ACK
1.593299562500000,0,0x5D,0xBA,Read,ACK
1.593321468750000,0,0x5D,0x03,Read,ACK
1.593346406250000,0,0x5D,0x03,Read,ACK
1.593367906250000,0,0x5D,0x03,Read,ACK
1.593389375000000,0,0x5D,0x20,Read,ACK
1.593410875000000,0,0x5D,0x00,Read,ACK
1.593432343750000,0,0x5D,0x00,Read,ACK
1.593453843750000,0,0x5D,0x00,Read,ACK
1.593475281250000,0,0x5D,0x00,Read,ACK
1.593496781250000,0,0x5D,0x00,Read,ACK
1.593518250000000,0,0x5D,0x00,Read,ACK
1.593539718750000,0,0x5D,0x00,Read,ACK
1.593561187500000,0,0x5D,0x00,Read,ACK
1.593584062500000,0,0x5D,0x00,Read,ACK
1.593605937500000,0,0x5D,0x00,Read,ACK
1.593627437500000,0,0x5D,0x00,Read,ACK
1.593648875000000,0,0x5D,0x00,Read,ACK
1.593670343750000,0,0x5D,0x00,Read,ACK
1.593693062500000,0,0x5D,0x00,Read,ACK
1.593714656250000,0,0x5D,0x00,Read,ACK
1.593736156250000,0,0x5D,0x00,Read,ACK
1.593757625000000,0,0x5D,0x00,Read,ACK
1.593779156250000,0,0x5D,0x00,Read,ACK
1.593801281250000,0,0x5D,0x00,Read,ACK
1.593822750000000,0,0x5D,0x00,Read,ACK
1.593844906250000,0,0x5D,0x00,Read,ACK
1.593866375000000,0,0x5D,0x00,Read,ACK
1.593887875000000,0,0x5D,0x00,Read,ACK
1.593909312500000,0,0x5D,0x00,Read,ACK
1.593930781250000,0,0x5D,0x00,Read,ACK
1.593952281250000,0,0x5D,0x00,Read,ACK
1.593973718750000,0,0x5D,0x00,Read,ACK
1.593995187500000,0,0x5D,0x00,Read,ACK
1.594016656250000,0,0x5D,0x00,Read,ACK
1.594038156250000,0,0x5D,0x00,Read,ACK
1.594059625000000,0,0x5D,0x00,Read,ACK
1.594081093750000,0,0x5D,0x00,Read,ACK
1.594102562500000,0,0x5D,0x22,Read,ACK
1.594124093750000,0,0x5D,0xA4,Read,ACK
1.594145562500000,0,0x5D,0x01,Read,ACK
1.594167062500000,0,0x5D,0x00,Read,ACK
1.594188531250000,0,0x5D,0x00,Read,ACK
1.594210031250000,0,0x5D,0x00,Read,ACK
1.594231531250000,0,0x5D,0x00,Read,ACK
1.594253000000000,0,0x5D,0x00,Read,ACK
1.594280968750000,0,0x5D,0x00,Read,ACK
1.594304093750000,0,0x5D,0x00,Read,ACK
1.594327156250000,0,0x5D,0x00,Read,ACK
1.594349687500000,0,0x5D,0x00,Read,ACK
1.594371562500000,0,0x5D,0x00,Read,ACK
1.594393031250000,0,0x5D,0x00,Read,ACK
1.594414531250000,0,0x5D,0x00,Read,ACK
1.594436000000000,0,0x5D,0x00,Read,ACK
1.594457437500000,0,0x5D,0x00,Read,ACK
1.594480500000000,0,0x5D,0x00,Read,ACK
1.594502062500000,0,0x5D,0x00,Read,ACK
1.594523781250000,0,0x5D,0x00,Read,ACK
1.594545906250000,0,0x5D,0x00,Read,NAK
1.600471500000000,0,0x5D,0x2F,Read,ACK
1.600499812500000,0,0x5D,0x00,Read,ACK
1.600521281250000,0,0x5D,0x04,Read,ACK
1.600542750000000,0,0x5D,0x03,Read,ACK
1.600564218750000,0,0x5D,0x27,Read,ACK
1.600585687500000,0,0x5D,0x09,Read,ACK
1.600607156250000,0,0x5D,0xD2,Read,ACK
1.600628625000000,0,0x5D,0x03,Read,ACK
1.600650125000000,0,0x5D,0x03,Read,ACK
1.600671593750000,0,0x5D,0x03,Read,ACK
1.600693750000000,0,0x5D,0x20,Read,ACK
1.600715375000000,0,0x5D,0x00,Read,ACK
1.600736875000000,0,0x5D,0x00,Read,ACK
1.600758375000000,0,0x5D,0x00,Read,ACK
1.600779843750000,0,0x5D,0x00,Read,ACK
1.600801562500000,0,0x5D,0x00,Read,ACK
1.600824312500000,0,0x5D,0x00,Read,ACK
1.600845812500000,0,0x5D,0x00,Read,ACK
1.600867281250000,0,0x5D,0x00,Read,ACK
1.600888781250000,0,0x5D,0x00,Read,ACK
1.600910218750000,0,0x5D,0x00,Read,ACK
1.600932187500000,0,0x5D,0x00,Read,ACK
1.600953843750000,0,0x5D,0x00,Read,ACK
1.600975343750000,0,0x5D,0x00,Read,ACK
1.600996812500000,0,0x5D,0x00,Read,ACK
1.601018281250000,0,0x5D,0x00,Read,ACK
1.601039781250000,0,0x5D,0x00,Read,ACK
1.601061218750000,0,0x5D,0x00,Read,ACK
1.601082718750000,0,0x5D,0x00,Read,ACK
1.601104406250000,0,0x5D,0x00,Read,ACK
1.601125906250000,0,0x5D,0x00,Read,ACK
1.601147375000000,0,0x5D,0x00,Read,ACK
1.601168843750000,0,0x5D,0x00,Read,ACK
1.601190312500000,0,0x5D,0x00,Read,ACK
1.601211781250000,0,0x5D,0x00,Read,ACK
1.601233281250000,0,0x5D,0x00,Read,ACK
1.601254781250000,0,0x5D,0x00,Read,ACK
1.601276281250000,0,0x5D,0x00,Read,ACK
1.601297718750000,0,0x5D,0x00,Read,ACK
1.601319218750000,0,0x5D,0x00,Read,ACK
1.601340687500000,0,0x5D,0x00,Read,ACK
1.601365031250000,0,0x5D,0x00,Read,ACK
1.601386906250000,0,0x5D,0x00,Read,ACK
1.601409250000000,0,0x5D,0x68,Read,ACK
1.601430687500000,0,0x5D,0xA4,Read,ACK
1.601453343750000,0,0x5D,0x01,Read,ACK
1.601475250000000,0,0x5D,0x00,Read,ACK
1.601497937500000,0,0x5D,0x00,Read,ACK
1.601519406250000,0,0x5D,0x00,Read,ACK
1.601540875000000,0,0x5D,0x00,Read,ACK
1.601562343750000,0,0x5D,0x00,Read,ACK
1.601583843750000,0,0x5D,0x00,Read,ACK
1.601606312500000,0,0x5D,0x00,Read,ACK
1.601627750000000,0,0x5D,0x00,Read,ACK
1.601650968750000,0,0x5D,0x00,Read,ACK
1.601672468750000,0,0x5D,0x00,Read,ACK
1.601693937500000,0,0x5D,0x00,Read,ACK
1.601716187500000,0,0x5D,0x00,Read,ACK
1.601738437500000,0,0x5D,0x00,Read,ACK
1.601759906250000,0,0x5D,0x00,Read,ACK
1.601781406250000,0,0x5D,0x00,Read,ACK
1.601804656250000,0,0x5D,0x00,Read,ACK
1.601826125000000,0,0x5D,0x00,Read,ACK
1.601849000000000,0,0x5D,0x00,Read,NAK
1.607511812500000,0,0x5D,0x2F,Read,ACK
1.607538468750000,0,0x5D,0x00,Read,ACK
1.607559906250000,0,0x5D,0x04,Read,ACK
1.607581875000000,0,0x5D,0x03,Read,ACK
1.607606875000000,0,0x5D,0x26,Read,ACK
1.607628343750000,0,0x5D,0x09,Read,ACK
1.607649812500000,0,0x5D,0xE7,Read,ACK
1.607671312500000,0,0x5D,0x03,Read,ACK
1.607692781250000,0,0x5D,0x03,Read,ACK
1.607714218750000,0,0x5D,0x02,Read,ACK
1.607735718750000,0,0x5D,0x20,Read,ACK
1.607757187500000,0,0x5D,0x00,Read,ACK
1.607778656250000,0,0x5D,0x00,Read,ACK
1.607800125000000,0,0x5D,0x00,Read,ACK
1.607821625000000,0,0x5D,0x00,Read,ACK
1.607844250000000,0,0x5D,0x00,Read,ACK
1.607866125000000,0,0x5D,0x00,Read,ACK
1.607888156250000,0,0x5D,0x00,Read,ACK
1.607909625000000,0,0x5D,0x00,Read,ACK
1.607931093750000,0,0x5D,0x00,Read,ACK
1.607953343750000,0,0x5D,0x00,Read,ACK
1.607974843750000,0,0x5D,0x00,Read,ACK
1.607996312500000,0,0x5D,0x00,Read,ACK
1.608017781250000,0,0x5D,0x00,Read,ACK
1.608039250000000,0,0x5D,0x00,Read,ACK
1.608060718750000,0,0x5D,0x00,Read,ACK
1.608082531250000,0,0x5D,0x00,Read,ACK
1.608104000000000,0,0x5D,0x00,Read,ACK
1.608125468750000,0,0x5D,0x00,Read,ACK
1.608147000000000,0,0x5D,0x00,Read,ACK
1.608168468750000,0,0x5D,0x00,Read,ACK
1.608189937500000,0,0x5D,0x00,Read,ACK
1.608211437500000,0,0x5D,0x00,Read,ACK
1.608232906250000,0,0x5D,0x00,Read,ACK
1.608254375000000,0,0x5D,0x00,Read,ACK
1.608275875000000,0,0x5D,0x00,Read,ACK
1.608297312500000,0,0x5D,0x00,Read,ACK
1.608318812500000,0,0x5D,0x00,Read,ACK
1.608340250000000,0,0x5D,0x00,Read,ACK
1.608361718750000,0,0x5D,0x00,Read,ACK
1.608383187500000,0,0x5D,0x00,Read,ACK
1.608404687500000,0,0x5D,0x00,Read,ACK
1.608426156250000,0,0x5D,0x00,Read,ACK
1.608447625000000,0,0x5D,0xAE,Read,ACK
1.608469125000000,0,0x5D,0xA4,Read,ACK
1.608490593750000,0,0x5D,0x01,Read,ACK
1.608513937500000,0,0x5D,0x00,Read,ACK
1.608539906250000,0,0x5D,0x00,Read,ACK
1.608561625000000,0,0x5D,0x00,Read,ACK
1.608583843750000,0,0x5D,0x00,Read,ACK
1.608605812500000,0,0x5D,0x00,Read,ACK
1.608628125000000,0,0x5D,0x00,Read,ACK
1.608649562500000,0,0x5D,0x00,Read,ACK
1.608671218750000,0,0x5D,0x00,Read,ACK
1.608692687500000,0,0x5D,0x00,Read,ACK
1.608715531250000,0,0x5D,0x00,Read,ACK
1.608737156250000,0,0x5D,0x00,Read,ACK
1.608758875000000,0,0x5D,0x00,Read,ACK
1.608780343750000,0,0x5D,0x00,Read,ACK
1.608803843750000,0,0x5D,0x00,Read,ACK
1.608825281250000,0,0x5D,0x00,Read,ACK
1.608846906250000,0,0x5D,0x00,Read,ACK
1.608868375000000,0,0x5D,0x00,Read,ACK
1.608889843750000,0,0x5D,0x00,Read,NAK
1.615007312500000,0,0x5D,0x2F,Read,ACK
1.615031812500000,0,0x5D,0x00,Read,ACK
1.615053281250000,0,0x5D,0x04,Read,ACK
1.615074781250000,0,0x5D,0x03,Read,ACK
1.615096250000000,0,0x5D,0x25,Read,ACK
1.615117781250000,0,0x5D,0x09,Read,ACK
1.615139343750000,0,0x5D,0xFA,Read,ACK
1.615160843750000,0,0x5D,0x03,Read,ACK
1.615182562500000,0,0x5D,0x03,Read,ACK
1.615204031250000,0,0x5D,0x02,Read,ACK
1.615225500000000,0,0x5D,0x20,Read,ACK
1.615247437500000,0,0x5D,0x00,Read,ACK
1.615268875000000,0,0x5D,0x00,Read,ACK
1.615290375000000,0,0x5D,0x00,Read,ACK
1.615311812500000,0,0x5D,0x00,Read,ACK
1.615333312500000,0,0x5D,0x00,Read,ACK
1.615355000000000,0,0x5D,0x00,Read,ACK
1.615376750000000,0,0x5D,0x00,Read,ACK
1.615398218750000,0,0x5D,0x00,Read,ACK
1.615419718750000,0,0x5D,0x00,Read,ACK
1.615441281250000,0,0x5D,0x00,Read,ACK
1.615462750000000,0,0x5D,0x00,Read,ACK
1.615484250000000,0,0x5D,0x00,Read,ACK
1.615505718750000,0,0x5D,0x00,Read,ACK
1.615527187500000,0,0x5D,0x00,Read,ACK
1.615548656250000,0,0x5D,0x00,Read,ACK
1.615570125000000,0,0x5D,0x00,Read,ACK
1.615591593750000,0,0x5D,0x00,Read,ACK
1.615614812500000,0,0x5D,0x00,Read,ACK
1.615637812500000,0,0x5D,0x00,Read,ACK
1.615659687500000,0,0x5D,0x00,Read,ACK
1.615685625000000,0,0x5D,0x00,Read,ACK
1.615707312500000,0,0x5D,0x00,Read,ACK
1.615729281250000,0,0x5D,0x00,Read,ACK
1.615751906250000,0,0x5D,0x00,Read,ACK
1.615773343750000,0,0x5D,0x00,Read,ACK
1.615794843750000,0,0x5D,0x00,Read,ACK
1.615816312500000,0,0x5D,0x00,Read,ACK
1.615838968750000,0,0x5D,0x00,Read,ACK
1.615860500000000,0,0x5D,0x00,Read,ACK
1.615881968750000,0,0x5D,0x00,Read,ACK
1.615903468750000,0,0x5D,0x00,Read,ACK
1.615925093750000,0,0x5D,0x00,Read,ACK
1.615946593750000,0,0x5D,0xF4,Read,ACK
1.615969625000000,0,0x5D,0xA4,Read,ACK
1.615991125000000,0,0x5D,0x01,Read,ACK
1.616012906250000,0,0x5D,0x00,Read,ACK
1.616034343750000,0,0x5D,0x00,Read,ACK
1.616055812500000,0,0x5D,0x00,Read,ACK
1.616077625000000,0,0x5D,0x00,Read,ACK
1.616100781250000,0,0x5D,0x00,Read,ACK
1.616122250000000,0,0x5D,0x00,Read,ACK
1.616143968750000,0,0x5D,0x00,Read,ACK
1.616165968750000,0,0x5D,0x00,Read,ACK
1.616187468750000,0,0x5D,0x00,Read,ACK
1.616208937500000,0,0x5D,0x00,Read,ACK
1.616232281250000,0,0x5D,0x00,Read,ACK
1.616254187500000,0,0x5D,0x00,Read,ACK
1.616275875000000,0,0x5D,0x00,Read,ACK
1.616299062500000,0,0x5D,0x00,Read,ACK
1.616324312500000,0,0x5D,0x00,Read,ACK
1.616345781250000,0,0x5D,0x00,Read,ACK
1.616367250000000,0,0x5D,0x00,Read,ACK
1.616388718750000,0,0x5D,0x00,Read,NAK
1.621787968750000,0,0x5D,0x2F,Read,ACK
1.621815187500000,0,0x5D,0x00,Read,ACK
1.621836656250000,0,0x5D,0x04,Read,ACK
1.621858593750000,0,0x5D,0x03,Read,ACK
1.621880468750000,0,0x5D,0x21,Read,ACK
1.621903812500000,0,0x5D,0x09,Read,ACK
1.621925281250000,0,0x5D,0x0A,Read,ACK
1.621946781250000,0,0x5D,0x04,Read,ACK
1.621968218750000,0,0x5D,0x03,Read,ACK
1.621989687500000,0,0x5D,0x02,Read,ACK
1.622011156250000,0,0x5D,0x20,Read,ACK
1.622032656250000,0,0x5D,0x00,Read,ACK
1.622054125000000,0,0x5D,0x00,Read,ACK
1.622075593750000,0,0x5D,0x00,Read,ACK
1.622097062500000,0,0x5D,0x00,Read,ACK
1.622118531250000,0,0x5D,0x00,Read,ACK
1.622141250000000,0,0x5D,0x00,Read,ACK
1.622162750000000,0,0x5D,0x00,Read,ACK
1.622184437500000,0,0x5D,0x00,Read,ACK
1.622205937500000,0,0x5D,0x00,Read,ACK
1.622227406250000,0,0x5D,0x00,Read,ACK
1.622248937500000,0,0x5D,0x00,Read,ACK
1.622270437500000,0,0x5D,0x00,Read,ACK
1.622291875000000,0,0x5D,0x00,Read,ACK
1.622313375000000,0,0x5D,0x00,Read,ACK
1.622334843750000,0,0x5D,0x00,Read,ACK
1.622356343750000,0,0x5D,0x00,Read,ACK
1.622379312500000,0,0x5D,0x00,Read,ACK
1.622400843750000,0,0x5D,0x00,Read,ACK
1.622422312500000,0,0x5D,0x00,Read,ACK
1.622443781250000,0,0x5D,0x00,Read,ACK
1.622465250000000,0,0x5D,0x00,Read,ACK
1.622486718750000,0,0x5D,0x00,Read,ACK
1.622508218750000,0,0x5D,0x00,Read,ACK
1.622529968750000,0,0x5D,0x00,Read,ACK
1.622551468750000,0,0x5D,0x00,Read,ACK
1.622573000000000,0,0x5D,0x00,Read,ACK
1.622594468750000,0,0x5D,0x00,Read,ACK
1.622615937500000,0,0x5D,0x00,Read,ACK
1.622637437500000,0,0x5D,0x00,Read,ACK
1.622658906250000,0,0x5D,0x00,Read,ACK
1.622680437500000,0,0x5D,0x00,Read,ACK
1.622701906250000,0,0x5D,0x00,Read,ACK
1.622723406250000,0,0x5D,0x3A,Read,ACK
1.622745093750000,0,0x5D,0xA5,Read,ACK
1.622766562500000,0,0x5D,0x01,Read,ACK
1.622788062500000,0,0x5D,0x00,Read,ACK
1.622811062500000,0,0x5D,0x00,Read,ACK
1.622836968750000,0,0x5D,0x00,Read,ACK
1.622858593750000,0,0x5D,0x00,Read,ACK
1.622880062500000,0,0x5D,0x00,Read,ACK
1.622901562500000,0,0x5D,0x00,Read,ACK
1.622923000000000,0,0x5D,0x00,Read,ACK
1.622944625000000,0,0x5D,0x00,Read,ACK
1.622966437500000,0,0x5D,0x00,Read,ACK
1.622989468750000,0,0x5D,0x00,Read,ACK
1.623012687500000,0,0x5D,0x00,Read,ACK
1.623035250000000,0,0x5D,0x00,Read,ACK
1.623056843750000,0,0x5D,0x00,Read,ACK
1.623078375000000,0,0x5D,0x00,Read,ACK
1.623099875000000,0,0x5D,0x00,Read,ACK
1.623121656250000,0,0x5D,0x00,Read,ACK
1.623144406250000,0,0x5D,0x00,Read,ACK
1.623165843750000,0,0x5D,0x00,Read,NAK
1.628898843750000,0,0x5D,0x2F,Read,ACK
1.628928375000000,0,0x5D,0x00,Read,ACK
1.628951562500000,0,0x5D,0x04,Read,ACK
1.628973062500000,0,0x5D,0x03,Read,ACK
1.628994625000000,0,0x5D,0x1B,Read,ACK
1.629016093750000,0,0x5D,0x09,Read,ACK
1.629037562500000,0,0x5D,0x16,Read,ACK
1.629059312500000,0,0x5D,0x04,Read,ACK
1.629084812500000,0,0x5D,0x03,Read,ACK
1.629106281250000,0,0x5D,0x02,Read,ACK
1.629127750000000,0,0x5D,0x20,Read,ACK
1.629149218750000,0,0x5D,0x00,Read,ACK
1.629170718750000,0,0x5D,0x00,Read,ACK
1.629192187500000,0,0x5D,0x00,Read,ACK
1.629213656250000,0,0x5D,0x00,Read,ACK
1.629235156250000,0,0x5D,0x00,Read,ACK
1.629256593750000,0,0x5D,0x00,Read,ACK
1.629278093750000,0,0x5D,0x00,Read,ACK
1.629299562500000,0,0x5D,0x00,Read,ACK
1.629321468750000,0,0x5D,0x00,Read,ACK
1.629342937500000,0,0x5D,0x00,Read,ACK
1.629364406250000,0,0x5D,0x00,Read,ACK
1.629385906250000,0,0x5D,0x00,Read,ACK
1.629407375000000,0,0x5D,0x00,Read,ACK
1.629428843750000,0,0x5D,0x00,Read,ACK
1.629451968750000,0,0x5D,0x00,Read,ACK
1.629473406250000,0,0x5D,0x00,Read,ACK
1.629494968750000,0,0x5D,0x00,Read,ACK
1.629516437500000,0,0x5D,0x00,Read,ACK
1.629537906250000,0,0x5D,0x00,Read,ACK
1.629559406250000,0,0x5D,0x00,Read,ACK
1.629580906250000,0,0x5D,0x00,Read,ACK
1.629602406250000,0,0x5D,0x00,Read,ACK
1.629623875000000,0,0x5D,0x00,Read,ACK
1.629645343750000,0,0x5D,0x00,Read,ACK
1.629666937500000,0,0x5D,0x00,Read,ACK
1.629688406250000,0,0x5D,0x00,Read,ACK
1.629709875000000,0,0x5D,0x00,Read,ACK
1.629731375000000,0,0x5D,0x00,Read,ACK
1.629754718750000,0,0x5D,0x00,Read,ACK
1.629776187500000,0,0x5D,0x00,Read,ACK
1.629797656250000,0,0x5D,0x00,Read,ACK
1.629819156250000,0,0x5D,0x00,Read,ACK
1.629840593750000,0,0x5D,0x80,Read,ACK
1.629862062500000,0,0x5D,0xA5,Read,ACK
1.629883562500000,0,0x5D,0x01,Read,ACK
1.629905062500000,0,0x5D,0x00,Read,ACK
1.629926562500000,0,0x5D,0x00,Read,ACK
1.629948281250000,0,0x5D,0x00,Read,ACK
1.629969750000000,0,0x5D,0x00,Read,ACK
1.629992437500000,0,0x5D,0x00,Read,ACK
1.630013937500000,0,0x5D,0x00,Read,ACK
1.630038406250000,0,0x5D,0x00,Read,ACK
1.630061093750000,0,0x5D,0x00,Read,ACK
1.630084375000000,0,0x5D,0x00,Read,ACK
1.630107687500000,0,0x5D,0x00,Read,ACK
1.630129187500000,0,0x5D,0x00,Read,ACK
1.630150625000000,0,0x5D,0x00,Read,ACK
1.630172125000000,0,0x5D,0x00,Read,ACK
1.630193593750000,0,0x5D,0x00,Read,ACK
1.630215062500000,0,0x5D,0x00,Read,ACK
1.630237187500000,0,0x5D,0x00,Read,ACK
1.630259875000000,0,0x5D,0x00,Read,ACK
1.630281375000000,0,0x5D,0x00,Read,NAK
1.636063906250000,0,0x5D,0x2F,Read,ACK
1.636092937500000,0,0x5D,0x00,Read,ACK
1.636114375000000,0,0x5D,0x04,Read,ACK
1.636135875000000,0,0x5D,0x03,Read,ACK
1.636158156250000,0,0x5D,0x14,Read,ACK
1.636183531250000,0,0x5D,0x09,Read,ACK
1.636204968750000,0,0x5D,0x20,Read,ACK
1.636226437500000,0,0x5D,0x04,Read,ACK
1.636247937500000,0,0x5D,0x03,Read,ACK
1.636269406250000,0,0x5D,0x03,Read,ACK
1.636290843750000,0,0x5D,0x20,Read,ACK
1.636312312500000,0,0x5D,0x00,Read,ACK
1.636333812500000,0,0x5D,0x00,Read,ACK
1.636355281250000,0,0x5D,0x00,Read,ACK
1.636376718750000,0,0x5D,0x00,Read,ACK
1.636398218750000,0,0x5D,0x00,Read,ACK
1.636419687500000,0,0x5D,0x00,Read,ACK
1.636442625000000,0,0x5D,0x00,Read,ACK
1.636464062500000,0,0x5D,0x00,Read,ACK
1.636485781250000,0,0x5D,0x00,Read,ACK
1.636507250000000,0,0x5D,0x00,Read,ACK
1.636529468750000,0,0x5D,0x00,Read,ACK
1.636551625000000,0,0x5D,0x00,Read,ACK
1.636573125000000,0,0x5D,0x00,Read,ACK
1.636595812500000,0,0x5D,0x00,Read,ACK
1.636617250000000,0,0x5D,0x00,Read,ACK
1.636638750000000,0,0x5D,0x00,Read,ACK
1.636660187500000,0,0x5D,0x00,Read,ACK
1.636682875000000,0,0x5D,0x00,Read,ACK
1.636704312500000,0,0x5D,0x00,Read,ACK
1.636725812500000,0,0x5D,0x00,Read,ACK
1.636747281250000,0,0x5D,0x00,Read,ACK
1.636768750000000,0,0x5D,0x00,Read,ACK
1.636790218750000,0,0x5D,0x00,Read,ACK
1.636811937500000,0,0x5D,0x00,Read,ACK
1.636833406250000,0,0x5D,0x00,Read,ACK
1.636854906250000,0,0x5D,0x00,Read,ACK
1.636876375000000,0,0x5D,0x00,Read,ACK
1.636897843750000,0,0x5D,0x00,Read,ACK
1.636919312500000,0,0x5D,0x00,Read,ACK
1.636940781250000,0,0x5D,0x00,Read,ACK
1.636962281250000,0,0x5D,0x00,Read,ACK
1.636983937500000,0,0x5D,0x00,Read,ACK
1.637005406250000,0,0x5D,0xC6,Read,ACK
1.637026875000000,0,0x5D,0xA5,Read,ACK
1.637048562500000,0,0x5D,0x01,Read,ACK
1.637071718750000,0,0x5D,0x00,Read,ACK
1.637094656250000,0,0x5D,0x00,Read,ACK
1.637116937500000,0,0x5D,0x00,Read,ACK
1.637139937500000,0,0x5D,0x00,Read,ACK
1.637161375000000,0,0x5D,0x00,Read,ACK
1.637182937500000,0,0x5D,0x00,Read,ACK
1.637204406250000,0,0x5D,0x00,Read,ACK
1.637225875000000,0,0x5D,0x00,Read,ACK
1.637247343750000,0,0x5D,0x00,Read,ACK
1.637269312500000,0,0x5D,0x00,Read,ACK
1.637293406250000,0,0x5D,0x00,Read,ACK
1.637316625000000,0,0x5D,0x00,Read,ACK
1.637338156250000,0,0x5D,0x00,Read,ACK
1.637360781250000,0,0x5D,0x00,Read,ACK
1.637382375000000,0,0x5D,0x00,Read,ACK
1.637403906250000,0,0x5D,0x00,Read,ACK
1.637425375000000,0,0x5D,0x00,Read,ACK
1.637448281250000,0,0x5D,0x00,Read,NAK
1.643212250000000,0,0x5D,0x2F,Read,ACK
1.643238750000000,0,0x5D,0x00,Read,ACK
1.643260218750000,0,0x5D,0x04,Read,ACK
1.643281687500000,0,0x5D,0x03,Read,ACK
1.643303156250000,0,0x5D,0x0C,Read,ACK
1.643324625000000,0,0x5D,0x09,Read,ACK
1.643346375000000,0,0x5D,0x28,Read,ACK
1.643370906250000,0,0x5D,0x04,Read,ACK
1.643392375000000,0,0x5D,0x03,Read,ACK
1.643413843750000,0,0x5D,0x03,Read,ACK
1.643435312500000,0,0x5D,0x20,Read,ACK
1.643456781250000,0,0x5D,0x00,Read,ACK
1.643478250000000,0,0x5D,0x00,Read,ACK
1.643499750000000,0,0x5D,0x00,Read,ACK
1.643521187500000,0,0x5D,0x00,Read,ACK
1.643542656250000,0,0x5D,0x00,Read,ACK
1.643564625000000,0,0x5D,0x00,Read,ACK
1.643586187500000,0,0x5D,0x00,Read,ACK
1.643607656250000,0,0x5D,0x00,Read,ACK
1.643629156250000,0,0x5D,0x00,Read,ACK
1.643650593750000,0,0x5D,0x00,Read,ACK
1.643672062500000,0,0x5D,0x00,Read,ACK
1.643693906250000,0,0x5D,0x00,Read,ACK
1.643715406250000,0,0x5D,0x00,Read,ACK
1.643737093750000,0,0x5D,0x00,Read,ACK
1.643759406250000,0,0x5D,0x00,Read,ACK
1.643780906250000,0,0x5D,0x00,Read,ACK
1.643802375000000,0,0x5D,0x00,Read,ACK
1.643827625000000,0,0x5D,0x00,Read,ACK
1.643849125000000,0,0x5D,0x00,Read,ACK
1.643870562500000,0,0x5D,0x00,Read,ACK
1.643892031250000,0,0x5D,0x00,Read,ACK
1.643913500000000,0,0x5D,0x00,Read,ACK
1.643935000000000,0,0x5D,0x00,Read,ACK
1.643956468750000,0,0x5D,0x00,Read,ACK
1.643977937500000,0,0x5D,0x00,Read,ACK
1.643999437500000,0,0x5D,0x00,Read,ACK
1.644020875000000,0,0x5D,0x00,Read,ACK
1.644042343750000,0,0x5D,0x00,Read,ACK
1.644063843750000,0,0x5D,0x00,Read,ACK
1.644085312500000,0,0x5D,0x00,Read,ACK
1.644106781250000,0,0x5D,0x00,Read,ACK
1.644128250000000,0,0x5D,0x00,Read,ACK
1.644149718750000,0,0x5D,0x0C,Read,ACK
1.644171187500000,0,0x5D,0xA6,Read,ACK
1.644192656250000,0,0x5D,0x01,Read,ACK
1.644214156250000,0,0x5D,0x00,Read,ACK
1.644235843750000,0,0x5D,0x00,Read,ACK
1.644257281250000,0,0x5D,0x00,Read,ACK
1.644278781250000,0,0x5D,0x00,Read,ACK
1.644300250000000,0,0x5D,0x00,Read,ACK
1.644322937500000,0,0x5D,0x00,Read,ACK
1.644347687500000,0,0x5D,0x00,Read,ACK
1.644370437500000,0,0x5D,0x00,Read,ACK
1.644392625000000,0,0x5D,0x00,Read,ACK
1.644415312500000,0,0x5D,0x00,Read,ACK
1.644438281250000,0,0x5D,0x00,Read,ACK
1.644459718750000,0,0x5D,0x00,Read,ACK
1.644482000000000,0,0x5D,0x00,Read,ACK
1.644503468750000,0,0x5D,0x00,Read,ACK
1.644525093750000,0,0x5D,0x00,Read,ACK
1.644547687500000,0,0x5D,0x00,Read,ACK
1.644569156250000,0,0x5D,0x00,Read,ACK
1.644590625000000,0,0x5D,0x00,Read,NAK
1.650429125000000,0,0x5D,0x2F,Read,ACK
1.650457125000000,0,0x5D,0x00,Read,ACK
1.650480906250000,0,0x5D,0x04,Read,ACK
1.650502375000000,0,0x5D,0x03,Read,ACK
1.650523843750000,0,0x5D,0x02,Read,ACK
1.650545312500000,0,0x5D,0x09,Read,ACK
1.650566812500000,0,0x5D,0x2E,Read,ACK
1.650588250000000,0,0x5D,0x04,Read,ACK
1.650609718750000,0,0x5D,0x03,Read,ACK
1.650631218750000,0,0x5D,0x03,Read,ACK
1.650652687500000,0,0x5D,0x20,Read,ACK
1.650674156250000,0,0x5D,0x00,Read,ACK
1.650695625000000,0,0x5D,0x00,Read,ACK
1.650718031250000,0,0x5D,0x00,Read,ACK
1.650740187500000,0,0x5D,0x00,Read,ACK
1.650761656250000,0,0x5D,0x00,Read,ACK
1.650783125000000,0,0x5D,0x00,Read,ACK
1.650804593750000,0,0x5D,0x00,Read,ACK
1.650826156250000,0,0x5D,0x00,Read,ACK
1.650847625000000,0,0x5D,0x00,Read,ACK
1.650870375000000,0,0x5D,0x00,Read,ACK
1.650891875000000,0,0x5D,0x00,Read,ACK
1.650913343750000,0,0x5D,0x00,Read,ACK
1.650934812500000,0,0x5D,0x00,Read,ACK
1.650956312500000,0,0x5D,0x00,Read,ACK
1.650977968750000,0,0x5D,0x00,Read,ACK
1.650999468750000,0,0x5D,0x00,Read,ACK
1.651020906250000,0,0x5D,0x00,Read,ACK
1.651042375000000,0,0x5D,0x00,Read,ACK
1.651063843750000,0,0x5D,0x00,Read,ACK
1.651085312500000,0,0x5D,0x00,Read,ACK
1.651106781250000,0,0x5D,0x00,Read,ACK
1.651128250000000,0,0x5D,0x00,Read,ACK
1.651149750000000,0,0x5D,0x00,Read,ACK
1.651171250000000,0,0x5D,0x00,Read,ACK
1.651192718750000,0,0x5D,0x00,Read,ACK
1.651214156250000,0,0x5D,0x00,Read,ACK
1.651235625000000,0,0x5D,0x00,Read,ACK
1.651257125000000,0,0x5D,0x00,Read,ACK
1.651278906250000,0,0x5D,0x00,Read,ACK
1.651300375000000,0,0x5D,0x00,Read,ACK
1.651321843750000,0,0x5D,0x00,Read,ACK
1.651343562500000,0,0x5D,0x00,Read,ACK
1.651365031250000,0,0x5D,0x52,Read,ACK
1.651386531250000,0,0x5D,0xA6,Read,ACK
1.651411625000000,0,0x5D,0x01,Read,ACK
1.651434718750000,0,0x5D,0x00,Read,ACK
1.651457875000000,0,0x5D,0x00,Read,ACK
1.651480656250000,0,0x5D,0x00,Read,ACK
1.651502468750000,0,0x5D,0x00,Read,ACK
1.651523968750000,0,0x5D,0x00,Read,ACK
1.651546343750000,0,0x5D,0x00,Read,ACK
1.651567781250000,0,0x5D,0x00,Read,ACK
1.651589250000000,0,0x5D,0x00,Read,ACK
1.651611812500000,0,0x5D,0x00,Read,ACK
1.651633281250000,0,0x5D,0x00,Read,ACK
1.651655812500000,0,0x5D,0x00,Read,ACK
1.651681218750000,0,0x5D,0x00,Read,ACK
1.651702687500000,0,0x5D,0x00,Read,ACK
1.651724156250000,0,0x5D,0x00,Read,ACK
1.651745843750000,0,0x5D,0x00,Read,ACK
1.651767375000000,0,0x5D,0x00,Read,ACK
1.651789468750000,0,0x5D,0x00,Read,ACK
1.651811000000000,0,0x5D,0x00,Read,NAK
1.657518968750000,0,0x5D,0x2F,Read,ACK
1.657546531250000,0,0x5D,0x00,Read,ACK
1.657568000000000,0,0x5D,0x04,Read,ACK
1.657590156250000,0,0x5D,0x03,Read,ACK
1.657612125000000,0,0x5D,0xF5,Read,ACK
1.657635562500000,0,0x5D,0x08,Read,ACK
1.657657000000000,0,0x5D,0x31,Read,ACK
1.657678468750000,0,0x5D,0x04,Read,ACK
1.657699968750000,0,0x5D,0x03,Read,ACK
1.657721437500000,0,0x5D,0x03,Read,ACK
1.657742906250000,0,0x5D,0x20,Read,ACK
1.657764375000000,0,0x5D,0x00,Read,ACK
1.657785843750000,0,0x5D,0x00,Read,ACK
1.657807343750000,0,0x5D,0x00,Read,ACK
1.657828812500000,0,0x5D,0x00,Read,ACK
1.657851500000000,0,0x5D,0x00,Read,ACK
1.657874000000000,0,0x5D,0x00,Read,ACK
1.657895468750000,0,0x5D,0x00,Read,ACK
1.657916968750000,0,0x5D,0x00,Read,ACK
1.657938437500000,0,0x5D,0x00,Read,ACK
1.657961281250000,0,0x5D,0x00,Read,ACK
1.657984406250000,0,0x5D,0x00,Read,ACK
1.658005906250000,0,0x5D,0x00,Read,ACK
1.658027531250000,0,0x5D,0x00,Read,ACK
1.658048968750000,0,0x5D,0x00,Read,ACK
1.658070437500000,0,0x5D,0x00,Read,ACK
1.658091906250000,0,0x5D,0x00,Read,ACK
1.658114781250000,0,0x5D,0x00,Read,ACK
1.658137000000000,0,0x5D,0x00,Read,ACK
1.658158468750000,0,0x5D,0x00,Read,ACK
1.658179906250000,0,0x5D,0x00,Read,ACK
1.658201406250000,0,0x5D,0x00,Read,ACK
1.658222906250000,0,0x5D,0x00,Read,ACK
1.658244343750000,0,0x5D,0x00,Read,ACK
1.658265812500000,0,0x5D,0x00,Read,ACK
1.658287312500000,0,0x5D,0x00,Read,ACK
1.658308781250000,0,0x5D,0x00,Read,ACK
1.658330250000000,0,0x5D,0x00,Read,ACK
1.658351718750000,0,0x5D,0x00,Read,ACK
1.658373187500000,0,0x5D,0x00,Read,ACK
1.658394656250000,0,0x5D,0x00,Read,ACK
1.658416125000000,0,0x5D,0x00,Read,ACK
1.658437625000000,0,0x5D,0x00,Read,ACK
1.658459093750000,0,0x5D,0x98,Read,ACK
1.658480562500000,0,0x5D,0xA6,Read,ACK
1.658502031250000,0,0x5D,0x01,Read,ACK
1.658523500000000,0,0x5D,0x00,Read,ACK
1.658545156250000,0,0x5D,0x00,Read,ACK
1.658568093750000,0,0x5D,0x00,Read,ACK
1.658590250000000,0,0x5D,0x00,Read,ACK
1.658612687500000,0,0x5D,0x00,Read,ACK
1.658634187500000,0,0x5D,0x00,Read,ACK
1.658656031250000,0,0x5D,0x00,Read,ACK
1.658677531250000,0,0x5D,0x00,Read,ACK
1.658699031250000,0,0x5D,0x00,Read,ACK
1.658720562500000,0,0x5D,0x00,Read,ACK
1.658742031250000,0,0x5D,0x00,Read,ACK
1.658763531250000,0,0x5D,0x00,Read,ACK
1.658785000000000,0,0x5D,0x00,Read,ACK
1.658806562500000,0,0x5D,0x00,Read,ACK
1.658828125000000,0,0x5D,0x00,Read,ACK
1.658849625000000,0,0x5D,0x00,Read,ACK
1.658871281250000,0,0x5D,0x00,Read,ACK
1.658892750000000,0,0x5D,0x00,Read,NAK
1.664959625000000,0,0x5D,0x2F,Read,ACK
1.664984281250000,0,0x5D,0x00,Read,ACK
1.665005843750000,0,0x5D,0x04,Read,ACK
1.665028406250000,0,0x5D,0x03,Read,ACK
1.665049875000000,0,0x5D,0xE6,Read,ACK
1.665071375000000,0,0x5D,0x08,Read,ACK
1.665092843750000,0,0x5D,0x32,Read,ACK
1.665114750000000,0,0x5D,0x04,Read,ACK
1.665137406250000,0,0x5D,0x03,Read,ACK
1.665158906250000,0,0x5D,0x03,Read,ACK
1.665180375000000,0,0x5D,0x20,Read,ACK
1.665201843750000,0,0x5D,0x00,Read,ACK
1.665223312500000,0,0x5D,0x00,Read,ACK
1.665248437500000,0,0x5D,0x00,Read,ACK
1.665269875000000,0,0x5D,0x00,Read,ACK
1.665291343750000,0,0x5D,0x00,Read,ACK
1.665312812500000,0,0x5D,0x00,Read,ACK
1.665334312500000,0,0x5D,0x00,Read,ACK
1.665355812500000,0,0x5D,0x00,Read,ACK
1.665377312500000,0,0x5D,0x00,Read,ACK
1.665398812500000,0,0x5D,0x00,Read,ACK
1.665420281250000,0,0x5D,0x00,Read,ACK
1.665441750000000,0,0x5D,0x00,Read,ACK
1.665463250000000,0,0x5D,0x00,Read,ACK
1.665484687500000,0,0x5D,0x00,Read,ACK
1.665506187500000,0,0x5D,0x00,Read,ACK
1.665527625000000,0,0x5D,0x00,Read,ACK
1.665549125000000,0,0x5D,0x00,Read,ACK
1.665570593750000,0,0x5D,0x00,Read,ACK
1.665592093750000,0,0x5D,0x00,Read,ACK
1.665613562500000,0,0x5D,0x00,Read,ACK
1.665635031250000,0,0x5D,0x00,Read,ACK
1.665656500000000,0,0x5D,0x00,Read,ACK
1.665677968750000,0,0x5D,0x00,Read,ACK
1.665699906250000,0,0x5D,0x00,Read,ACK
1.665721656250000,0,0x5D,0x00,Read,ACK
1.665743531250000,0,0x5D,0x00,Read,ACK
1.665765437500000,0,0x5D,0x00,Read,ACK
1.665786937500000,0,0x5D,0x00,Read,ACK
1.665808812500000,0,0x5D,0x00,Read,ACK
1.665830406250000,0,0x5D,0x00,Read,ACK
1.665852031250000,0,0x5D,0x00,Read,ACK
1.665874062500000,0,0x5D,0x00,Read,ACK
1.665897375000000,0,0x5D,0xDE,Read,ACK
1.665918843750000,0,0x5D,0xA6,Read,ACK
1.665940312500000,0,0x5D,0x01,Read,ACK
1.665961781250000,0,0x5D,0x00,Read,ACK
1.665983718750000,0,0x5D,0x00,Read,ACK
1.666005156250000,0,0x5D,0x00,Read,ACK
1.666027750000000,0,0x5D,0x00,Read,ACK
1.666049250000000,0,0x5D,0x00,Read,ACK
1.666072312500000,0,0x5D,0x00,Read,ACK
1.666095781250000,0,0x5D,0x00,Read,ACK
1.666118468750000,0,0x5D,0x00,Read,ACK
1.666140187500000,0,0x5D,0x00,Read,ACK
1.666161687500000,0,0x5D,0x00,Read,ACK
1.666183531250000,0,0x5D,0x00,Read,ACK
1.666206031250000,0,0x5D,0x00,Read,ACK
1.666228812500000,0,0x5D,0x00,Read,ACK
1.666251125000000,0,0x5D,0x00,Read,ACK
1.666273093750000,0,0x5D,0x00,Read,ACK
1.666294968750000,0,0x5D,0x00,Read,ACK
1.666316437500000,0,0x5D,0x00,Read,ACK
1.666339468750000,0,0x5D,0x00,Read,NAK
1.671772062500000,0,0x5D,0x2F,Read,ACK
1.671796687500000,0,0x5D,0x00,Read,ACK
1.671818125000000,0,0x5D,0x04,Read,ACK
1.671839593750000,0,0x5D,0x03,Read,ACK
1.671861125000000,0,0x5D,0xD4,Read,ACK
1.671883500000000,0,0x5D,0x08,Read,ACK
1.671908250000000,0,0x5D,0x30,Read,ACK
1.671929750000000,0,0x5D,0x04,Read,ACK
1.671951187500000,0,0x5D,0x03,Read,ACK
1.671972656250000,0,0x5D,0x02,Read,ACK
1.671994125000000,0,0x5D,0x20,Read,ACK
1.672015625000000,0,0x5D,0x00,Read,ACK
1.672037093750000,0,0x5D,0x00,Read,ACK
1.672058562500000,0,0x5D,0x00,Read,ACK
1.672080062500000,0,0x5D,0x00,Read,ACK
1.672101531250000,0,0x5D,0x00,Read,ACK
1.672122968750000,0,0x5D,0x00,Read,ACK
1.672144718750000,0,0x5D,0x00,Read,ACK
1.672166187500000,0,0x5D,0x00,Read,ACK
1.672188312500000,0,0x5D,0x00,Read,ACK
1.672209812500000,0,0x5D,0x00,Read,ACK
1.672231281250000,0,0x5D,0x00,Read,ACK
1.672253562500000,0,0x5D,0x00,Read,ACK
1.672275250000000,0,0x5D,0x00,Read,ACK
1.672298000000000,0,0x5D,0x00,Read,ACK
1.672319500000000,0,0x5D,0x00,Read,ACK
1.672340968750000,0,0x5D,0x00,Read,ACK
1.672362437500000,0,0x5D,0x00,Read,ACK
1.672383937500000,0,0x5D,0x00,Read,ACK
1.672405468750000,0,0x5D,0x00,Read,ACK
1.672426906250000,0,0x5D,0x00,Read,ACK
1.672448406250000,0,0x5D,0x00,Read,ACK
1.672469875000000,0,0x5D,0x00,Read,ACK
1.672491343750000,0,0x5D,0x00,Read,ACK
1.672512812500000,0,0x5D,0x00,Read,ACK
1.672534281250000,0,0x5D,0x00,Read,ACK
1.672555781250000,0,0x5D,0x00,Read,ACK
1.672577250000000,0,0x5D,0x00,Read,ACK
1.672598718750000,0,0x5D,0x00,Read,ACK
1.672620187500000,0,0x5D,0x00,Read,ACK
1.672641656250000,0,0x5D,0x00,Read,ACK
1.672663156250000,0,0x5D,0x00,Read,ACK
1.672684625000000,0,0x5D,0x00,Read,ACK
1.672706093750000,0,0x5D,0x24,Read,ACK
1.672727562500000,0,0x5D,0xA7,Read,ACK
1.672749031250000,0,0x5D,0x01,Read,ACK
1.672770500000000,0,0x5D,0x00,Read,ACK
1.672791968750000,0,0x5D,0x00,Read,ACK
1.672816968750000,0,0x5D,0x00,Read,ACK
1.672840468750000,0,0x5D,0x00,Read,ACK
1.672862875000000,0,0x5D,0x00,Read,ACK
1.672884343750000,0,0x5D,0x00,Read,ACK
1.672907750000000,0,0x5D,0x00,Read,ACK
1.672929250000000,0,0x5D,0x00,Read,ACK
1.672951437500000,0,0x5D,0x00,Read,ACK
1.672972937500000,0,0x5D,0x00,Read,ACK
1.672995375000000,0,0x5D,0x00,Read,ACK
1.673018343750000,0,0x5D,0x00,Read,ACK
1.673039843750000,0,0x5D,0x00,Read,ACK
1.673061312500000,0,0x5D,0x00,Read,ACK
1.673082781250000,0,0x5D,0x00,Read,ACK
1.673104656250000,0,0x5D,0x00,Read,ACK
1.673126156250000,0,0x5D,0x00,Read,ACK
1.673148125000000,0,0x5D,0x00,Read,NAK
1.678948843750000,0,0x5D,0x2F,Read,ACK
1.678976250000000,0,0x5D,0x00,Read,ACK
1.678997750000000,0,0x5D,0x04,Read,ACK
1.679019218750000,0,0x5D,0x03,Read,ACK
1.679040875000000,0,0x5D,0xC2,Read,ACK
1.679064625000000,0,0x5D,0x08,Read,ACK
1.679086062500000,0,0x5D,0x2D,Read,ACK
1.679107531250000,0,0x5D,0x04,Read,ACK
1.679129000000000,0,0x5D,0x03,Read,ACK
1.679150468750000,0,0x5D,0x02,Read,ACK
1.679171968750000,0,0x5D,0x20,Read,ACK
1.679193437500000,0,0x5D,0x00,Read,ACK
1.679214906250000,0,0x5D,0x00,Read,ACK
1.679236406250000,0,0x5D,0x00,Read,ACK
1.679257843750000,0,0x5D,0x00,Read,ACK
1.679279343750000,0,0x5D,0x00,Read,ACK
1.679301031250000,0,0x5D,0x00,Read,ACK
1.679322531250000,0,0x5D,0x00,Read,ACK
1.679344500000000,0,0x5D,0x00,Read,ACK
1.679365968750000,0,0x5D,0x00,Read,ACK
1.679388375000000,0,0x5D,0x00,Read,ACK
1.679411125000000,0,0x5D,0x00,Read,ACK
1.679432625000000,0,0x5D,0x00,Read,ACK
1.679454125000000,0,0x5D,0x00,Read,ACK
1.679475593750000,0,0x5D,0x00,Read,ACK
1.679497062500000,0,0x5D,0x00,Read,ACK
1.679518531250000,0,0x5D,0x00,Read,ACK
1.679540000000000,0,0x5D,0x00,Read,ACK
1.679561500000000,0,0x5D,0x00,Read,ACK
1.679582937500000,0,0x5D,0x00,Read,ACK
1.679604406250000,0,0x5D,0x00,Read,ACK
1.679625906250000,0,0x5D,0x00,Read,ACK
1.679647375000000,0,0x5D,0x00,Read,ACK
1.679668843750000,0,0x5D,0x00,Read,ACK
1.679690312500000,0,0x5D,0x00,Read,ACK
1.679711781250000,0,0x5D,0x00,Read,ACK
1.679733250000000,0,0x5D,0x00,Read,ACK
1.679754718750000,0,0x5D,0x00,Read,ACK
1.679776187500000,0,0x5D,0x00,Read,ACK
1.679797687500000,0,0x5D,0x00,Read,ACK
1.679819156250000,0,0x5D,0x00,Read,ACK
1.679840625000000,0,0x5D,0x00,Read,ACK
1.679862093750000,0,0x5D,0x00,Read,ACK
1.679883562500000,0,0x5D,0x6A,Read,ACK
1.679905031250000,0,0x5D,0xA7,Read,ACK
1.679926781250000,0,0x5D,0x01,Read,ACK
1.679948250000000,0,0x5D,0x00,Read,ACK
1.679969718750000,0,0x5D,0x00,Read,ACK
1.679994218750000,0,0x5D,0x00,Read,ACK
1.680016468750000,0,0x5D,0x00,Read,ACK
1.680037937500000,0,0x5D,0x00,Read,ACK
1.680063562500000,0,0x5D,0x00,Read,ACK
1.680085843750000,0,0x5D,0x00,Read,ACK
1.680107343750000,0,0x5D,0x00,Read,ACK
1.680128812500000,0,0x5D,0x00,Read,ACK
1.680150312500000,0,0x5D,0x00,Read,ACK
1.680173343750000,0,0x5D,0x00,Read,ACK
1.680195687500000,0,0x5D,0x00,Read,ACK
1.680217500000000,0,0x5D,0x00,Read,ACK
1.680240250000000,0,0x5D,0x00,Read,ACK
1.680262281250000,0,0x5D,0x00,Read,ACK
1.680283906250000,0,0x5D,0x00,Read,ACK
1.680305406250000,0,0x5D,0x00,Read,ACK
1.680326906250000,0,0x5D,0x00,Read,NAK
1.686033125000000,0,0x5D,0x2F,Read,ACK
1.686060093750000,0,0x5D,0x00,Read,ACK
1.686084625000000,0,0x5D,0x04,Read,ACK
1.686107468750000,0,0x5D,0x03,Read,ACK
1.686128937500000,0,0x5D,0xAF,Read,ACK
1.686150406250000,0,0x5D,0x08,Read,ACK
1.686172281250000,0,0x5D,0x27,Read,ACK
1.686193750000000,0,0x5D,0x04,Read,ACK
1.686218750000000,0,0x5D,0x03,Read,ACK
1.686240187500000,0,0x5D,0x02,Read,ACK
1.686261656250000,0,0x5D,0x20,Read,ACK
1.686283156250000,0,0x5D,0x00,Read,ACK
1.686304593750000,0,0x5D,0x00,Read,ACK
1.686326093750000,0,0x5D,0x00,Read,ACK
1.686347562500000,0,0x5D,0x00,Read,ACK
1.686369031250000,0,0x5D,0x00,Read,ACK
1.686390500000000,0,0x5D,0x00,Read,ACK
1.686412000000000,0,0x5D,0x00,Read,ACK
1.686433468750000,0,0x5D,0x00,Read,ACK
1.686454937500000,0,0x5D,0x00,Read,ACK
1.686476812500000,0,0x5D,0x00,Read,ACK
1.686498625000000,0,0x5D,0x00,Read,ACK
1.686520125000000,0,0x5D,0x00,Read,ACK
1.686541593750000,0,0x5D,0x00,Read,ACK
1.686564000000000,0,0x5D,0x00,Read,ACK
1.686586218750000,0,0x5D,0x00,Read,ACK
1.686607687500000,0,0x5D,0x00,Read,ACK
1.686629156250000,0,0x5D,0x00,Read,ACK
1.686650656250000,0,0x5D,0x00,Read,ACK
1.686672125000000,0,0x5D,0x00,Read,ACK
1.686693593750000,0,0x5D,0x00,Read,ACK
1.686715343750000,0,0x5D,0x00,Read,ACK
1.686736781250000,0,0x5D,0x00,Read,ACK
1.686758281250000,0,0x5D,0x00,Read,ACK
1.686779750000000,0,0x5D,0x00,Read,ACK
1.686801218750000,0,0x5D,0x00,Read,ACK
1.686822906250000,0,0x5D,0x00,Read,ACK
1.686844625000000,0,0x5D,0x00,Read,ACK
1.686866062500000,0,0x5D,0x00,Read,ACK
1.686887531250000,0,0x5D,0x00,Read,ACK
1.686909031250000,0,0x5D,0x00,Read,ACK
1.686930500000000,0,0x5D,0x00,Read,ACK
1.686951968750000,0,0x5D,0x00,Read,ACK
1.686973437500000,0,0x5D,0xB0,Read,ACK
1.686994906250000,0,0x5D,0xA7,Read,ACK
1.687016375000000,0,0x5D,0x01,Read,ACK
1.687037875000000,0,0x5D,0x00,Read,ACK
1.687059312500000,0,0x5D,0x00,Read,ACK
1.687080781250000,0,0x5D,0x00,Read,ACK
1.687104000000000,0,0x5D,0x00,Read,ACK
1.687126187500000,0,0x5D,0x00,Read,ACK
1.687149031250000,0,0x5D,0x00,Read,ACK
1.687171468750000,0,0x5D,0x00,Read,ACK
1.687192906250000,0,0x5D,0x00,Read,ACK
1.687216000000000,0,0x5D,0x00,Read,ACK
1.687237500000000,0,0x5D,0x00,Read,ACK
1.687258968750000,0,0x5D,0x00,Read,ACK
1.687280687500000,0,0x5D,0x00,Read,ACK
1.687303312500000,0,0x5D,0x00,Read,ACK
1.687326562500000,0,0x5D,0x00,Read,ACK
1.687348718750000,0,0x5D,0x00,Read,ACK
1.687370218750000,0,0x5D,0x00,Read,ACK
1.687391718750000,0,0x5D,0x00,Read,ACK
1.687413218750000,0,0x5D,0x00,Read,NAK
1.693208875000000,0,0x5D,0x2F,Read,ACK
1.693237062500000,0,0x5D,0x00,Read,ACK
1.693258531250000,0,0x5D,0x04,Read,ACK
1.693280000000000,0,0x5D,0x03,Read,ACK
1.693301875000000,0,0x5D,0x9C,Read,ACK
1.693323750000000,0,0x5D,0x08,Read,ACK
1.693349750000000,0,0x5D,0x1F,Read,ACK
1.693371218750000,0,0x5D,0x04,Read,ACK
1.693392687500000,0,0x5D,0x04,Read,ACK
1.693414156250000,0,0x5D,0x03,Read,ACK
1.693435625000000,0,0x5D,0x20,Read,ACK
1.693457125000000,0,0x5D,0x00,Read,ACK
1.693478593750000,0,0x5D,0x00,Read,ACK
1.693500062500000,0,0x5D,0x00,Read,ACK
1.693521531250000,0,0x5D,0x00,Read,ACK
1.693543031250000,0,0x5D,0x00,Read,ACK
1.693564468750000,0,0x5D,0x00,Read,ACK
1.693586812500000,0,0x5D,0x00,Read,ACK
1.693608812500000,0,0x5D,0x00,Read,ACK
1.693630281250000,0,0x5D,0x00,Read,ACK
1.693651750000000,0,0x5D,0x00,Read,ACK
1.693673218750000,0,0x5D,0x00,Read,ACK
1.693695187500000,0,0x5D,0x00,Read,ACK
1.693716656250000,0,0x5D,0x00,Read,ACK
1.693738156250000,0,0x5D,0x00,Read,ACK
1.693759625000000,0,0x5D,0x00,Read,ACK
1.693781093750000,0,0x5D,0x00,Read,ACK
1.693802562500000,0,0x5D,0x00,Read,ACK
1.693824031250000,0,0x5D,0x00,Read,ACK
1.693846500000000,0,0x5D,0x00,Read,ACK
1.693867968750000,0,0x5D,0x00,Read,ACK
1.693889468750000,0,0x5D,0x00,Read,ACK
1.693910937500000,0,0x5D,0x00,Read,ACK
1.693932406250000,0,0x5D,0x00,Read,ACK
1.693953906250000,0,0x5D,0x00,Read,ACK
1.693975343750000,0,0x5D,0x00,Read,ACK
1.693996843750000,0,0x5D,0x00,Read,ACK
1.694018312500000,0,0x5D,0x00,Read,ACK
1.694039781250000,0,0x5D,0x00,Read,ACK
1.694061250000000,0,0x5D,0x00,Read,ACK
1.694082718750000,0,0x5D,0x00,Read,ACK
1.694104218750000,0,0x5D,0x00,Read,ACK
1.694125687500000,0,0x5D,0x00,Read,ACK
1.694147156250000,0,0x5D,0xF6,Read,ACK
1.694168656250000,0,0x5D,0xA7,Read,ACK
1.694190125000000,0,0x5D,0x01,Read,ACK
1.694211656250000,0,0x5D,0x00,Read,ACK
1.694233125000000,0,0x5D,0x00,Read,ACK
1.694254625000000,0,0x5D,0x00,Read,ACK
1.694281031250000,0,0x5D,0x00,Read,ACK
1.694302531250000,0,0x5D,0x00,Read,ACK
1.694324000000000,0,0x5D,0x00,Read,ACK
1.694347312500000,0,0x5D,0x00,Read,ACK
1.694370781250000,0,0x5D,0x00,Read,ACK
1.694392218750000,0,0x5D,0x00,Read,ACK
1.694413687500000,0,0x5D,0x00,Read,ACK
1.694436843750000,0,0x5D,0x00,Read,ACK
1.694458843750000,0,0x5D,0x00,Read,ACK
1.694482062500000,0,0x5D,0x00,Read,ACK
1.694505343750000,0,0x5D,0x00,Read,ACK
1.694526906250000,0,0x5D,0x00,Read,ACK
1.694548437500000,0,0x5D,0x00,Read,ACK
1.694569906250000,0,0x5D,0x00,Read,ACK
1.694591937500000,0,0x5D,0x00,Read,NAK
1.700418187500000,0,0x5D,0x2F,Read,ACK
1.700444968750000,0,0x5D,0x00,Read,ACK
1.700466718750000,0,0x5D,0x04,Read,ACK
1.700488250000000,0,0x5D,0x03,Read,ACK
1.700510250000000,0,0x5D,0x88,Read,ACK
1.700531718750000,0,0x5D,0x08,Read,ACK
1.700553187500000,0,0x5D,0x14,Read,ACK
1.700574656250000,0,0x5D,0x04,Read,ACK
1.700596156250000,0,0x5D,0x03,Read,ACK
1.700617625000000,0,0x5D,0x03,Read,ACK
1.700639093750000,0,0x5D,0x20,Read,ACK
1.700660562500000,0,0x5D,0x00,Read,ACK
1.700682031250000,0,0x5D,0x00,Read,ACK
1.700703531250000,0,0x5D,0x00,Read,ACK
1.700725000000000,0,0x5D,0x00,Read,ACK
1.700746531250000,0,0x5D,0x00,Read,ACK
1.700768000000000,0,0x5D,0x00,Read,ACK
1.700789468750000,0,0x5D,0x00,Read,ACK
1.700810968750000,0,0x5D,0x00,Read,ACK
1.700832437500000,0,0x5D,0x00,Read,ACK
1.700853906250000,0,0x5D,0x00,Read,ACK
1.700875375000000,0,0x5D,0x00,Read,ACK
1.700896843750000,0,0x5D,0x00,Read,ACK
1.700918312500000,0,0x5D,0x00,Read,ACK
1.700939781250000,0,0x5D,0x00,Read,ACK
1.700961281250000,0,0x5D,0x00,Read,ACK
1.700982781250000,0,0x5D,0x00,Read,ACK
1.701004281250000,0,0x5D,0x00,Read,ACK
1.701025750000000,0,0x5D,0x00,Read,ACK
1.701047218750000,0,0x5D,0x00,Read,ACK
1.701068687500000,0,0x5D,0x00,Read,ACK
1.701090156250000,0,0x5D,0x00,Read,ACK
1.701111625000000,0,0x5D,0x00,Read,ACK
1.701133125000000,0,0x5D,0x00,Read,ACK
1.701154593750000,0,0x5D,0x00,Read,ACK
1.701176375000000,0,0x5D,0x00,Read,ACK
1.701197875000000,0,0x5D,0x00,Read,ACK
1.701219343750000,0,0x5D,0x00,Read,ACK
1.701240812500000,0,0x5D,0x00,Read,ACK
1.701262281250000,0,0x5D,0x00,Read,ACK
1.701283750000000,0,0x5D,0x00,Read,ACK
1.701305250000000,0,0x5D,0x00,Read,ACK
1.701326812500000,0,0x5D,0x00,Read,ACK
1.701348281250000,0,0x5D,0x3C,Read,ACK
1.701369781250000,0,0x5D,0xA8,Read,ACK
1.701393250000000,0,0x5D,0x01,Read,ACK
1.701419625000000,0,0x5D,0x00,Read,ACK
1.701441125000000,0,0x5D,0x00,Read,ACK
1.701462593750000,0,0x5D,0x00,Read,ACK
1.701484468750000,0,0x5D,0x00,Read,ACK
1.701505937500000,0,0x5D,0x00,Read,ACK
1.701527375000000,0,0x5D,0x00,Read,ACK
1.701548937500000,0,0x5D,0x00,Read,ACK
1.701572375000000,0,0x5D,0x00,Read,ACK
1.701595093750000,0,0x5D,0x00,Read,ACK
1.701617062500000,0,0x5D,0x00,Read,ACK
1.701640000000000,0,0x5D,0x00,Read,ACK
1.701661718750000,0,0x5D,0x00,Read,ACK
1.701683187500000,0,0x5D,0x00,Read,ACK
1.701705343750000,0,0x5D,0x00,Read,ACK
1.701728031250000,0,0x5D,0x00,Read,ACK
1.701749500000000,0,0x5D,0x00,Read,ACK
1.701771000000000,0,0x5D,0x00,Read,ACK
1.701794406250000,0,0x5D,0x00,Read,NAK
1.707836875000000,0,0x5D,0x2F,Read,ACK
1.707862718750000,0,0x5D,0x00,Read,ACK
1.707884781250000,0,0x5D,0x04,Read,ACK
1.707907718750000,0,0x5D,0x03,Read,ACK
1.707930343750000,0,0x5D,0x74,Read,ACK
1.707951843750000,0,0x5D,0x08,Read,ACK
1.707973312500000,0,0x5D,0x07,Read,ACK
1.707994781250000,0,0x5D,0x04,Read,ACK
1.708017031250000,0,0x5D,0x03,Read,ACK
1.708038531250000,0,0x5D,0x03,Read,ACK
1.708060062500000,0,0x5D,0x20,Read,ACK
1.708081531250000,0,0x5D,0x00,Read,ACK
1.708102968750000,0,0x5D,0x00,Read,ACK
1.708126812500000,0,0x5D,0x00,Read,ACK
1.708148312500000,0,0x5D,0x00,Read,ACK
1.708169781250000,0,0x5D,0x00,Read,ACK
1.708191250000000,0,0x5D,0x00,Read,ACK
1.708212718750000,0,0x5D,0x00,Read,ACK
1.708234250000000,0,0x5D,0x00,Read,ACK
1.708255718750000,0,0x5D,0x00,Read,ACK
1.708277187500000,0,0x5D,0x00,Read,ACK
1.708298687500000,0,0x5D,0x00,Read,ACK
1.708320125000000,0,0x5D,0x00,Read,ACK
1.708341625000000,0,0x5D,0x00,Read,ACK
1.708363125000000,0,0x5D,0x00,Read,ACK
1.708384562500000,0,0x5D,0x00,Read,ACK
1.708406062500000,0,0x5D,0x00,Read,ACK
1.708427531250000,0,0x5D,0x00,Read,ACK
1.708449000000000,0,0x5D,0x00,Read,ACK
1.708470500000000,0,0x5D,0x00,Read,ACK
1.708491937500000,0,0x5D,0x00,Read,ACK
1.708513656250000,0,0x5D,0x00,Read,ACK
1.708535125000000,0,0x5D,0x00,Read,ACK
1.708557968750000,0,0x5D,0x00,Read,ACK
1.708583781250000,0,0x5D,0x00,Read,ACK
1.708607781250000,0,0x5D,0x00,Read,ACK
1.708629281250000,0,0x5D,0x00,Read,ACK
1.708651000000000,0,0x5D,0x00,Read,ACK
1.708673500000000,0,0x5D,0x00,Read,ACK
1.708694937500000,0,0x5D,0x00,Read,ACK
1.708716406250000,0,0x5D,0x00,Read,ACK
1.708738468750000,0,0x5D,0x00,Read,ACK
1.708760437500000,0,0x5D,0x00,Read,ACK
1.708781906250000,0,0x5D,0x82,Read,ACK
1.708803937500000,0,0x5D,0xA8,Read,ACK
1.708826812500000,0,0x5D,0x01,Read,ACK
1.708848312500000,0,0x5D,0x00,Read,ACK
1.708869812500000,0,0x5D,0x00,Read,ACK
1.708891281250000,0,0x5D,0x00,Read,ACK
1.708912750000000,0,0x5D,0x00,Read,ACK
1.708934250000000,0,0x5D,0x00,Read,ACK
1.708955718750000,0,0x5D,0x00,Read,ACK
1.708977187500000,0,0x5D,0x00,Read,ACK
1.708999375000000,0,0x5D,0x00,Read,ACK
1.709020937500000,0,0x5D,0x00,Read,ACK
1.709042406250000,0,0x5D,0x00,Read,ACK
1.709063875000000,0,0x5D,0x00,Read,ACK
1.709085625000000,0,0x5D,0x00,Read,ACK
1.709107312500000,0,0x5D,0x00,Read,ACK
1.709128812500000,0,0x5D,0x00,Read,ACK
1.709151343750000,0,0x5D,0x00,Read,ACK
1.709174125000000,0,0x5D,0x00,Read,ACK
1.709197843750000,0,0x5D,0x00,Read,ACK
1.709220187500000,0,0x5D,0x00,Read,NAK
1.714981468750000,0,0x5D,0x2F,Read,ACK
1.715006281250000,0,0x5D,0x00,Read,ACK
1.715028406250000,0,0x5D,0x04,Read,ACK
1.715050375000000,0,0x5D,0x03,Read,ACK
1.715072218750000,0,0x5D,0x61,Read,ACK
1.715093750000000,0,0x5D,0x08,Read,ACK
1.715115250000000,0,0x5D,0xF9,Read,ACK
1.715136750000000,0,0x5D,0x03,Read,ACK
1.715158281250000,0,0x5D,0x03,Read,ACK
1.715179718750000,0,0x5D,0x03,Read,ACK
1.715201218750000,0,0x5D,0x20,Read,ACK
1.715222687500000,0,0x5D,0x00,Read,ACK
1.715244156250000,0,0x5D,0x00,Read,ACK
1.715266406250000,0,0x5D,0x00,Read,ACK
1.715287906250000,0,0x5D,0x00,Read,ACK
1.715309437500000,0,0x5D,0x00,Read,ACK
1.715330937500000,0,0x5D,0x00,Read,ACK
1.715352406250000,0,0x5D,0x00,Read,ACK
1.715373906250000,0,0x5D,0x00,Read,ACK
1.715395343750000,0,0x5D,0x00,Read,ACK
1.715416812500000,0,0x5D,0x00,Read,ACK
1.715438562500000,0,0x5D,0x00,Read,ACK
1.715460000000000,0,0x5D,0x00,Read,ACK
1.715481500000000,0,0x5D,0x00,Read,ACK
1.715502968750000,0,0x5D,0x00,Read,ACK
1.715524437500000,0,0x5D,0x00,Read,ACK
1.715545906250000,0,0x5D,0x00,Read,ACK
1.715567375000000,0,0x5D,0x00,Read,ACK
1.715588875000000,0,0x5D,0x00,Read,ACK
1.715610343750000,0,0x5D,0x00,Read,ACK
1.715632000000000,0,0x5D,0x00,Read,ACK
1.715653718750000,0,0x5D,0x00,Read,ACK
1.715677562500000,0,0x5D,0x00,Read,ACK
1.715701031250000,0,0x5D,0x00,Read,ACK
1.715726250000000,0,0x5D,0x00,Read,ACK
1.715747718750000,0,0x5D,0x00,Read,ACK
1.715769468750000,0,0x5D,0x00,Read,ACK
1.715792812500000,0,0x5D,0x00,Read,ACK
1.715814281250000,0,0x5D,0x00,Read,ACK
1.715835750000000,0,0x5D,0x00,Read,ACK
1.715857218750000,0,0x5D,0x00,Read,ACK
1.715879125000000,0,0x5D,0x00,Read,ACK
1.715900687500000,0,0x5D,0x00,Read,ACK
1.715922687500000,0,0x5D,0xC8,Read,ACK
1.715945343750000,0,0x5D,0xA8,Read,ACK
1.715966843750000,0,0x5D,0x01,Read,ACK
1.715988312500000,0,0x5D,0x00,Read,ACK
1.716009781250000,0,0x5D,0x00,Read,ACK
1.716031250000000,0,0x5D,0x00,Read,ACK
1.716052750000000,0,0x5D,0x00,Read,ACK
1.716074281250000,0,0x5D,0x00,Read,ACK
1.716095812500000,0,0x5D,0x00,Read,ACK
1.716118937500000,0,0x5D,0x00,Read,ACK
1.716140406250000,0,0x5D,0x00,Read,ACK
1.716162062500000,0,0x5D,0x00,Read,ACK
1.716184312500000,0,0x5D,0x00,Read,ACK
1.716205781250000,0,0x5D,0x00,Read,ACK
1.716227718750000,0,0x5D,0x00,Read,ACK
1.716249500000000,0,0x5D,0x00,Read,ACK
1.716272906250000,0,0x5D,0x00,Read,ACK
1.716294718750000,0,0x5D,0x00,Read,ACK
1.716318656250000,0,0x5D,0x00,Read,ACK
1.716340125000000,0,0x5D,0x00,Read,ACK
1.716361593750000,0,0x5D,0x00,Read,NAK
1.721776500000000,0,0x5D,0x2F,Read,ACK
1.721802750000000,0,0x5D,0x00,Read,ACK
1.721824250000000,0,0x5D,0x04,Read,ACK
1.721845750000000,0,0x5D,0x03,Read,ACK
1.721868593750000,0,0x5D,0x50,Read,ACK
1.721890031250000,0,0x5D,0x08,Read,ACK
1.721911500000000,0,0x5D,0xE8,Read,ACK
1.721934125000000,0,0x5D,0x03,Read,ACK
1.721957281250000,0,0x5D,0x03,Read,ACK
1.721979812500000,0,0x5D,0x03,Read,ACK
1.722001281250000,0,0x5D,0x20,Read,ACK
1.722022750000000,0,0x5D,0x00,Read,ACK
1.722044218750000,0,0x5D,0x00,Read,ACK
1.722065687500000,0,0x5D,0x00,Read,ACK
1.722087156250000,0,0x5D,0x00,Read,ACK
1.722108656250000,0,0x5D,0x00,Read,ACK
1.722130125000000,0,0x5D,0x00,Read,ACK
1.722152500000000,0,0x5D,0x00,Read,ACK
1.722174906250000,0,0x5D,0x00,Read,ACK
1.722196781250000,0,0x5D,0x00,Read,ACK
1.722218250000000,0,0x5D,0x00,Read,ACK
1.722239750000000,0,0x5D,0x00,Read,ACK
1.722262093750000,0,0x5D,0x00,Read,ACK
1.722283562500000,0,0x5D,0x00,Read,ACK
1.722305031250000,0,0x5D,0x00,Read,ACK
1.722326500000000,0,0x5D,0x00,Read,ACK
1.722348000000000,0,0x5D,0x00,Read,ACK
1.722369468750000,0,0x5D,0x00,Read,ACK
1.722390937500000,0,0x5D,0x00,Read,ACK
1.722412406250000,0,0x5D,0x00,Read,ACK
1.722433906250000,0,0x5D,0x00,Read,ACK
1.722455343750000,0,0x5D,0x00,Read,ACK
1.722476843750000,0,0x5D,0x00,Read,ACK
1.722498343750000,0,0x5D,0x00,Read,ACK
1.722520000000000,0,0x5D,0x00,Read,ACK
1.722541437500000,0,0x5D,0x00,Read,ACK
1.722562906250000,0,0x5D,0x00,Read,ACK
1.722584406250000,0,0x5D,0x00,Read,ACK
1.722605875000000,0,0x5D,0x00,Read,ACK
1.722627343750000,0,0x5D,0x00,Read,ACK
1.722648812500000,0,0x5D,0x00,Read,ACK
1.722670281250000,0,0x5D,0x00,Read,ACK
1.722691750000000,0,0x5D,0x00,Read,ACK
1.722713218750000,0,0x5D,0x0E,Read,ACK
1.722734718750000,0,0x5D,0xA9,Read,ACK
1.722756187500000,0,0x5D,0x01,Read,ACK
1.722777781250000,0,0x5D,0x00,Read,ACK
1.722799250000000,0,0x5D,0x00,Read,ACK
1.722820718750000,0,0x5D,0x00,Read,ACK
1.722842218750000,0,0x5D,0x00,Read,ACK
1.722863656250000,0,0x5D,0x00,Read,ACK
1.722885156250000,0,0x5D,0x00,Read,ACK
1.722910343750000,0,0x5D,0x00,Read,ACK
1.722933812500000,0,0x5D,0x00,Read,ACK
1.722957062500000,0,0x5D,0x00,Read,ACK
1.722980250000000,0,0x5D,0x00,Read,ACK
1.723003000000000,0,0x5D,0x00,Read,ACK
1.723024468750000,0,0x5D,0x00,Read,ACK
1.723045968750000,0,0x5D,0x00,Read,ACK
1.723067625000000,0,0x5D,0x00,Read,ACK
1.723090062500000,0,0x5D,0x00,Read,ACK
1.723112093750000,0,0x5D,0x00,Read,ACK
1.723133625000000,0,0x5D,0x00,Read,ACK
1.723155281250000,0,0x5D,0x00,Read,NAK
1.728946968750000,0,0x5D,0x2F,Read,ACK
1.728975250000000,0,0x5D,0x00,Read,ACK
1.728996750000000,0,0x5D,0x04,Read,ACK
1.729018218750000,0,0x5D,0x03,Read,ACK
1.729039687500000,0,0x5D,0x43,Read,ACK
1.729062062500000,0,0x5D,0x08,Read,ACK
1.729087937500000,0,0x5D,0xD7,Read,ACK
1.729109406250000,0,0x5D,0x03,Read,ACK
1.729130875000000,0,0x5D,0x03,Read,ACK
1.729152375000000,0,0x5D,0x03,Read,ACK
1.729173812500000,0,0x5D,0x20,Read,ACK
1.729195312500000,0,0x5D,0x00,Read,ACK
1.729216781250000,0,0x5D,0x00,Read,ACK
1.729238250000000,0,0x5D,0x00,Read,ACK
1.729259718750000,0,0x5D,0x00,Read,ACK
1.729281187500000,0,0x5D,0x00,Read,ACK
1.729305031250000,0,0x5D,0x00,Read,ACK
1.729327812500000,0,0x5D,0x00,Read,ACK
1.729349250000000,0,0x5D,0x00,Read,ACK
1.729370750000000,0,0x5D,0x00,Read,ACK
1.729392187500000,0,0x5D,0x00,Read,ACK
1.729414125000000,0,0x5D,0x00,Read,ACK
1.729435625000000,0,0x5D,0x00,Read,ACK
1.729457125000000,0,0x5D,0x00,Read,ACK
1.729478562500000,0,0x5D,0x00,Read,ACK
1.729500062500000,0,0x5D,0x00,Read,ACK
1.729521531250000,0,0x5D,0x00,Read,ACK
1.729543000000000,0,0x5D,0x00,Read,ACK
1.729564468750000,0,0x5D,0x00,Read,ACK
1.729585968750000,0,0x5D,0x00,Read,ACK
1.729607468750000,0,0x5D,0x00,Read,ACK
1.729628968750000,0,0x5D,0x00,Read,ACK
1.729650437500000,0,0x5D,0x00,Read,ACK
1.729671906250000,0,0x5D,0x00,Read,ACK
1.729693375000000,0,0x5D,0x00,Read,ACK
1.729714843750000,0,0x5D,0x00,Read,ACK
1.729736312500000,0,0x5D,0x00,Read,ACK
1.729757812500000,0,0x5D,0x00,Read,ACK
1.729779281250000,0,0x5D,0x00,Read,ACK
1.729800750000000,0,0x5D,0x00,Read,ACK
1.729822218750000,0,0x5D,0x00,Read,ACK
1.729843687500000,0,0x5D,0x00,Read,ACK
1.729865187500000,0,0x5D,0x00,Read,ACK
1.729886656250000,0,0x5D,0x54,Read,ACK
1.729908125000000,0,0x5D,0xA9,Read,ACK
1.729929593750000,0,0x5D,0x01,Read,ACK
1.729951062500000,0,0x5D,0x00,Read,ACK
1.729972531250000,0,0x5D,0x00,Read,ACK
1.729994125000000,0,0x5D,0x00,Read,ACK
1.730016812500000,0,0x5D,0x00,Read,ACK
1.730039812500000,0,0x5D,0x00,Read,ACK
1.730066062500000,0,0x5D,0x00,Read,ACK
1.730089062500000,0,0x5D,0x00,Read,ACK
1.730110906250000,0,0x5D,0x00,Read,ACK
1.730132375000000,0,0x5D,0x00,Read,ACK
1.730153875000000,0,0x5D,0x00,Read,ACK
1.730175343750000,0,0x5D,0x00,Read,ACK
1.730196906250000,0,0x5D,0x00,Read,ACK
1.730218531250000,0,0x5D,0x00,Read,ACK
1.730240406250000,0,0x5D,0x00,Read,ACK
1.730262031250000,0,0x5D,0x00,Read,ACK
1.730285125000000,0,0x5D,0x00,Read,ACK
1.730308343750000,0,0x5D,0x00,Read,ACK
1.730331031250000,0,0x5D,0x00,Read,NAK
1.736056031250000,0,0x5D,0x2F,Read,ACK
1.736082406250000,0,0x5D,0x00,Read,ACK
1.736105125000000,0,0x5D,0x04,Read,ACK
1.736126562500000,0,0x5D,0x03,Read,ACK
1.736148093750000,0,0x5D,0x39,Read,ACK
1.736170437500000,0,0x5D,0x08,Read,ACK
1.736195031250000,0,0x5D,0xC6,Read,ACK
1.736216656250000,0,0x5D,0x03,Read,ACK
1.736238156250000,0,0x5D,0x03,Read,ACK
1.736259625000000,0,0x5D,0x02,Read,ACK
1.736281062500000,0,0x5D,0x20,Read,ACK
1.736302562500000,0,0x5D,0x00,Read,ACK
1.736324031250000,0,0x5D,0x00,Read,ACK
1.736345500000000,0,0x5D,0x00,Read,ACK
1.736366968750000,0,0x5D,0x00,Read,ACK
1.736388468750000,0,0x5D,0x00,Read,ACK
1.736409937500000,0,0x5D,0x00,Read,ACK
1.736431406250000,0,0x5D,0x00,Read,ACK
1.736452875000000,0,0x5D,0x00,Read,ACK
1.736474375000000,0,0x5D,0x00,Read,ACK
1.736495843750000,0,0x5D,0x00,Read,ACK
1.736517312500000,0,0x5D,0x00,Read,ACK
1.736538781250000,0,0x5D,0x00,Read,ACK
1.736561937500000,0,0x5D,0x00,Read,ACK
1.736584093750000,0,0x5D,0x00,Read,ACK
1.736605562500000,0,0x5D,0x00,Read,ACK
1.736627031250000,0,0x5D,0x00,Read,ACK
1.736648500000000,0,0x5D,0x00,Read,ACK
1.736670031250000,0,0x5D,0x00,Read,ACK
1.736691468750000,0,0x5D,0x00,Read,ACK
1.736713343750000,0,0x5D,0x00,Read,ACK
1.736734812500000,0,0x5D,0x00,Read,ACK
1.736756281250000,0,0x5D,0x00,Read,ACK
1.736777718750000,0,0x5D,0x00,Read,ACK
1.736799218750000,0,0x5D,0x00,Read,ACK
1.736820750000000,0,0x5D,0x00,Read,ACK
1.736842250000000,0,0x5D,0x00,Read,ACK
1.736863718750000,0,0x5D,0x00,Read,ACK
1.736885375000000,0,0x5D,0x00,Read,ACK
1.736906843750000,0,0x5D,0x00,Read,ACK
1.736928312500000,0,0x5D,0x00,Read,ACK
1.736949812500000,0,0x5D,0x00,Read,ACK
1.736971281250000,0,0x5D,0x00,Read,ACK
1.736992781250000,0,0x5D,0x9A,Read,ACK
1.737014281250000,0,0x5D,0xA9,Read,ACK
1.737035750000000,0,0x5D,0x01,Read,ACK
1.737057218750000,0,0x5D,0x00,Read,ACK
1.737078687500000,0,0x5D,0x00,Read,ACK
1.737100187500000,0,0x5D,0x00,Read,ACK
1.737125906250000,0,0x5D,0x00,Read,ACK
1.737150156250000,0,0x5D,0x00,Read,ACK
1.737171656250000,0,0x5D,0x00,Read,ACK
1.737193125000000,0,0x5D,0x00,Read,ACK
1.737214937500000,0,0x5D,0x00,Read,ACK
1.737236437500000,0,0x5D,0x00,Read,ACK
1.737257906250000,0,0x5D,0x00,Read,ACK
1.737279406250000,0,0x5D,0x00,Read,ACK
1.737301968750000,0,0x5D,0x00,Read,ACK
1.737324375000000,0,0x5D,0x00,Read,ACK
1.737345812500000,0,0x5D,0x00,Read,ACK
1.737367750000000,0,0x5D,0x00,Read,ACK
1.737389187500000,0,0x5D,0x00,Read,ACK
1.737411500000000,0,0x5D,0x00,Read,ACK
1.737432968750000,0,0x5D,0x00,Read,NAK
1.743286187500000,0,0x5D,0x2F,Read,ACK
1.743314875000000,0,0x5D,0x00,Read,ACK
1.743336312500000,0,0x5D,0x04,Read,ACK
1.743357843750000,0,0x5D,0x03,Read,ACK
1.743380687500000,0,0x5D,0x33,Read,ACK
1.743402156250000,0,0x5D,0x08,Read,ACK
1.743423656250000,0,0x5D,0xB4,Read,ACK
1.743445125000000,0,0x5D,0x03,Read,ACK
1.743466593750000,0,0x5D,0x03,Read,ACK
1.743488093750000,0,0x5D,0x03,Read,ACK
1.743509562500000,0,0x5D,0x20,Read,ACK
1.743531062500000,0,0x5D,0x00,Read,ACK
1.743552531250000,0,0x5D,0x00,Read,ACK
1.743574437500000,0,0x5D,0x00,Read,ACK
1.743596468750000,0,0x5D,0x00,Read,ACK
1.743617968750000,0,0x5D,0x00,Read,ACK
1.743639750000000,0,0x5D,0x00,Read,ACK
1.743661187500000,0,0x5D,0x00,Read,ACK
1.743682656250000,0,0x5D,0x00,Read,ACK
1.743704125000000,0,0x5D,0x00,Read,ACK
1.743725625000000,0,0x5D,0x00,Read,ACK
1.743747093750000,0,0x5D,0x00,Read,ACK
1.743768562500000,0,0x5D,0x00,Read,ACK
1.743790031250000,0,0x5D,0x00,Read,ACK
1.743814406250000,0,0x5D,0x00,Read,ACK
1.743841500000000,0,0x5D,0x00,Read,ACK
1.743863125000000,0,0x5D,0x00,Read,ACK
1.743884625000000,0,0x5D,0x00,Read,ACK
1.743906093750000,0,0x5D,0x00,Read,ACK
1.743927562500000,0,0x5D,0x00,Read,ACK
1.743949031250000,0,0x5D,0x00,Read,ACK
1.743970687500000,0,0x5D,0x00,Read,ACK
1.743992156250000,0,0x5D,0x00,Read,ACK
1.744013625000000,0,0x5D,0x00,Read,ACK
1.744035843750000,0,0x5D,0x00,Read,ACK
1.744057468750000,0,0x5D,0x00,Read,ACK
1.744078968750000,0,0x5D,0x00,Read,ACK
1.744100437500000,0,0x5D,0x00,Read,ACK
1.744121906250000,0,0x5D,0x00,Read,ACK
1.744143343750000,0,0x5D,0x00,Read,ACK
1.744164843750000,0,0x5D,0x00,Read,ACK
1.744186312500000,0,0x5D,0x00,Read,ACK
1.744207781250000,0,0x5D,0x00,Read,ACK
1.744229281250000,0,0x5D,0xE0,Read,ACK
1.744250718750000,0,0x5D,0xA9,Read,ACK
1.744272218750000,0,0x5D,0x01,Read,ACK
1.744295406250000,0,0x5D,0x00,Read,ACK
1.744321781250000,0,0x5D,0x00,Read,ACK
1.744343250000000,0,0x5D,0x00,Read,ACK
1.744365125000000,0,0x5D,0x00,Read,ACK
1.744386562500000,0,0x5D,0x00,Read,ACK
1.744408093750000,0,0x5D,0x00,Read,ACK
1.744429531250000,0,0x5D,0x00,Read,ACK
1.744451000000000,0,0x5D,0x00,Read,ACK
1.744472906250000,0,0x5D,0x00,Read,ACK
1.744495375000000,0,0x5D,0x00,Read,ACK
1.744516875000000,0,0x5D,0x00,Read,ACK
1.744539968750000,0,0x5D,0x00,Read,ACK
1.744561437500000,0,0x5D,0x00,Read,ACK
1.744582937500000,0,0x5D,0x00,Read,ACK
1.744606656250000,0,0x5D,0x00,Read,ACK
1.744628406250000,0,0x5D,0x00,Read,ACK
1.744649906250000,0,0x5D,0x00,Read,ACK
1.744671375000000,0,0x5D,0x00,Read,NAK
1.750461468750000,0,0x5D,0x2F,Read,ACK
1.750487812500000,0,0x5D,0x00,Read,ACK
1.750510875000000,0,0x5D,0x04,Read,ACK
1.750532343750000,0,0x5D,0x03,Read,ACK
1.750553812500000,0,0x5D,0x32,Read,ACK
1.750575281250000,0,0x5D,0x08,Read,ACK
1.750596750000000,0,0x5D,0xA2,Read,ACK
1.750618218750000,0,0x5D,0x03,Read,ACK
1.750639687500000,0,0x5D,0x03,Read,ACK
1.750661156250000,0,0x5D,0x03,Read,ACK
1.750682625000000,0,0x5D,0x20,Read,ACK
1.750704125000000,0,0x5D,0x00,Read,ACK
1.750726281250000,0,0x5D,0x00,Read,ACK
1.750747750000000,0,0x5D,0x00,Read,ACK
1.750769218750000,0,0x5D,0x00,Read,ACK
1.750790687500000,0,0x5D,0x00,Read,ACK
1.750812156250000,0,0x5D,0x00,Read,ACK
1.750833625000000,0,0x5D,0x00,Read,ACK
1.750856312500000,0,0x5D,0x00,Read,ACK
1.750877750000000,0,0x5D,0x00,Read,ACK
1.750899218750000,0,0x5D,0x00,Read,ACK
1.750920687500000,0,0x5D,0x00,Read,ACK
1.750942187500000,0,0x5D,0x00,Read,ACK
1.750964562500000,0,0x5D,0x00,Read,ACK
1.750986062500000,0,0x5D,0x00,Read,ACK
1.751007531250000,0,0x5D,0x00,Read,ACK
1.751029000000000,0,0x5D,0x00,Read,ACK
1.751050468750000,0,0x5D,0x00,Read,ACK
1.751071937500000,0,0x5D,0x00,Read,ACK
1.751093406250000,0,0x5D,0x00,Read,ACK
1.751114906250000,0,0x5D,0x00,Read,ACK
1.751136375000000,0,0x5D,0x00,Read,ACK
1.751157843750000,0,0x5D,0x00,Read,ACK
1.751179312500000,0,0x5D,0x00,Read,ACK
1.751200781250000,0,0x5D,0x00,Read,ACK
1.751222250000000,0,0x5D,0x00,Read,ACK
1.751243750000000,0,0x5D,0x00,Read,ACK
1.751265218750000,0,0x5D,0x00,Read,ACK
1.751286687500000,0,0x5D,0x00,Read,ACK
1.751308156250000,0,0x5D,0x00,Read,ACK
1.751329625000000,0,0x5D,0x00,Read,ACK
1.751351093750000,0,0x5D,0x00,Read,ACK
1.751372781250000,0,0x5D,0x00,Read,ACK
1.751394218750000,0,0x5D,0x26,Read,ACK
1.751418343750000,0,0x5D,0xAA,Read,ACK
1.751441375000000,0,0x5D,0x01,Read,ACK
1.751462843750000,0,0x5D,0x00,Read,ACK
1.751484312500000,0,0x5D,0x00,Read,ACK
1.751506093750000,0,0x5D,0x00,Read,ACK
1.751527718750000,0,0x5D,0x00,Read,ACK
1.751549156250000,0,0x5D,0x00,Read,ACK
1.751570625000000,0,0x5D,0x00,Read,ACK
1.751592125000000,0,0x5D,0x00,Read,ACK
1.751614531250000,0,0x5D,0x00,Read,ACK
1.751636000000000,0,0x5D,0x00,Read,ACK
1.751659250000000,0,0x5D,0x00,Read,ACK
1.751680781250000,0,0x5D,0x00,Read,ACK
1.751702250000000,0,0x5D,0x00,Read,ACK
1.751723687500000,0,0x5D,0x00,Read,ACK
1.751748312500000,0,0x5D,0x00,Read,ACK
1.751770000000000,0,0x5D,0x00,Read,ACK
1.751792062500000,0,0x5D,0x00,Read,ACK
1.751813781250000,0,0x5D,0x00,Read,ACK
1.751835250000000,0,0x5D,0x00,Read,NAK
1.757798375000000,0,0x5D,0x2F,Read,ACK
1.757824125000000,0,0x5D,0x00,Read,ACK
1.757845625000000,0,0x5D,0x04,Read,ACK
1.757867406250000,0,0x5D,0x03,Read,ACK
1.757889375000000,0,0x5D,0x35,Read,ACK
1.757910843750000,0,0x5D,0x08,Read,ACK
1.757932312500000,0,0x5D,0x90,Read,ACK
1.757953812500000,0,0x5D,0x03,Read,ACK
1.757975531250000,0,0x5D,0x03,Read,ACK
1.757998281250000,0,0x5D,0x03,Read,ACK
1.758019781250000,0,0x5D,0x20,Read,ACK
1.758041250000000,0,0x5D,0x00,Read,ACK
1.758062718750000,0,0x5D,0x00,Read,ACK
1.758084187500000,0,0x5D,0x00,Read,ACK
1.758105843750000,0,0x5D,0x00,Read,ACK
1.758127343750000,0,0x5D,0x00,Read,ACK
1.758148812500000,0,0x5D,0x00,Read,ACK
1.758170281250000,0,0x5D,0x00,Read,ACK
1.758191750000000,0,0x5D,0x00,Read,ACK
1.758213218750000,0,0x5D,0x00,Read,ACK
1.758234718750000,0,0x5D,0x00,Read,ACK
1.758256187500000,0,0x5D,0x00,Read,ACK
1.758277625000000,0,0x5D,0x00,Read,ACK
1.758299156250000,0,0x5D,0x00,Read,ACK
1.758320625000000,0,0x5D,0x00,Read,ACK
1.758342062500000,0,0x5D,0x00,Read,ACK
1.758363531250000,0,0x5D,0x00,Read,ACK
1.758385000000000,0,0x5D,0x00,Read,ACK
1.758406468750000,0,0x5D,0x00,Read,ACK
1.758427937500000,0,0x5D,0x00,Read,ACK
1.758449437500000,0,0x5D,0x00,Read,ACK
1.758470875000000,0,0x5D,0x00,Read,ACK
1.758492343750000,0,0x5D,0x00,Read,ACK
1.758514156250000,0,0x5D,0x00,Read,ACK
1.758537187500000,0,0x5D,0x00,Read,ACK
1.758559968750000,0,0x5D,0x00,Read,ACK
1.758583218750000,0,0x5D,0x00,Read,ACK
1.758604718750000,0,0x5D,0x00,Read,ACK
1.758626531250000,0,0x5D,0x00,Read,ACK
1.758647968750000,0,0x5D,0x00,Read,ACK
1.758669437500000,0,0x5D,0x00,Read,ACK
1.758690937500000,0,0x5D,0x00,Read,ACK
1.758713000000000,0,0x5D,0x00,Read,ACK
1.758735062500000,0,0x5D,0x6C,Read,ACK
1.758758156250000,0,0x5D,0xAA,Read,ACK
1.758779593750000,0,0x5D,0x01,Read,ACK
1.758801687500000,0,0x5D,0x00,Read,ACK
1.758823187500000,0,0x5D,0x00,Read,ACK
1.758844968750000,0,0x5D,0x00,Read,ACK
1.758866468750000,0,0x5D,0x00,Read,ACK
1.758888093750000,0,0x5D,0x00,Read,ACK
1.758909562500000,0,0x5D,0x00,Read,ACK
1.758931187500000,0,0x5D,0x00,Read,ACK
1.758954718750000,0,0x5D,0x00,Read,ACK
1.758976281250000,0,0x5D,0x00,Read,ACK
1.758997781250000,0,0x5D,0x00,Read,ACK
1.759019281250000,0,0x5D,0x00,Read,ACK
1.759041687500000,0,0x5D,0x00,Read,ACK
1.759063531250000,0,0x5D,0x00,Read,ACK
1.759085625000000,0,0x5D,0x00,Read,ACK
1.759107125000000,0,0x5D,0x00,Read,ACK
1.759129593750000,0,0x5D,0x00,Read,ACK
1.759152000000000,0,0x5D,0x00,Read,ACK
1.759177312500000,0,0x5D,0x00,Read,NAK
1.764895406250000,0,0x5D,0x2F,Read,ACK
1.764919562500000,0,0x5D,0x00,Read,ACK
1.764941062500000,0,0x5D,0x04,Read,ACK
1.764962500000000,0,0x5D,0x03,Read,ACK
1.764983968750000,0,0x5D,0x3B,Read,ACK
1.765006750000000,0,0x5D,0x08,Read,ACK
1.765028250000000,0,0x5D,0x7D,Read,ACK
1.765049718750000,0,0x5D,0x03,Read,ACK
1.765071187500000,0,0x5D,0x03,Read,ACK
1.765093437500000,0,0x5D,0x03,Read,ACK
1.765115593750000,0,0x5D,0x20,Read,ACK
1.765137093750000,0,0x5D,0x00,Read,ACK
1.765159062500000,0,0x5D,0x00,Read,ACK
1.765180562500000,0,0x5D,0x00,Read,ACK
1.765202000000000,0,0x5D,0x00,Read,ACK
1.765223468750000,0,0x5D,0x00,Read,ACK
1.765245218750000,0,0x5D,0x00,Read,ACK
1.765266687500000,0,0x5D,0x00,Read,ACK
1.765288156250000,0,0x5D,0x00,Read,ACK
1.765309656250000,0,0x5D,0x00,Read,ACK
1.765331093750000,0,0x5D,0x00,Read,ACK
1.765352593750000,0,0x5D,0x00,Read,ACK
1.765374062500000,0,0x5D,0x00,Read,ACK
1.765395500000000,0,0x5D,0x00,Read,ACK
1.765417000000000,0,0x5D,0x00,Read,ACK
1.765438468750000,0,0x5D,0x00,Read,ACK
1.765460062500000,0,0x5D,0x00,Read,ACK
1.765481562500000,0,0x5D,0x00,Read,ACK
1.765503000000000,0,0x5D,0x00,Read,ACK
1.765524468750000,0,0x5D,0x00,Read,ACK
1.765545968750000,0,0x5D,0x00,Read,ACK
1.765567437500000,0,0x5D,0x00,Read,ACK
1.765588906250000,0,0x5D,0x00,Read,ACK
1.765610375000000,0,0x5D,0x00,Read,ACK
1.765631843750000,0,0x5D,0x00,Read,ACK
1.765653343750000,0,0x5D,0x00,Read,ACK
1.765677906250000,0,0x5D,0x00,Read,ACK
1.765699406250000,0,0x5D,0x00,Read,ACK
1.765720875000000,0,0x5D,0x00,Read,ACK
1.765742500000000,0,0x5D,0x00,Read,ACK
1.765765968750000,0,0x5D,0x00,Read,ACK
1.765787406250000,0,0x5D,0x00,Read,ACK
1.765809031250000,0,0x5D,0x00,Read,ACK
1.765830500000000,0,0x5D,0xB2,Read,ACK
1.765852312500000,0,0x5D,0xAA,Read,ACK
1.765874906250000,0,0x5D,0x01,Read,ACK
1.765897968750000,0,0x5D,0x00,Read,ACK
1.765922625000000,0,0x5D,0x00,Read,ACK
1.765946000000000,0,0x5D,0x00,Read,ACK
1.765967531250000,0,0x5D,0x00,Read,ACK
1.765988968750000,0,0x5D,0x00,Read,ACK
1.766011562500000,0,0x5D,0x00,Read,ACK
1.766033781250000,0,0x5D,0x00,Read,ACK
1.766056187500000,0,0x5D,0x00,Read,ACK
1.766077687500000,0,0x5D,0x00,Read,ACK
1.766099781250000,0,0x5D,0x00,Read,ACK
1.766121250000000,0,0x5D,0x00,Read,ACK
1.766143781250000,0,0x5D,0x00,Read,ACK
1.766165250000000,0,0x5D,0x00,Read,ACK
1.766186968750000,0,0x5D,0x00,Read,ACK
1.766210343750000,0,0x5D,0x00,Read,ACK
1.766231781250000,0,0x5D,0x00,Read,ACK
1.766253968750000,0,0x5D,0x00,Read,ACK
1.766277343750000,0,0x5D,0x00,Read,NAK
1.771817406250000,0,0x5D,0x2F,Read,ACK
1.771847500000000,0,0x5D,0x00,Read,ACK
1.771869000000000,0,0x5D,0x04,Read,ACK
1.771890468750000,0,0x5D,0x03,Read,ACK
1.771911937500000,0,0x5D,0x45,Read,ACK
1.771933437500000,0,0x5D,0x08,Read,ACK
1.771955375000000,0,0x5D,0x6A,Read,ACK
1.771982468750000,0,0x5D,0x03,Read,ACK
1.772003968750000,0,0x5D,0x04,Read,ACK
1.772025406250000,0,0x5D,0x03,Read,ACK
1.772046906250000,0,0x5D,0x20,Read,ACK
1.772068375000000,0,0x5D,0x00,Read,ACK
1.772089875000000,0,0x5D,0x00,Read,ACK
1.772111312500000,0,0x5D,0x00,Read,ACK
1.772132812500000,0,0x5D,0x00,Read,ACK
1.772154406250000,0,0x5D,0x00,Read,ACK
1.772176437500000,0,0x5D,0x00,Read,ACK
1.772197906250000,0,0x5D,0x00,Read,ACK
1.772219375000000,0,0x5D,0x00,Read,ACK
1.772240875000000,0,0x5D,0x00,Read,ACK
1.772263375000000,0,0x5D,0x00,Read,ACK
1.772284843750000,0,0x5D,0x00,Read,ACK
1.772306312500000,0,0x5D,0x00,Read,ACK
1.772327812500000,0,0x5D,0x00,Read,ACK
1.772349625000000,0,0x5D,0x00,Read,ACK
1.772371125000000,0,0x5D,0x00,Read,ACK
1.772393875000000,0,0x5D,0x00,Read,ACK
1.772415375000000,0,0x5D,0x00,Read,ACK
1.772436843750000,0,0x5D,0x00,Read,ACK
1.772458312500000,0,0x5D,0x00,Read,ACK
1.772479812500000,0,0x5D,0x00,Read,ACK
1.772501281250000,0,0x5D,0x00,Read,ACK
1.772522750000000,0,0x5D,0x00,Read,ACK
1.772544218750000,0,0x5D,0x00,Read,ACK
1.772565687500000,0,0x5D,0x00,Read,ACK
1.772587156250000,0,0x5D,0x00,Read,ACK
1.772609000000000,0,0x5D,0x00,Read,ACK
1.772630500000000,0,0x5D,0x00,Read,ACK
1.772651968750000,0,0x5D,0x00,Read,ACK
1.772673406250000,0,0x5D,0x00,Read,ACK
1.772694906250000,0,0x5D,0x00,Read,ACK
1.772716375000000,0,0x5D,0x00,Read,ACK
1.772737875000000,0,0x5D,0x00,Read,ACK
1.772759312500000,0,0x5D,0xF8,Read,ACK
1.772780781250000,0,0x5D,0xAA,Read,ACK
1.772802250000000,0,0x5D,0x01,Read,ACK
1.772823718750000,0,0x5D,0x00,Read,ACK
1.772845218750000,0,0x5D,0x00,Read,ACK
1.772866656250000,0,0x5D,0x00,Read,ACK
1.772888156250000,0,0x5D,0x00,Read,ACK
1.772913062500000,0,0x5D,0x00,Read,ACK
1.772937656250000,0,0x5D,0x00,Read,ACK
1.772962093750000,0,0x5D,0x00,Read,ACK
1.772984093750000,0,0x5D,0x00,Read,ACK
1.773006156250000,0,0x5D,0x00,Read,ACK
1.773027593750000,0,0x5D,0x00,Read,ACK
1.773049093750000,0,0x5D,0x00,Read,ACK
1.773070781250000,0,0x5D,0x00,Read,ACK
1.773093875000000,0,0x5D,0x00,Read,ACK
1.773116812500000,0,0x5D,0x00,Read,ACK
1.773138281250000,0,0x5D,0x00,Read,ACK
1.773159750000000,0,0x5D,0x00,Read,ACK
1.773181218750000,0,0x5D,0x00,Read,ACK
1.773202687500000,0,0x5D,0x00,Read,NAK
1.778938531250000,0,0x5D,0x2F,Read,ACK
1.778967312500000,0,0x5D,0x00,Read,ACK
1.778988812500000,0,0x5D,0x04,Read,ACK
1.779010281250000,0,0x5D,0x03,Read,ACK
1.779031750000000,0,0x5D,0x54,Read,ACK
1.779053218750000,0,0x5D,0x08,Read,ACK
1.779074687500000,0,0x5D,0x58,Read,ACK
1.779098218750000,0,0x5D,0x03,Read,ACK
1.779122656250000,0,0x5D,0x03,Read,ACK
1.779144125000000,0,0x5D,0x03,Read,ACK
1.779165562500000,0,0x5D,0x20,Read,ACK
1.779187062500000,0,0x5D,0x00,Read,ACK
1.779208531250000,0,0x5D,0x00,Read,ACK
1.779230000000000,0,0x5D,0x00,Read,ACK
1.779251500000000,0,0x5D,0x00,Read,ACK
1.779272968750000,0,0x5D,0x00,Read,ACK
1.779294437500000,0,0x5D,0x00,Read,ACK
1.779315906250000,0,0x5D,0x00,Read,ACK
1.779338718750000,0,0x5D,0x00,Read,ACK
1.779360218750000,0,0x5D,0x00,Read,ACK
1.779381718750000,0,0x5D,0x00,Read,ACK
1.779403156250000,0,0x5D,0x00,Read,ACK
1.779426000000000,0,0x5D,0x00,Read,ACK
1.779447468750000,0,0x5D,0x00,Read,ACK
1.779468937500000,0,0x5D,0x00,Read,ACK
1.779490437500000,0,0x5D,0x00,Read,ACK
1.779511906250000,0,0x5D,0x00,Read,ACK
1.779533375000000,0,0x5D,0x00,Read,ACK
1.779554843750000,0,0x5D,0x00,Read,ACK
1.779576500000000,0,0x5D,0x00,Read,ACK
1.779597968750000,0,0x5D,0x00,Read,ACK
1.779619437500000,0,0x5D,0x00,Read,ACK
1.779640906250000,0,0x5D,0x00,Read,ACK
1.779662406250000,0,0x5D,0x00,Read,ACK
1.779683875000000,0,0x5D,0x00,Read,ACK
1.779705343750000,0,0x5D,0x00,Read,ACK
1.779726812500000,0,0x5D,0x00,Read,ACK
1.779748281250000,0,0x5D,0x00,Read,ACK
1.779769750000000,0,0x5D,0x00,Read,ACK
1.779791218750000,0,0x5D,0x00,Read,ACK
1.779812687500000,0,0x5D,0x00,Read,ACK
1.779834156250000,0,0x5D,0x00,Read,ACK
1.779855656250000,0,0x5D,0x00,Read,ACK
1.779877125000000,0,0x5D,0x3E,Read,ACK
1.779898593750000,0,0x5D,0xAB,Read,ACK
1.779920062500000,0,0x5D,0x01,Read,ACK
1.779941531250000,0,0x5D,0x00,Read,ACK
1.779963000000000,0,0x5D,0x00,Read,ACK
1.779984468750000,0,0x5D,0x00,Read,ACK
1.780009718750000,0,0x5D,0x00,Read,ACK
1.780031187500000,0,0x5D,0x00,Read,ACK
1.780052687500000,0,0x5D,0x00,Read,ACK
1.780074656250000,0,0x5D,0x00,Read,ACK
1.780096437500000,0,0x5D,0x00,Read,ACK
1.780117875000000,0,0x5D,0x00,Read,ACK
1.780139375000000,0,0x5D,0x00,Read,ACK
1.780160843750000,0,0x5D,0x00,Read,ACK
1.780183062500000,0,0x5D,0x00,Read,ACK
1.780206687500000,0,0x5D,0x00,Read,ACK
1.780228125000000,0,0x5D,0x00,Read,ACK
1.780249625000000,0,0x5D,0x00,Read,ACK
1.780272375000000,0,0x5D,0x00,Read,ACK
1.780293843750000,0,0x5D,0x00,Read,ACK
1.780315500000000,0,0x5D,0x00,Read,NAK
1.786086812500000,0,0x5D,0x2F,Read,ACK
1.786111343750000,0,0x5D,0x00,Read,ACK
1.786132843750000,0,0x5D,0x04,Read,ACK
1.786154312500000,0,0x5D,0x03,Read,ACK
1.786175781250000,0,0x5D,0x66,Read,ACK
1.786197250000000,0,0x5D,0x08,Read,ACK
1.786219625000000,0,0x5D,0x47,Read,ACK
1.786241062500000,0,0x5D,0x03,Read,ACK
1.786264125000000,0,0x5D,0x03,Read,ACK
1.786285562500000,0,0x5D,0x03,Read,ACK
1.786307031250000,0,0x5D,0x20,Read,ACK
1.786328500000000,0,0x5D,0x00,Read,ACK
1.786350000000000,0,0x5D,0x00,Read,ACK
1.786371437500000,0,0x5D,0x00,Read,ACK
1.786392937500000,0,0x5D,0x00,Read,ACK
1.786414406250000,0,0x5D,0x00,Read,ACK
1.786435906250000,0,0x5D,0x00,Read,ACK
1.786458687500000,0,0x5D,0x00,Read,ACK
1.786480375000000,0,0x5D,0x00,Read,ACK
1.786501875000000,0,0x5D,0x00,Read,ACK
1.786523343750000,0,0x5D,0x00,Read,ACK
1.786544812500000,0,0x5D,0x00,Read,ACK
1.786566406250000,0,0x5D,0x00,Read,ACK
1.786587906250000,0,0x5D,0x00,Read,ACK
1.786609562500000,0,0x5D,0x00,Read,ACK
1.786631031250000,0,0x5D,0x00,Read,ACK
1.786652500000000,0,0x5D,0x00,Read,ACK
1.786674875000000,0,0x5D,0x00,Read,ACK
1.786697562500000,0,0x5D,0x00,Read,ACK
1.786719031250000,0,0x5D,0x00,Read,ACK
1.786740531250000,0,0x5D,0x00,Read,ACK
1.786761968750000,0,0x5D,0x00,Read,ACK
1.786783468750000,0,0x5D,0x00,Read,ACK
1.786805062500000,0,0x5D,0x00,Read,ACK
1.786826531250000,0,0x5D,0x00,Read,ACK
1.786848000000000,0,0x5D,0x00,Read,ACK
1.786869468750000,0,0x5D,0x00,Read,ACK
1.786890968750000,0,0x5D,0x00,Read,ACK
1.786912468750000,0,0x5D,0x00,Read,ACK
1.786933968750000,0,0x5D,0x00,Read,ACK
1.786955437500000,0,0x5D,0x00,Read,ACK
1.786976906250000,0,0x5D,0x00,Read,ACK
1.786998375000000,0,0x5D,0x00,Read,ACK
1.787019875000000,0,0x5D,0x84,Read,ACK
1.787041375000000,0,0x5D,0xAB,Read,ACK
1.787062843750000,0,0x5D,0x01,Read,ACK
1.787084343750000,0,0x5D,0x00,Read,ACK
1.787105843750000,0,0x5D,0x00,Read,ACK
1.787127281250000,0,0x5D,0x00,Read,ACK
1.787148750000000,0,0x5D,0x00,Read,ACK
1.787170218750000,0,0x5D,0x00,Read,ACK
1.787193875000000,0,0x5D,0x00,Read,ACK
1.787220531250000,0,0x5D,0x00,Read,ACK
1.787242031250000,0,0x5D,0x00,Read,ACK
1.787263531250000,0,0x5D,0x00,Read,ACK
1.787285156250000,0,0x5D,0x00,Read,ACK
1.787306968750000,0,0x5D,0x00,Read,ACK
1.787328406250000,0,0x5D,0x00,Read,ACK
1.787349906250000,0,0x5D,0x00,Read,ACK
1.787371375000000,0,0x5D,0x00,Read,ACK
1.787394250000000,0,0x5D,0x00,Read,ACK
1.787416937500000,0,0x5D,0x00,Read,ACK
1.787440531250000,0,0x5D,0x00,Read,ACK
1.787464687500000,0,0x5D,0x00,Read,NAK
1.793290250000000,0,0x5D,0x2F,Read,ACK
1.793316875000000,0,0x5D,0x00,Read,ACK
1.793338343750000,0,0x5D,0x04,Read,ACK
1.793360312500000,0,0x5D,0x03,Read,ACK
1.793382750000000,0,0x5D,0x7C,Read,ACK
1.793404625000000,0,0x5D,0x08,Read,ACK
1.793426125000000,0,0x5D,0x37,Read,ACK
1.793447593750000,0,0x5D,0x03,Read,ACK
1.793469062500000,0,0x5D,0x03,Read,ACK
1.793490562500000,0,0x5D,0x04,Read,ACK
1.793512031250000,0,0x5D,0x20,Read,ACK
1.793533500000000,0,0x5D,0x00,Read,ACK
1.793554968750000,0,0x5D,0x00,Read,ACK
1.793576468750000,0,0x5D,0x00,Read,ACK
1.793598812500000,0,0x5D,0x00,Read,ACK
1.793620281250000,0,0x5D,0x00,Read,ACK
1.793641750000000,0,0x5D,0x00,Read,ACK
1.793663218750000,0,0x5D,0x00,Read,ACK
1.793684687500000,0,0x5D,0x00,Read,ACK
1.793706156250000,0,0x5D,0x00,Read,ACK
1.793727625000000,0,0x5D,0x00,Read,ACK
1.793749125000000,0,0x5D,0x00,Read,ACK
1.793770593750000,0,0x5D,0x00,Read,ACK
1.793792062500000,0,0x5D,0x00,Read,ACK
1.793813531250000,0,0x5D,0x00,Read,ACK
1.793835031250000,0,0x5D,0x00,Read,ACK
1.793856656250000,0,0x5D,0x00,Read,ACK
1.793878156250000,0,0x5D,0x00,Read,ACK
1.793899625000000,0,0x5D,0x00,Read,ACK
1.793921125000000,0,0x5D,0x00,Read,ACK
1.793942781250000,0,0x5D,0x00,Read,ACK
1.793964218750000,0,0x5D,0x00,Read,ACK
1.793985718750000,0,0x5D,0x00,Read,ACK
1.794007187500000,0,0x5D,0x00,Read,ACK
1.794028656250000,0,0x5D,0x00,Read,ACK
1.794050156250000,0,0x5D,0x00,Read,ACK
1.794071750000000,0,0x5D,0x00,Read,ACK
1.794093250000000,0,0x5D,0x00,Read,ACK
1.794114687500000,0,0x5D,0x00,Read,ACK
1.794136156250000,0,0x5D,0x00,Read,ACK
1.794157625000000,0,0x5D,0x00,Read,ACK
1.794179125000000,0,0x5D,0x00,Read,ACK
1.794200593750000,0,0x5D,0x00,Read,ACK
1.794222062500000,0,0x5D,0xCA,Read,ACK
1.794243562500000,0,0x5D,0xAB,Read,ACK
1.794265031250000,0,0x5D,0x01,Read,ACK
1.794286500000000,0,0x5D,0x00,Read,ACK
1.794309218750000,0,0x5D,0x00,Read,ACK
1.794330687500000,0,0x5D,0x00,Read,ACK
1.794354000000000,0,0x5D,0x00,Read,ACK
1.794375468750000,0,0x5D,0x00,Read,ACK
1.794396937500000,0,0x5D,0x00,Read,ACK
1.794419781250000,0,0x5D,0x00,Read,ACK
1.794441250000000,0,0x5D,0x00,Read,ACK
1.794462718750000,0,0x5D,0x00,Read,ACK
1.794484531250000,0,0x5D,0x00,Read,ACK
1.794506375000000,0,0x5D,0x00,Read,ACK
1.794528812500000,0,0x5D,0x00,Read,ACK
1.794550875000000,0,0x5D,0x00,Read,ACK
1.794572781250000,0,0x5D,0x00,Read,ACK
1.794594281250000,0,0x5D,0x00,Read,ACK
1.794615750000000,0,0x5D,0x00,Read,ACK
1.794637218750000,0,0x5D,0x00,Read,ACK
1.794658687500000,0,0x5D,0x00,Read,NAK
1.800484437500000,0,0x5D,0x2F,Read,ACK
1.800511093750000,0,0x5D,0x00,Read,ACK
1.800535000000000,0,0x5D,0x04,Read,ACK
1.800556531250000,0,0x5D,0x03,Read,ACK
1.800577968750000,0,0x5D,0x94,Read,ACK
1.800599468750000,0,0x5D,0x08,Read,ACK
1.800620937500000,0,0x5D,0x29,Read,ACK
1.800642406250000,0,0x5D,0x03,Read,ACK
1.800663875000000,0,0x5D,0x03,Read,ACK
1.800685343750000,0,0x5D,0x03,Read,ACK
1.800706812500000,0,0x5D,0x20,Read,ACK
1.800728312500000,0,0x5D,0x00,Read,ACK
1.800751812500000,0,0x5D,0x00,Read,ACK
1.800773281250000,0,0x5D,0x00,Read,ACK
1.800794750000000,0,0x5D,0x00,Read,ACK
1.800816187500000,0,0x5D,0x00,Read,ACK
1.800838031250000,0,0x5D,0x00,Read,ACK
1.800860187500000,0,0x5D,0x00,Read,ACK
1.800881687500000,0,0x5D,0x00,Read,ACK
1.800903156250000,0,0x5D,0x00,Read,ACK
1.800924625000000,0,0x5D,0x00,Read,ACK
1.800946531250000,0,0x5D,0x00,Read,ACK
1.800968031250000,0,0x5D,0x00,Read,ACK
1.800989500000000,0,0x5D,0x00,Read,ACK
1.801010968750000,0,0x5D,0x00,Read,ACK
1.801032468750000,0,0x5D,0x00,Read,ACK
1.801053906250000,0,0x5D,0x00,Read,ACK
1.801075406250000,0,0x5D,0x00,Read,ACK
1.801096875000000,0,0x5D,0x00,Read,ACK
1.801118312500000,0,0x5D,0x00,Read,ACK
1.801139781250000,0,0x5D,0x00,Read,ACK
1.801161281250000,0,0x5D,0x00,Read,ACK
1.801182750000000,0,0x5D,0x00,Read,ACK
1.801204218750000,0,0x5D,0x00,Read,ACK
1.801225718750000,0,0x5D,0x00,Read,ACK
1.801247156250000,0,0x5D,0x00,Read,ACK
1.801268656250000,0,0x5D,0x00,Read,ACK
1.801290125000000,0,0x5D,0x00,Read,ACK
1.801311593750000,0,0x5D,0x00,Read,ACK
1.801333062500000,0,0x5D,0x00,Read,ACK
1.801354531250000,0,0x5D,0x00,Read,ACK
1.801376031250000,0,0x5D,0x00,Read,ACK
1.801397500000000,0,0x5D,0x00,Read,ACK
1.801420718750000,0,0x5D,0x10,Read,ACK
1.801446406250000,0,0x5D,0xAC,Read,ACK
1.801467906250000,0,0x5D,0x01,Read,ACK
1.801490843750000,0,0x5D,0x00,Read,ACK
1.801512625000000,0,0x5D,0x00,Read,ACK
1.801534406250000,0,0x5D,0x00,Read,ACK
1.801555875000000,0,0x5D,0x00,Read,ACK
1.801577343750000,0,0x5D,0x00,Read,ACK
1.801599156250000,0,0x5D,0x00,Read,ACK
1.801620625000000,0,0x5D,0x00,Read,ACK
1.801642093750000,0,0x5D,0x00,Read,ACK
1.801663562500000,0,0x5D,0x00,Read,ACK
1.801685031250000,0,0x5D,0x00,Read,ACK
1.801706500000000,0,0x5D,0x00,Read,ACK
1.801727968750000,0,0x5D,0x00,Read,ACK
1.801749468750000,0,0x5D,0x00,Read,ACK
1.801771718750000,0,0x5D,0x00,Read,ACK
1.801794250000000,0,0x5D,0x00,Read,ACK
1.801815781250000,0,0x5D,0x00,Read,ACK
1.801838750000000,0,0x5D,0x00,Read,ACK
1.801861625000000,0,0x5D,0x00,Read,NAK
1.807809625000000,0,0x5D,0x2F,Read,ACK
1.807834187500000,0,0x5D,0x00,Read,ACK
1.807855656250000,0,0x5D,0x04,Read,ACK
1.807877250000000,0,0x5D,0x03,Read,ACK
1.807899750000000,0,0x5D,0xAD,Read,ACK
1.807921250000000,0,0x5D,0x08,Read,ACK
1.807942750000000,0,0x5D,0x1D,Read,ACK
1.807964281250000,0,0x5D,0x03,Read,ACK
1.807985750000000,0,0x5D,0x04,Read,ACK
1.808007218750000,0,0x5D,0x03,Read,ACK
1.808029000000000,0,0x5D,0x20,Read,ACK
1.808051562500000,0,0x5D,0x00,Read,ACK
1.808073000000000,0,0x5D,0x00,Read,ACK
1.808094500000000,0,0x5D,0x00,Read,ACK
1.808115968750000,0,0x5D,0x00,Read,ACK
1.808139250000000,0,0x5D,0x00,Read,ACK
1.808160718750000,0,0x5D,0x00,Read,ACK
1.808182250000000,0,0x5D,0x00,Read,ACK
1.808203718750000,0,0x5D,0x00,Read,ACK
1.808225218750000,0,0x5D,0x00,Read,ACK
1.808246687500000,0,0x5D,0x00,Read,ACK
1.808268156250000,0,0x5D,0x00,Read,ACK
1.808289625000000,0,0x5D,0x00,Read,ACK
1.808311125000000,0,0x5D,0x00,Read,ACK
1.808332593750000,0,0x5D,0x00,Read,ACK
1.808354062500000,0,0x5D,0x00,Read,ACK
1.808375531250000,0,0x5D,0x00,Read,ACK
1.808397000000000,0,0x5D,0x00,Read,ACK
1.808418468750000,0,0x5D,0x00,Read,ACK
1.808439937500000,0,0x5D,0x00,Read,ACK
1.808461437500000,0,0x5D,0x00,Read,ACK
1.808482906250000,0,0x5D,0x00,Read,ACK
1.808504375000000,0,0x5D,0x00,Read,ACK
1.808526093750000,0,0x5D,0x00,Read,ACK
1.808547593750000,0,0x5D,0x00,Read,ACK
1.808569062500000,0,0x5D,0x00,Read,ACK
1.808591843750000,0,0x5D,0x00,Read,ACK
1.808614750000000,0,0x5D,0x00,Read,ACK
1.808636218750000,0,0x5D,0x00,Read,ACK
1.808658968750000,0,0x5D,0x00,Read,ACK
1.808680843750000,0,0x5D,0x00,Read,ACK
1.808703000000000,0,0x5D,0x00,Read,ACK
1.808724718750000,0,0x5D,0x00,Read,ACK
1.808746218750000,0,0x5D,0x56,Read,ACK
1.808767968750000,0,0x5D,0xAC,Read,ACK
1.808789531250000,0,0x5D,0x01,Read,ACK
1.808811000000000,0,0x5D,0x00,Read,ACK
1.808833031250000,0,0x5D,0x00,Read,ACK
1.808854593750000,0,0x5D,0x00,Read,ACK
1.808876062500000,0,0x5D,0x00,Read,ACK
1.808897531250000,0,0x5D,0x00,Read,ACK
1.808920562500000,0,0x5D,0x00,Read,ACK
1.808942031250000,0,0x5D,0x00,Read,ACK
1.808964468750000,0,0x5D,0x00,Read,ACK
1.808986437500000,0,0x5D,0x00,Read,ACK
1.809007906250000,0,0x5D,0x00,Read,ACK
1.809029375000000,0,0x5D,0x00,Read,ACK
1.809051968750000,0,0x5D,0x00,Read,ACK
1.809073937500000,0,0x5D,0x00,Read,ACK
1.809095437500000,0,0x5D,0x00,Read,ACK
1.809117750000000,0,0x5D,0x00,Read,ACK
1.809139281250000,0,0x5D,0x00,Read,ACK
1.809161343750000,0,0x5D,0x00,Read,ACK
1.809183281250000,0,0x5D,0x00,Read,NAK
1.814971093750000,0,0x5D,0x2F,Read,ACK
1.814995062500000,0,0x5D,0x00,Read,ACK
1.815017343750000,0,0x5D,0x04,Read,ACK
1.815040031250000,0,0x5D,0x03,Read,ACK
1.815061531250000,0,0x5D,0xC9,Read,ACK
1.815083031250000,0,0x5D,0x08,Read,ACK
1.815104468750000,0,0x5D,0x14,Read,ACK
1.815126375000000,0,0x5D,0x03,Read,ACK
1.815148000000000,0,0x5D,0x03,Read,ACK
1.815169468750000,0,0x5D,0x03,Read,ACK
1.815190937500000,0,0x5D,0x20,Read,ACK
1.815212406250000,0,0x5D,0x00,Read,ACK
1.815233875000000,0,0x5D,0x00,Read,ACK
1.815255343750000,0,0x5D,0x00,Read,ACK
1.815276812500000,0,0x5D,0x00,Read,ACK
1.815298312500000,0,0x5D,0x00,Read,ACK
1.815319781250000,0,0x5D,0x00,Read,ACK
1.815341250000000,0,0x5D,0x00,Read,ACK
1.815362718750000,0,0x5D,0x00,Read,ACK
1.815384375000000,0,0x5D,0x00,Read,ACK
1.815405843750000,0,0x5D,0x00,Read,ACK
1.815427343750000,0,0x5D,0x00,Read,ACK
1.815448812500000,0,0x5D,0x00,Read,ACK
1.815470281250000,0,0x5D,0x00,Read,ACK
1.815491750000000,0,0x5D,0x00,Read,ACK
1.815513250000000,0,0x5D,0x00,Read,ACK
1.815534718750000,0,0x5D,0x00,Read,ACK
1.815556187500000,0,0x5D,0x00,Read,ACK
1.815577656250000,0,0x5D,0x00,Read,ACK
1.815599125000000,0,0x5D,0x00,Read,ACK
1.815620593750000,0,0x5D,0x00,Read,ACK
1.815642062500000,0,0x5D,0x00,Read,ACK
1.815664000000000,0,0x5D,0x00,Read,ACK
1.815689343750000,0,0x5D,0x00,Read,ACK
1.815712343750000,0,0x5D,0x00,Read,ACK
1.815733843750000,0,0x5D,0x00,Read,ACK
1.815756437500000,0,0x5D,0x00,Read,ACK
1.815778031250000,0,0x5D,0x00,Read,ACK
1.815799500000000,0,0x5D,0x00,Read,ACK
1.815821000000000,0,0x5D,0x00,Read,ACK
1.815842468750000,0,0x5D,0x00,Read,ACK
1.815865625000000,0,0x5D,0x00,Read,ACK
1.815887562500000,0,0x5D,0x00,Read,ACK
1.815909750000000,0,0x5D,0x9C,Read,ACK
1.815932093750000,0,0x5D,0xAC,Read,ACK
1.815954250000000,0,0x5D,0x01,Read,ACK
1.815975718750000,0,0x5D,0x00,Read,ACK
1.815997218750000,0,0x5D,0x00,Read,ACK
1.816018750000000,0,0x5D,0x00,Read,ACK
1.816040218750000,0,0x5D,0x00,Read,ACK
1.816061687500000,0,0x5D,0x00,Read,ACK
1.816083156250000,0,0x5D,0x00,Read,ACK
1.816104656250000,0,0x5D,0x00,Read,ACK
1.816127187500000,0,0x5D,0x00,Read,ACK
1.816149156250000,0,0x5D,0x00,Read,ACK
1.816170625000000,0,0x5D,0x00,Read,ACK
1.816192312500000,0,0x5D,0x00,Read,ACK
1.816213812500000,0,0x5D,0x00,Read,ACK
1.816236187500000,0,0x5D,0x00,Read,ACK
1.816257625000000,0,0x5D,0x00,Read,ACK
1.816279125000000,0,0x5D,0x00,Read,ACK
1.816301687500000,0,0x5D,0x00,Read,ACK
1.816323468750000,0,0x5D,0x00,Read,ACK
1.816346343750000,0,0x5D,0x00,Read,NAK
1.821810750000000,0,0x5D,0x2F,Read,ACK
1.821835406250000,0,0x5D,0x00,Read,ACK
1.821856843750000,0,0x5D,0x04,Read,ACK
1.821878343750000,0,0x5D,0x03,Read,ACK
1.821899812500000,0,0x5D,0xE7,Read,ACK
1.821924187500000,0,0x5D,0x08,Read,ACK
1.821947468750000,0,0x5D,0x0E,Read,ACK
1.821968906250000,0,0x5D,0x03,Read,ACK
1.821990406250000,0,0x5D,0x03,Read,ACK
1.822011906250000,0,0x5D,0x03,Read,ACK
1.822033343750000,0,0x5D,0x20,Read,ACK
1.822054812500000,0,0x5D,0x00,Read,ACK
1.822076281250000,0,0x5D,0x00,Read,ACK
1.822097750000000,0,0x5D,0x00,Read,ACK
1.822119218750000,0,0x5D,0x00,Read,ACK
1.822140718750000,0,0x5D,0x00,Read,ACK
1.822162187500000,0,0x5D,0x00,Read,ACK
1.822183656250000,0,0x5D,0x00,Read,ACK
1.822205750000000,0,0x5D,0x00,Read,ACK
1.822227250000000,0,0x5D,0x00,Read,ACK
1.822248750000000,0,0x5D,0x00,Read,ACK
1.822270187500000,0,0x5D,0x00,Read,ACK
1.822292843750000,0,0x5D,0x00,Read,ACK
1.822317125000000,0,0x5D,0x00,Read,ACK
1.822338593750000,0,0x5D,0x00,Read,ACK
1.822360125000000,0,0x5D,0x00,Read,ACK
1.822381625000000,0,0x5D,0x00,Read,ACK
1.822403125000000,0,0x5D,0x00,Read,ACK
1.822426250000000,0,0x5D,0x00,Read,ACK
1.822447718750000,0,0x5D,0x00,Read,ACK
1.822469500000000,0,0x5D,0x00,Read,ACK
1.822491000000000,0,0x5D,0x00,Read,ACK
1.822512468750000,0,0x5D,0x00,Read,ACK
1.822533937500000,0,0x5D,0x00,Read,ACK
1.822555406250000,0,0x5D,0x00,Read,ACK
1.822576875000000,0,0x5D,0x00,Read,ACK
1.822600281250000,0,0x5D,0x00,Read,ACK
1.822621812500000,0,0x5D,0x00,Read,ACK
1.822643312500000,0,0x5D,0x00,Read,ACK
1.822664781250000,0,0x5D,0x00,Read,ACK
1.822686250000000,0,0x5D,0x00,Read,ACK
1.822707718750000,0,0x5D,0x00,Read,ACK
1.822729218750000,0,0x5D,0x00,Read,ACK
1.822750687500000,0,0x5D,0xE2,Read,ACK
1.822772156250000,0,0x5D,0xAC,Read,ACK
1.822793593750000,0,0x5D,0x01,Read,ACK
1.822815531250000,0,0x5D,0x00,Read,ACK
1.822839062500000,0,0x5D,0x00,Read,ACK
1.822862875000000,0,0x5D,0x00,Read,ACK
1.822884375000000,0,0x5D,0x00,Read,ACK
1.822905843750000,0,0x5D,0x00,Read,ACK
1.822927625000000,0,0x5D,0x00,Read,ACK
1.822950250000000,0,0x5D,0x00,Read,ACK
1.822971687500000,0,0x5D,0x00,Read,ACK
1.822993250000000,0,0x5D,0x00,Read,ACK
1.823016156250000,0,0x5D,0x00,Read,ACK
1.823039281250000,0,0x5D,0x00,Read,ACK
1.823062500000000,0,0x5D,0x00,Read,ACK
1.823085250000000,0,0x5D,0x00,Read,ACK
1.823109500000000,0,0x5D,0x00,Read,ACK
1.823130937500000,0,0x5D,0x00,Read,ACK
1.823152531250000,0,0x5D,0x00,Read,ACK
1.823174031250000,0,0x5D,0x00,Read,ACK
1.823196187500000,0,0x5D,0x00,Read,NAK
1.828904406250000,0,0x5D,0x2F,Read,ACK
1.828930281250000,0,0x5D,0x00,Read,ACK
1.828951843750000,0,0x5D,0x04,Read,ACK
1.828973343750000,0,0x5D,0x03,Read,ACK
1.828994812500000,0,0x5D,0x07,Read,ACK
1.829017437500000,0,0x5D,0x09,Read,ACK
1.829038937500000,0,0x5D,0x0B,Read,ACK
1.829060406250000,0,0x5D,0x03,Read,ACK
1.829081875000000,0,0x5D,0x03,Read,ACK
1.829107875000000,0,0x5D,0x03,Read,ACK
1.829129312500000,0,0x5D,0x20,Read,ACK
1.829150781250000,0,0x5D,0x00,Read,ACK
1.829172281250000,0,0x5D,0x00,Read,ACK
1.829193750000000,0,0x5D,0x00,Read,ACK
1.829215218750000,0,0x5D,0x00,Read,ACK
1.829236687500000,0,0x5D,0x00,Read,ACK
1.829258156250000,0,0x5D,0x00,Read,ACK
1.829279656250000,0,0x5D,0x00,Read,ACK
1.829301156250000,0,0x5D,0x00,Read,ACK
1.829322593750000,0,0x5D,0x00,Read,ACK
1.829346687500000,0,0x5D,0x00,Read,ACK
1.829368156250000,0,0x5D,0x00,Read,ACK
1.829389656250000,0,0x5D,0x00,Read,ACK
1.829411093750000,0,0x5D,0x00,Read,ACK
1.829432593750000,0,0x5D,0x00,Read,ACK
1.829454562500000,0,0x5D,0x00,Read,ACK
1.829476031250000,0,0x5D,0x00,Read,ACK
1.829497500000000,0,0x5D,0x00,Read,ACK
1.829518968750000,0,0x5D,0x00,Read,ACK
1.829540437500000,0,0x5D,0x00,Read,ACK
1.829561906250000,0,0x5D,0x00,Read,ACK
1.829583406250000,0,0x5D,0x00,Read,ACK
1.829604875000000,0,0x5D,0x00,Read,ACK
1.829626343750000,0,0x5D,0x00,Read,ACK
1.829647812500000,0,0x5D,0x00,Read,ACK
1.829669281250000,0,0x5D,0x00,Read,ACK
1.829690750000000,0,0x5D,0x00,Read,ACK
1.829712218750000,0,0x5D,0x00,Read,ACK
1.829733687500000,0,0x5D,0x00,Read,ACK
1.829755187500000,0,0x5D,0x00,Read,ACK
1.829776656250000,0,0x5D,0x00,Read,ACK
1.829798125000000,0,0x5D,0x00,Read,ACK
1.829819593750000,0,0x5D,0x00,Read,ACK
1.829841062500000,0,0x5D,0x28,Read,ACK
1.829862531250000,0,0x5D,0xAD,Read,ACK
1.829884125000000,0,0x5D,0x01,Read,ACK
1.829905625000000,0,0x5D,0x00,Read,ACK
1.829927093750000,0,0x5D,0x00,Read,ACK
1.829948593750000,0,0x5D,0x00,Read,ACK
1.829970093750000,0,0x5D,0x00,Read,ACK
1.829991593750000,0,0x5D,0x00,Read,ACK
1.830014218750000,0,0x5D,0x00,Read,ACK
1.830037218750000,0,0x5D,0x00,Read,ACK
1.830058656250000,0,0x5D,0x00,Read,ACK
1.830081062500000,0,0x5D,0x00,Read,ACK
1.830102937500000,0,0x5D,0x00,Read,ACK
1.830124406250000,0,0x5D,0x00,Read,ACK
1.830145875000000,0,0x5D,0x00,Read,ACK
1.830167343750000,0,0x5D,0x00,Read,ACK
1.830188812500000,0,0x5D,0x00,Read,ACK
1.830210875000000,0,0x5D,0x00,Read,ACK
1.830233875000000,0,0x5D,0x00,Read,ACK
1.830256531250000,0,0x5D,0x00,Read,ACK
1.830279250000000,0,0x5D,0x00,Read,NAK
1.836049531250000,0,0x5D,0x2F,Read,ACK
1.836077656250000,0,0x5D,0x00,Read,ACK
1.836100437500000,0,0x5D,0x04,Read,ACK
1.836121937500000,0,0x5D,0x03,Read,ACK
1.836143375000000,0,0x5D,0x29,Read,ACK
1.836164843750000,0,0x5D,0x09,Read,ACK
1.836186343750000,0,0x5D,0x0B,Read,ACK
1.836208156250000,0,0x5D,0x03,Read,ACK
1.836230656250000,0,0x5D,0x04,Read,ACK
1.836255625000000,0,0x5D,0x04,Read,ACK
1.836278968750000,0,0x5D,0x20,Read,ACK
1.836300437500000,0,0x5D,0x00,Read,ACK
1.836321937500000,0,0x5D,0x00,Read,ACK
1.836343406250000,0,0x5D,0x00,Read,ACK
1.836364875000000,0,0x5D,0x00,Read,ACK
1.836386343750000,0,0x5D,0x00,Read,ACK
1.836407843750000,0,0x5D,0x00,Read,ACK
1.836429281250000,0,0x5D,0x00,Read,ACK
1.836450781250000,0,0x5D,0x00,Read,ACK
1.836473000000000,0,0x5D,0x00,Read,ACK
1.836494968750000,0,0x5D,0x00,Read,ACK
1.836516437500000,0,0x5D,0x00,Read,ACK
1.836537906250000,0,0x5D,0x00,Read,ACK
1.836559375000000,0,0x5D,0x00,Read,ACK
1.836580843750000,0,0x5D,0x00,Read,ACK
1.836602562500000,0,0x5D,0x00,Read,ACK
1.836624062500000,0,0x5D,0x00,Read,ACK
1.836645687500000,0,0x5D,0x00,Read,ACK
1.836667125000000,0,0x5D,0x00,Read,ACK
1.836688625000000,0,0x5D,0x00,Read,ACK
1.836710062500000,0,0x5D,0x00,Read,ACK
1.836734093750000,0,0x5D,0x00,Read,ACK
1.836755593750000,0,0x5D,0x00,Read,ACK
1.836777062500000,0,0x5D,0x00,Read,ACK
1.836798531250000,0,0x5D,0x00,Read,ACK
1.836820000000000,0,0x5D,0x00,Read,ACK
1.836841468750000,0,0x5D,0x00,Read,ACK
1.836862937500000,0,0x5D,0x00,Read,ACK
1.836884437500000,0,0x5D,0x00,Read,ACK
1.836905906250000,0,0x5D,0x00,Read,ACK
1.836927375000000,0,0x5D,0x00,Read,ACK
1.836948843750000,0,0x5D,0x00,Read,ACK
1.836970343750000,0,0x5D,0x00,Read,ACK
1.836991843750000,0,0x5D,0x6E,Read,ACK
1.837013343750000,0,0x5D,0xAD,Read,ACK
1.837034812500000,0,0x5D,0x01,Read,ACK
1.837056281250000,0,0x5D,0x00,Read,ACK
1.837077781250000,0,0x5D,0x00,Read,ACK
1.837099218750000,0,0x5D,0x00,Read,ACK
1.837120687500000,0,0x5D,0x00,Read,ACK
1.837142187500000,0,0x5D,0x00,Read,ACK
1.837163656250000,0,0x5D,0x00,Read,ACK
1.837185125000000,0,0x5D,0x00,Read,ACK
1.837208156250000,0,0x5D,0x00,Read,ACK
1.837229625000000,0,0x5D,0x00,Read,ACK
1.837252843750000,0,0x5D,0x00,Read,ACK
1.837275156250000,0,0x5D,0x00,Read,ACK
1.837296781250000,0,0x5D,0x00,Read,ACK
1.837319593750000,0,0x5D,0x00,Read,ACK
1.837341062500000,0,0x5D,0x00,Read,ACK
1.837362531250000,0,0x5D,0x00,Read,ACK
1.837384500000000,0,0x5D,0x00,Read,ACK
1.837405968750000,0,0x5D,0x00,Read,ACK
1.837428281250000,0,0x5D,0x00,Read,NAK
1.843242500000000,0,0x5D,0x2F,Read,ACK
1.843271375000000,0,0x5D,0x00,Read,ACK
1.843292812500000,0,0x5D,0x04,Read,ACK
1.843314281250000,0,0x5D,0x03,Read,ACK
1.843336843750000,0,0x5D,0x4B,Read,ACK
1.843361000000000,0,0x5D,0x09,Read,ACK
1.843387000000000,0,0x5D,0x0F,Read,ACK
1.843408500000000,0,0x5D,0x03,Read,ACK
1.843429968750000,0,0x5D,0x03,Read,ACK
1.843451437500000,0,0x5D,0x03,Read,ACK
1.843472906250000,0,0x5D,0x20,Read,ACK
1.843494375000000,0,0x5D,0x00,Read,ACK
1.843515843750000,0,0x5D,0x00,Read,ACK
1.843537343750000,0,0x5D,0x00,Read,ACK
1.843558843750000,0,0x5D,0x00,Read,ACK
1.843580281250000,0,0x5D,0x00,Read,ACK
1.843601750000000,0,0x5D,0x00,Read,ACK
1.843623218750000,0,0x5D,0x00,Read,ACK
1.843644687500000,0,0x5D,0x00,Read,ACK
1.843666218750000,0,0x5D,0x00,Read,ACK
1.843687656250000,0,0x5D,0x00,Read,ACK
1.843709125000000,0,0x5D,0x00,Read,ACK
1.843730593750000,0,0x5D,0x00,Read,ACK
1.843753218750000,0,0x5D,0x00,Read,ACK
1.843774781250000,0,0x5D,0x00,Read,ACK
1.843796250000000,0,0x5D,0x00,Read,ACK
1.843817718750000,0,0x5D,0x00,Read,ACK
1.843839218750000,0,0x5D,0x00,Read,ACK
1.843860687500000,0,0x5D,0x00,Read,ACK
1.843882187500000,0,0x5D,0x00,Read,ACK
1.843903687500000,0,0x5D,0x00,Read,ACK
1.843925156250000,0,0x5D,0x00,Read,ACK
1.843946625000000,0,0x5D,0x00,Read,ACK
1.843968093750000,0,0x5D,0x00,Read,ACK
1.843989593750000,0,0x5D,0x00,Read,ACK
1.844011062500000,0,0x5D,0x00,Read,ACK
1.844032531250000,0,0x5D,0x00,Read,ACK
1.844054000000000,0,0x5D,0x00,Read,ACK
1.844075812500000,0,0x5D,0x00,Read,ACK
1.844097312500000,0,0x5D,0x00,Read,ACK
1.844118812500000,0,0x5D,0x00,Read,ACK
1.844140250000000,0,0x5D,0x00,Read,ACK
1.844161750000000,0,0x5D,0x00,Read,ACK
1.844183218750000,0,0x5D,0xB4,Read,ACK
1.844204687500000,0,0x5D,0xAD,Read,ACK
1.844226187500000,0,0x5D,0x01,Read,ACK
1.844247656250000,0,0x5D,0x00,Read,ACK
1.844269125000000,0,0x5D,0x00,Read,ACK
1.844290593750000,0,0x5D,0x00,Read,ACK
1.844315187500000,0,0x5D,0x00,Read,ACK
1.844337906250000,0,0x5D,0x00,Read,ACK
1.844359843750000,0,0x5D,0x00,Read,ACK
1.844381406250000,0,0x5D,0x00,Read,ACK
1.844403187500000,0,0x5D,0x00,Read,ACK
1.844424656250000,0,0x5D,0x00,Read,ACK
1.844446156250000,0,0x5D,0x00,Read,ACK
1.844468750000000,0,0x5D,0x00,Read,ACK
1.844490218750000,0,0x5D,0x00,Read,ACK
1.844512718750000,0,0x5D,0x00,Read,ACK
1.844535593750000,0,0x5D,0x00,Read,ACK
1.844557656250000,0,0x5D,0x00,Read,ACK
1.844579125000000,0,0x5D,0x00,Read,ACK
1.844600593750000,0,0x5D,0x00,Read,ACK
1.844622281250000,0,0x5D,0x00,Read,NAK
1.850426781250000,0,0x5D,0x2F,Read,ACK
1.850454093750000,0,0x5D,0x00,Read,ACK
1.850476000000000,0,0x5D,0x04,Read,ACK
1.850497593750000,0,0x5D,0x03,Read,ACK
1.850519031250000,0,0x5D,0x6F,Read,ACK
1.850540500000000,0,0x5D,0x09,Read,ACK
1.850561968750000,0,0x5D,0x16,Read,ACK
1.850583468750000,0,0x5D,0x03,Read,ACK
1.850604937500000,0,0x5D,0x03,Read,ACK
1.850626406250000,0,0x5D,0x03,Read,ACK
1.850647906250000,0,0x5D,0x20,Read,ACK
1.850669343750000,0,0x5D,0x00,Read,ACK
1.850690812500000,0,0x5D,0x00,Read,ACK
1.850712281250000,0,0x5D,0x00,Read,ACK
1.850734812500000,0,0x5D,0x00,Read,ACK
1.850757750000000,0,0x5D,0x00,Read,ACK
1.850779718750000,0,0x5D,0x00,Read,ACK
1.850801187500000,0,0x5D,0x00,Read,ACK
1.850822656250000,0,0x5D,0x00,Read,ACK
1.850846187500000,0,0x5D,0x00,Read,ACK
1.850867781250000,0,0x5D,0x00,Read,ACK
1.850889281250000,0,0x5D,0x00,Read,ACK
1.850910750000000,0,0x5D,0x00,Read,ACK
1.850932218750000,0,0x5D,0x00,Read,ACK
1.850953687500000,0,0x5D,0x00,Read,ACK
1.850975156250000,0,0x5D,0x00,Read,ACK
1.850996656250000,0,0x5D,0x00,Read,ACK
1.851018468750000,0,0x5D,0x00,Read,ACK
1.851039968750000,0,0x5D,0x00,Read,ACK
1.851061437500000,0,0x5D,0x00,Read,ACK
1.851082906250000,0,0x5D,0x00,Read,ACK
1.851104562500000,0,0x5D,0x00,Read,ACK
1.851126031250000,0,0x5D,0x00,Read,ACK
1.851147500000000,0,0x5D,0x00,Read,ACK
1.851168968750000,0,0x5D,0x00,Read,ACK
1.851190437500000,0,0x5D,0x00,Read,ACK
1.851211937500000,0,0x5D,0x00,Read,ACK
1.851233406250000,0,0x5D,0x00,Read,ACK
1.851254875000000,0,0x5D,0x00,Read,ACK
1.851276343750000,0,0x5D,0x00,Read,ACK
1.851297812500000,0,0x5D,0x00,Read,ACK
1.851319281250000,0,0x5D,0x00,Read,ACK
1.851340781250000,0,0x5D,0x00,Read,ACK
1.851362250000000,0,0x5D,0xFA,Read,ACK
1.851383718750000,0,0x5D,0xAD,Read,ACK
1.851405187500000,0,0x5D,0x01,Read,ACK
1.851429687500000,0,0x5D,0x00,Read,ACK
1.851452187500000,0,0x5D,0x00,Read,ACK
1.851473656250000,0,0x5D,0x00,Read,ACK
1.851495781250000,0,0x5D,0x00,Read,ACK
1.851517593750000,0,0x5D,0x00,Read,ACK
1.851539781250000,0,0x5D,0x00,Read,ACK
1.851561281250000,0,0x5D,0x00,Read,ACK
1.851582781250000,0,0x5D,0x00,Read,ACK
1.851604718750000,0,0x5D,0x00,Read,ACK
1.851627500000000,0,0x5D,0x00,Read,ACK
1.851649000000000,0,0x5D,0x00,Read,ACK
1.851670750000000,0,0x5D,0x00,Read,ACK
1.851692187500000,0,0x5D,0x00,Read,ACK
1.851713750000000,0,0x5D,0x00,Read,ACK
1.851735531250000,0,0x5D,0x00,Read,ACK
1.851759093750000,0,0x5D,0x00,Read,ACK
1.851781656250000,0,0x5D,0x00,Read,ACK
1.851804500000000,0,0x5D,0x00,Read,NAK
1.857791031250000,0,0x5D,0x2F,Read,ACK
1.857816781250000,0,0x5D,0x00,Read,ACK
1.857838218750000,0,0x5D,0x04,Read,ACK
1.857859687500000,0,0x5D,0x03,Read,ACK
1.857881156250000,0,0x5D,0x92,Read,ACK
1.857904187500000,0,0x5D,0x09,Read,ACK
1.857925687500000,0,0x5D,0x21,Read,ACK
1.857947125000000,0,0x5D,0x03,Read,ACK
1.857968656250000,0,0x5D,0x04,Read,ACK
1.857990156250000,0,0x5D,0x03,Read,ACK
1.858012375000000,0,0x5D,0x20,Read,ACK
1.858035125000000,0,0x5D,0x00,Read,ACK
1.858056562500000,0,0x5D,0x00,Read,ACK
1.858078062500000,0,0x5D,0x00,Read,ACK
1.858099531250000,0,0x5D,0x00,Read,ACK
1.858121000000000,0,0x5D,0x00,Read,ACK
1.858143218750000,0,0x5D,0x00,Read,ACK
1.858165000000000,0,0x5D,0x00,Read,ACK
1.858186468750000,0,0x5D,0x00,Read,ACK
1.858207937500000,0,0x5D,0x00,Read,ACK
1.858229437500000,0,0x5D,0x00,Read,ACK
1.858250906250000,0,0x5D,0x00,Read,ACK
1.858272375000000,0,0x5D,0x00,Read,ACK
1.858293843750000,0,0x5D,0x00,Read,ACK
1.858315312500000,0,0x5D,0x00,Read,ACK
1.858336812500000,0,0x5D,0x00,Read,ACK
1.858358281250000,0,0x5D,0x00,Read,ACK
1.858379750000000,0,0x5D,0x00,Read,ACK
1.858401218750000,0,0x5D,0x00,Read,ACK
1.858422812500000,0,0x5D,0x00,Read,ACK
1.858444562500000,0,0x5D,0x00,Read,ACK
1.858466000000000,0,0x5D,0x00,Read,ACK
1.858487500000000,0,0x5D,0x00,Read,ACK
1.858508968750000,0,0x5D,0x00,Read,ACK
1.858530437500000,0,0x5D,0x00,Read,ACK
1.858551906250000,0,0x5D,0x00,Read,ACK
1.858573375000000,0,0x5D,0x00,Read,ACK
1.858598031250000,0,0x5D,0x00,Read,ACK
1.858619562500000,0,0x5D,0x00,Read,ACK
1.858641093750000,0,0x5D,0x00,Read,ACK
1.858662531250000,0,0x5D,0x00,Read,ACK
1.858684468750000,0,0x5D,0x00,Read,ACK
1.858705968750000,0,0x5D,0x00,Read,ACK
1.858728125000000,0,0x5D,0x40,Read,ACK
1.858749937500000,0,0x5D,0xAE,Read,ACK
1.858772875000000,0,0x5D,0x01,Read,ACK
1.858795031250000,0,0x5D,0x00,Read,ACK
1.858816531250000,0,0x5D,0x00,Read,ACK
1.858838000000000,0,0x5D,0x00,Read,ACK
1.858859812500000,0,0x5D,0x00,Read,ACK
1.858881343750000,0,0x5D,0x00,Read,ACK
1.858903343750000,0,0x5D,0x00,Read,ACK
1.858924937500000,0,0x5D,0x00,Read,ACK
1.858946437500000,0,0x5D,0x00,Read,ACK
1.858969343750000,0,0x5D,0x00,Read,ACK
1.858990843750000,0,0x5D,0x00,Read,ACK
1.859012343750000,0,0x5D,0x00,Read,ACK
1.859033843750000,0,0x5D,0x00,Read,ACK
1.859055312500000,0,0x5D,0x00,Read,ACK
1.859076781250000,0,0x5D,0x00,Read,ACK
1.859099718750000,0,0x5D,0x00,Read,ACK
1.859121187500000,0,0x5D,0x00,Read,ACK
1.859142781250000,0,0x5D,0x00,Read,ACK
1.859165000000000,0,0x5D,0x00,Read,NAK
1.864928218750000,0,0x5D,0x2F,Read,ACK
1.864952875000000,0,0x5D,0x00,Read,ACK
1.864974343750000,0,0x5D,0x04,Read,ACK
1.864995812500000,0,0x5D,0x03,Read,ACK
1.865017281250000,0,0x5D,0xB5,Read,ACK
1.865038781250000,0,0x5D,0x09,Read,ACK
1.865060250000000,0,0x5D,0x2F,Read,ACK
1.865081718750000,0,0x5D,0x03,Read,ACK
1.865103187500000,0,0x5D,0x03,Read,ACK
1.865124656250000,0,0x5D,0x03,Read,ACK
1.865146187500000,0,0x5D,0x20,Read,ACK
1.865168406250000,0,0x5D,0x00,Read,ACK
1.865189906250000,0,0x5D,0x00,Read,ACK
1.865211812500000,0,0x5D,0x00,Read,ACK
1.865233312500000,0,0x5D,0x00,Read,ACK
1.865254812500000,0,0x5D,0x00,Read,ACK
1.865276281250000,0,0x5D,0x00,Read,ACK
1.865297750000000,0,0x5D,0x00,Read,ACK
1.865319250000000,0,0x5D,0x00,Read,ACK
1.865340718750000,0,0x5D,0x00,Read,ACK
1.865362187500000,0,0x5D,0x00,Read,ACK
1.865383656250000,0,0x5D,0x00,Read,ACK
1.865405125000000,0,0x5D,0x00,Read,ACK
1.865426593750000,0,0x5D,0x00,Read,ACK
1.865448062500000,0,0x5D,0x00,Read,ACK
1.865469718750000,0,0x5D,0x00,Read,ACK
1.865491218750000,0,0x5D,0x00,Read,ACK
1.865512750000000,0,0x5D,0x00,Read,ACK
1.865534218750000,0,0x5D,0x00,Read,ACK
1.865555718750000,0,0x5D,0x00,Read,ACK
1.865577156250000,0,0x5D,0x00,Read,ACK
1.865598625000000,0,0x5D,0x00,Read,ACK
1.865620093750000,0,0x5D,0x00,Read,ACK
1.865641625000000,0,0x5D,0x00,Read,ACK
1.865663062500000,0,0x5D,0x00,Read,ACK
1.865684531250000,0,0x5D,0x00,Read,ACK
1.865706000000000,0,0x5D,0x00,Read,ACK
1.865732968750000,0,0x5D,0x00,Read,ACK
1.865754437500000,0,0x5D,0x00,Read,ACK
1.865775906250000,0,0x5D,0x00,Read,ACK
1.865800531250000,0,0x5D,0x00,Read,ACK
1.865822937500000,0,0x5D,0x00,Read,ACK
1.865844750000000,0,0x5D,0x00,Read,ACK
1.865866218750000,0,0x5D,0x86,Read,ACK
1.865888218750000,0,0x5D,0xAE,Read,ACK
1.865909687500000,0,0x5D,0x01,Read,ACK
1.865931281250000,0,0x5D,0x00,Read,ACK
1.865953031250000,0,0x5D,0x00,Read,ACK
1.865974531250000,0,0x5D,0x00,Read,ACK
1.865996031250000,0,0x5D,0x00,Read,ACK
1.866017656250000,0,0x5D,0x00,Read,ACK
1.866040656250000,0,0x5D,0x00,Read,ACK
1.866062906250000,0,0x5D,0x00,Read,ACK
1.866084406250000,0,0x5D,0x00,Read,ACK
1.866107593750000,0,0x5D,0x00,Read,ACK
1.866129187500000,0,0x5D,0x00,Read,ACK
1.866150750000000,0,0x5D,0x00,Read,ACK
1.866172250000000,0,0x5D,0x00,Read,ACK
1.866196343750000,0,0x5D,0x00,Read,ACK
1.866217812500000,0,0x5D,0x00,Read,ACK
1.866239843750000,0,0x5D,0x00,Read,ACK
1.866263593750000,0,0x5D,0x00,Read,ACK
1.866285062500000,0,0x5D,0x00,Read,ACK
1.866307093750000,0,0x5D,0x00,Read,NAK
1.871819593750000,0,0x5D,0x2F,Read,ACK
1.871845875000000,0,0x5D,0x00,Read,ACK
1.871867343750000,0,0x5D,0x04,Read,ACK
1.871889062500000,0,0x5D,0x03,Read,ACK
1.871911031250000,0,0x5D,0xD7,Read,ACK
1.871937093750000,0,0x5D,0x09,Read,ACK
1.871958531250000,0,0x5D,0x41,Read,ACK
1.871980000000000,0,0x5D,0x03,Read,ACK
1.872001468750000,0,0x5D,0x03,Read,ACK
1.872022937500000,0,0x5D,0x03,Read,ACK
1.872044406250000,0,0x5D,0x20,Read,ACK
1.872065875000000,0,0x5D,0x00,Read,ACK
1.872087343750000,0,0x5D,0x00,Read,ACK
1.872108812500000,0,0x5D,0x00,Read,ACK
1.872130312500000,0,0x5D,0x00,Read,ACK
1.872151781250000,0,0x5D,0x00,Read,ACK
1.872173250000000,0,0x5D,0x00,Read,ACK
1.872196375000000,0,0x5D,0x00,Read,ACK
1.872219593750000,0,0x5D,0x00,Read,ACK
1.872242375000000,0,0x5D,0x00,Read,ACK
1.872263875000000,0,0x5D,0x00,Read,ACK
1.872285343750000,0,0x5D,0x00,Read,ACK
1.872307093750000,0,0x5D,0x00,Read,ACK
1.872329406250000,0,0x5D,0x00,Read,ACK
1.872350906250000,0,0x5D,0x00,Read,ACK
1.872372437500000,0,0x5D,0x00,Read,ACK
1.872393937500000,0,0x5D,0x00,Read,ACK
1.872415375000000,0,0x5D,0x00,Read,ACK
1.872438968750000,0,0x5D,0x00,Read,ACK
1.872460468750000,0,0x5D,0x00,Read,ACK
1.872481937500000,0,0x5D,0x00,Read,ACK
1.872503406250000,0,0x5D,0x00,Read,ACK
1.872524875000000,0,0x5D,0x00,Read,ACK
1.872546343750000,0,0x5D,0x00,Read,ACK
1.872568031250000,0,0x5D,0x00,Read,ACK
1.872589968750000,0,0x5D,0x00,Read,ACK
1.872611468750000,0,0x5D,0x00,Read,ACK
1.872633125000000,0,0x5D,0x00,Read,ACK
1.872654562500000,0,0x5D,0x00,Read,ACK
1.872676062500000,0,0x5D,0x00,Read,ACK
1.872697531250000,0,0x5D,0x00,Read,ACK
1.872719000000000,0,0x5D,0x00,Read,ACK
1.872740468750000,0,0x5D,0x00,Read,ACK
1.872761937500000,0,0x5D,0xCC,Read,ACK
1.872783406250000,0,0x5D,0xAE,Read,ACK
1.872804875000000,0,0x5D,0x01,Read,ACK
1.872826343750000,0,0x5D,0x00,Read,ACK
1.872847812500000,0,0x5D,0x00,Read,ACK
1.872870687500000,0,0x5D,0x00,Read,ACK
1.872892562500000,0,0x5D,0x00,Read,ACK
1.872916062500000,0,0x5D,0x00,Read,ACK
1.872937531250000,0,0x5D,0x00,Read,ACK
1.872959343750000,0,0x5D,0x00,Read,ACK
1.872980781250000,0,0x5D,0x00,Read,ACK
1.873002718750000,0,0x5D,0x00,Read,ACK
1.873024343750000,0,0x5D,0x00,Read,ACK
1.873045968750000,0,0x5D,0x00,Read,ACK
1.873069000000000,0,0x5D,0x00,Read,ACK
1.873092062500000,0,0x5D,0x00,Read,ACK
1.873113562500000,0,0x5D,0x00,Read,ACK
1.873135031250000,0,0x5D,0x00,Read,ACK
1.873156500000000,0,0x5D,0x00,Read,ACK
1.873178500000000,0,0x5D,0x00,Read,ACK
1.873200000000000,0,0x5D,0x00,Read,NAK
1.878910093750000,0,0x5D,0x2F,Read,ACK
1.878935062500000,0,0x5D,0x00,Read,ACK
1.878956562500000,0,0x5D,0x04,Read,ACK
1.878979343750000,0,0x5D,0x03,Read,ACK
1.879000843750000,0,0x5D,0xFA,Read,ACK
1.879022312500000,0,0x5D,0x09,Read,ACK
1.879043781250000,0,0x5D,0x59,Read,ACK
1.879065406250000,0,0x5D,0x03,Read,ACK
1.879087468750000,0,0x5D,0x03,Read,ACK
1.879111718750000,0,0x5D,0x03,Read,ACK
1.879133187500000,0,0x5D,0x20,Read,ACK
1.879154656250000,0,0x5D,0x00,Read,ACK
1.879176156250000,0,0x5D,0x00,Read,ACK
1.879197593750000,0,0x5D,0x00,Read,ACK
1.879219062500000,0,0x5D,0x00,Read,ACK
1.879240531250000,0,0x5D,0x00,Read,ACK
1.879262031250000,0,0x5D,0x00,Read,ACK
1.879283500000000,0,0x5D,0x00,Read,ACK
1.879304968750000,0,0x5D,0x00,Read,ACK
1.879326437500000,0,0x5D,0x00,Read,ACK
1.879348875000000,0,0x5D,0x00,Read,ACK
1.879371406250000,0,0x5D,0x00,Read,ACK
1.879393187500000,0,0x5D,0x00,Read,ACK
1.879414656250000,0,0x5D,0x00,Read,ACK
1.879436500000000,0,0x5D,0x00,Read,ACK
1.879457968750000,0,0x5D,0x00,Read,ACK
1.879479781250000,0,0x5D,0x00,Read,ACK
1.879501218750000,0,0x5D,0x00,Read,ACK
1.879522937500000,0,0x5D,0x00,Read,ACK
1.879544468750000,0,0x5D,0x00,Read,ACK
1.879565937500000,0,0x5D,0x00,Read,ACK
1.879588031250000,0,0x5D,0x00,Read,ACK
1.879609531250000,0,0x5D,0x00,Read,ACK
1.879631000000000,0,0x5D,0x00,Read,ACK
1.879652468750000,0,0x5D,0x00,Read,ACK
1.879673937500000,0,0x5D,0x00,Read,ACK
1.879695437500000,0,0x5D,0x00,Read,ACK
1.879716875000000,0,0x5D,0x00,Read,ACK
1.879738375000000,0,0x5D,0x00,Read,ACK
1.879759843750000,0,0x5D,0x00,Read,ACK
1.879781343750000,0,0x5D,0x00,Read,ACK
1.879802843750000,0,0x5D,0x00,Read,ACK
1.879824375000000,0,0x5D,0x00,Read,ACK
1.879845812500000,0,0x5D,0x12,Read,ACK
1.879867375000000,0,0x5D,0xAF,Read,ACK
1.879888843750000,0,0x5D,0x01,Read,ACK
1.879910281250000,0,0x5D,0x00,Read,ACK
1.879931750000000,0,0x5D,0x00,Read,ACK
1.879953250000000,0,0x5D,0x00,Read,ACK
1.879974718750000,0,0x5D,0x00,Read,ACK
1.879996187500000,0,0x5D,0x00,Read,ACK
1.880017656250000,0,0x5D,0x00,Read,ACK
1.880041312500000,0,0x5D,0x00,Read,ACK
1.880064437500000,0,0x5D,0x00,Read,ACK
1.880087343750000,0,0x5D,0x00,Read,ACK
1.880110281250000,0,0x5D,0x00,Read,ACK
1.880131937500000,0,0x5D,0x00,Read,ACK
1.880153437500000,0,0x5D,0x00,Read,ACK
1.880174906250000,0,0x5D,0x00,Read,ACK
1.880196375000000,0,0x5D,0x00,Read,ACK
1.880217875000000,0,0x5D,0x00,Read,ACK
1.880239343750000,0,0x5D,0x00,Read,ACK
1.880260843750000,0,0x5D,0x00,Read,ACK
1.880282343750000,0,0x5D,0x00,Read,NAK
1.886081718750000,0,0x5D,0x2F,Read,ACK
1.886110656250000,0,0x5D,0x00,Read,ACK
1.886132093750000,0,0x5D,0x04,Read,ACK
1.886154125000000,0,0x5D,0x03,Read,ACK
1.886175625000000,0,0x5D,0x1B,Read,ACK
1.886197093750000,0,0x5D,0x0A,Read,ACK
1.886218531250000,0,0x5D,0x74,Read,ACK
1.886241406250000,0,0x5D,0x03,Read,ACK
1.886265625000000,0,0x5D,0x04,Read,ACK
1.886287562500000,0,0x5D,0x03,Read,ACK
1.886309062500000,0,0x5D,0x20,Read,ACK
1.886330531250000,0,0x5D,0x00,Read,ACK
1.886352000000000,0,0x5D,0x00,Read,ACK
1.886373468750000,0,0x5D,0x00,Read,ACK
1.886394968750000,0,0x5D,0x00,Read,ACK
1.886416406250000,0,0x5D,0x00,Read,ACK
1.886437875000000,0,0x5D,0x00,Read,ACK
1.886459375000000,0,0x5D,0x00,Read,ACK
1.886480843750000,0,0x5D,0x00,Read,ACK
1.886503062500000,0,0x5D,0x00,Read,ACK
1.886526062500000,0,0x5D,0x00,Read,ACK
1.886547562500000,0,0x5D,0x00,Read,ACK
1.886569031250000,0,0x5D,0x00,Read,ACK
1.886590500000000,0,0x5D,0x00,Read,ACK
1.886612000000000,0,0x5D,0x00,Read,ACK
1.886635468750000,0,0x5D,0x00,Read,ACK
1.886656937500000,0,0x5D,0x00,Read,ACK
1.886678843750000,0,0x5D,0x00,Read,ACK
1.886700312500000,0,0x5D,0x00,Read,ACK
1.886721812500000,0,0x5D,0x00,Read,ACK
1.886743250000000,0,0x5D,0x00,Read,ACK
1.886764750000000,0,0x5D,0x00,Read,ACK
1.886786218750000,0,0x5D,0x00,Read,ACK
1.886807687500000,0,0x5D,0x00,Read,ACK
1.886829156250000,0,0x5D,0x00,Read,ACK
1.886850625000000,0,0x5D,0x00,Read,ACK
1.886872093750000,0,0x5D,0x00,Read,ACK
1.886893593750000,0,0x5D,0x00,Read,ACK
1.886915281250000,0,0x5D,0x00,Read,ACK
1.886936781250000,0,0x5D,0x00,Read,ACK
1.886958531250000,0,0x5D,0x00,Read,ACK
1.886979968750000,0,0x5D,0x00,Read,ACK
1.887001437500000,0,0x5D,0x00,Read,ACK
1.887022906250000,0,0x5D,0x58,Read,ACK
1.887044375000000,0,0x5D,0xAF,Read,ACK
1.887065875000000,0,0x5D,0x01,Read,ACK
1.887087343750000,0,0x5D,0x00,Read,ACK
1.887108812500000,0,0x5D,0x00,Read,ACK
1.887130281250000,0,0x5D,0x00,Read,ACK
1.887151781250000,0,0x5D,0x00,Read,ACK
1.887175937500000,0,0x5D,0x00,Read,ACK
1.887201281250000,0,0x5D,0x00,Read,ACK
1.887222718750000,0,0x5D,0x00,Read,ACK
1.887247437500000,0,0x5D,0x00,Read,ACK
1.887269875000000,0,0x5D,0x00,Read,ACK
1.887291343750000,0,0x5D,0x00,Read,ACK
1.887312812500000,0,0x5D,0x00,Read,ACK
1.887334281250000,0,0x5D,0x00,Read,ACK
1.887355750000000,0,0x5D,0x00,Read,ACK
1.887377687500000,0,0x5D,0x00,Read,ACK
1.887399625000000,0,0x5D,0x00,Read,ACK
1.887421562500000,0,0x5D,0x00,Read,ACK
1.887443250000000,0,0x5D,0x00,Read,ACK
1.887464937500000,0,0x5D,0x00,Read,NAK
1.893267031250000,0,0x5D,0x2F,Read,ACK
1.893292750000000,0,0x5D,0x00,Read,ACK
1.893314250000000,0,0x5D,0x04,Read,ACK
1.893337062500000,0,0x5D,0x03,Read,ACK
1.893360281250000,0,0x5D,0x3C,Read,ACK
1.893381781250000,0,0x5D,0x0A,Read,ACK
1.893403250000000,0,0x5D,0x92,Read,ACK
1.893424718750000,0,0x5D,0x03,Read,ACK
1.893446187500000,0,0x5D,0x04,Read,ACK
1.893467656250000,0,0x5D,0x03,Read,ACK
1.893489125000000,0,0x5D,0x20,Read,ACK
1.893510625000000,0,0x5D,0x00,Read,ACK
1.893532093750000,0,0x5D,0x00,Read,ACK
1.893553562500000,0,0x5D,0x00,Read,ACK
1.893575062500000,0,0x5D,0x00,Read,ACK
1.893596500000000,0,0x5D,0x00,Read,ACK
1.893618593750000,0,0x5D,0x00,Read,ACK
1.893640062500000,0,0x5D,0x00,Read,ACK
1.893661875000000,0,0x5D,0x00,Read,ACK
1.893683312500000,0,0x5D,0x00,Read,ACK
1.893704812500000,0,0x5D,0x00,Read,ACK
1.893726718750000,0,0x5D,0x00,Read,ACK
1.893748218750000,0,0x5D,0x00,Read,ACK
1.893769656250000,0,0x5D,0x00,Read,ACK
1.893791125000000,0,0x5D,0x00,Read,ACK
1.893812593750000,0,0x5D,0x00,Read,ACK
1.893834062500000,0,0x5D,0x00,Read,ACK
1.893857875000000,0,0x5D,0x00,Read,ACK
1.893881375000000,0,0x5D,0x00,Read,ACK
1.893902843750000,0,0x5D,0x00,Read,ACK
1.893924406250000,0,0x5D,0x00,Read,ACK
1.893945875000000,0,0x5D,0x00,Read,ACK
1.893967343750000,0,0x5D,0x00,Read,ACK
1.893988812500000,0,0x5D,0x00,Read,ACK
1.894010437500000,0,0x5D,0x00,Read,ACK
1.894031937500000,0,0x5D,0x00,Read,ACK
1.894053406250000,0,0x5D,0x00,Read,ACK
1.894074906250000,0,0x5D,0x00,Read,ACK
1.894096437500000,0,0x5D,0x00,Read,ACK
1.894117875000000,0,0x5D,0x00,Read,ACK
1.894139375000000,0,0x5D,0x00,Read,ACK
1.894160843750000,0,0x5D,0x00,Read,ACK
1.894182312500000,0,0x5D,0x00,Read,ACK
1.894203781250000,0,0x5D,0x9E,Read,ACK
1.894225250000000,0,0x5D,0xAF,Read,ACK
1.894246718750000,0,0x5D,0x01,Read,ACK
1.894269437500000,0,0x5D,0x00,Read,ACK
1.894290937500000,0,0x5D,0x00,Read,ACK
1.894314937500000,0,0x5D,0x00,Read,ACK
1.894336406250000,0,0x5D,0x00,Read,ACK
1.894357875000000,0,0x5D,0x00,Read,ACK
1.894381437500000,0,0x5D,0x00,Read,ACK
1.894402875000000,0,0x5D,0x00,Read,ACK
1.894424375000000,0,0x5D,0x00,Read,ACK
1.894446031250000,0,0x5D,0x00,Read,ACK
1.894468875000000,0,0x5D,0x00,Read,ACK
1.894491812500000,0,0x5D,0x00,Read,ACK
1.894513375000000,0,0x5D,0x00,Read,ACK
1.894535093750000,0,0x5D,0x00,Read,ACK
1.894556593750000,0,0x5D,0x00,Read,ACK
1.894578062500000,0,0x5D,0x00,Read,ACK
1.894599781250000,0,0x5D,0x00,Read,ACK
1.894621281250000,0,0x5D,0x00,Read,ACK
1.894642750000000,0,0x5D,0x00,Read,NAK
1.900458312500000,0,0x5D,0x2F,Read,ACK
1.900486281250000,0,0x5D,0x00,Read,ACK
1.900507812500000,0,0x5D,0x04,Read,ACK
1.900531812500000,0,0x5D,0x03,Read,ACK
1.900553250000000,0,0x5D,0x58,Read,ACK
1.900574718750000,0,0x5D,0x0A,Read,ACK
1.900596187500000,0,0x5D,0xB2,Read,ACK
1.900617656250000,0,0x5D,0x03,Read,ACK
1.900639156250000,0,0x5D,0x03,Read,ACK
1.900660625000000,0,0x5D,0x03,Read,ACK
1.900682093750000,0,0x5D,0x20,Read,ACK
1.900703562500000,0,0x5D,0x00,Read,ACK
1.900725031250000,0,0x5D,0x00,Read,ACK
1.900746531250000,0,0x5D,0x00,Read,ACK
1.900769375000000,0,0x5D,0x00,Read,ACK
1.900791875000000,0,0x5D,0x00,Read,ACK
1.900813437500000,0,0x5D,0x00,Read,ACK
1.900834906250000,0,0x5D,0x00,Read,ACK
1.900857156250000,0,0x5D,0x00,Read,ACK
1.900879906250000,0,0x5D,0x00,Read,ACK
1.900901375000000,0,0x5D,0x00,Read,ACK
1.900923750000000,0,0x5D,0x00,Read,ACK
1.900945312500000,0,0x5D,0x00,Read,ACK
1.900966812500000,0,0x5D,0x00,Read,ACK
1.900988250000000,0,0x5D,0x00,Read,ACK
1.901011937500000,0,0x5D,0x00,Read,ACK
1.901033375000000,0,0x5D,0x00,Read,ACK
1.901054843750000,0,0x5D,0x00,Read,ACK
1.901076312500000,0,0x5D,0x00,Read,ACK
1.901097812500000,0,0x5D,0x00,Read,ACK
1.901119281250000,0,0x5D,0x00,Read,ACK
1.901140750000000,0,0x5D,0x00,Read,ACK
1.901162218750000,0,0x5D,0x00,Read,ACK
1.901183781250000,0,0x5D,0x00,Read,ACK
1.901205281250000,0,0x5D,0x00,Read,ACK
1.901226750000000,0,0x5D,0x00,Read,ACK
1.901248218750000,0,0x5D,0x00,Read,ACK
1.901269718750000,0,0x5D,0x00,Read,ACK
1.901291187500000,0,0x5D,0x00,Read,ACK
1.901312656250000,0,0x5D,0x00,Read,ACK
1.901334125000000,0,0x5D,0x00,Read,ACK
1.901355593750000,0,0x5D,0x00,Read,ACK
1.901377062500000,0,0x5D,0x00,Read,ACK
1.901398531250000,0,0x5D,0xE4,Read,ACK
1.901420031250000,0,0x5D,0xAF,Read,ACK
1.901441875000000,0,0x5D,0x01,Read,ACK
1.901466312500000,0,0x5D,0x00,Read,ACK
1.901488125000000,0,0x5D,0x00,Read,ACK
1.901509593750000,0,0x5D,0x00,Read,ACK
1.901531937500000,0,0x5D,0x00,Read,ACK
1.901553406250000,0,0x5D,0x00,Read,ACK
1.901574875000000,0,0x5D,0x00,Read,ACK
1.901597562500000,0,0x5D,0x00,Read,ACK
1.901619812500000,0,0x5D,0x00,Read,ACK
1.901642156250000,0,0x5D,0x00,Read,ACK
1.901666906250000,0,0x5D,0x00,Read,ACK
1.901688406250000,0,0x5D,0x00,Read,ACK
1.901710687500000,0,0x5D,0x00,Read,ACK
1.901732156250000,0,0x5D,0x00,Read,ACK
1.901753625000000,0,0x5D,0x00,Read,ACK
1.901775125000000,0,0x5D,0x00,Read,ACK
1.901796593750000,0,0x5D,0x00,Read,ACK
1.901819031250000,0,0x5D,0x00,Read,ACK
1.901840531250000,0,0x5D,0x00,Read,NAK
1.907791156250000,0,0x5D,0x2F,Read,ACK
1.907815687500000,0,0x5D,0x00,Read,ACK
1.907837156250000,0,0x5D,0x04,Read,ACK
1.907858625000000,0,0x5D,0x03,Read,ACK
1.907880125000000,0,0x5D,0x6F,Read,ACK
1.907902500000000,0,0x5D,0x0A,Read,ACK
1.907925031250000,0,0x5D,0xD2,Read,ACK
1.907946468750000,0,0x5D,0x03,Read,ACK
1.907967968750000,0,0x5D,0x03,Read,ACK
1.907989437500000,0,0x5D,0x03,Read,ACK
1.908010875000000,0,0x5D,0x20,Read,ACK
1.908033312500000,0,0x5D,0x00,Read,ACK
1.908054781250000,0,0x5D,0x00,Read,ACK
1.908076250000000,0,0x5D,0x00,Read,ACK
1.908097718750000,0,0x5D,0x00,Read,ACK
1.908119187500000,0,0x5D,0x00,Read,ACK
1.908140687500000,0,0x5D,0x00,Read,ACK
1.908162937500000,0,0x5D,0x00,Read,ACK
1.908184437500000,0,0x5D,0x00,Read,ACK
1.908205906250000,0,0x5D,0x00,Read,ACK
1.908227406250000,0,0x5D,0x00,Read,ACK
1.908248843750000,0,0x5D,0x00,Read,ACK
1.908270562500000,0,0x5D,0x00,Read,ACK
1.908292062500000,0,0x5D,0x00,Read,ACK
1.908313531250000,0,0x5D,0x00,Read,ACK
1.908335000000000,0,0x5D,0x00,Read,ACK
1.908356500000000,0,0x5D,0x00,Read,ACK
1.908377937500000,0,0x5D,0x00,Read,ACK
1.908399437500000,0,0x5D,0x00,Read,ACK
1.908420875000000,0,0x5D,0x00,Read,ACK
1.908442375000000,0,0x5D,0x00,Read,ACK
1.908463843750000,0,0x5D,0x00,Read,ACK
1.908485312500000,0,0x5D,0x00,Read,ACK
1.908506781250000,0,0x5D,0x00,Read,ACK
1.908528468750000,0,0x5D,0x00,Read,ACK
1.908549906250000,0,0x5D,0x00,Read,ACK
1.908571843750000,0,0x5D,0x00,Read,ACK
1.908594750000000,0,0x5D,0x00,Read,ACK
1.908618968750000,0,0x5D,0x00,Read,ACK
1.908640437500000,0,0x5D,0x00,Read,ACK
1.908662718750000,0,0x5D,0x00,Read,ACK
1.908684468750000,0,0x5D,0x00,Read,ACK
1.908705968750000,0,0x5D,0x00,Read,ACK
1.908727437500000,0,0x5D,0x2A,Read,ACK
1.908749156250000,0,0x5D,0xB0,Read,ACK
1.908771218750000,0,0x5D,0x01,Read,ACK
1.908794031250000,0,0x5D,0x00,Read,ACK
1.908817406250000,0,0x5D,0x00,Read,ACK
1.908839406250000,0,0x5D,0x00,Read,ACK
1.908860843750000,0,0x5D,0x00,Read,ACK
1.908882312500000,0,0x5D,0x00,Read,ACK
1.908904187500000,0,0x5D,0x00,Read,ACK
1.908925625000000,0,0x5D,0x00,Read,ACK
1.908947125000000,0,0x5D,0x00,Read,ACK
1.908969656250000,0,0x5D,0x00,Read,ACK
1.908991125000000,0,0x5D,0x00,Read,ACK
1.909013906250000,0,0x5D,0x00,Read,ACK
1.909035375000000,0,0x5D,0x00,Read,ACK
1.909057281250000,0,0x5D,0x00,Read,ACK
1.909078718750000,0,0x5D,0x00,Read,ACK
1.909101437500000,0,0x5D,0x00,Read,ACK
1.909122906250000,0,0x5D,0x00,Read,ACK
1.909145343750000,0,0x5D,0x00,Read,ACK
1.909166781250000,0,0x5D,0x00,Read,NAK
1.914888281250000,0,0x5D,0x2F,Read,ACK
1.914916656250000,0,0x5D,0x00,Read,ACK
1.914938093750000,0,0x5D,0x04,Read,ACK
1.914959562500000,0,0x5D,0x03,Read,ACK
1.914981062500000,0,0x5D,0x7D,Read,ACK
1.915002531250000,0,0x5D,0x0A,Read,ACK
1.915024000000000,0,0x5D,0xF0,Read,ACK
1.915045593750000,0,0x5D,0x03,Read,ACK
1.915068156250000,0,0x5D,0x03,Read,ACK
1.915089593750000,0,0x5D,0x02,Read,ACK
1.915111093750000,0,0x5D,0x20,Read,ACK
1.915132531250000,0,0x5D,0x00,Read,ACK
1.915154031250000,0,0x5D,0x00,Read,ACK
1.915176062500000,0,0x5D,0x00,Read,ACK
1.915197531250000,0,0x5D,0x00,Read,ACK
1.915219687500000,0,0x5D,0x00,Read,ACK
1.915241156250000,0,0x5D,0x00,Read,ACK
1.915262625000000,0,0x5D,0x00,Read,ACK
1.915285437500000,0,0x5D,0x00,Read,ACK
1.915308375000000,0,0x5D,0x00,Read,ACK
1.915329875000000,0,0x5D,0x00,Read,ACK
1.915351343750000,0,0x5D,0x00,Read,ACK
1.915372812500000,0,0x5D,0x00,Read,ACK
1.915394281250000,0,0x5D,0x00,Read,ACK
1.915415750000000,0,0x5D,0x00,Read,ACK
1.915437218750000,0,0x5D,0x00,Read,ACK
1.915458687500000,0,0x5D,0x00,Read,ACK
1.915480187500000,0,0x5D,0x00,Read,ACK
1.915501656250000,0,0x5D,0x00,Read,ACK
1.915523125000000,0,0x5D,0x00,Read,ACK
1.915544593750000,0,0x5D,0x00,Read,ACK
1.915566093750000,0,0x5D,0x00,Read,ACK
1.915587625000000,0,0x5D,0x00,Read,ACK
1.915609062500000,0,0x5D,0x00,Read,ACK
1.915630562500000,0,0x5D,0x00,Read,ACK
1.915652031250000,0,0x5D,0x00,Read,ACK
1.915673500000000,0,0x5D,0x00,Read,ACK
1.915694968750000,0,0x5D,0x00,Read,ACK
1.915716437500000,0,0x5D,0x00,Read,ACK
1.915742187500000,0,0x5D,0x00,Read,ACK
1.915765562500000,0,0x5D,0x00,Read,ACK
1.915787031250000,0,0x5D,0x00,Read,ACK
1.915810250000000,0,0x5D,0x00,Read,ACK
1.915833000000000,0,0x5D,0x70,Read,ACK
1.915856062500000,0,0x5D,0xB0,Read,ACK
1.915877500000000,0,0x5D,0x01,Read,ACK
1.915898968750000,0,0x5D,0x00,Read,ACK
1.915920437500000,0,0x5D,0x00,Read,ACK
1.915941937500000,0,0x5D,0x00,Read,ACK
1.915963968750000,0,0x5D,0x00,Read,ACK
1.915986156250000,0,0x5D,0x00,Read,ACK
1.916008718750000,0,0x5D,0x00,Read,ACK
1.916030531250000,0,0x5D,0x00,Read,ACK
1.916052031250000,0,0x5D,0x00,Read,ACK
1.916074687500000,0,0x5D,0x00,Read,ACK
1.916096187500000,0,0x5D,0x00,Read,ACK
1.916117750000000,0,0x5D,0x00,Read,ACK
1.916139250000000,0,0x5D,0x00,Read,ACK
1.916160750000000,0,0x5D,0x00,Read,ACK
1.916182250000000,0,0x5D,0x00,Read,ACK
1.916203750000000,0,0x5D,0x00,Read,ACK
1.916225250000000,0,0x5D,0x00,Read,ACK
1.916246718750000,0,0x5D,0x00,Read,ACK
1.916268468750000,0,0x5D,0x00,Read,NAK
1.921806656250000,0,0x5D,0x2F,Read,ACK
1.921832437500000,0,0x5D,0x00,Read,ACK
1.921853906250000,0,0x5D,0x04,Read,ACK
1.921875406250000,0,0x5D,0x03,Read,ACK
1.921896843750000,0,0x5D,0x84,Read,ACK
1.921918312500000,0,0x5D,0x0A,Read,ACK
1.921940750000000,0,0x5D,0x08,Read,ACK
1.921962218750000,0,0x5D,0x04,Read,ACK
1.921987875000000,0,0x5D,0x03,Read,ACK
1.922009343750000,0,0x5D,0x03,Read,ACK
1.922030812500000,0,0x5D,0x20,Read,ACK
1.922052281250000,0,0x5D,0x00,Read,ACK
1.922073781250000,0,0x5D,0x00,Read,ACK
1.922095250000000,0,0x5D,0x00,Read,ACK
1.922116718750000,0,0x5D,0x00,Read,ACK
1.922138187500000,0,0x5D,0x00,Read,ACK
1.922159656250000,0,0x5D,0x00,Read,ACK
1.922181125000000,0,0x5D,0x00,Read,ACK
1.922202593750000,0,0x5D,0x00,Read,ACK
1.922224687500000,0,0x5D,0x00,Read,ACK
1.922247218750000,0,0x5D,0x00,Read,ACK
1.922270281250000,0,0x5D,0x00,Read,ACK
1.922291750000000,0,0x5D,0x00,Read,ACK
1.922314031250000,0,0x5D,0x00,Read,ACK
1.922337093750000,0,0x5D,0x00,Read,ACK
1.922358531250000,0,0x5D,0x00,Read,ACK
1.922380000000000,0,0x5D,0x00,Read,ACK
1.922401500000000,0,0x5D,0x00,Read,ACK
1.922422968750000,0,0x5D,0x00,Read,ACK
1.922444468750000,0,0x5D,0x00,Read,ACK
1.922465906250000,0,0x5D,0x00,Read,ACK
1.922487375000000,0,0x5D,0x00,Read,ACK
1.922508875000000,0,0x5D,0x00,Read,ACK
1.922530343750000,0,0x5D,0x00,Read,ACK
1.922551812500000,0,0x5D,0x00,Read,ACK
1.922573312500000,0,0x5D,0x00,Read,ACK
1.922594843750000,0,0x5D,0x00,Read,ACK
1.922616281250000,0,0x5D,0x00,Read,ACK
1.922637781250000,0,0x5D,0x00,Read,ACK
1.922659468750000,0,0x5D,0x00,Read,ACK
1.922683468750000,0,0x5D,0x00,Read,ACK
1.922704937500000,0,0x5D,0x00,Read,ACK
1.922726406250000,0,0x5D,0x00,Read,ACK
1.922747906250000,0,0x5D,0xB6,Read,ACK
1.922769375000000,0,0x5D,0xB0,Read,ACK
1.922790843750000,0,0x5D,0x01,Read,ACK
1.922812343750000,0,0x5D,0x00,Read,ACK
1.922833843750000,0,0x5D,0x00,Read,ACK
1.922855343750000,0,0x5D,0x00,Read,ACK
1.922876812500000,0,0x5D,0x00,Read,ACK
1.922898562500000,0,0x5D,0x00,Read,ACK
1.922921531250000,0,0x5D,0x00,Read,ACK
1.922943437500000,0,0x5D,0x00,Read,ACK
1.922967312500000,0,0x5D,0x00,Read,ACK
1.922989468750000,0,0x5D,0x00,Read,ACK
1.923011125000000,0,0x5D,0x00,Read,ACK
1.923032625000000,0,0x5D,0x00,Read,ACK
1.923054312500000,0,0x5D,0x00,Read,ACK
1.923075812500000,0,0x5D,0x00,Read,ACK
1.923098750000000,0,0x5D,0x00,Read,ACK
1.923120218750000,0,0x5D,0x00,Read,ACK
1.923143218750000,0,0x5D,0x00,Read,ACK
1.923164718750000,0,0x5D,0x00,Read,ACK
1.923187750000000,0,0x5D,0x00,Read,NAK
1.928911718750000,0,0x5D,0x2F,Read,ACK
1.928938875000000,0,0x5D,0x00,Read,ACK
1.928960343750000,0,0x5D,0x04,Read,ACK
1.928981812500000,0,0x5D,0x03,Read,ACK
1.929003312500000,0,0x5D,0x85,Read,ACK
1.929024750000000,0,0x5D,0x0A,Read,ACK
1.929046218750000,0,0x5D,0x1C,Read,ACK
1.929067718750000,0,0x5D,0x04,Read,ACK
1.929090375000000,0,0x5D,0x03,Read,ACK
1.929112343750000,0,0x5D,0x03,Read,ACK
1.929133843750000,0,0x5D,0x20,Read,ACK
1.929155281250000,0,0x5D,0x00,Read,ACK
1.929176750000000,0,0x5D,0x00,Read,ACK
1.929198250000000,0,0x5D,0x00,Read,ACK
1.929219718750000,0,0x5D,0x00,Read,ACK
1.929241187500000,0,0x5D,0x00,Read,ACK
1.929262687500000,0,0x5D,0x00,Read,ACK
1.929284156250000,0,0x5D,0x00,Read,ACK
1.929305625000000,0,0x5D,0x00,Read,ACK
1.929327093750000,0,0x5D,0x00,Read,ACK
1.929348843750000,0,0x5D,0x00,Read,ACK
1.929370812500000,0,0x5D,0x00,Read,ACK
1.929392312500000,0,0x5D,0x00,Read,ACK
1.929413812500000,0,0x5D,0x00,Read,ACK
1.929435281250000,0,0x5D,0x00,Read,ACK
1.929456750000000,0,0x5D,0x00,Read,ACK
1.929478625000000,0,0x5D,0x00,Read,ACK
1.929500125000000,0,0x5D,0x00,Read,ACK
1.929521593750000,0,0x5D,0x00,Read,ACK
1.929543062500000,0,0x5D,0x00,Read,ACK
1.929564562500000,0,0x5D,0x00,Read,ACK
1.929586062500000,0,0x5D,0x00,Read,ACK
1.929607562500000,0,0x5D,0x00,Read,ACK
1.929629062500000,0,0x5D,0x00,Read,ACK
1.929650531250000,0,0x5D,0x00,Read,ACK
1.929672000000000,0,0x5D,0x00,Read,ACK
1.929693468750000,0,0x5D,0x00,Read,ACK
1.929714937500000,0,0x5D,0x00,Read,ACK
1.929737343750000,0,0x5D,0x00,Read,ACK
1.929758812500000,0,0x5D,0x00,Read,ACK
1.929781281250000,0,0x5D,0x00,Read,ACK
1.929802968750000,0,0x5D,0x00,Read,ACK
1.929824437500000,0,0x5D,0x00,Read,ACK
1.929845906250000,0,0x5D,0xFC,Read,ACK
1.929867375000000,0,0x5D,0xB0,Read,ACK
1.929888875000000,0,0x5D,0x01,Read,ACK
1.929910343750000,0,0x5D,0x00,Read,ACK
1.929931843750000,0,0x5D,0x00,Read,ACK
1.929953406250000,0,0x5D,0x00,Read,ACK
1.929974875000000,0,0x5D,0x00,Read,ACK
1.929996375000000,0,0x5D,0x00,Read,ACK
1.930017843750000,0,0x5D,0x00,Read,ACK
1.930043937500000,0,0x5D,0x00,Read,ACK
1.930065437500000,0,0x5D,0x00,Read,ACK
1.930087156250000,0,0x5D,0x00,Read,ACK
1.930109562500000,0,0x5D,0x00,Read,ACK
1.930131031250000,0,0x5D,0x00,Read,ACK
1.930152500000000,0,0x5D,0x00,Read,ACK
1.930173968750000,0,0x5D,0x00,Read,ACK
1.930195593750000,0,0x5D,0x00,Read,ACK
1.930217031250000,0,0x5D,0x00,Read,ACK
1.930240468750000,0,0x5D,0x00,Read,ACK
1.930261906250000,0,0x5D,0x00,Read,ACK
1.930285500000000,0,0x5D,0x00,Read,NAK
1.936242781250000,0,0x5D,0x2F,Read,ACK
1.936268500000000,0,0x5D,0x00,Read,ACK
1.936289968750000,0,0x5D,0x04,Read,ACK
1.936311468750000,0,0x5D,0x03,Read,ACK
1.936332937500000,0,0x5D,0x83,Read,ACK
1.936354406250000,0,0x5D,0x0A,Read,ACK
1.936375843750000,0,0x5D,0x2B,Read,ACK
1.936397343750000,0,0x5D,0x04,Read,ACK
1.936418812500000,0,0x5D,0x03,Read,ACK
1.936440281250000,0,0x5D,0x03,Read,ACK
1.936463250000000,0,0x5D,0x20,Read,ACK
1.936484750000000,0,0x5D,0x00,Read,ACK
1.936506218750000,0,0x5D,0x00,Read,ACK
1.936527687500000,0,0x5D,0x00,Read,ACK
1.936549187500000,0,0x5D,0x00,Read,ACK
1.936570625000000,0,0x5D,0x00,Read,ACK
1.936592125000000,0,0x5D,0x00,Read,ACK
1.936613562500000,0,0x5D,0x00,Read,ACK
1.936635062500000,0,0x5D,0x00,Read,ACK
1.936656531250000,0,0x5D,0x00,Read,ACK
1.936678000000000,0,0x5D,0x00,Read,ACK
1.936699500000000,0,0x5D,0x00,Read,ACK
1.936721156250000,0,0x5D,0x00,Read,ACK
1.936742625000000,0,0x5D,0x00,Read,ACK
1.936764093750000,0,0x5D,0x00,Read,ACK
1.936785562500000,0,0x5D,0x00,Read,ACK
1.936807031250000,0,0x5D,0x00,Read,ACK
1.936828500000000,0,0x5D,0x00,Read,ACK
1.936850000000000,0,0x5D,0x00,Read,ACK
1.936871531250000,0,0x5D,0x00,Read,ACK
1.936893000000000,0,0x5D,0x00,Read,ACK
1.936914468750000,0,0x5D,0x00,Read,ACK
1.936935937500000,0,0x5D,0x00,Read,ACK
1.936957406250000,0,0x5D,0x00,Read,ACK
1.936978875000000,0,0x5D,0x00,Read,ACK
1.937000375000000,0,0x5D,0x00,Read,ACK
1.937021843750000,0,0x5D,0x00,Read,ACK
1.937043312500000,0,0x5D,0x00,Read,ACK
1.937064781250000,0,0x5D,0x00,Read,ACK
1.937086500000000,0,0x5D,0x00,Read,ACK
1.937108125000000,0,0x5D,0x00,Read,ACK
1.937129562500000,0,0x5D,0x00,Read,ACK
1.937153093750000,0,0x5D,0x00,Read,ACK
1.937174593750000,0,0x5D,0x42,Read,ACK
1.937196062500000,0,0x5D,0xB1,Read,ACK
1.937219031250000,0,0x5D,0x01,Read,ACK
1.937240843750000,0,0x5D,0x00,Read,ACK
1.937262281250000,0,0x5D,0x00,Read,ACK
1.937283781250000,0,0x5D,0x00,Read,ACK
1.937305250000000,0,0x5D,0x00,Read,ACK
1.937327625000000,0,0x5D,0x00,Read,ACK
1.937349531250000,0,0x5D,0x00,Read,ACK
1.937372562500000,0,0x5D,0x00,Read,ACK
1.937394000000000,0,0x5D,0x00,Read,ACK
1.937416781250000,0,0x5D,0x00,Read,ACK
1.937438281250000,0,0x5D,0x00,Read,ACK
1.937459750000000,0,0x5D,0x00,Read,ACK
1.937482812500000,0,0x5D,0x00,Read,ACK
1.937504312500000,0,0x5D,0x00,Read,ACK
1.937527093750000,0,0x5D,0x00,Read,ACK
1.937551062500000,0,0x5D,0x00,Read,ACK
1.937572531250000,0,0x5D,0x00,Read,ACK
1.937594312500000,0,0x5D,0x00,Read,ACK
1.937615812500000,0,0x5D,0x00,Read,NAK
1.943267218750000,0,0x5D,0x2F,Read,ACK
1.943291875000000,0,0x5D,0x00,Read,ACK
1.943313343750000,0,0x5D,0x04,Read,ACK
1.943334812500000,0,0x5D,0x03,Read,ACK
1.943356281250000,0,0x5D,0x7F,Read,ACK
1.943377906250000,0,0x5D,0x0A,Read,ACK
1.943402343750000,0,0x5D,0x36,Read,ACK
1.943423812500000,0,0x5D,0x04,Read,ACK
1.943445281250000,0,0x5D,0x04,Read,ACK
1.943466781250000,0,0x5D,0x03,Read,ACK
1.943488281250000,0,0x5D,0x20,Read,ACK
1.943509750000000,0,0x5D,0x00,Read,ACK
1.943531187500000,0,0x5D,0x00,Read,ACK
1.943552656250000,0,0x5D,0x00,Read,ACK
1.943574125000000,0,0x5D,0x00,Read,ACK
1.943595625000000,0,0x5D,0x00,Read,ACK
1.943617250000000,0,0x5D,0x00,Read,ACK
1.943638750000000,0,0x5D,0x00,Read,ACK
1.943660687500000,0,0x5D,0x00,Read,ACK
1.943682156250000,0,0x5D,0x00,Read,ACK
1.943703593750000,0,0x5D,0x00,Read,ACK
1.943725093750000,0,0x5D,0x00,Read,ACK
1.943747406250000,0,0x5D,0x00,Read,ACK
1.943768906250000,0,0x5D,0x00,Read,ACK
1.943790375000000,0,0x5D,0x00,Read,ACK
1.943811875000000,0,0x5D,0x00,Read,ACK
1.943833312500000,0,0x5D,0x00,Read,ACK
1.943856281250000,0,0x5D,0x00,Read,ACK
1.943878812500000,0,0x5D,0x00,Read,ACK
1.943900312500000,0,0x5D,0x00,Read,ACK
1.943921781250000,0,0x5D,0x00,Read,ACK
1.943943250000000,0,0x5D,0x00,Read,ACK
1.943964750000000,0,0x5D,0x00,Read,ACK
1.943986187500000,0,0x5D,0x00,Read,ACK
1.944007718750000,0,0x5D,0x00,Read,ACK
1.944029156250000,0,0x5D,0x00,Read,ACK
1.944050625000000,0,0x5D,0x00,Read,ACK
1.944072093750000,0,0x5D,0x00,Read,ACK
1.944093562500000,0,0x5D,0x00,Read,ACK
1.944115062500000,0,0x5D,0x00,Read,ACK
1.944136531250000,0,0x5D,0x00,Read,ACK
1.944158000000000,0,0x5D,0x00,Read,ACK
1.944179468750000,0,0x5D,0x00,Read,ACK
1.944200968750000,0,0x5D,0x88,Read,ACK
1.944222406250000,0,0x5D,0xB1,Read,ACK
1.944243906250000,0,0x5D,0x01,Read,ACK
1.944265375000000,0,0x5D,0x00,Read,ACK
1.944286843750000,0,0x5D,0x00,Read,ACK
1.944311156250000,0,0x5D,0x00,Read,ACK
1.944334312500000,0,0x5D,0x00,Read,ACK
1.944355781250000,0,0x5D,0x00,Read,ACK
1.944377312500000,0,0x5D,0x00,Read,ACK
1.944400843750000,0,0x5D,0x00,Read,ACK
1.944423218750000,0,0x5D,0x00,Read,ACK
1.944445125000000,0,0x5D,0x00,Read,ACK
1.944466593750000,0,0x5D,0x00,Read,ACK
1.944488062500000,0,0x5D,0x00,Read,ACK
1.944509562500000,0,0x5D,0x00,Read,ACK
1.944531156250000,0,0x5D,0x00,Read,ACK
1.944552593750000,0,0x5D,0x00,Read,ACK
1.944574062500000,0,0x5D,0x00,Read,ACK
1.944595562500000,0,0x5D,0x00,Read,ACK
1.944617031250000,0,0x5D,0x00,Read,ACK
1.944640093750000,0,0x5D,0x00,Read,NAK
1.950474000000000,0,0x5D,0x2F,Read,ACK
1.950501718750000,0,0x5D,0x00,Read,ACK
1.950524781250000,0,0x5D,0x04,Read,ACK
1.950547125000000,0,0x5D,0x03,Read,ACK
1.950573812500000,0,0x5D,0x79,Read,ACK
1.950595281250000,0,0x5D,0x0A,Read,ACK
1.950616750000000,0,0x5D,0x3F,Read,ACK
1.950638250000000,0,0x5D,0x04,Read,ACK
1.950659718750000,0,0x5D,0x04,Read,ACK
1.950681187500000,0,0x5D,0x03,Read,ACK
1.950702656250000,0,0x5D,0x20,Read,ACK
1.950724125000000,0,0x5D,0x00,Read,ACK
1.950745625000000,0,0x5D,0x00,Read,ACK
1.950767250000000,0,0x5D,0x00,Read,ACK
1.950789531250000,0,0x5D,0x00,Read,ACK
1.950811031250000,0,0x5D,0x00,Read,ACK
1.950832500000000,0,0x5D,0x00,Read,ACK
1.950854000000000,0,0x5D,0x00,Read,ACK
1.950875468750000,0,0x5D,0x00,Read,ACK
1.950896937500000,0,0x5D,0x00,Read,ACK
1.950918750000000,0,0x5D,0x00,Read,ACK
1.950940187500000,0,0x5D,0x00,Read,ACK
1.950961656250000,0,0x5D,0x00,Read,ACK
1.950983125000000,0,0x5D,0x00,Read,ACK
1.951005375000000,0,0x5D,0x00,Read,ACK
1.951027687500000,0,0x5D,0x00,Read,ACK
1.951049218750000,0,0x5D,0x00,Read,ACK
1.951070656250000,0,0x5D,0x00,Read,ACK
1.951092125000000,0,0x5D,0x00,Read,ACK
1.951113593750000,0,0x5D,0x00,Read,ACK
1.951135093750000,0,0x5D,0x00,Read,ACK
1.951156562500000,0,0x5D,0x00,Read,ACK
1.951178062500000,0,0x5D,0x00,Read,ACK
1.951199562500000,0,0x5D,0x00,Read,ACK
1.951221062500000,0,0x5D,0x00,Read,ACK
1.951242500000000,0,0x5D,0x00,Read,ACK
1.951264000000000,0,0x5D,0x00,Read,ACK
1.951285750000000,0,0x5D,0x00,Read,ACK
1.951307250000000,0,0x5D,0x00,Read,ACK
1.951328750000000,0,0x5D,0x00,Read,ACK
1.951350187500000,0,0x5D,0x00,Read,ACK
1.951371687500000,0,0x5D,0x00,Read,ACK
1.951393218750000,0,0x5D,0x00,Read,ACK
1.951414687500000,0,0x5D,0xCE,Read,ACK
1.951436156250000,0,0x5D,0xB1,Read,ACK
1.951457625000000,0,0x5D,0x01,Read,ACK
1.951479093750000,0,0x5D,0x00,Read,ACK
1.951500593750000,0,0x5D,0x00,Read,ACK
1.951526062500000,0,0x5D,0x00,Read,ACK
1.951550625000000,0,0x5D,0x00,Read,ACK
1.951573718750000,0,0x5D,0x00,Read,ACK
1.951596437500000,0,0x5D,0x00,Read,ACK
1.951618375000000,0,0x5D,0x00,Read,ACK
1.951640187500000,0,0x5D,0x00,Read,ACK
1.951661656250000,0,0x5D,0x00,Read,ACK
1.951683125000000,0,0x5D,0x00,Read,ACK
1.951704593750000,0,0x5D,0x00,Read,ACK
1.951726593750000,0,0x5D,0x00,Read,ACK
1.951749812500000,0,0x5D,0x00,Read,ACK
1.951771343750000,0,0x5D,0x00,Read,ACK
1.951792781250000,0,0x5D,0x00,Read,ACK
1.951815031250000,0,0x5D,0x00,Read,ACK
1.951838437500000,0,0x5D,0x00,Read,ACK
1.951862156250000,0,0x5D,0x00,Read,NAK
1.957780281250000,0,0x5D,0x2F,Read,ACK
1.957805375000000,0,0x5D,0x00,Read,ACK
1.957826843750000,0,0x5D,0x04,Read,ACK
1.957848312500000,0,0x5D,0x03,Read,ACK
1.957869812500000,0,0x5D,0x70,Read,ACK
1.957891531250000,0,0x5D,0x0A,Read,ACK
1.957913468750000,0,0x5D,0x45,Read,ACK
1.957934968750000,0,0x5D,0x04,Read,ACK
1.957956468750000,0,0x5D,0x03,Read,ACK
1.957977906250000,0,0x5D,0x03,Read,ACK
1.957999375000000,0,0x5D,0x20,Read,ACK
1.958021156250000,0,0x5D,0x00,Read,ACK
1.958042656250000,0,0x5D,0x00,Read,ACK
1.958064156250000,0,0x5D,0x00,Read,ACK
1.958085625000000,0,0x5D,0x00,Read,ACK
1.958107093750000,0,0x5D,0x00,Read,ACK
1.958128562500000,0,0x5D,0x00,Read,ACK
1.958150031250000,0,0x5D,0x00,Read,ACK
1.958171500000000,0,0x5D,0x00,Read,ACK
1.958193000000000,0,0x5D,0x00,Read,ACK
1.958214468750000,0,0x5D,0x00,Read,ACK
1.958235937500000,0,0x5D,0x00,Read,ACK
1.958257406250000,0,0x5D,0x00,Read,ACK
1.958278875000000,0,0x5D,0x00,Read,ACK
1.958300343750000,0,0x5D,0x00,Read,ACK
1.958321968750000,0,0x5D,0x00,Read,ACK
1.958343437500000,0,0x5D,0x00,Read,ACK
1.958364906250000,0,0x5D,0x00,Read,ACK
1.958386406250000,0,0x5D,0x00,Read,ACK
1.958407843750000,0,0x5D,0x00,Read,ACK
1.958429375000000,0,0x5D,0x00,Read,ACK
1.958450812500000,0,0x5D,0x00,Read,ACK
1.958472281250000,0,0x5D,0x00,Read,ACK
1.958493750000000,0,0x5D,0x00,Read,ACK
1.958515250000000,0,0x5D,0x00,Read,ACK
1.958536718750000,0,0x5D,0x00,Read,ACK
1.958563281250000,0,0x5D,0x00,Read,ACK
1.958587906250000,0,0x5D,0x00,Read,ACK
1.958609375000000,0,0x5D,0x00,Read,ACK
1.958631312500000,0,0x5D,0x00,Read,ACK
1.958652875000000,0,0x5D,0x00,Read,ACK
1.958675937500000,0,0x5D,0x00,Read,ACK
1.958697406250000,0,0x5D,0x00,Read,ACK
1.958718875000000,0,0x5D,0x14,Read,ACK
1.958740843750000,0,0x5D,0xB2,Read,ACK
1.958762750000000,0,0x5D,0x01,Read,ACK
1.958784781250000,0,0x5D,0x00,Read,ACK
1.958807906250000,0,0x5D,0x00,Read,ACK
1.958830343750000,0,0x5D,0x00,Read,ACK
1.958851875000000,0,0x5D,0x00,Read,ACK
1.958875437500000,0,0x5D,0x00,Read,ACK
1.958898687500000,0,0x5D,0x00,Read,ACK
1.958920156250000,0,0x5D,0x00,Read,ACK
1.958941625000000,0,0x5D,0x00,Read,ACK
1.958964906250000,0,0x5D,0x00,Read,ACK
1.958987531250000,0,0x5D,0x00,Read,ACK
1.959009000000000,0,0x5D,0x00,Read,ACK
1.959030656250000,0,0x5D,0x00,Read,ACK
1.959053593750000,0,0x5D,0x00,Read,ACK
1.959075468750000,0,0x5D,0x00,Read,ACK
1.959096937500000,0,0x5D,0x00,Read,ACK
1.959119531250000,0,0x5D,0x00,Read,ACK
1.959141125000000,0,0x5D,0x00,Read,ACK
1.959163562500000,0,0x5D,0x00,Read,NAK
1.964703937500000,0,0x5D,0x2F,Read,ACK
1.964730218750000,0,0x5D,0x00,Read,ACK
1.964751656250000,0,0x5D,0x04,Read,ACK
1.964773156250000,0,0x5D,0x03,Read,ACK
1.964796031250000,0,0x5D,0x64,Read,ACK
1.964820093750000,0,0x5D,0x0A,Read,ACK
1.964843218750000,0,0x5D,0x48,Read,ACK
1.964864656250000,0,0x5D,0x04,Read,ACK
1.964886125000000,0,0x5D,0x03,Read,ACK
1.964907625000000,0,0x5D,0x03,Read,ACK
1.964929125000000,0,0x5D,0x20,Read,ACK
1.964950562500000,0,0x5D,0x00,Read,ACK
1.964972062500000,0,0x5D,0x00,Read,ACK
1.964993500000000,0,0x5D,0x00,Read,ACK
1.965015000000000,0,0x5D,0x00,Read,ACK
1.965036468750000,0,0x5D,0x00,Read,ACK
1.965057968750000,0,0x5D,0x00,Read,ACK
1.965079437500000,0,0x5D,0x00,Read,ACK
1.965100875000000,0,0x5D,0x00,Read,ACK
1.965122406250000,0,0x5D,0x00,Read,ACK
1.965144843750000,0,0x5D,0x00,Read,ACK
1.965168562500000,0,0x5D,0x00,Read,ACK
1.965190031250000,0,0x5D,0x00,Read,ACK
1.965212625000000,0,0x5D,0x00,Read,ACK
1.965234156250000,0,0x5D,0x00,Read,ACK
1.965255656250000,0,0x5D,0x00,Read,ACK
1.965277125000000,0,0x5D,0x00,Read,ACK
1.965298593750000,0,0x5D,0x00,Read,ACK
1.965320062500000,0,0x5D,0x00,Read,ACK
1.965341562500000,0,0x5D,0x00,Read,ACK
1.965363031250000,0,0x5D,0x00,Read,ACK
1.965384500000000,0,0x5D,0x00,Read,ACK
1.965405968750000,0,0x5D,0x00,Read,ACK
1.965427437500000,0,0x5D,0x00,Read,ACK
1.965448937500000,0,0x5D,0x00,Read,ACK
1.965470406250000,0,0x5D,0x00,Read,ACK
1.965491906250000,0,0x5D,0x00,Read,ACK
1.965513343750000,0,0x5D,0x00,Read,ACK
1.965534812500000,0,0x5D,0x00,Read,ACK
1.965556312500000,0,0x5D,0x00,Read,ACK
1.965577781250000,0,0x5D,0x00,Read,ACK
1.965599250000000,0,0x5D,0x00,Read,ACK
1.965620718750000,0,0x5D,0x00,Read,ACK
1.965642218750000,0,0x5D,0x5A,Read,ACK
1.965663906250000,0,0x5D,0xB2,Read,ACK
1.965685343750000,0,0x5D,0x01,Read,ACK
1.965706812500000,0,0x5D,0x00,Read,ACK
1.965732468750000,0,0x5D,0x00,Read,ACK
1.965755437500000,0,0x5D,0x00,Read,ACK
1.965777125000000,0,0x5D,0x00,Read,ACK
1.965803656250000,0,0x5D,0x00,Read,ACK
1.965825531250000,0,0x5D,0x00,Read,ACK
1.965847031250000,0,0x5D,0x00,Read,ACK
1.965870125000000,0,0x5D,0x00,Read,ACK
1.965891593750000,0,0x5D,0x00,Read,ACK
1.965913062500000,0,0x5D,0x00,Read,ACK
1.965934656250000,0,0x5D,0x00,Read,ACK
1.965956156250000,0,0x5D,0x00,Read,ACK
1.965978625000000,0,0x5D,0x00,Read,ACK
1.966000093750000,0,0x5D,0x00,Read,ACK
1.966021562500000,0,0x5D,0x00,Read,ACK
1.966043062500000,0,0x5D,0x00,Read,ACK
1.966066625000000,0,0x5D,0x00,Read,ACK
1.966088125000000,0,0x5D,0x00,Read,NAK
1.971802875000000,0,0x5D,0x2F,Read,ACK
1.971828625000000,0,0x5D,0x00,Read,ACK
1.971850093750000,0,0x5D,0x04,Read,ACK
1.971871625000000,0,0x5D,0x03,Read,ACK
1.971893125000000,0,0x5D,0x55,Read,ACK
1.971914593750000,0,0x5D,0x0A,Read,ACK
1.971936125000000,0,0x5D,0x49,Read,ACK
1.971958968750000,0,0x5D,0x04,Read,ACK
1.971982812500000,0,0x5D,0x03,Read,ACK
1.972004281250000,0,0x5D,0x03,Read,ACK
1.972025750000000,0,0x5D,0x20,Read,ACK
1.972047250000000,0,0x5D,0x00,Read,ACK
1.972068718750000,0,0x5D,0x00,Read,ACK
1.972090187500000,0,0x5D,0x00,Read,ACK
1.972111656250000,0,0x5D,0x00,Read,ACK
1.972133125000000,0,0x5D,0x00,Read,ACK
1.972154593750000,0,0x5D,0x00,Read,ACK
1.972176062500000,0,0x5D,0x00,Read,ACK
1.972197562500000,0,0x5D,0x00,Read,ACK
1.972219031250000,0,0x5D,0x00,Read,ACK
1.972240500000000,0,0x5D,0x00,Read,ACK
1.972262500000000,0,0x5D,0x00,Read,ACK
1.972284406250000,0,0x5D,0x00,Read,ACK
1.972305875000000,0,0x5D,0x00,Read,ACK
1.972327343750000,0,0x5D,0x00,Read,ACK
1.972348843750000,0,0x5D,0x00,Read,ACK
1.972370375000000,0,0x5D,0x00,Read,ACK
1.972391843750000,0,0x5D,0x00,Read,ACK
1.972413343750000,0,0x5D,0x00,Read,ACK
1.972434781250000,0,0x5D,0x00,Read,ACK
1.972456250000000,0,0x5D,0x00,Read,ACK
1.972481000000000,0,0x5D,0x00,Read,ACK
1.972502468750000,0,0x5D,0x00,Read,ACK
1.972523937500000,0,0x5D,0x00,Read,ACK
1.972545406250000,0,0x5D,0x00,Read,ACK
1.972566875000000,0,0x5D,0x00,Read,ACK
1.972588343750000,0,0x5D,0x00,Read,ACK
1.972609812500000,0,0x5D,0x00,Read,ACK
1.972631656250000,0,0x5D,0x00,Read,ACK
1.972653156250000,0,0x5D,0x00,Read,ACK
1.972674625000000,0,0x5D,0x00,Read,ACK
1.972696093750000,0,0x5D,0x00,Read,ACK
1.972717562500000,0,0x5D,0x00,Read,ACK
1.972739031250000,0,0x5D,0xA0,Read,ACK
1.972760531250000,0,0x5D,0xB2,Read,ACK
1.972782000000000,0,0x5D,0x01,Read,ACK
1.972803500000000,0,0x5D,0x00,Read,ACK
1.972824968750000,0,0x5D,0x00,Read,ACK
1.972846406250000,0,0x5D,0x00,Read,ACK
1.972867875000000,0,0x5D,0x00,Read,ACK
1.972889343750000,0,0x5D,0x00,Read,ACK
1.972912562500000,0,0x5D,0x00,Read,ACK
1.972934968750000,0,0x5D,0x00,Read,ACK
1.972956468750000,0,0x5D,0x00,Read,ACK
1.972977937500000,0,0x5D,0x00,Read,ACK
1.973000562500000,0,0x5D,0x00,Read,ACK
1.973022031250000,0,0x5D,0x00,Read,ACK
1.973043468750000,0,0x5D,0x00,Read,ACK
1.973066406250000,0,0x5D,0x00,Read,ACK
1.973088781250000,0,0x5D,0x00,Read,ACK
1.973110906250000,0,0x5D,0x00,Read,ACK
1.973132375000000,0,0x5D,0x00,Read,ACK
1.973153875000000,0,0x5D,0x00,Read,ACK
1.973175500000000,0,0x5D,0x00,Read,NAK
1.978937625000000,0,0x5D,0x2F,Read,ACK
1.978966062500000,0,0x5D,0x00,Read,ACK
1.978987531250000,0,0x5D,0x04,Read,ACK
1.979009000000000,0,0x5D,0x03,Read,ACK
1.979030500000000,0,0x5D,0x45,Read,ACK
1.979053218750000,0,0x5D,0x0A,Read,ACK
1.979075125000000,0,0x5D,0x46,Read,ACK
1.979096843750000,0,0x5D,0x04,Read,ACK
1.979118312500000,0,0x5D,0x03,Read,ACK
1.979139812500000,0,0x5D,0x03,Read,ACK
1.979161281250000,0,0x5D,0x20,Read,ACK
1.979182750000000,0,0x5D,0x00,Read,ACK
1.979204250000000,0,0x5D,0x00,Read,ACK
1.979225687500000,0,0x5D,0x00,Read,ACK
1.979247187500000,0,0x5D,0x00,Read,ACK
1.979268656250000,0,0x5D,0x00,Read,ACK
1.979290125000000,0,0x5D,0x00,Read,ACK
1.979311625000000,0,0x5D,0x00,Read,ACK
1.979333062500000,0,0x5D,0x00,Read,ACK
1.979355125000000,0,0x5D,0x00,Read,ACK
1.979376593750000,0,0x5D,0x00,Read,ACK
1.979398093750000,0,0x5D,0x00,Read,ACK
1.979419593750000,0,0x5D,0x00,Read,ACK
1.979441062500000,0,0x5D,0x00,Read,ACK
1.979463093750000,0,0x5D,0x00,Read,ACK
1.979484593750000,0,0x5D,0x00,Read,ACK
1.979506062500000,0,0x5D,0x00,Read,ACK
1.979527500000000,0,0x5D,0x00,Read,ACK
1.979549000000000,0,0x5D,0x00,Read,ACK
1.979570468750000,0,0x5D,0x00,Read,ACK
1.979592218750000,0,0x5D,0x00,Read,ACK
1.979613687500000,0,0x5D,0x00,Read,ACK
1.979635156250000,0,0x5D,0x00,Read,ACK
1.979656625000000,0,0x5D,0x00,Read,ACK
1.979678093750000,0,0x5D,0x00,Read,ACK
1.979699593750000,0,0x5D,0x00,Read,ACK
1.979721031250000,0,0x5D,0x00,Read,ACK
1.979742531250000,0,0x5D,0x00,Read,ACK
1.979764000000000,0,0x5D,0x00,Read,ACK
1.979785468750000,0,0x5D,0x00,Read,ACK
1.979806937500000,0,0x5D,0x00,Read,ACK
1.979828437500000,0,0x5D,0x00,Read,ACK
1.979849906250000,0,0x5D,0x00,Read,ACK
1.979871375000000,0,0x5D,0xE6,Read,ACK
1.979892843750000,0,0x5D,0xB2,Read,ACK
1.979914312500000,0,0x5D,0x01,Read,ACK
1.979935781250000,0,0x5D,0x00,Read,ACK
1.979958750000000,0,0x5D,0x00,Read,ACK
1.979983437500000,0,0x5D,0x00,Read,ACK
1.980008375000000,0,0x5D,0x00,Read,ACK
1.980032156250000,0,0x5D,0x00,Read,ACK
1.980054375000000,0,0x5D,0x00,Read,ACK
1.980076125000000,0,0x5D,0x00,Read,ACK
1.980097593750000,0,0x5D,0x00,Read,ACK
1.980119062500000,0,0x5D,0x00,Read,ACK
1.980140812500000,0,0x5D,0x00,Read,ACK
1.980162531250000,0,0x5D,0x00,Read,ACK
1.980184000000000,0,0x5D,0x00,Read,ACK
1.980206187500000,0,0x5D,0x00,Read,ACK
1.980229718750000,0,0x5D,0x00,Read,ACK
1.980251218750000,0,0x5D,0x00,Read,ACK
1.980273250000000,0,0x5D,0x00,Read,ACK
1.980295000000000,0,0x5D,0x00,Read,ACK
1.980316500000000,0,0x5D,0x00,Read,NAK
1.986224968750000,0,0x5D,0x2F,Read,ACK
1.986252843750000,0,0x5D,0x00,Read,ACK
1.986274312500000,0,0x5D,0x04,Read,ACK
1.986295781250000,0,0x5D,0x03,Read,ACK
1.986317250000000,0,0x5D,0x34,Read,ACK
1.986338750000000,0,0x5D,0x0A,Read,ACK
1.986360218750000,0,0x5D,0x41,Read,ACK
1.986381687500000,0,0x5D,0x04,Read,ACK
1.986403156250000,0,0x5D,0x03,Read,ACK
1.986424625000000,0,0x5D,0x03,Read,ACK
1.986446125000000,0,0x5D,0x20,Read,ACK
1.986468187500000,0,0x5D,0x00,Read,ACK
1.986489656250000,0,0x5D,0x00,Read,ACK
1.986511343750000,0,0x5D,0x00,Read,ACK
1.986532812500000,0,0x5D,0x00,Read,ACK
1.986554312500000,0,0x5D,0x00,Read,ACK
1.986575781250000,0,0x5D,0x00,Read,ACK
1.986598062500000,0,0x5D,0x00,Read,ACK
1.986619562500000,0,0x5D,0x00,Read,ACK
1.986641343750000,0,0x5D,0x00,Read,ACK
1.986662812500000,0,0x5D,0x00,Read,ACK
1.986684281250000,0,0x5D,0x00,Read,ACK
1.986705781250000,0,0x5D,0x00,Read,ACK
1.986727250000000,0,0x5D,0x00,Read,ACK
1.986748875000000,0,0x5D,0x00,Read,ACK
1.986770312500000,0,0x5D,0x00,Read,ACK
1.986791781250000,0,0x5D,0x00,Read,ACK
1.986813281250000,0,0x5D,0x00,Read,ACK
1.986834718750000,0,0x5D,0x00,Read,ACK
1.986856187500000,0,0x5D,0x00,Read,ACK
1.986877687500000,0,0x5D,0x00,Read,ACK
1.986900156250000,0,0x5D,0x00,Read,ACK
1.986921656250000,0,0x5D,0x00,Read,ACK
1.986943093750000,0,0x5D,0x00,Read,ACK
1.986964593750000,0,0x5D,0x00,Read,ACK
1.986986062500000,0,0x5D,0x00,Read,ACK
1.987007562500000,0,0x5D,0x00,Read,ACK
1.987029000000000,0,0x5D,0x00,Read,ACK
1.987050468750000,0,0x5D,0x00,Read,ACK
1.987071968750000,0,0x5D,0x00,Read,ACK
1.987093437500000,0,0x5D,0x00,Read,ACK
1.987114906250000,0,0x5D,0x00,Read,ACK
1.987139875000000,0,0x5D,0x00,Read,ACK
1.987164500000000,0,0x5D,0x2C,Read,ACK
1.987186218750000,0,0x5D,0xB3,Read,ACK
1.987207843750000,0,0x5D,0x01,Read,ACK
1.987230343750000,0,0x5D,0x00,Read,ACK
1.987252250000000,0,0x5D,0x00,Read,ACK
1.987275062500000,0,0x5D,0x00,Read,ACK
1.987296718750000,0,0x5D,0x00,Read,ACK
1.987318968750000,0,0x5D,0x00,Read,ACK
1.987341437500000,0,0x5D,0x00,Read,ACK
1.987362937500000,0,0x5D,0x00,Read,ACK
1.987384406250000,0,0x5D,0x00,Read,ACK
1.987408687500000,0,0x5D,0x00,Read,ACK
1.987430156250000,0,0x5D,0x00,Read,ACK
1.987451656250000,0,0x5D,0x00,Read,ACK
1.987473125000000,0,0x5D,0x00,Read,ACK
1.987494875000000,0,0x5D,0x00,Read,ACK
1.987516312500000,0,0x5D,0x00,Read,ACK
1.987538312500000,0,0x5D,0x00,Read,ACK
1.987559843750000,0,0x5D,0x00,Read,ACK
1.987581312500000,0,0x5D,0x00,Read,ACK
1.987604843750000,0,0x5D,0x00,Read,NAK
1.993315968750000,0,0x5D,0x2F,Read,ACK
1.993345218750000,0,0x5D,0x00,Read,ACK
1.993367281250000,0,0x5D,0x04,Read,ACK
1.993390218750000,0,0x5D,0x03,Read,ACK
1.993411687500000,0,0x5D,0x23,Read,ACK
1.993433156250000,0,0x5D,0x0A,Read,ACK
1.993454625000000,0,0x5D,0x38,Read,ACK
1.993476125000000,0,0x5D,0x04,Read,ACK
1.993497562500000,0,0x5D,0x03,Read,ACK
1.993519062500000,0,0x5D,0x03,Read,ACK
1.993540531250000,0,0x5D,0x20,Read,ACK
1.993562000000000,0,0x5D,0x00,Read,ACK
1.993583468750000,0,0x5D,0x00,Read,ACK
1.993604968750000,0,0x5D,0x00,Read,ACK
1.993626906250000,0,0x5D,0x00,Read,ACK
1.993651250000000,0,0x5D,0x00,Read,ACK
1.993672750000000,0,0x5D,0x00,Read,ACK
1.993694250000000,0,0x5D,0x00,Read,ACK
1.993715750000000,0,0x5D,0x00,Read,ACK
1.993737218750000,0,0x5D,0x00,Read,ACK
1.993759937500000,0,0x5D,0x00,Read,ACK
1.993781406250000,0,0x5D,0x00,Read,ACK
1.993803125000000,0,0x5D,0x00,Read,ACK
1.993824625000000,0,0x5D,0x00,Read,ACK
1.993846093750000,0,0x5D,0x00,Read,ACK
1.993867562500000,0,0x5D,0x00,Read,ACK
1.993889031250000,0,0x5D,0x00,Read,ACK
1.993910500000000,0,0x5D,0x00,Read,ACK
1.993931968750000,0,0x5D,0x00,Read,ACK
1.993953437500000,0,0x5D,0x00,Read,ACK
1.993974906250000,0,0x5D,0x00,Read,ACK
1.993996375000000,0,0x5D,0x00,Read,ACK
1.994017875000000,0,0x5D,0x00,Read,ACK
1.994039343750000,0,0x5D,0x00,Read,ACK
1.994060812500000,0,0x5D,0x00,Read,ACK
1.994082281250000,0,0x5D,0x00,Read,ACK
1.994103812500000,0,0x5D,0x00,Read,ACK
1.994125312500000,0,0x5D,0x00,Read,ACK
1.994146781250000,0,0x5D,0x00,Read,ACK
1.994168250000000,0,0x5D,0x00,Read,ACK
1.994189718750000,0,0x5D,0x00,Read,ACK
1.994211187500000,0,0x5D,0x00,Read,ACK
1.994232656250000,0,0x5D,0x00,Read,ACK
1.994254156250000,0,0x5D,0x72,Read,ACK
1.994275625000000,0,0x5D,0xB3,Read,ACK
1.994300781250000,0,0x5D,0x01,Read,ACK
1.994327906250000,0,0x5D,0x00,Read,ACK
1.994350812500000,0,0x5D,0x00,Read,ACK
1.994372500000000,0,0x5D,0x00,Read,ACK
1.994393968750000,0,0x5D,0x00,Read,ACK
1.994415781250000,0,0x5D,0x00,Read,ACK
1.994437218750000,0,0x5D,0x00,Read,ACK
1.994458718750000,0,0x5D,0x00,Read,ACK
1.994481125000000,0,0x5D,0x00,Read,ACK
1.994503000000000,0,0x5D,0x00,Read,ACK
1.994524750000000,0,0x5D,0x00,Read,ACK
1.994546250000000,0,0x5D,0x00,Read,ACK
1.994568375000000,0,0x5D,0x00,Read,ACK
1.994590187500000,0,0x5D,0x00,Read,ACK
1.994611625000000,0,0x5D,0x00,Read,ACK
1.994633125000000,0,0x5D,0x00,Read,ACK
1.994656718750000,0,0x5D,0x00,Read,ACK
1.994678187500000,0,0x5D,0x00,Read,ACK
1.994699656250000,0,0x5D,0x00,Read,NAK
2.000461281250000,0,0x5D,0x2F,Read,ACK
2.000489500000000,0,0x5D,0x00,Read,ACK
2.000510937500000,0,0x5D,0x04,Read,ACK
2.000532687500000,0,0x5D,0x03,Read,ACK
2.000555187500000,0,0x5D,0x12,Read,ACK
2.000578187500000,0,0x5D,0x0A,Read,ACK
2.000599656250000,0,0x5D,0x2C,Read,ACK
2.000621156250000,0,0x5D,0x04,Read,ACK
2.000642593750000,0,0x5D,0x04,Read,ACK
2.000664093750000,0,0x5D,0x03,Read,ACK
2.000685531250000,0,0x5D,0x20,Read,ACK
2.000707031250000,0,0x5D,0x00,Read,ACK
2.000728500000000,0,0x5D,0x00,Read,ACK
2.000749968750000,0,0x5D,0x00,Read,ACK
2.000771718750000,0,0x5D,0x00,Read,ACK
2.000794437500000,0,0x5D,0x00,Read,ACK
2.000820937500000,0,0x5D,0x00,Read,ACK
2.000842781250000,0,0x5D,0x00,Read,ACK
2.000864281250000,0,0x5D,0x00,Read,ACK
2.000885750000000,0,0x5D,0x00,Read,ACK
2.000907656250000,0,0x5D,0x00,Read,ACK
2.000929125000000,0,0x5D,0x00,Read,ACK
2.000950593750000,0,0x5D,0x00,Read,ACK
2.000972062500000,0,0x5D,0x00,Read,ACK
2.000993562500000,0,0x5D,0x00,Read,ACK
2.001015531250000,0,0x5D,0x00,Read,ACK
2.001037000000000,0,0x5D,0x00,Read,ACK
2.001058468750000,0,0x5D,0x00,Read,ACK
2.001080093750000,0,0x5D,0x00,Read,ACK
2.001101562500000,0,0x5D,0x00,Read,ACK
2.001123000000000,0,0x5D,0x00,Read,ACK
2.001144500000000,0,0x5D,0x00,Read,ACK
2.001165968750000,0,0x5D,0x00,Read,ACK
2.001187437500000,0,0x5D,0x00,Read,ACK
2.001208906250000,0,0x5D,0x00,Read,ACK
2.001230375000000,0,0x5D,0x00,Read,ACK
2.001253125000000,0,0x5D,0x00,Read,ACK
2.001274593750000,0,0x5D,0x00,Read,ACK
2.001296031250000,0,0x5D,0x00,Read,ACK
2.001317531250000,0,0x5D,0x00,Read,ACK
2.001339000000000,0,0x5D,0x00,Read,ACK
2.001360468750000,0,0x5D,0x00,Read,ACK
2.001381968750000,0,0x5D,0x00,Read,ACK
2.001403406250000,0,0x5D,0xB8,Read,ACK
2.001424906250000,0,0x5D,0xB3,Read,ACK
2.001446375000000,0,0x5D,0x01,Read,ACK
2.001469625000000,0,0x5D,0x00,Read,ACK
2.001492406250000,0,0x5D,0x00,Read,ACK
2.001513843750000,0,0x5D,0x00,Read,ACK
2.001538656250000,0,0x5D,0x00,Read,ACK
2.001562812500000,0,0x5D,0x00,Read,ACK
2.001584281250000,0,0x5D,0x00,Read,ACK
2.001606093750000,0,0x5D,0x00,Read,ACK
2.001627593750000,0,0x5D,0x00,Read,ACK
2.001649062500000,0,0x5D,0x00,Read,ACK
2.001670531250000,0,0x5D,0x00,Read,ACK
2.001692031250000,0,0x5D,0x00,Read,ACK
2.001713875000000,0,0x5D,0x00,Read,ACK
2.001735937500000,0,0x5D,0x00,Read,ACK
2.001757406250000,0,0x5D,0x00,Read,ACK
2.001778843750000,0,0x5D,0x00,Read,ACK
2.001803687500000,0,0x5D,0x00,Read,ACK
2.001825156250000,0,0x5D,0x00,Read,ACK
2.001847218750000,0,0x5D,0x00,Read,NAK
2.007740218750000,0,0x5D,0x2F,Read,ACK
2.007762937500000,0,0x5D,0x00,Read,ACK
2.007784437500000,0,0x5D,0x04,Read,ACK
2.007805906250000,0,0x5D,0x03,Read,ACK
2.007827343750000,0,0x5D,0x03,Read,ACK
2.007848812500000,0,0x5D,0x0A,Read,ACK
2.007870312500000,0,0x5D,0x1D,Read,ACK
2.007891781250000,0,0x5D,0x04,Read,ACK
2.007913406250000,0,0x5D,0x04,Read,ACK
2.007934906250000,0,0x5D,0x03,Read,ACK
2.007956375000000,0,0x5D,0x20,Read,ACK
2.007977875000000,0,0x5D,0x00,Read,ACK
2.007999343750000,0,0x5D,0x00,Read,ACK
2.008020812500000,0,0x5D,0x00,Read,ACK
2.008042281250000,0,0x5D,0x00,Read,ACK
2.008063812500000,0,0x5D,0x00,Read,ACK
2.008085312500000,0,0x5D,0x00,Read,ACK
2.008106750000000,0,0x5D,0x00,Read,ACK
2.008128250000000,0,0x5D,0x00,Read,ACK
2.008150343750000,0,0x5D,0x00,Read,ACK
2.008171843750000,0,0x5D,0x00,Read,ACK
2.008193281250000,0,0x5D,0x00,Read,ACK
2.008214781250000,0,0x5D,0x00,Read,ACK
2.008236218750000,0,0x5D,0x00,Read,ACK
2.008257718750000,0,0x5D,0x00,Read,ACK
2.008279187500000,0,0x5D,0x00,Read,ACK
2.008300656250000,0,0x5D,0x00,Read,ACK
2.008322125000000,0,0x5D,0x00,Read,ACK
2.008343593750000,0,0x5D,0x00,Read,ACK
2.008365312500000,0,0x5D,0x00,Read,ACK
2.008386812500000,0,0x5D,0x00,Read,ACK
2.008408281250000,0,0x5D,0x00,Read,ACK
2.008429750000000,0,0x5D,0x00,Read,ACK
2.008451250000000,0,0x5D,0x00,Read,ACK
2.008472718750000,0,0x5D,0x00,Read,ACK
2.008494156250000,0,0x5D,0x00,Read,ACK
2.008515656250000,0,0x5D,0x00,Read,ACK
2.008537125000000,0,0x5D,0x00,Read,ACK
2.008558593750000,0,0x5D,0x00,Read,ACK
2.008583125000000,0,0x5D,0x00,Read,ACK
2.008605812500000,0,0x5D,0x00,Read,ACK
2.008627250000000,0,0x5D,0x00,Read,ACK
2.008650562500000,0,0x5D,0x00,Read,ACK
2.008673000000000,0,0x5D,0xFE,Read,ACK
2.008694906250000,0,0x5D,0xB3,Read,ACK
2.008716343750000,0,0x5D,0x01,Read,ACK
2.008737812500000,0,0x5D,0x00,Read,ACK
2.008759312500000,0,0x5D,0x00,Read,ACK
2.008781875000000,0,0x5D,0x00,Read,ACK
2.008804718750000,0,0x5D,0x00,Read,ACK
2.008827343750000,0,0x5D,0x00,Read,ACK
2.008848906250000,0,0x5D,0x00,Read,ACK
2.008871156250000,0,0x5D,0x00,Read,ACK
2.008892625000000,0,0x5D,0x00,Read,ACK
2.008915093750000,0,0x5D,0x00,Read,ACK
2.008936562500000,0,0x5D,0x00,Read,ACK
2.008958031250000,0,0x5D,0x00,Read,ACK
2.008980406250000,0,0x5D,0x00,Read,ACK
2.009001875000000,0,0x5D,0x00,Read,ACK
2.009024187500000,0,0x5D,0x00,Read,ACK
2.009045625000000,0,0x5D,0x00,Read,ACK
2.009067125000000,0,0x5D,0x00,Read,ACK
2.009088812500000,0,0x5D,0x00,Read,ACK
2.009111500000000,0,0x5D,0x00,Read,NAK
2.014890781250000,0,0x5D,0x2F,Read,ACK
2.014914812500000,0,0x5D,0x00,Read,ACK
2.014936281250000,0,0x5D,0x04,Read,ACK
2.014957781250000,0,0x5D,0x03,Read,ACK
2.014979250000000,0,0x5D,0xF5,Read,ACK
2.015000718750000,0,0x5D,0x09,Read,ACK
2.015022187500000,0,0x5D,0x0C,Read,ACK
2.015043718750000,0,0x5D,0x04,Read,ACK
2.015065750000000,0,0x5D,0x04,Read,ACK
2.015087250000000,0,0x5D,0x03,Read,ACK
2.015109250000000,0,0x5D,0x20,Read,ACK
2.015130750000000,0,0x5D,0x00,Read,ACK
2.015152218750000,0,0x5D,0x00,Read,ACK
2.015173718750000,0,0x5D,0x00,Read,ACK
2.015195937500000,0,0x5D,0x00,Read,ACK
2.015217375000000,0,0x5D,0x00,Read,ACK
2.015238875000000,0,0x5D,0x00,Read,ACK
2.015260343750000,0,0x5D,0x00,Read,ACK
2.015281843750000,0,0x5D,0x00,Read,ACK
2.015305531250000,0,0x5D,0x00,Read,ACK
2.015327437500000,0,0x5D,0x00,Read,ACK
2.015348906250000,0,0x5D,0x00,Read,ACK
2.015370406250000,0,0x5D,0x00,Read,ACK
2.015391875000000,0,0x5D,0x00,Read,ACK
2.015413343750000,0,0x5D,0x00,Read,ACK
2.015434812500000,0,0x5D,0x00,Read,ACK
2.015456281250000,0,0x5D,0x00,Read,ACK
2.015477750000000,0,0x5D,0x00,Read,ACK
2.015499250000000,0,0x5D,0x00,Read,ACK
2.015520687500000,0,0x5D,0x00,Read,ACK
2.015542187500000,0,0x5D,0x00,Read,ACK
2.015563656250000,0,0x5D,0x00,Read,ACK
2.015585500000000,0,0x5D,0x00,Read,ACK
2.015606968750000,0,0x5D,0x00,Read,ACK
2.015628437500000,0,0x5D,0x00,Read,ACK
2.015649906250000,0,0x5D,0x00,Read,ACK
2.015671406250000,0,0x5D,0x00,Read,ACK
2.015692875000000,0,0x5D,0x00,Read,ACK
2.015714343750000,0,0x5D,0x00,Read,ACK
2.015740093750000,0,0x5D,0x00,Read,ACK
2.015761968750000,0,0x5D,0x00,Read,ACK
2.015783437500000,0,0x5D,0x00,Read,ACK
2.015805500000000,0,0x5D,0x00,Read,ACK
2.015827375000000,0,0x5D,0x44,Read,ACK
2.015849250000000,0,0x5D,0xB4,Read,ACK
2.015870687500000,0,0x5D,0x01,Read,ACK
2.015892187500000,0,0x5D,0x00,Read,ACK
2.015913906250000,0,0x5D,0x00,Read,ACK
2.015935375000000,0,0x5D,0x00,Read,ACK
2.015956843750000,0,0x5D,0x00,Read,ACK
2.015978781250000,0,0x5D,0x00,Read,ACK
2.016000562500000,0,0x5D,0x00,Read,ACK
2.016023625000000,0,0x5D,0x00,Read,ACK
2.016045093750000,0,0x5D,0x00,Read,ACK
2.016068281250000,0,0x5D,0x00,Read,ACK
2.016091312500000,0,0x5D,0x00,Read,ACK
2.016113187500000,0,0x5D,0x00,Read,ACK
2.016136531250000,0,0x5D,0x00,Read,ACK
2.016158031250000,0,0x5D,0x00,Read,ACK
2.016179687500000,0,0x5D,0x00,Read,ACK
2.016201156250000,0,0x5D,0x00,Read,ACK
2.016224781250000,0,0x5D,0x00,Read,ACK
2.016246906250000,0,0x5D,0x00,Read,ACK
2.016270281250000,0,0x5D,0x00,Read,NAK
2.021753625000000,0,0x5D,0x2F,Read,ACK
2.021780250000000,0,0x5D,0x00,Read,ACK
2.021802500000000,0,0x5D,0x04,Read,ACK
2.021824031250000,0,0x5D,0x03,Read,ACK
2.021846468750000,0,0x5D,0xE9,Read,ACK
2.021867968750000,0,0x5D,0x09,Read,ACK
2.021891281250000,0,0x5D,0xFA,Read,ACK
2.021912718750000,0,0x5D,0x03,Read,ACK
2.021934187500000,0,0x5D,0x04,Read,ACK
2.021955906250000,0,0x5D,0x03,Read,ACK
2.021980250000000,0,0x5D,0x20,Read,ACK
2.022001718750000,0,0x5D,0x00,Read,ACK
2.022023218750000,0,0x5D,0x00,Read,ACK
2.022044687500000,0,0x5D,0x00,Read,ACK
2.022066125000000,0,0x5D,0x00,Read,ACK
2.022087625000000,0,0x5D,0x00,Read,ACK
2.022109093750000,0,0x5D,0x00,Read,ACK
2.022130562500000,0,0x5D,0x00,Read,ACK
2.022152062500000,0,0x5D,0x00,Read,ACK
2.022173500000000,0,0x5D,0x00,Read,ACK
2.022194968750000,0,0x5D,0x00,Read,ACK
2.022217500000000,0,0x5D,0x00,Read,ACK
2.022240093750000,0,0x5D,0x00,Read,ACK
2.022261531250000,0,0x5D,0x00,Read,ACK
2.022283000000000,0,0x5D,0x00,Read,ACK
2.022304468750000,0,0x5D,0x00,Read,ACK
2.022325937500000,0,0x5D,0x00,Read,ACK
2.022349093750000,0,0x5D,0x00,Read,ACK
2.022370593750000,0,0x5D,0x00,Read,ACK
2.022392031250000,0,0x5D,0x00,Read,ACK
2.022413531250000,0,0x5D,0x00,Read,ACK
2.022435000000000,0,0x5D,0x00,Read,ACK
2.022457531250000,0,0x5D,0x00,Read,ACK
2.022479000000000,0,0x5D,0x00,Read,ACK
2.022500468750000,0,0x5D,0x00,Read,ACK
2.022521937500000,0,0x5D,0x00,Read,ACK
2.022543406250000,0,0x5D,0x00,Read,ACK
2.022564906250000,0,0x5D,0x00,Read,ACK
2.022586468750000,0,0x5D,0x00,Read,ACK
2.022607906250000,0,0x5D,0x00,Read,ACK
2.022629375000000,0,0x5D,0x00,Read,ACK
2.022650875000000,0,0x5D,0x00,Read,ACK
2.022672562500000,0,0x5D,0x00,Read,ACK
2.022694031250000,0,0x5D,0x8A,Read,ACK
2.022715531250000,0,0x5D,0xB4,Read,ACK
2.022737000000000,0,0x5D,0x01,Read,ACK
2.022758468750000,0,0x5D,0x00,Read,ACK
2.022779937500000,0,0x5D,0x00,Read,ACK
2.022801437500000,0,0x5D,0x00,Read,ACK
2.022822875000000,0,0x5D,0x00,Read,ACK
2.022844375000000,0,0x5D,0x00,Read,ACK
2.022865843750000,0,0x5D,0x00,Read,ACK
2.022888718750000,0,0x5D,0x00,Read,ACK
2.022914343750000,0,0x5D,0x00,Read,ACK
2.022935812500000,0,0x5D,0x00,Read,ACK
2.022958656250000,0,0x5D,0x00,Read,ACK
2.022981156250000,0,0x5D,0x00,Read,ACK
2.023002937500000,0,0x5D,0x00,Read,ACK
2.023024375000000,0,0x5D,0x00,Read,ACK
2.023045875000000,0,0x5D,0x00,Read,ACK
2.023067343750000,0,0x5D,0x00,Read,ACK
2.023088812500000,0,0x5D,0x00,Read,ACK
2.023110281250000,0,0x5D,0x00,Read,ACK
2.023131843750000,0,0x5D,0x00,Read,NAK
2.028947031250000,0,0x5D,0x2F,Read,ACK
2.028974812500000,0,0x5D,0x00,Read,ACK
2.028996312500000,0,0x5D,0x04,Read,ACK
2.029017812500000,0,0x5D,0x03,Read,ACK
2.029039343750000,0,0x5D,0xE0,Read,ACK
2.029060812500000,0,0x5D,0x09,Read,ACK
2.029082375000000,0,0x5D,0xE5,Read,ACK
2.029103875000000,0,0x5D,0x03,Read,ACK
2.029125343750000,0,0x5D,0x03,Read,ACK
2.029147500000000,0,0x5D,0x03,Read,ACK
2.029171406250000,0,0x5D,0x20,Read,ACK
2.029196437500000,0,0x5D,0x00,Read,ACK
2.029217937500000,0,0x5D,0x00,Read,ACK
2.029239406250000,0,0x5D,0x00,Read,ACK
2.029260875000000,0,0x5D,0x00,Read,ACK
2.029282343750000,0,0x5D,0x00,Read,ACK
2.029303812500000,0,0x5D,0x00,Read,ACK
2.029325312500000,0,0x5D,0x00,Read,ACK
2.029346781250000,0,0x5D,0x00,Read,ACK
2.029368937500000,0,0x5D,0x00,Read,ACK
2.029391531250000,0,0x5D,0x00,Read,ACK
2.029413000000000,0,0x5D,0x00,Read,ACK
2.029435281250000,0,0x5D,0x00,Read,ACK
2.029456781250000,0,0x5D,0x00,Read,ACK
2.029478250000000,0,0x5D,0x00,Read,ACK
2.029499750000000,0,0x5D,0x00,Read,ACK
2.029522031250000,0,0x5D,0x00,Read,ACK
2.029544343750000,0,0x5D,0x00,Read,ACK
2.029566000000000,0,0x5D,0x00,Read,ACK
2.029587500000000,0,0x5D,0x00,Read,ACK
2.029608937500000,0,0x5D,0x00,Read,ACK
2.029630437500000,0,0x5D,0x00,Read,ACK
2.029651937500000,0,0x5D,0x00,Read,ACK
2.029673375000000,0,0x5D,0x00,Read,ACK
2.029694843750000,0,0x5D,0x00,Read,ACK
2.029716343750000,0,0x5D,0x00,Read,ACK
2.029737812500000,0,0x5D,0x00,Read,ACK
2.029759375000000,0,0x5D,0x00,Read,ACK
2.029780875000000,0,0x5D,0x00,Read,ACK
2.029802343750000,0,0x5D,0x00,Read,ACK
2.029823812500000,0,0x5D,0x00,Read,ACK
2.029845281250000,0,0x5D,0x00,Read,ACK
2.029867000000000,0,0x5D,0x00,Read,ACK
2.029888468750000,0,0x5D,0xD0,Read,ACK
2.029909937500000,0,0x5D,0xB4,Read,ACK
2.029931562500000,0,0x5D,0x01,Read,ACK
2.029953031250000,0,0x5D,0x00,Read,ACK
2.029974500000000,0,0x5D,0x00,Read,ACK
2.029995968750000,0,0x5D,0x00,Read,ACK
2.030017437500000,0,0x5D,0x00,Read,ACK
2.030038906250000,0,0x5D,0x00,Read,ACK
2.030060375000000,0,0x5D,0x00,Read,ACK
2.030081875000000,0,0x5D,0x00,Read,ACK
2.030103343750000,0,0x5D,0x00,Read,ACK
2.030124812500000,0,0x5D,0x00,Read,ACK
2.030153281250000,0,0x5D,0x00,Read,ACK
2.030179031250000,0,0x5D,0x00,Read,ACK
2.030202343750000,0,0x5D,0x00,Read,ACK
2.030226125000000,0,0x5D,0x00,Read,ACK
2.030249031250000,0,0x5D,0x00,Read,ACK
2.030270500000000,0,0x5D,0x00,Read,ACK
2.030292218750000,0,0x5D,0x00,Read,ACK
2.030313687500000,0,0x5D,0x00,Read,ACK
2.030336718750000,0,0x5D,0x00,Read,NAK
2.036061281250000,0,0x5D,0x2F,Read,ACK
2.036088281250000,0,0x5D,0x00,Read,ACK
2.036109906250000,0,0x5D,0x04,Read,ACK
2.036131375000000,0,0x5D,0x03,Read,ACK
2.036152843750000,0,0x5D,0xDA,Read,ACK
2.036174343750000,0,0x5D,0x09,Read,ACK
2.036195812500000,0,0x5D,0xCE,Read,ACK
2.036218656250000,0,0x5D,0x03,Read,ACK
2.036240531250000,0,0x5D,0x04,Read,ACK
2.036263437500000,0,0x5D,0x02,Read,ACK
2.036284968750000,0,0x5D,0x20,Read,ACK
2.036306437500000,0,0x5D,0x00,Read,ACK
2.036327906250000,0,0x5D,0x00,Read,ACK
2.036349375000000,0,0x5D,0x00,Read,ACK
2.036370843750000,0,0x5D,0x00,Read,ACK
2.036392312500000,0,0x5D,0x00,Read,ACK
2.036413812500000,0,0x5D,0x00,Read,ACK
2.036435281250000,0,0x5D,0x00,Read,ACK
2.036456750000000,0,0x5D,0x00,Read,ACK
2.036478250000000,0,0x5D,0x00,Read,ACK
2.036499718750000,0,0x5D,0x00,Read,ACK
2.036521593750000,0,0x5D,0x00,Read,ACK
2.036545125000000,0,0x5D,0x00,Read,ACK
2.036566562500000,0,0x5D,0x00,Read,ACK
2.036588875000000,0,0x5D,0x00,Read,ACK
2.036610312500000,0,0x5D,0x00,Read,ACK
2.036631812500000,0,0x5D,0x00,Read,ACK
2.036654312500000,0,0x5D,0x00,Read,ACK
2.036675812500000,0,0x5D,0x00,Read,ACK
2.036697281250000,0,0x5D,0x00,Read,ACK
2.036718750000000,0,0x5D,0x00,Read,ACK
2.036740250000000,0,0x5D,0x00,Read,ACK
2.036761750000000,0,0x5D,0x00,Read,ACK
2.036783250000000,0,0x5D,0x00,Read,ACK
2.036804718750000,0,0x5D,0x00,Read,ACK
2.036826218750000,0,0x5D,0x00,Read,ACK
2.036847656250000,0,0x5D,0x00,Read,ACK
2.036869156250000,0,0x5D,0x00,Read,ACK
2.036890750000000,0,0x5D,0x00,Read,ACK
2.036912218750000,0,0x5D,0x00,Read,ACK
2.036933718750000,0,0x5D,0x00,Read,ACK
2.036955187500000,0,0x5D,0x00,Read,ACK
2.036976656250000,0,0x5D,0x00,Read,ACK
2.036998156250000,0,0x5D,0x16,Read,ACK
2.037019593750000,0,0x5D,0xB5,Read,ACK
2.037041093750000,0,0x5D,0x01,Read,ACK
2.037062562500000,0,0x5D,0x00,Read,ACK
2.037084062500000,0,0x5D,0x00,Read,ACK
2.037105531250000,0,0x5D,0x00,Read,ACK
2.037127000000000,0,0x5D,0x00,Read,ACK
2.037148718750000,0,0x5D,0x00,Read,ACK
2.037171500000000,0,0x5D,0x00,Read,ACK
2.037193250000000,0,0x5D,0x00,Read,ACK
2.037215718750000,0,0x5D,0x00,Read,ACK
2.037238406250000,0,0x5D,0x00,Read,ACK
2.037259906250000,0,0x5D,0x00,Read,ACK
2.037281375000000,0,0x5D,0x00,Read,ACK
2.037302843750000,0,0x5D,0x00,Read,ACK
2.037324343750000,0,0x5D,0x00,Read,ACK
2.037345812500000,0,0x5D,0x00,Read,ACK
2.037367687500000,0,0x5D,0x00,Read,ACK
2.037390343750000,0,0x5D,0x00,Read,ACK
2.037411843750000,0,0x5D,0x00,Read,ACK
2.037433312500000,0,0x5D,0x00,Read,NAK
2.043263375000000,0,0x5D,0x2F,Read,ACK
2.043293125000000,0,0x5D,0x00,Read,ACK
2.043314750000000,0,0x5D,0x04,Read,ACK
2.043336187500000,0,0x5D,0x03,Read,ACK
2.043357687500000,0,0x5D,0xD7,Read,ACK
2.043379156250000,0,0x5D,0x09,Read,ACK
2.043401156250000,0,0x5D,0xB7,Read,ACK
2.043422781250000,0,0x5D,0x03,Read,ACK
2.043445000000000,0,0x5D,0x04,Read,ACK
2.043466468750000,0,0x5D,0x03,Read,ACK
2.043487937500000,0,0x5D,0x20,Read,ACK
2.043509406250000,0,0x5D,0x00,Read,ACK
2.043530875000000,0,0x5D,0x00,Read,ACK
2.043552375000000,0,0x5D,0x00,Read,ACK
2.043573843750000,0,0x5D,0x00,Read,ACK
2.043595312500000,0,0x5D,0x00,Read,ACK
2.043616812500000,0,0x5D,0x00,Read,ACK
2.043638750000000,0,0x5D,0x00,Read,ACK
2.043661781250000,0,0x5D,0x00,Read,ACK
2.043683250000000,0,0x5D,0x00,Read,ACK
2.043704781250000,0,0x5D,0x00,Read,ACK
2.043726281250000,0,0x5D,0x00,Read,ACK
2.043747750000000,0,0x5D,0x00,Read,ACK
2.043769343750000,0,0x5D,0x00,Read,ACK
2.043791718750000,0,0x5D,0x00,Read,ACK
2.043814375000000,0,0x5D,0x00,Read,ACK
2.043835968750000,0,0x5D,0x00,Read,ACK
2.043857406250000,0,0x5D,0x00,Read,ACK
2.043878875000000,0,0x5D,0x00,Read,ACK
2.043900468750000,0,0x5D,0x00,Read,ACK
2.043921937500000,0,0x5D,0x00,Read,ACK
2.043943843750000,0,0x5D,0x00,Read,ACK
2.043965312500000,0,0x5D,0x00,Read,ACK
2.043986750000000,0,0x5D,0x00,Read,ACK
2.044008375000000,0,0x5D,0x00,Read,ACK
2.044029843750000,0,0x5D,0x00,Read,ACK
2.044051312500000,0,0x5D,0x00,Read,ACK
2.044072781250000,0,0x5D,0x00,Read,ACK
2.044094250000000,0,0x5D,0x00,Read,ACK
2.044116437500000,0,0x5D,0x00,Read,ACK
2.044137875000000,0,0x5D,0x00,Read,ACK
2.044159375000000,0,0x5D,0x00,Read,ACK
2.044180843750000,0,0x5D,0x00,Read,ACK
2.044202531250000,0,0x5D,0x5C,Read,ACK
2.044224031250000,0,0x5D,0xB5,Read,ACK
2.044245500000000,0,0x5D,0x01,Read,ACK
2.044267062500000,0,0x5D,0x00,Read,ACK
2.044288562500000,0,0x5D,0x00,Read,ACK
2.044310062500000,0,0x5D,0x00,Read,ACK
2.044332437500000,0,0x5D,0x00,Read,ACK
2.044355500000000,0,0x5D,0x00,Read,ACK
2.044376937500000,0,0x5D,0x00,Read,ACK
2.044400125000000,0,0x5D,0x00,Read,ACK
2.044423593750000,0,0x5D,0x00,Read,ACK
2.044445031250000,0,0x5D,0x00,Read,ACK
2.044466531250000,0,0x5D,0x00,Read,ACK
2.044488000000000,0,0x5D,0x00,Read,ACK
2.044509468750000,0,0x5D,0x00,Read,ACK
2.044531218750000,0,0x5D,0x00,Read,ACK
2.044552812500000,0,0x5D,0x00,Read,ACK
2.044574562500000,0,0x5D,0x00,Read,ACK
2.044596062500000,0,0x5D,0x00,Read,ACK
2.044617812500000,0,0x5D,0x00,Read,ACK
2.044639593750000,0,0x5D,0x00,Read,NAK
2.050514218750000,0,0x5D,0x2F,Read,ACK
2.050542000000000,0,0x5D,0x00,Read,ACK
2.050565718750000,0,0x5D,0x04,Read,ACK
2.050587187500000,0,0x5D,0x03,Read,ACK
2.050608656250000,0,0x5D,0xD7,Read,ACK
2.050630125000000,0,0x5D,0x09,Read,ACK
2.050651593750000,0,0x5D,0xA0,Read,ACK
2.050673062500000,0,0x5D,0x03,Read,ACK
2.050694531250000,0,0x5D,0x04,Read,ACK
2.050716031250000,0,0x5D,0x03,Read,ACK
2.050737500000000,0,0x5D,0x20,Read,ACK
2.050758968750000,0,0x5D,0x00,Read,ACK
2.050781312500000,0,0x5D,0x00,Read,ACK
2.050802781250000,0,0x5D,0x00,Read,ACK
2.050824281250000,0,0x5D,0x00,Read,ACK
2.050845750000000,0,0x5D,0x00,Read,ACK
2.050867218750000,0,0x5D,0x00,Read,ACK
2.050889937500000,0,0x5D,0x00,Read,ACK
2.050911843750000,0,0x5D,0x00,Read,ACK
2.050934531250000,0,0x5D,0x00,Read,ACK
2.050956093750000,0,0x5D,0x00,Read,ACK
2.050977562500000,0,0x5D,0x00,Read,ACK
2.050999031250000,0,0x5D,0x00,Read,ACK
2.051020750000000,0,0x5D,0x00,Read,ACK
2.051042281250000,0,0x5D,0x00,Read,ACK
2.051063718750000,0,0x5D,0x00,Read,ACK
2.051085187500000,0,0x5D,0x00,Read,ACK
2.051106656250000,0,0x5D,0x00,Read,ACK
2.051128156250000,0,0x5D,0x00,Read,ACK
2.051149593750000,0,0x5D,0x00,Read,ACK
2.051171093750000,0,0x5D,0x00,Read,ACK
2.051192562500000,0,0x5D,0x00,Read,ACK
2.051214062500000,0,0x5D,0x00,Read,ACK
2.051235562500000,0,0x5D,0x00,Read,ACK
2.051257031250000,0,0x5D,0x00,Read,ACK
2.051278500000000,0,0x5D,0x00,Read,ACK
2.051300000000000,0,0x5D,0x00,Read,ACK
2.051321843750000,0,0x5D,0x00,Read,ACK
2.051343312500000,0,0x5D,0x00,Read,ACK
2.051364781250000,0,0x5D,0x00,Read,ACK
2.051386250000000,0,0x5D,0x00,Read,ACK
2.051407718750000,0,0x5D,0x00,Read,ACK
2.051429187500000,0,0x5D,0x00,Read,ACK
2.051450656250000,0,0x5D,0xA2,Read,ACK
2.051472125000000,0,0x5D,0xB5,Read,ACK
2.051495406250000,0,0x5D,0x01,Read,ACK
2.051517000000000,0,0x5D,0x00,Read,ACK
2.051538687500000,0,0x5D,0x00,Read,ACK
2.051562187500000,0,0x5D,0x00,Read,ACK
2.051584906250000,0,0x5D,0x00,Read,ACK
2.051606406250000,0,0x5D,0x00,Read,ACK
2.051627875000000,0,0x5D,0x00,Read,ACK
2.051649343750000,0,0x5D,0x00,Read,ACK
2.051670906250000,0,0x5D,0x00,Read,ACK
2.051692656250000,0,0x5D,0x00,Read,ACK
2.051715281250000,0,0x5D,0x00,Read,ACK
2.051736937500000,0,0x5D,0x00,Read,ACK
2.051758843750000,0,0x5D,0x00,Read,ACK
2.051780812500000,0,0x5D,0x00,Read,ACK
2.051802281250000,0,0x5D,0x00,Read,ACK
2.051824718750000,0,0x5D,0x00,Read,ACK
2.051846250000000,0,0x5D,0x00,Read,ACK
2.051869562500000,0,0x5D,0x00,Read,ACK
2.051891031250000,0,0x5D,0x00,Read,NAK
2.057594187500000,0,0x5D,0x2F,Read,ACK
2.057618875000000,0,0x5D,0x00,Read,ACK
2.057640375000000,0,0x5D,0x04,Read,ACK
2.057661812500000,0,0x5D,0x03,Read,ACK
2.057683312500000,0,0x5D,0xDA,Read,ACK
2.057706125000000,0,0x5D,0x09,Read,ACK
2.057728000000000,0,0x5D,0x8A,Read,ACK
2.057749468750000,0,0x5D,0x03,Read,ACK
2.057770937500000,0,0x5D,0x04,Read,ACK
2.057792406250000,0,0x5D,0x03,Read,ACK
2.057813906250000,0,0x5D,0x20,Read,ACK
2.057835343750000,0,0x5D,0x00,Read,ACK
2.057856843750000,0,0x5D,0x00,Read,ACK
2.057878312500000,0,0x5D,0x00,Read,ACK
2.057899812500000,0,0x5D,0x00,Read,ACK
2.057921625000000,0,0x5D,0x00,Read,ACK
2.057944375000000,0,0x5D,0x00,Read,ACK
2.057965843750000,0,0x5D,0x00,Read,ACK
2.057987281250000,0,0x5D,0x00,Read,ACK
2.058008781250000,0,0x5D,0x00,Read,ACK
2.058030250000000,0,0x5D,0x00,Read,ACK
2.058053343750000,0,0x5D,0x00,Read,ACK
2.058074968750000,0,0x5D,0x00,Read,ACK
2.058096468750000,0,0x5D,0x00,Read,ACK
2.058117937500000,0,0x5D,0x00,Read,ACK
2.058139406250000,0,0x5D,0x00,Read,ACK
2.058160906250000,0,0x5D,0x00,Read,ACK
2.058182343750000,0,0x5D,0x00,Read,ACK
2.058204218750000,0,0x5D,0x00,Read,ACK
2.058225687500000,0,0x5D,0x00,Read,ACK
2.058247156250000,0,0x5D,0x00,Read,ACK
2.058268625000000,0,0x5D,0x00,Read,ACK
2.058290093750000,0,0x5D,0x00,Read,ACK
2.058311562500000,0,0x5D,0x00,Read,ACK
2.058333062500000,0,0x5D,0x00,Read,ACK
2.058354500000000,0,0x5D,0x00,Read,ACK
2.058376312500000,0,0x5D,0x00,Read,ACK
2.058397750000000,0,0x5D,0x00,Read,ACK
2.058419250000000,0,0x5D,0x00,Read,ACK
2.058440718750000,0,0x5D,0x00,Read,ACK
2.058462187500000,0,0x5D,0x00,Read,ACK
2.058483812500000,0,0x5D,0x00,Read,ACK
2.058505250000000,0,0x5D,0x00,Read,ACK
2.058527000000000,0,0x5D,0xE8,Read,ACK
2.058548437500000,0,0x5D,0xB5,Read,ACK
2.058569906250000,0,0x5D,0x01,Read,ACK
2.058591406250000,0,0x5D,0x00,Read,ACK
2.058617750000000,0,0x5D,0x00,Read,ACK
2.058640687500000,0,0x5D,0x00,Read,ACK
2.058662187500000,0,0x5D,0x00,Read,ACK
2.058685375000000,0,0x5D,0x00,Read,ACK
2.058707718750000,0,0x5D,0x00,Read,ACK
2.058729156250000,0,0x5D,0x00,Read,ACK
2.058750718750000,0,0x5D,0x00,Read,ACK
2.058772531250000,0,0x5D,0x00,Read,ACK
2.058794000000000,0,0x5D,0x00,Read,ACK
2.058815468750000,0,0x5D,0x00,Read,ACK
2.058837437500000,0,0x5D,0x00,Read,ACK
2.058859750000000,0,0x5D,0x00,Read,ACK
2.058881312500000,0,0x5D,0x00,Read,ACK
2.058903906250000,0,0x5D,0x00,Read,ACK
2.058925406250000,0,0x5D,0x00,Read,ACK
2.058949593750000,0,0x5D,0x00,Read,ACK
2.058971093750000,0,0x5D,0x00,Read,NAK
2.064893656250000,0,0x5D,0x2F,Read,ACK
2.064919843750000,0,0x5D,0x00,Read,ACK
2.064941312500000,0,0x5D,0x04,Read,ACK
2.064962781250000,0,0x5D,0x03,Read,ACK
2.064984250000000,0,0x5D,0xE1,Read,ACK
2.065005718750000,0,0x5D,0x09,Read,ACK
2.065027187500000,0,0x5D,0x75,Read,ACK
2.065048656250000,0,0x5D,0x03,Read,ACK
2.065071781250000,0,0x5D,0x04,Read,ACK
2.065094375000000,0,0x5D,0x03,Read,ACK
2.065115812500000,0,0x5D,0x20,Read,ACK
2.065137281250000,0,0x5D,0x00,Read,ACK
2.065158781250000,0,0x5D,0x00,Read,ACK
2.065180250000000,0,0x5D,0x00,Read,ACK
2.065201718750000,0,0x5D,0x00,Read,ACK
2.065223187500000,0,0x5D,0x00,Read,ACK
2.065244812500000,0,0x5D,0x00,Read,ACK
2.065267468750000,0,0x5D,0x00,Read,ACK
2.065288937500000,0,0x5D,0x00,Read,ACK
2.065310375000000,0,0x5D,0x00,Read,ACK
2.065331843750000,0,0x5D,0x00,Read,ACK
2.065353343750000,0,0x5D,0x00,Read,ACK
2.065374812500000,0,0x5D,0x00,Read,ACK
2.065396281250000,0,0x5D,0x00,Read,ACK
2.065417937500000,0,0x5D,0x00,Read,ACK
2.065439437500000,0,0x5D,0x00,Read,ACK
2.065460875000000,0,0x5D,0x00,Read,ACK
2.065482375000000,0,0x5D,0x00,Read,ACK
2.065503843750000,0,0x5D,0x00,Read,ACK
2.065525312500000,0,0x5D,0x00,Read,ACK
2.065546781250000,0,0x5D,0x00,Read,ACK
2.065568250000000,0,0x5D,0x00,Read,ACK
2.065589750000000,0,0x5D,0x00,Read,ACK
2.065611187500000,0,0x5D,0x00,Read,ACK
2.065632656250000,0,0x5D,0x00,Read,ACK
2.065654125000000,0,0x5D,0x00,Read,ACK
2.065675656250000,0,0x5D,0x00,Read,ACK
2.065697625000000,0,0x5D,0x00,Read,ACK
2.065719062500000,0,0x5D,0x00,Read,ACK
2.065743468750000,0,0x5D,0x00,Read,ACK
2.065771937500000,0,0x5D,0x00,Read,ACK
2.065793750000000,0,0x5D,0x00,Read,ACK
2.065815375000000,0,0x5D,0x00,Read,ACK
2.065837656250000,0,0x5D,0x2E,Read,ACK
2.065859125000000,0,0x5D,0xB6,Read,ACK
2.065880625000000,0,0x5D,0x01,Read,ACK
2.065902062500000,0,0x5D,0x00,Read,ACK
2.065924531250000,0,0x5D,0x00,Read,ACK
2.065947093750000,0,0x5D,0x00,Read,ACK
2.065969593750000,0,0x5D,0x00,Read,ACK
2.065991500000000,0,0x5D,0x00,Read,ACK
2.066012937500000,0,0x5D,0x00,Read,ACK
2.066034406250000,0,0x5D,0x00,Read,ACK
2.066056781250000,0,0x5D,0x00,Read,ACK
2.066079625000000,0,0x5D,0x00,Read,ACK
2.066101312500000,0,0x5D,0x00,Read,ACK
2.066123875000000,0,0x5D,0x00,Read,ACK
2.066145343750000,0,0x5D,0x00,Read,ACK
2.066167781250000,0,0x5D,0x00,Read,ACK
2.066189281250000,0,0x5D,0x00,Read,ACK
2.066211375000000,0,0x5D,0x00,Read,ACK
2.066233343750000,0,0x5D,0x00,Read,ACK
2.066255562500000,0,0x5D,0x00,Read,ACK
2.066277031250000,0,0x5D,0x00,Read,NAK
2.071821312500000,0,0x5D,0x2F,Read,ACK
2.071846218750000,0,0x5D,0x00,Read,ACK
2.071867687500000,0,0x5D,0x04,Read,ACK
2.071889156250000,0,0x5D,0x03,Read,ACK
2.071910656250000,0,0x5D,0xEB,Read,ACK
2.071932125000000,0,0x5D,0x09,Read,ACK
2.071953593750000,0,0x5D,0x63,Read,ACK
2.071975062500000,0,0x5D,0x03,Read,ACK
2.071997468750000,0,0x5D,0x03,Read,ACK
2.072021437500000,0,0x5D,0x03,Read,ACK
2.072042906250000,0,0x5D,0x20,Read,ACK
2.072064406250000,0,0x5D,0x00,Read,ACK
2.072085843750000,0,0x5D,0x00,Read,ACK
2.072107343750000,0,0x5D,0x00,Read,ACK
2.072128812500000,0,0x5D,0x00,Read,ACK
2.072150281250000,0,0x5D,0x00,Read,ACK
2.072171750000000,0,0x5D,0x00,Read,ACK
2.072193250000000,0,0x5D,0x00,Read,ACK
2.072214718750000,0,0x5D,0x00,Read,ACK
2.072236187500000,0,0x5D,0x00,Read,ACK
2.072258750000000,0,0x5D,0x00,Read,ACK
2.072280437500000,0,0x5D,0x00,Read,ACK
2.072301906250000,0,0x5D,0x00,Read,ACK
2.072323375000000,0,0x5D,0x00,Read,ACK
2.072346125000000,0,0x5D,0x00,Read,ACK
2.072367562500000,0,0x5D,0x00,Read,ACK
2.072389031250000,0,0x5D,0x00,Read,ACK
2.072410500000000,0,0x5D,0x00,Read,ACK
2.072432000000000,0,0x5D,0x00,Read,ACK
2.072454687500000,0,0x5D,0x00,Read,ACK
2.072477750000000,0,0x5D,0x00,Read,ACK
2.072499218750000,0,0x5D,0x00,Read,ACK
2.072520718750000,0,0x5D,0x00,Read,ACK
2.072542187500000,0,0x5D,0x00,Read,ACK
2.072563625000000,0,0x5D,0x00,Read,ACK
2.072585093750000,0,0x5D,0x00,Read,ACK
2.072606562500000,0,0x5D,0x00,Read,ACK
2.072628062500000,0,0x5D,0x00,Read,ACK
2.072649531250000,0,0x5D,0x00,Read,ACK
2.072671000000000,0,0x5D,0x00,Read,ACK
2.072692687500000,0,0x5D,0x00,Read,ACK
2.072714187500000,0,0x5D,0x00,Read,ACK
2.072735656250000,0,0x5D,0x00,Read,ACK
2.072757281250000,0,0x5D,0x74,Read,ACK
2.072778750000000,0,0x5D,0xB6,Read,ACK
2.072800218750000,0,0x5D,0x01,Read,ACK
2.072821687500000,0,0x5D,0x00,Read,ACK
2.072843156250000,0,0x5D,0x00,Read,ACK
2.072864625000000,0,0x5D,0x00,Read,ACK
2.072886093750000,0,0x5D,0x00,Read,ACK
2.072907562500000,0,0x5D,0x00,Read,ACK
2.072931093750000,0,0x5D,0x00,Read,ACK
2.072952593750000,0,0x5D,0x00,Read,ACK
2.072974718750000,0,0x5D,0x00,Read,ACK
2.072997750000000,0,0x5D,0x00,Read,ACK
2.073019343750000,0,0x5D,0x00,Read,ACK
2.073040781250000,0,0x5D,0x00,Read,ACK
2.073062406250000,0,0x5D,0x00,Read,ACK
2.073083843750000,0,0x5D,0x00,Read,ACK
2.073106093750000,0,0x5D,0x00,Read,ACK
2.073128687500000,0,0x5D,0x00,Read,ACK
2.073150125000000,0,0x5D,0x00,Read,ACK
2.073171781250000,0,0x5D,0x00,Read,ACK
2.073193281250000,0,0x5D,0x00,Read,NAK
2.078969375000000,0,0x5D,0x2F,Read,ACK
2.078995750000000,0,0x5D,0x00,Read,ACK
2.079018468750000,0,0x5D,0x04,Read,ACK
2.079039968750000,0,0x5D,0x03,Read,ACK
2.079061406250000,0,0x5D,0xF7,Read,ACK
2.079082906250000,0,0x5D,0x09,Read,ACK
2.079104375000000,0,0x5D,0x53,Read,ACK
2.079126343750000,0,0x5D,0x03,Read,ACK
2.079147843750000,0,0x5D,0x03,Read,ACK
2.079178812500000,0,0x5D,0x03,Read,ACK
2.079200250000000,0,0x5D,0x20,Read,ACK
2.079221718750000,0,0x5D,0x00,Read,ACK
2.079243218750000,0,0x5D,0x00,Read,ACK
2.079264687500000,0,0x5D,0x00,Read,ACK
2.079286187500000,0,0x5D,0x00,Read,ACK
2.079307625000000,0,0x5D,0x00,Read,ACK
2.079329093750000,0,0x5D,0x00,Read,ACK
2.079350562500000,0,0x5D,0x00,Read,ACK
2.079372031250000,0,0x5D,0x00,Read,ACK
2.079394281250000,0,0x5D,0x00,Read,ACK
2.079415750000000,0,0x5D,0x00,Read,ACK
2.079437218750000,0,0x5D,0x00,Read,ACK
2.079458718750000,0,0x5D,0x00,Read,ACK
2.079480250000000,0,0x5D,0x00,Read,ACK
2.079502625000000,0,0x5D,0x00,Read,ACK
2.079525343750000,0,0x5D,0x00,Read,ACK
2.079546781250000,0,0x5D,0x00,Read,ACK
2.079568906250000,0,0x5D,0x00,Read,ACK
2.079590343750000,0,0x5D,0x00,Read,ACK
2.079611843750000,0,0x5D,0x00,Read,ACK
2.079633312500000,0,0x5D,0x00,Read,ACK
2.079654750000000,0,0x5D,0x00,Read,ACK
2.079676218750000,0,0x5D,0x00,Read,ACK
2.079697718750000,0,0x5D,0x00,Read,ACK
2.079719187500000,0,0x5D,0x00,Read,ACK
2.079740656250000,0,0x5D,0x00,Read,ACK
2.079762125000000,0,0x5D,0x00,Read,ACK
2.079783593750000,0,0x5D,0x00,Read,ACK
2.079805093750000,0,0x5D,0x00,Read,ACK
2.079826531250000,0,0x5D,0x00,Read,ACK
2.079848031250000,0,0x5D,0x00,Read,ACK
2.079869468750000,0,0x5D,0x00,Read,ACK
2.079890937500000,0,0x5D,0x00,Read,ACK
2.079912437500000,0,0x5D,0xBA,Read,ACK
2.079933906250000,0,0x5D,0xB6,Read,ACK
2.079955375000000,0,0x5D,0x01,Read,ACK
2.079976843750000,0,0x5D,0x00,Read,ACK
2.079998312500000,0,0x5D,0x00,Read,ACK
2.080019937500000,0,0x5D,0x00,Read,ACK
2.080041406250000,0,0x5D,0x00,Read,ACK
2.080062875000000,0,0x5D,0x00,Read,ACK
2.080084437500000,0,0x5D,0x00,Read,ACK
2.080108812500000,0,0x5D,0x00,Read,ACK
2.080130281250000,0,0x5D,0x00,Read,ACK
2.080152125000000,0,0x5D,0x00,Read,ACK
2.080174656250000,0,0x5D,0x00,Read,ACK
2.080196125000000,0,0x5D,0x00,Read,ACK
2.080217625000000,0,0x5D,0x00,Read,ACK
2.080239062500000,0,0x5D,0x00,Read,ACK
2.080261031250000,0,0x5D,0x00,Read,ACK
2.080282937500000,0,0x5D,0x00,Read,ACK
2.080305531250000,0,0x5D,0x00,Read,ACK
2.080327187500000,0,0x5D,0x00,Read,ACK
2.080350218750000,0,0x5D,0x00,Read,NAK
2.086242593750000,0,0x5D,0x2F,Read,ACK
2.086271906250000,0,0x5D,0x00,Read,ACK
2.086296062500000,0,0x5D,0x04,Read,ACK
2.086317531250000,0,0x5D,0x03,Read,ACK
2.086339000000000,0,0x5D,0x05,Read,ACK
2.086360468750000,0,0x5D,0x0A,Read,ACK
2.086381937500000,0,0x5D,0x46,Read,ACK
2.086403406250000,0,0x5D,0x03,Read,ACK
2.086424875000000,0,0x5D,0x03,Read,ACK
2.086446375000000,0,0x5D,0x03,Read,ACK
2.086467843750000,0,0x5D,0x20,Read,ACK
2.086490031250000,0,0x5D,0x00,Read,ACK
2.086511468750000,0,0x5D,0x00,Read,ACK
2.086533281250000,0,0x5D,0x00,Read,ACK
2.086554718750000,0,0x5D,0x00,Read,ACK
2.086576218750000,0,0x5D,0x00,Read,ACK
2.086597687500000,0,0x5D,0x00,Read,ACK
2.086619781250000,0,0x5D,0x00,Read,ACK
2.086641250000000,0,0x5D,0x00,Read,ACK
2.086662718750000,0,0x5D,0x00,Read,ACK
2.086684187500000,0,0x5D,0x00,Read,ACK
2.086705843750000,0,0x5D,0x00,Read,ACK
2.086727312500000,0,0x5D,0x00,Read,ACK
2.086748937500000,0,0x5D,0x00,Read,ACK
2.086770406250000,0,0x5D,0x00,Read,ACK
2.086792000000000,0,0x5D,0x00,Read,ACK
2.086813468750000,0,0x5D,0x00,Read,ACK
2.086834937500000,0,0x5D,0x00,Read,ACK
2.086856406250000,0,0x5D,0x00,Read,ACK
2.086877875000000,0,0x5D,0x00,Read,ACK
2.086899343750000,0,0x5D,0x00,Read,ACK
2.086920812500000,0,0x5D,0x00,Read,ACK
2.086942312500000,0,0x5D,0x00,Read,ACK
2.086963781250000,0,0x5D,0x00,Read,ACK
2.086985281250000,0,0x5D,0x00,Read,ACK
2.087006718750000,0,0x5D,0x00,Read,ACK
2.087028187500000,0,0x5D,0x00,Read,ACK
2.087049656250000,0,0x5D,0x00,Read,ACK
2.087071125000000,0,0x5D,0x00,Read,ACK
2.087092593750000,0,0x5D,0x00,Read,ACK
2.087114093750000,0,0x5D,0x00,Read,ACK
2.087135562500000,0,0x5D,0x00,Read,ACK
2.087157031250000,0,0x5D,0x00,Read,ACK
2.087178500000000,0,0x5D,0x00,Read,ACK
2.087202187500000,0,0x5D,0xB7,Read,ACK
2.087224062500000,0,0x5D,0x01,Read,ACK
2.087249093750000,0,0x5D,0x00,Read,ACK
2.087275406250000,0,0x5D,0x00,Read,ACK
2.087297250000000,0,0x5D,0x00,Read,ACK
2.087319062500000,0,0x5D,0x00,Read,ACK
2.087340750000000,0,0x5D,0x00,Read,ACK
2.087362250000000,0,0x5D,0x00,Read,ACK
2.087383718750000,0,0x5D,0x00,Read,ACK
2.087406406250000,0,0x5D,0x00,Read,ACK
2.087427843750000,0,0x5D,0x00,Read,ACK
2.087449531250000,0,0x5D,0x00,Read,ACK
2.087471062500000,0,0x5D,0x00,Read,ACK
2.087493218750000,0,0x5D,0x00,Read,ACK
2.087514687500000,0,0x5D,0x00,Read,ACK
2.087536156250000,0,0x5D,0x00,Read,ACK
2.087557625000000,0,0x5D,0x00,Read,ACK
2.087579718750000,0,0x5D,0x00,Read,ACK
2.087601281250000,0,0x5D,0x00,Read,ACK
2.087622750000000,0,0x5D,0x00,Read,NAK
2.093336656250000,0,0x5D,0x2F,Read,ACK
2.093364343750000,0,0x5D,0x00,Read,ACK
2.093387437500000,0,0x5D,0x04,Read,ACK
2.093410375000000,0,0x5D,0x03,Read,ACK
2.093435187500000,0,0x5D,0x14,Read,ACK
2.093456968750000,0,0x5D,0x0A,Read,ACK
2.093478437500000,0,0x5D,0x3B,Read,ACK
2.093499937500000,0,0x5D,0x03,Read,ACK
2.093521406250000,0,0x5D,0x03,Read,ACK
2.093542875000000,0,0x5D,0x03,Read,ACK
2.093564343750000,0,0x5D,0x20,Read,ACK
2.093585812500000,0,0x5D,0x00,Read,ACK
2.093607281250000,0,0x5D,0x00,Read,ACK
2.093629875000000,0,0x5D,0x00,Read,ACK
2.093651750000000,0,0x5D,0x00,Read,ACK
2.093673187500000,0,0x5D,0x00,Read,ACK
2.093695531250000,0,0x5D,0x00,Read,ACK
2.093717000000000,0,0x5D,0x00,Read,ACK
2.093738750000000,0,0x5D,0x00,Read,ACK
2.093760406250000,0,0x5D,0x00,Read,ACK
2.093782156250000,0,0x5D,0x00,Read,ACK
2.093803750000000,0,0x5D,0x00,Read,ACK
2.093825250000000,0,0x5D,0x00,Read,ACK
2.093846718750000,0,0x5D,0x00,Read,ACK
2.093868187500000,0,0x5D,0x00,Read,ACK
2.093889656250000,0,0x5D,0x00,Read,ACK
2.093911125000000,0,0x5D,0x00,Read,ACK
2.093932875000000,0,0x5D,0x00,Read,ACK
2.093954312500000,0,0x5D,0x00,Read,ACK
2.093975781250000,0,0x5D,0x00,Read,ACK
2.093997437500000,0,0x5D,0x00,Read,ACK
2.094018937500000,0,0x5D,0x00,Read,ACK
2.094040375000000,0,0x5D,0x00,Read,ACK
2.094061875000000,0,0x5D,0x00,Read,ACK
2.094083656250000,0,0x5D,0x00,Read,ACK
2.094105125000000,0,0x5D,0x00,Read,ACK
2.094126593750000,0,0x5D,0x00,Read,ACK
2.094148062500000,0,0x5D,0x00,Read,ACK
2.094169531250000,0,0x5D,0x00,Read,ACK
2.094191000000000,0,0x5D,0x00,Read,ACK
2.094212468750000,0,0x5D,0x00,Read,ACK
2.094233968750000,0,0x5D,0x00,Read,ACK
2.094255437500000,0,0x5D,0x00,Read,ACK
2.094277062500000,0,0x5D,0x46,Read,ACK
2.094298562500000,0,0x5D,0xB7,Read,ACK
2.094320031250000,0,0x5D,0x01,Read,ACK
2.094341500000000,0,0x5D,0x00,Read,ACK
2.094364531250000,0,0x5D,0x00,Read,ACK
2.094387750000000,0,0x5D,0x00,Read,ACK
2.094410937500000,0,0x5D,0x00,Read,ACK
2.094432625000000,0,0x5D,0x00,Read,ACK
2.094454093750000,0,0x5D,0x00,Read,ACK
2.094476312500000,0,0x5D,0x00,Read,ACK
2.094499250000000,0,0x5D,0x00,Read,ACK
2.094520718750000,0,0x5D,0x00,Read,ACK
2.094542187500000,0,0x5D,0x00,Read,ACK
2.094563687500000,0,0x5D,0x00,Read,ACK
2.094585343750000,0,0x5D,0x00,Read,ACK
2.094606875000000,0,0x5D,0x00,Read,ACK
2.094629531250000,0,0x5D,0x00,Read,ACK
2.094650968750000,0,0x5D,0x00,Read,ACK
2.094672468750000,0,0x5D,0x00,Read,ACK
2.094695062500000,0,0x5D,0x00,Read,ACK
2.094716562500000,0,0x5D,0x00,Read,NAK
2.100761718750000,0,0x5D,0x2F,Read,ACK
2.100786937500000,0,0x5D,0x00,Read,ACK
2.100808406250000,0,0x5D,0x04,Read,ACK
2.100829875000000,0,0x5D,0x03,Read,ACK
2.100851375000000,0,0x5D,0x24,Read,ACK
2.100872812500000,0,0x5D,0x0A,Read,ACK
2.100894406250000,0,0x5D,0x34,Read,ACK
2.100917437500000,0,0x5D,0x03,Read,ACK
2.100938937500000,0,0x5D,0x03,Read,ACK
2.100961500000000,0,0x5D,0x03,Read,ACK
2.100983031250000,0,0x5D,0x20,Read,ACK
2.101004531250000,0,0x5D,0x00,Read,ACK
2.101027156250000,0,0x5D,0x00,Read,ACK
2.101049093750000,0,0x5D,0x00,Read,ACK
2.101070562500000,0,0x5D,0x00,Read,ACK
2.101092031250000,0,0x5D,0x00,Read,ACK
2.101113531250000,0,0x5D,0x00,Read,ACK
2.101134968750000,0,0x5D,0x00,Read,ACK
2.101156437500000,0,0x5D,0x00,Read,ACK
2.101177906250000,0,0x5D,0x00,Read,ACK
2.101200062500000,0,0x5D,0x00,Read,ACK
2.101221531250000,0,0x5D,0x00,Read,ACK
2.101243406250000,0,0x5D,0x00,Read,ACK
2.101264875000000,0,0x5D,0x00,Read,ACK
2.101286343750000,0,0x5D,0x00,Read,ACK
2.101307812500000,0,0x5D,0x00,Read,ACK
2.101329281250000,0,0x5D,0x00,Read,ACK
2.101350812500000,0,0x5D,0x00,Read,ACK
2.101372218750000,0,0x5D,0x00,Read,ACK
2.101393687500000,0,0x5D,0x00,Read,ACK
2.101415187500000,0,0x5D,0x00,Read,ACK
2.101438843750000,0,0x5D,0x00,Read,ACK
2.101460312500000,0,0x5D,0x00,Read,ACK
2.101484156250000,0,0x5D,0x00,Read,ACK
2.101506281250000,0,0x5D,0x00,Read,ACK
2.101527718750000,0,0x5D,0x00,Read,ACK
2.101550187500000,0,0x5D,0x00,Read,ACK
2.101571687500000,0,0x5D,0x00,Read,ACK
2.101593156250000,0,0x5D,0x00,Read,ACK
2.101614625000000,0,0x5D,0x00,Read,ACK
2.101636937500000,0,0x5D,0x00,Read,ACK
2.101659406250000,0,0x5D,0x00,Read,ACK
2.101681000000000,0,0x5D,0x00,Read,ACK
2.101702656250000,0,0x5D,0x8C,Read,ACK
2.101727000000000,0,0x5D,0xB7,Read,ACK
2.101748562500000,0,0x5D,0x01,Read,ACK
2.101770062500000,0,0x5D,0x00,Read,ACK
2.101791500000000,0,0x5D,0x00,Read,ACK
2.101814406250000,0,0x5D,0x00,Read,ACK
2.101835843750000,0,0x5D,0x00,Read,ACK
2.101857312500000,0,0x5D,0x00,Read,ACK
2.101879593750000,0,0x5D,0x00,Read,ACK
2.101901968750000,0,0x5D,0x00,Read,ACK
2.101924000000000,0,0x5D,0x00,Read,ACK
2.101945875000000,0,0x5D,0x00,Read,ACK
2.101967343750000,0,0x5D,0x00,Read,ACK
2.101988812500000,0,0x5D,0x00,Read,ACK
2.102011343750000,0,0x5D,0x00,Read,ACK
2.102032843750000,0,0x5D,0x00,Read,ACK
2.102054937500000,0,0x5D,0x00,Read,ACK
2.102077687500000,0,0x5D,0x00,Read,ACK
2.102100500000000,0,0x5D,0x00,Read,ACK
2.102121968750000,0,0x5D,0x00,Read,ACK
2.102143468750000,0,0x5D,0x00,Read,NAK
2.107759500000000,0,0x5D,0x2F,Read,ACK
2.107784562500000,0,0x5D,0x00,Read,ACK
2.107806031250000,0,0x5D,0x04,Read,ACK
2.107827531250000,0,0x5D,0x03,Read,ACK
2.107848968750000,0,0x5D,0x34,Read,ACK
2.107870468750000,0,0x5D,0x0A,Read,ACK
2.107891937500000,0,0x5D,0x2E,Read,ACK
2.107913406250000,0,0x5D,0x03,Read,ACK
2.107935031250000,0,0x5D,0x03,Read,ACK
2.107958593750000,0,0x5D,0x03,Read,ACK
2.107980062500000,0,0x5D,0x20,Read,ACK
2.108002781250000,0,0x5D,0x00,Read,ACK
2.108024281250000,0,0x5D,0x00,Read,ACK
2.108047281250000,0,0x5D,0x00,Read,ACK
2.108068781250000,0,0x5D,0x00,Read,ACK
2.108090250000000,0,0x5D,0x00,Read,ACK
2.108111718750000,0,0x5D,0x00,Read,ACK
2.108133218750000,0,0x5D,0x00,Read,ACK
2.108154656250000,0,0x5D,0x00,Read,ACK
2.108176125000000,0,0x5D,0x00,Read,ACK
2.108198531250000,0,0x5D,0x00,Read,ACK
2.108220156250000,0,0x5D,0x00,Read,ACK
2.108241625000000,0,0x5D,0x00,Read,ACK
2.108263062500000,0,0x5D,0x00,Read,ACK
2.108284562500000,0,0x5D,0x00,Read,ACK
2.108306031250000,0,0x5D,0x00,Read,ACK
2.108327500000000,0,0x5D,0x00,Read,ACK
2.108349312500000,0,0x5D,0x00,Read,ACK
2.108370750000000,0,0x5D,0x00,Read,ACK
2.108392250000000,0,0x5D,0x00,Read,ACK
2.108413750000000,0,0x5D,0x00,Read,ACK
2.108435218750000,0,0x5D,0x00,Read,ACK
2.108456718750000,0,0x5D,0x00,Read,ACK
2.108478218750000,0,0x5D,0x00,Read,ACK
2.108499656250000,0,0x5D,0x00,Read,ACK
2.108521125000000,0,0x5D,0x00,Read,ACK
2.108542593750000,0,0x5D,0x00,Read,ACK
2.108564218750000,0,0x5D,0x00,Read,ACK
2.108585687500000,0,0x5D,0x00,Read,ACK
2.108607125000000,0,0x5D,0x00,Read,ACK
2.108628593750000,0,0x5D,0x00,Read,ACK
2.108653687500000,0,0x5D,0x00,Read,ACK
2.108675250000000,0,0x5D,0x00,Read,ACK
2.108697906250000,0,0x5D,0xD2,Read,ACK
2.108719500000000,0,0x5D,0xB7,Read,ACK
2.108740968750000,0,0x5D,0x01,Read,ACK
2.108762437500000,0,0x5D,0x00,Read,ACK
2.108784156250000,0,0x5D,0x00,Read,ACK
2.108805625000000,0,0x5D,0x00,Read,ACK
2.108828468750000,0,0x5D,0x00,Read,ACK
2.108850468750000,0,0x5D,0x00,Read,ACK
2.108871968750000,0,0x5D,0x00,Read,ACK
2.108893437500000,0,0x5D,0x00,Read,ACK
2.108914937500000,0,0x5D,0x00,Read,ACK
2.108936437500000,0,0x5D,0x00,Read,ACK
2.108957937500000,0,0x5D,0x00,Read,ACK
2.108980875000000,0,0x5D,0x00,Read,ACK
2.109004093750000,0,0x5D,0x00,Read,ACK
2.109026000000000,0,0x5D,0x00,Read,ACK
2.109047500000000,0,0x5D,0x00,Read,ACK
2.109070437500000,0,0x5D,0x00,Read,ACK
2.109092843750000,0,0x5D,0x00,Read,ACK
2.109115218750000,0,0x5D,0x00,Read,ACK
2.109136750000000,0,0x5D,0x00,Read,NAK
2.114806343750000,0,0x5D,0x2F,Read,ACK
2.114835187500000,0,0x5D,0x00,Read,ACK
2.114856687500000,0,0x5D,0x04,Read,ACK
2.114878156250000,0,0x5D,0x03,Read,ACK
2.114899625000000,0,0x5D,0x43,Read,ACK
2.114921093750000,0,0x5D,0x0A,Read,ACK
2.114942562500000,0,0x5D,0x2B,Read,ACK
2.114964031250000,0,0x5D,0x03,Read,ACK
2.114985500000000,0,0x5D,0x04,Read,ACK
2.115007000000000,0,0x5D,0x03,Read,ACK
2.115028437500000,0,0x5D,0x20,Read,ACK
2.115049906250000,0,0x5D,0x00,Read,ACK
2.115072187500000,0,0x5D,0x00,Read,ACK
2.115093687500000,0,0x5D,0x00,Read,ACK
2.115115156250000,0,0x5D,0x00,Read,ACK
2.115136593750000,0,0x5D,0x00,Read,ACK
2.115158218750000,0,0x5D,0x00,Read,ACK
2.115179656250000,0,0x5D,0x00,Read,ACK
2.115201281250000,0,0x5D,0x00,Read,ACK
2.115223375000000,0,0x5D,0x00,Read,ACK
2.115245031250000,0,0x5D,0x00,Read,ACK
2.115267062500000,0,0x5D,0x00,Read,ACK
2.115288531250000,0,0x5D,0x00,Read,ACK
2.115310125000000,0,0x5D,0x00,Read,ACK
2.115331593750000,0,0x5D,0x00,Read,ACK
2.115353062500000,0,0x5D,0x00,Read,ACK
2.115374531250000,0,0x5D,0x00,Read,ACK
2.115396000000000,0,0x5D,0x00,Read,ACK
2.115417468750000,0,0x5D,0x00,Read,ACK
2.115439281250000,0,0x5D,0x00,Read,ACK
2.115460718750000,0,0x5D,0x00,Read,ACK
2.115482187500000,0,0x5D,0x00,Read,ACK
2.115503656250000,0,0x5D,0x00,Read,ACK
2.115525125000000,0,0x5D,0x00,Read,ACK
2.115546593750000,0,0x5D,0x00,Read,ACK
2.115568093750000,0,0x5D,0x00,Read,ACK
2.115589531250000,0,0x5D,0x00,Read,ACK
2.115611031250000,0,0x5D,0x00,Read,ACK
2.115632468750000,0,0x5D,0x00,Read,ACK
2.115653968750000,0,0x5D,0x00,Read,ACK
2.115675406250000,0,0x5D,0x00,Read,ACK
2.115696875000000,0,0x5D,0x00,Read,ACK
2.115718343750000,0,0x5D,0x00,Read,ACK
2.115740625000000,0,0x5D,0x18,Read,ACK
2.115764125000000,0,0x5D,0xB8,Read,ACK
2.115787218750000,0,0x5D,0x01,Read,ACK
2.115809968750000,0,0x5D,0x00,Read,ACK
2.115831843750000,0,0x5D,0x00,Read,ACK
2.115854062500000,0,0x5D,0x00,Read,ACK
2.115875750000000,0,0x5D,0x00,Read,ACK
2.115897281250000,0,0x5D,0x00,Read,ACK
2.115918718750000,0,0x5D,0x00,Read,ACK
2.115940343750000,0,0x5D,0x00,Read,ACK
2.115962687500000,0,0x5D,0x00,Read,ACK
2.115984187500000,0,0x5D,0x00,Read,ACK
2.116005750000000,0,0x5D,0x00,Read,ACK
2.116027187500000,0,0x5D,0x00,Read,ACK
2.116048843750000,0,0x5D,0x00,Read,ACK
2.116071468750000,0,0x5D,0x00,Read,ACK
2.116094562500000,0,0x5D,0x00,Read,ACK
2.116116218750000,0,0x5D,0x00,Read,ACK
2.116137687500000,0,0x5D,0x00,Read,ACK
2.116159312500000,0,0x5D,0x00,Read,ACK
2.116180750000000,0,0x5D,0x00,Read,NAK
2.121856437500000,0,0x5D,0x2F,Read,ACK
2.121879625000000,0,0x5D,0x00,Read,ACK
2.121901093750000,0,0x5D,0x04,Read,ACK
2.121922562500000,0,0x5D,0x03,Read,ACK
2.121944031250000,0,0x5D,0x50,Read,ACK
2.121966843750000,0,0x5D,0x0A,Read,ACK
2.121989562500000,0,0x5D,0x2B,Read,ACK
2.122014593750000,0,0x5D,0x03,Read,ACK
2.122036093750000,0,0x5D,0x03,Read,ACK
2.122057562500000,0,0x5D,0x03,Read,ACK
2.122079062500000,0,0x5D,0x20,Read,ACK
2.122100531250000,0,0x5D,0x00,Read,ACK
2.122122000000000,0,0x5D,0x00,Read,ACK
2.122143437500000,0,0x5D,0x00,Read,ACK
2.122164937500000,0,0x5D,0x00,Read,ACK
2.122186406250000,0,0x5D,0x00,Read,ACK
2.122207875000000,0,0x5D,0x00,Read,ACK
2.122229343750000,0,0x5D,0x00,Read,ACK
2.122251656250000,0,0x5D,0x00,Read,ACK
2.122274250000000,0,0x5D,0x00,Read,ACK
2.122295718750000,0,0x5D,0x00,Read,ACK
2.122317156250000,0,0x5D,0x00,Read,ACK
2.122338906250000,0,0x5D,0x00,Read,ACK
2.122360343750000,0,0x5D,0x00,Read,ACK
2.122381843750000,0,0x5D,0x00,Read,ACK
2.122404687500000,0,0x5D,0x00,Read,ACK
2.122427187500000,0,0x5D,0x00,Read,ACK
2.122448625000000,0,0x5D,0x00,Read,ACK
2.122470093750000,0,0x5D,0x00,Read,ACK
2.122491562500000,0,0x5D,0x00,Read,ACK
2.122514000000000,0,0x5D,0x00,Read,ACK
2.122535437500000,0,0x5D,0x00,Read,ACK
2.122557312500000,0,0x5D,0x00,Read,ACK
2.122578750000000,0,0x5D,0x00,Read,ACK
2.122600218750000,0,0x5D,0x00,Read,ACK
2.122621875000000,0,0x5D,0x00,Read,ACK
2.122643281250000,0,0x5D,0x00,Read,ACK
2.122664781250000,0,0x5D,0x00,Read,ACK
2.122687156250000,0,0x5D,0x00,Read,ACK
2.122708656250000,0,0x5D,0x00,Read,ACK
2.122730125000000,0,0x5D,0x00,Read,ACK
2.122751593750000,0,0x5D,0x00,Read,ACK
2.122773062500000,0,0x5D,0x00,Read,ACK
2.122794562500000,0,0x5D,0x5E,Read,ACK
2.122816312500000,0,0x5D,0xB8,Read,ACK
2.122837781250000,0,0x5D,0x01,Read,ACK
2.122859281250000,0,0x5D,0x00,Read,ACK
2.122880750000000,0,0x5D,0x00,Read,ACK
2.122902218750000,0,0x5D,0x00,Read,ACK
2.122925437500000,0,0x5D,0x00,Read,ACK
2.122950187500000,0,0x5D,0x00,Read,ACK
2.122973875000000,0,0x5D,0x00,Read,ACK
2.122995343750000,0,0x5D,0x00,Read,ACK
2.123016843750000,0,0x5D,0x00,Read,ACK
2.123038625000000,0,0x5D,0x00,Read,ACK
2.123060062500000,0,0x5D,0x00,Read,ACK
2.123081593750000,0,0x5D,0x00,Read,ACK
2.123103718750000,0,0x5D,0x00,Read,ACK
2.123125218750000,0,0x5D,0x00,Read,ACK
2.123148218750000,0,0x5D,0x00,Read,ACK
2.123170031250000,0,0x5D,0x00,Read,ACK
2.123192000000000,0,0x5D,0x00,Read,ACK
2.123213500000000,0,0x5D,0x00,Read,ACK
2.123234968750000,0,0x5D,0x00,Read,NAK
2.128998593750000,0,0x5D,0x2F,Read,ACK
2.129024781250000,0,0x5D,0x00,Read,ACK
2.129046218750000,0,0x5D,0x04,Read,ACK
2.129067718750000,0,0x5D,0x03,Read,ACK
2.129089468750000,0,0x5D,0x5B,Read,ACK
2.129111437500000,0,0x5D,0x0A,Read,ACK
2.129136437500000,0,0x5D,0x2C,Read,ACK
2.129157906250000,0,0x5D,0x03,Read,ACK
2.129179375000000,0,0x5D,0x02,Read,ACK
2.129200843750000,0,0x5D,0x03,Read,ACK
2.129222312500000,0,0x5D,0x20,Read,ACK
2.129243781250000,0,0x5D,0x00,Read,ACK
2.129265250000000,0,0x5D,0x00,Read,ACK
2.129286750000000,0,0x5D,0x00,Read,ACK
2.129308187500000,0,0x5D,0x00,Read,ACK
2.129329687500000,0,0x5D,0x00,Read,ACK
2.129351156250000,0,0x5D,0x00,Read,ACK
2.129372718750000,0,0x5D,0x00,Read,ACK
2.129395093750000,0,0x5D,0x00,Read,ACK
2.129417031250000,0,0x5D,0x00,Read,ACK
2.129438531250000,0,0x5D,0x00,Read,ACK
2.129460000000000,0,0x5D,0x00,Read,ACK
2.129481468750000,0,0x5D,0x00,Read,ACK
2.129504187500000,0,0x5D,0x00,Read,ACK
2.129525656250000,0,0x5D,0x00,Read,ACK
2.129547125000000,0,0x5D,0x00,Read,ACK
2.129568593750000,0,0x5D,0x00,Read,ACK
2.129590093750000,0,0x5D,0x00,Read,ACK
2.129611531250000,0,0x5D,0x00,Read,ACK
2.129634000000000,0,0x5D,0x00,Read,ACK
2.129655468750000,0,0x5D,0x00,Read,ACK
2.129676937500000,0,0x5D,0x00,Read,ACK
2.129698406250000,0,0x5D,0x00,Read,ACK
2.129719906250000,0,0x5D,0x00,Read,ACK
2.129741343750000,0,0x5D,0x00,Read,ACK
2.129762843750000,0,0x5D,0x00,Read,ACK
2.129784781250000,0,0x5D,0x00,Read,ACK
2.129806281250000,0,0x5D,0x00,Read,ACK
2.129827750000000,0,0x5D,0x00,Read,ACK
2.129849437500000,0,0x5D,0x00,Read,ACK
2.129870875000000,0,0x5D,0x00,Read,ACK
2.129892375000000,0,0x5D,0x00,Read,ACK
2.129913875000000,0,0x5D,0x00,Read,ACK
2.129935343750000,0,0x5D,0xA4,Read,ACK
2.129956812500000,0,0x5D,0xB8,Read,ACK
2.129978281250000,0,0x5D,0x01,Read,ACK
2.129999750000000,0,0x5D,0x00,Read,ACK
2.130021218750000,0,0x5D,0x00,Read,ACK
2.130042687500000,0,0x5D,0x00,Read,ACK
2.130067687500000,0,0x5D,0x00,Read,ACK
2.130089937500000,0,0x5D,0x00,Read,ACK
2.130111437500000,0,0x5D,0x00,Read,ACK
2.130134468750000,0,0x5D,0x00,Read,ACK
2.130156312500000,0,0x5D,0x00,Read,ACK
2.130177781250000,0,0x5D,0x00,Read,ACK
2.130199250000000,0,0x5D,0x00,Read,ACK
2.130221906250000,0,0x5D,0x00,Read,ACK
2.130243375000000,0,0x5D,0x00,Read,ACK
2.130265656250000,0,0x5D,0x00,Read,ACK
2.130287343750000,0,0x5D,0x00,Read,ACK
2.130309937500000,0,0x5D,0x00,Read,ACK
2.130332687500000,0,0x5D,0x00,Read,ACK
2.130354343750000,0,0x5D,0x00,Read,ACK
2.130375812500000,0,0x5D,0x00,Read,NAK
2.136290062500000,0,0x5D,0x2F,Read,ACK
2.136314593750000,0,0x5D,0x00,Read,ACK
2.136336093750000,0,0x5D,0x04,Read,ACK
2.136357531250000,0,0x5D,0x03,Read,ACK
2.136379031250000,0,0x5D,0x65,Read,ACK
2.136400468750000,0,0x5D,0x0A,Read,ACK
2.136421937500000,0,0x5D,0x30,Read,ACK
2.136443437500000,0,0x5D,0x03,Read,ACK
2.136464906250000,0,0x5D,0x02,Read,ACK
2.136486468750000,0,0x5D,0x02,Read,ACK
2.136508125000000,0,0x5D,0x20,Read,ACK
2.136531031250000,0,0x5D,0x00,Read,ACK
2.136552562500000,0,0x5D,0x00,Read,ACK
2.136574000000000,0,0x5D,0x00,Read,ACK
2.136595468750000,0,0x5D,0x00,Read,ACK
2.136617750000000,0,0x5D,0x00,Read,ACK
2.136639218750000,0,0x5D,0x00,Read,ACK
2.136660687500000,0,0x5D,0x00,Read,ACK
2.136682250000000,0,0x5D,0x00,Read,ACK
2.136703750000000,0,0x5D,0x00,Read,ACK
2.136725218750000,0,0x5D,0x00,Read,ACK
2.136746687500000,0,0x5D,0x00,Read,ACK
2.136768187500000,0,0x5D,0x00,Read,ACK
2.136789625000000,0,0x5D,0x00,Read,ACK
2.136811125000000,0,0x5D,0x00,Read,ACK
2.136832593750000,0,0x5D,0x00,Read,ACK
2.136854062500000,0,0x5D,0x00,Read,ACK
2.136875500000000,0,0x5D,0x00,Read,ACK
2.136897000000000,0,0x5D,0x00,Read,ACK
2.136918468750000,0,0x5D,0x00,Read,ACK
2.136939937500000,0,0x5D,0x00,Read,ACK
2.136961406250000,0,0x5D,0x00,Read,ACK
2.136982875000000,0,0x5D,0x00,Read,ACK
2.137004375000000,0,0x5D,0x00,Read,ACK
2.137025875000000,0,0x5D,0x00,Read,ACK
2.137049093750000,0,0x5D,0x00,Read,ACK
2.137070562500000,0,0x5D,0x00,Read,ACK
2.137092031250000,0,0x5D,0x00,Read,ACK
2.137113531250000,0,0x5D,0x00,Read,ACK
2.137134968750000,0,0x5D,0x00,Read,ACK
2.137156437500000,0,0x5D,0x00,Read,ACK
2.137177906250000,0,0x5D,0x00,Read,ACK
2.137199375000000,0,0x5D,0x00,Read,ACK
2.137220843750000,0,0x5D,0xEA,Read,ACK
2.137242312500000,0,0x5D,0xB8,Read,ACK
2.137263812500000,0,0x5D,0x01,Read,ACK
2.137285250000000,0,0x5D,0x00,Read,ACK
2.137306750000000,0,0x5D,0x00,Read,ACK
2.137328468750000,0,0x5D,0x00,Read,ACK
2.137350062500000,0,0x5D,0x00,Read,ACK
2.137372375000000,0,0x5D,0x00,Read,ACK
2.137394593750000,0,0x5D,0x00,Read,ACK
2.137416218750000,0,0x5D,0x00,Read,ACK
2.137437812500000,0,0x5D,0x00,Read,ACK
2.137459281250000,0,0x5D,0x00,Read,ACK
2.137480937500000,0,0x5D,0x00,Read,ACK
2.137503468750000,0,0x5D,0x00,Read,ACK
2.137524937500000,0,0x5D,0x00,Read,ACK
2.137546406250000,0,0x5D,0x00,Read,ACK
2.137567906250000,0,0x5D,0x00,Read,ACK
2.137589812500000,0,0x5D,0x00,Read,ACK
2.137612031250000,0,0x5D,0x00,Read,ACK
2.137633937500000,0,0x5D,0x00,Read,ACK
2.137655500000000,0,0x5D,0x00,Read,NAK
2.143283000000000,0,0x5D,0x2F,Read,ACK
2.143307687500000,0,0x5D,0x00,Read,ACK
2.143329156250000,0,0x5D,0x04,Read,ACK
2.143350656250000,0,0x5D,0x01,Read,ACK
2.143372125000000,0,0x5D,0x65,Read,ACK
2.143393562500000,0,0x5D,0x0A,Read,ACK
2.143415062500000,0,0x5D,0x30,Read,ACK
2.143436531250000,0,0x5D,0x03,Read,ACK
2.143458000000000,0,0x5D,0x01,Read,ACK
2.143479468750000,0,0x5D,0x01,Read,ACK
2.143500968750000,0,0x5D,0x20,Read,ACK
2.143522406250000,0,0x5D,0x00,Read,ACK
2.143543875000000,0,0x5D,0x00,Read,ACK
2.143565375000000,0,0x5D,0x00,Read,ACK
2.143586843750000,0,0x5D,0x00,Read,ACK
2.143608312500000,0,0x5D,0x00,Read,ACK
2.143629750000000,0,0x5D,0x00,Read,ACK
2.143652593750000,0,0x5D,0x00,Read,ACK
2.143674093750000,0,0x5D,0x00,Read,ACK
2.143696031250000,0,0x5D,0x00,Read,ACK
2.143717500000000,0,0x5D,0x00,Read,ACK
2.143739000000000,0,0x5D,0x00,Read,ACK
2.143760468750000,0,0x5D,0x00,Read,ACK
2.143782406250000,0,0x5D,0x00,Read,ACK
2.143803843750000,0,0x5D,0x00,Read,ACK
2.143825343750000,0,0x5D,0x00,Read,ACK
2.143846781250000,0,0x5D,0x00,Read,ACK
2.143868250000000,0,0x5D,0x00,Read,ACK
2.143889750000000,0,0x5D,0x00,Read,ACK
2.143911187500000,0,0x5D,0x00,Read,ACK
2.143932687500000,0,0x5D,0x00,Read,ACK
2.143954125000000,0,0x5D,0x00,Read,ACK
2.143975593750000,0,0x5D,0x00,Read,ACK
2.143997062500000,0,0x5D,0x00,Read,ACK
2.144018531250000,0,0x5D,0x00,Read,ACK
2.144040031250000,0,0x5D,0x00,Read,ACK
2.144061468750000,0,0x5D,0x00,Read,ACK
2.144082968750000,0,0x5D,0x00,Read,ACK
2.144104593750000,0,0x5D,0x00,Read,ACK
2.144126093750000,0,0x5D,0x00,Read,ACK
2.144148500000000,0,0x5D,0x00,Read,ACK
2.144170000000000,0,0x5D,0x00,Read,ACK
2.144191406250000,0,0x5D,0x00,Read,ACK
2.144212906250000,0,0x5D,0x30,Read,ACK
2.144234375000000,0,0x5D,0xB9,Read,ACK
2.144256062500000,0,0x5D,0x01,Read,ACK
2.144277687500000,0,0x5D,0x00,Read,ACK
2.144299156250000,0,0x5D,0x00,Read,ACK
2.144320625000000,0,0x5D,0x00,Read,ACK
2.144342093750000,0,0x5D,0x00,Read,ACK
2.144363562500000,0,0x5D,0x00,Read,ACK
2.144385031250000,0,0x5D,0x00,Read,ACK
2.144408031250000,0,0x5D,0x00,Read,ACK
2.144429500000000,0,0x5D,0x00,Read,ACK
2.144451812500000,0,0x5D,0x00,Read,ACK
2.144475093750000,0,0x5D,0x00,Read,ACK
2.144496531250000,0,0x5D,0x00,Read,ACK
2.144518000000000,0,0x5D,0x00,Read,ACK
2.144539906250000,0,0x5D,0x00,Read,ACK
2.144561375000000,0,0x5D,0x00,Read,ACK
2.144584687500000,0,0x5D,0x00,Read,ACK
2.144606281250000,0,0x5D,0x00,Read,ACK
2.144627781250000,0,0x5D,0x00,Read,ACK
2.144650562500000,0,0x5D,0x00,Read,NAK
